!Agilent Technologies,E5061B,MY49101568,A.02.00
!Date: Wed Mar 01 15:53:55 2023
!Data & Calibration Information:
!Freq	S11:SOLT2(OFF)	S21:SOLT2(OFF)	S12:SOLT2(OFF)	S22:SOLT2(OFF)
# Hz S dB R 50
1800000.000	-1.521736e+001	1.404774e+000	-1.276741e+001	1.731252e+002	-1.275046e+001	1.732041e+002	-1.666718e+001	4.586801e+001
1824436.742	-1.519284e+001	9.058102e-001	-1.271915e+001	1.669908e+002	-1.269950e+001	1.671111e+002	-1.647252e+001	4.576129e+001
1848873.484	-1.513873e+001	1.483389e-002	-1.267768e+001	1.610737e+002	-1.265054e+001	1.612319e+002	-1.627830e+001	4.507253e+001
1873310.225	-1.503321e+001	-1.253451e+000	-1.266028e+001	1.552959e+002	-1.265912e+001	1.554341e+002	-1.601376e+001	4.354836e+001
1897746.967	-1.490683e+001	-2.825110e+000	-1.264486e+001	1.496465e+002	-1.262613e+001	1.496954e+002	-1.578987e+001	4.191401e+001
1922183.709	-1.474665e+001	-4.742805e+000	-1.264283e+001	1.439955e+002	-1.261501e+001	1.441686e+002	-1.558178e+001	3.958363e+001
1946620.451	-1.461705e+001	-6.952395e+000	-1.261944e+001	1.385495e+002	-1.260380e+001	1.385272e+002	-1.535545e+001	3.705430e+001
1971057.192	-1.444657e+001	-9.733191e+000	-1.264301e+001	1.331347e+002	-1.263045e+001	1.332143e+002	-1.517007e+001	3.376550e+001
1995493.934	-1.432077e+001	-1.277900e+001	-1.265185e+001	1.279251e+002	-1.264250e+001	1.280221e+002	-1.502775e+001	3.032864e+001
2019930.676	-1.422113e+001	-1.623609e+001	-1.267682e+001	1.229695e+002	-1.264310e+001	1.231718e+002	-1.495132e+001	2.655648e+001
2044367.418	-1.420354e+001	-1.955280e+001	-1.263036e+001	1.182892e+002	-1.261261e+001	1.184271e+002	-1.492050e+001	2.273005e+001
2068804.159	-1.417480e+001	-2.265367e+001	-1.254553e+001	1.134180e+002	-1.254644e+001	1.134743e+002	-1.488022e+001	1.910253e+001
2093240.901	-1.408899e+001	-2.597188e+001	-1.248271e+001	1.083516e+002	-1.247799e+001	1.084173e+002	-1.483327e+001	1.540096e+001
2117677.643	-1.404572e+001	-2.955110e+001	-1.241677e+001	1.033999e+002	-1.243304e+001	1.034829e+002	-1.479784e+001	1.125925e+001
2142114.385	-1.401104e+001	-3.344632e+001	-1.236193e+001	9.850183e+001	-1.237993e+001	9.857378e+001	-1.478094e+001	6.923010e+000
2166551.127	-1.399566e+001	-3.750413e+001	-1.230137e+001	9.360234e+001	-1.231610e+001	9.370062e+001	-1.478384e+001	2.410621e+000
2190987.868	-1.399815e+001	-4.188469e+001	-1.224842e+001	8.875900e+001	-1.225917e+001	8.892327e+001	-1.481442e+001	-2.404784e+000
2215424.610	-1.406888e+001	-4.632270e+001	-1.217162e+001	8.404627e+001	-1.218840e+001	8.424449e+001	-1.487961e+001	-7.419847e+000
2239861.352	-1.418379e+001	-5.076401e+001	-1.206811e+001	7.940324e+001	-1.208426e+001	7.961069e+001	-1.499373e+001	-1.249164e+001
2264298.094	-1.431463e+001	-5.524326e+001	-1.194603e+001	7.468169e+001	-1.195702e+001	7.491310e+001	-1.513148e+001	-1.762838e+001
2288734.835	-1.446462e+001	-5.965487e+001	-1.180549e+001	6.981507e+001	-1.182200e+001	7.007343e+001	-1.527232e+001	-2.288862e+001
2313171.577	-1.463766e+001	-6.423421e+001	-1.166370e+001	6.489840e+001	-1.168410e+001	6.510629e+001	-1.542212e+001	-2.833406e+001
2337608.319	-1.482986e+001	-6.903466e+001	-1.152591e+001	5.984735e+001	-1.154388e+001	6.009830e+001	-1.559454e+001	-3.400150e+001
2362045.061	-1.507321e+001	-7.396843e+001	-1.138506e+001	5.481773e+001	-1.140521e+001	5.505491e+001	-1.579047e+001	-3.993458e+001
2386481.802	-1.537029e+001	-7.901688e+001	-1.123683e+001	4.970712e+001	-1.125743e+001	4.996415e+001	-1.602277e+001	-4.614078e+001
2410918.544	-1.571559e+001	-8.414867e+001	-1.108516e+001	4.450996e+001	-1.110745e+001	4.475110e+001	-1.627603e+001	-5.258333e+001
2435355.286	-1.611269e+001	-8.937340e+001	-1.093397e+001	3.918216e+001	-1.095065e+001	3.944815e+001	-1.656861e+001	-5.923289e+001
2459792.028	-1.656327e+001	-9.467475e+001	-1.078261e+001	3.373063e+001	-1.079832e+001	3.406319e+001	-1.689081e+001	-6.619918e+001
2484228.769	-1.707592e+001	-1.001311e+002	-1.064069e+001	2.813464e+001	-1.065550e+001	2.850924e+001	-1.722928e+001	-7.344565e+001
2508665.511	-1.767772e+001	-1.057606e+002	-1.051175e+001	2.248129e+001	-1.051718e+001	2.287320e+001	-1.760833e+001	-8.100293e+001
2533102.253	-1.837489e+001	-1.114792e+002	-1.039085e+001	1.677493e+001	-1.039705e+001	1.711009e+001	-1.800831e+001	-8.888356e+001
2557538.995	-1.917339e+001	-1.174729e+002	-1.028992e+001	1.094615e+001	-1.029524e+001	1.130457e+001	-1.843390e+001	-9.719895e+001
2581975.737	-2.012879e+001	-1.237242e+002	-1.020882e+001	5.061098e+000	-1.020929e+001	5.421752e+000	-1.888013e+001	-1.059125e+002
2606412.478	-2.126590e+001	-1.302272e+002	-1.014520e+001	-8.594850e-001	-1.014232e+001	-4.763784e-001	-1.935268e+001	-1.151159e+002
2630849.220	-2.266975e+001	-1.370609e+002	-1.010338e+001	-6.742687e+000	-1.009346e+001	-6.383315e+000	-1.983484e+001	-1.247421e+002
2655285.962	-2.436081e+001	-1.441253e+002	-1.007335e+001	-1.266996e+001	-1.006190e+001	-1.234034e+001	-2.032622e+001	-1.347729e+002
2679722.704	-2.648115e+001	-1.520729e+002	-1.006722e+001	-1.860626e+001	-1.005299e+001	-1.828819e+001	-2.081283e+001	-1.451328e+002
2704159.445	-2.931906e+001	-1.619417e+002	-1.008145e+001	-2.450235e+001	-1.007525e+001	-2.418325e+001	-2.120373e+001	-1.558637e+002
2728596.187	-3.342628e+001	-1.771684e+002	-1.012142e+001	-3.031778e+001	-1.010485e+001	-3.001796e+001	-2.159730e+001	-1.670003e+002
2753032.929	-3.973104e+001	1.452154e+002	-1.017474e+001	-3.602130e+001	-1.015697e+001	-3.571848e+001	-2.189330e+001	-1.785096e+002
2777469.671	-3.898183e+001	6.119147e+001	-1.023414e+001	-4.157833e+001	-1.021310e+001	-4.132746e+001	-2.216321e+001	1.697142e+002
2801906.412	-3.317346e+001	2.919290e+001	-1.029124e+001	-4.708194e+001	-1.027070e+001	-4.684962e+001	-2.239534e+001	1.579610e+002
2826343.154	-2.957786e+001	1.571054e+001	-1.035532e+001	-5.261445e+001	-1.033488e+001	-5.237778e+001	-2.259264e+001	1.466848e+002
2850779.896	-2.710161e+001	6.491132e+000	-1.042419e+001	-5.805050e+001	-1.041261e+001	-5.788247e+001	-2.274431e+001	1.360410e+002
2875216.638	-2.525944e+001	-2.733399e-001	-1.051636e+001	-6.349896e+001	-1.050038e+001	-6.327829e+001	-2.282773e+001	1.259661e+002
2899653.380	-2.381462e+001	-6.555302e+000	-1.060980e+001	-6.876967e+001	-1.059651e+001	-6.858733e+001	-2.286500e+001	1.164449e+002
2924090.121	-2.266240e+001	-1.206418e+001	-1.071374e+001	-7.401235e+001	-1.070233e+001	-7.378217e+001	-2.285447e+001	1.074917e+002
2948526.863	-2.168316e+001	-1.732315e+001	-1.082294e+001	-7.908455e+001	-1.081207e+001	-7.890814e+001	-2.284128e+001	9.922857e+001
2972963.605	-2.084523e+001	-2.236761e+001	-1.093137e+001	-8.403643e+001	-1.092211e+001	-8.387104e+001	-2.278194e+001	9.128139e+001
2997400.347	-2.014082e+001	-2.723019e+001	-1.103524e+001	-8.890114e+001	-1.102768e+001	-8.873967e+001	-2.273437e+001	8.371704e+001
3021837.088	-1.953290e+001	-3.196713e+001	-1.113399e+001	-9.366007e+001	-1.112823e+001	-9.350666e+001	-2.268869e+001	7.649816e+001
3046273.830	-1.901087e+001	-3.666712e+001	-1.121989e+001	-9.833234e+001	-1.121841e+001	-9.820063e+001	-2.267674e+001	6.953835e+001
3070710.572	-1.857542e+001	-4.124803e+001	-1.129442e+001	-1.029647e+002	-1.129761e+001	-1.028217e+002	-2.269394e+001	6.275785e+001
3095147.314	-1.819329e+001	-4.570622e+001	-1.136153e+001	-1.075329e+002	-1.136468e+001	-1.074205e+002	-2.276343e+001	5.626934e+001
3119584.055	-1.789492e+001	-5.013193e+001	-1.140828e+001	-1.121436e+002	-1.141555e+001	-1.119650e+002	-2.288369e+001	4.983841e+001
3144020.797	-1.764568e+001	-5.443563e+001	-1.144817e+001	-1.166754e+002	-1.145925e+001	-1.165802e+002	-2.309485e+001	4.384061e+001
3168457.539	-1.746244e+001	-5.858786e+001	-1.148010e+001	-1.213387e+002	-1.149190e+001	-1.212196e+002	-2.340143e+001	3.812624e+001
3192894.281	-1.732756e+001	-6.255334e+001	-1.150773e+001	-1.260176e+002	-1.152210e+001	-1.259323e+002	-2.379929e+001	3.289845e+001
3217331.023	-1.724682e+001	-6.629798e+001	-1.153654e+001	-1.307686e+002	-1.155251e+001	-1.306711e+002	-2.427733e+001	2.833436e+001
3241767.764	-1.719988e+001	-6.979508e+001	-1.157137e+001	-1.355799e+002	-1.159005e+001	-1.354418e+002	-2.482021e+001	2.455888e+001
3266204.506	-1.717067e+001	-7.304492e+001	-1.161377e+001	-1.403395e+002	-1.163280e+001	-1.401978e+002	-2.540800e+001	2.150934e+001
3290641.248	-1.716167e+001	-7.615495e+001	-1.165424e+001	-1.450444e+002	-1.167415e+001	-1.448870e+002	-2.599461e+001	1.911198e+001
3315077.990	-1.718285e+001	-7.923941e+001	-1.167620e+001	-1.497507e+002	-1.169761e+001	-1.495978e+002	-2.671709e+001	1.676169e+001
3339514.731	-1.726154e+001	-8.212651e+001	-1.169145e+001	-1.545857e+002	-1.171315e+001	-1.544113e+002	-2.765415e+001	1.566233e+001
3363951.473	-1.737682e+001	-8.462539e+001	-1.171746e+001	-1.595172e+002	-1.173900e+001	-1.593490e+002	-2.872379e+001	1.697747e+001
3388388.215	-1.751735e+001	-8.672296e+001	-1.175310e+001	-1.645342e+002	-1.177396e+001	-1.643642e+002	-2.980478e+001	2.143820e+001
3412824.957	-1.767046e+001	-8.838720e+001	-1.180231e+001	-1.695966e+002	-1.182355e+001	-1.694141e+002	-3.062457e+001	2.949568e+001
3437261.698	-1.781973e+001	-8.958883e+001	-1.186479e+001	-1.746792e+002	-1.189046e+001	-1.744973e+002	-3.080831e+001	4.062580e+001
3461698.440	-1.794644e+001	-9.030686e+001	-1.194856e+001	-1.797710e+002	-1.197061e+001	-1.795851e+002	-3.020757e+001	5.152501e+001
3486135.182	-1.803403e+001	-9.059535e+001	-1.204469e+001	1.751349e+002	-1.206968e+001	1.753370e+002	-2.898634e+001	5.957095e+001
3510571.924	-1.805688e+001	-9.054925e+001	-1.216617e+001	1.701355e+002	-1.218990e+001	1.703087e+002	-2.753374e+001	6.395175e+001
3535008.666	-1.800754e+001	-9.027576e+001	-1.230309e+001	1.651892e+002	-1.232754e+001	1.653734e+002	-2.609746e+001	6.519588e+001
3559445.407	-1.788112e+001	-9.002362e+001	-1.244978e+001	1.603826e+002	-1.247755e+001	1.605545e+002	-2.480766e+001	6.447258e+001
3583882.149	-1.769885e+001	-8.985567e+001	-1.259742e+001	1.557024e+002	-1.263033e+001	1.558658e+002	-2.369405e+001	6.252363e+001
3608318.891	-1.746706e+001	-8.984683e+001	-1.274857e+001	1.510927e+002	-1.277999e+001	1.512769e+002	-2.272482e+001	5.999401e+001
3632755.633	-1.719469e+001	-8.998952e+001	-1.289817e+001	1.465047e+002	-1.292950e+001	1.467320e+002	-2.185768e+001	5.709319e+001
3657192.374	-1.689087e+001	-9.027949e+001	-1.304573e+001	1.419629e+002	-1.308115e+001	1.422250e+002	-2.106798e+001	5.397153e+001
3681629.116	-1.655128e+001	-9.077455e+001	-1.319672e+001	1.374673e+002	-1.323332e+001	1.377284e+002	-2.034456e+001	5.067368e+001
3706065.858	-1.617665e+001	-9.146854e+001	-1.335923e+001	1.329718e+002	-1.339665e+001	1.332315e+002	-1.965580e+001	4.718741e+001
3730502.600	-1.576747e+001	-9.241796e+001	-1.354050e+001	1.284883e+002	-1.357960e+001	1.287614e+002	-1.900524e+001	4.340980e+001
3754939.341	-1.533266e+001	-9.374584e+001	-1.374421e+001	1.241213e+002	-1.378516e+001	1.243837e+002	-1.839512e+001	3.935703e+001
3779376.083	-1.488648e+001	-9.547278e+001	-1.397043e+001	1.199003e+002	-1.401506e+001	1.201908e+002	-1.784306e+001	3.497183e+001
3803812.825	-1.445848e+001	-9.765396e+001	-1.420631e+001	1.159693e+002	-1.425402e+001	1.162393e+002	-1.736282e+001	3.041263e+001
3828249.567	-1.404949e+001	-1.001882e+002	-1.444774e+001	1.122849e+002	-1.449992e+001	1.125421e+002	-1.694442e+001	2.574804e+001
3852686.308	-1.367387e+001	-1.029640e+002	-1.468406e+001	1.088162e+002	-1.474269e+001	1.090930e+002	-1.658618e+001	2.105967e+001
3877123.050	-1.332439e+001	-1.059311e+002	-1.492135e+001	1.055545e+002	-1.498116e+001	1.058960e+002	-1.627746e+001	1.635063e+001
3901559.792	-1.300433e+001	-1.091739e+002	-1.515400e+001	1.026671e+002	-1.521338e+001	1.030646e+002	-1.601835e+001	1.153558e+001
3925996.534	-1.273103e+001	-1.127076e+002	-1.536472e+001	1.002615e+002	-1.542752e+001	1.006492e+002	-1.581537e+001	6.601126e+000
3950433.276	-1.252582e+001	-1.163919e+002	-1.550534e+001	9.828586e+001	-1.556990e+001	9.874605e+001	-1.571067e+001	1.697491e+000
3974870.017	-1.239292e+001	-1.201198e+002	-1.555602e+001	9.656067e+001	-1.561887e+001	9.701206e+001	-1.568359e+001	-2.966551e+000
3999306.759	-1.232603e+001	-1.237223e+002	-1.550322e+001	9.482383e+001	-1.556897e+001	9.525915e+001	-1.572556e+001	-7.297368e+000
4023743.501	-1.232323e+001	-1.270501e+002	-1.535339e+001	9.278829e+001	-1.542064e+001	9.326878e+001	-1.582938e+001	-1.112470e+001
4048180.243	-1.236213e+001	-1.299851e+002	-1.513653e+001	9.026075e+001	-1.520955e+001	9.078867e+001	-1.596623e+001	-1.439637e+001
4072616.984	-1.242236e+001	-1.325022e+002	-1.488561e+001	8.720466e+001	-1.496035e+001	8.776112e+001	-1.610354e+001	-1.700507e+001
4097053.726	-1.247378e+001	-1.345799e+002	-1.464051e+001	8.362125e+001	-1.471405e+001	8.425767e+001	-1.621461e+001	-1.911889e+001
4121490.468	-1.249416e+001	-1.363484e+002	-1.442069e+001	7.966243e+001	-1.448786e+001	8.030103e+001	-1.626399e+001	-2.077766e+001
4145927.210	-1.247888e+001	-1.378883e+002	-1.422926e+001	7.542232e+001	-1.429290e+001	7.611923e+001	-1.626069e+001	-2.227238e+001
4170363.951	-1.242447e+001	-1.393081e+002	-1.406784e+001	7.106902e+001	-1.413445e+001	7.172690e+001	-1.618765e+001	-2.364941e+001
4194800.693	-1.232443e+001	-1.407562e+002	-1.394483e+001	6.657165e+001	-1.400216e+001	6.723745e+001	-1.606972e+001	-2.510232e+001
4219237.435	-1.219576e+001	-1.422700e+002	-1.384186e+001	6.203469e+001	-1.389965e+001	6.271345e+001	-1.591246e+001	-2.671037e+001
4243674.177	-1.204040e+001	-1.439204e+002	-1.376683e+001	5.750619e+001	-1.382262e+001	5.820865e+001	-1.572529e+001	-2.852569e+001
4268110.919	-1.186890e+001	-1.457502e+002	-1.371168e+001	5.302343e+001	-1.376768e+001	5.374211e+001	-1.551948e+001	-3.059381e+001
4292547.660	-1.169543e+001	-1.477233e+002	-1.366266e+001	4.859593e+001	-1.372005e+001	4.932564e+001	-1.531753e+001	-3.279575e+001
4316984.402	-1.151714e+001	-1.498558e+002	-1.362649e+001	4.421554e+001	-1.367726e+001	4.495599e+001	-1.511774e+001	-3.514836e+001
4341421.144	-1.134142e+001	-1.520938e+002	-1.359301e+001	3.983843e+001	-1.364144e+001	4.062385e+001	-1.492768e+001	-3.762625e+001
4365857.886	-1.117575e+001	-1.544570e+002	-1.356267e+001	3.552866e+001	-1.361212e+001	3.634179e+001	-1.473873e+001	-4.024622e+001
4390294.627	-1.101342e+001	-1.569454e+002	-1.353653e+001	3.124044e+001	-1.358289e+001	3.207594e+001	-1.456121e+001	-4.294112e+001
4414731.369	-1.086145e+001	-1.595642e+002	-1.351785e+001	2.700650e+001	-1.356059e+001	2.785747e+001	-1.439021e+001	-4.575501e+001
4439168.111	-1.072483e+001	-1.622551e+002	-1.349306e+001	2.276599e+001	-1.353354e+001	2.370873e+001	-1.423794e+001	-4.866528e+001
4463604.853	-1.060120e+001	-1.650365e+002	-1.347016e+001	1.859758e+001	-1.350080e+001	1.958033e+001	-1.409861e+001	-5.160709e+001
4488041.594	-1.049689e+001	-1.678774e+002	-1.344024e+001	1.449992e+001	-1.347279e+001	1.548002e+001	-1.397044e+001	-5.462622e+001
4512478.336	-1.040798e+001	-1.707574e+002	-1.340496e+001	1.039916e+001	-1.343239e+001	1.139014e+001	-1.385887e+001	-5.764015e+001
4536915.078	-1.033412e+001	-1.736798e+002	-1.336618e+001	6.301703e+000	-1.338811e+001	7.339315e+000	-1.376332e+001	-6.070011e+001
4561351.820	-1.027436e+001	-1.766405e+002	-1.332390e+001	2.210082e+000	-1.333703e+001	3.256983e+000	-1.367941e+001	-6.374315e+001
4585788.562	-1.023366e+001	-1.796405e+002	-1.327746e+001	-1.848197e+000	-1.328333e+001	-8.357738e-001	-1.360519e+001	-6.682790e+001
4610225.303	-1.021386e+001	1.773637e+002	-1.322296e+001	-5.885767e+000	-1.322402e+001	-4.854885e+000	-1.355426e+001	-6.995843e+001
4634662.045	-1.021060e+001	1.743953e+002	-1.315150e+001	-9.962319e+000	-1.314723e+001	-8.862922e+000	-1.352638e+001	-7.305776e+001
4659098.787	-1.022167e+001	1.714400e+002	-1.307495e+001	-1.405758e+001	-1.306497e+001	-1.301607e+001	-1.349935e+001	-7.607287e+001
4683535.529	-1.024497e+001	1.685422e+002	-1.298184e+001	-1.823473e+001	-1.296567e+001	-1.722399e+001	-1.349025e+001	-7.899540e+001
4707972.270	-1.027213e+001	1.656437e+002	-1.289184e+001	-2.250137e+001	-1.287021e+001	-2.152578e+001	-1.348016e+001	-8.186443e+001
4732409.012	-1.031197e+001	1.627345e+002	-1.280045e+001	-2.685439e+001	-1.277744e+001	-2.588896e+001	-1.347427e+001	-8.475993e+001
4756845.754	-1.036448e+001	1.598097e+002	-1.271109e+001	-3.127005e+001	-1.268286e+001	-3.030650e+001	-1.347586e+001	-8.763308e+001
4781282.496	-1.043078e+001	1.568354e+002	-1.262951e+001	-3.573961e+001	-1.259662e+001	-3.480146e+001	-1.347597e+001	-9.051295e+001
4805719.237	-1.051157e+001	1.538593e+002	-1.255042e+001	-4.026356e+001	-1.251147e+001	-3.934004e+001	-1.348348e+001	-9.339009e+001
4830155.979	-1.061075e+001	1.508687e+002	-1.247597e+001	-4.481870e+001	-1.243271e+001	-4.391399e+001	-1.349577e+001	-9.626959e+001
4854592.721	-1.072765e+001	1.478591e+002	-1.240763e+001	-4.941401e+001	-1.235856e+001	-4.853236e+001	-1.351522e+001	-9.916539e+001
4879029.463	-1.086657e+001	1.448648e+002	-1.234293e+001	-5.402463e+001	-1.228975e+001	-5.316616e+001	-1.354364e+001	-1.020676e+002
4903466.205	-1.102806e+001	1.418863e+002	-1.228169e+001	-5.866260e+001	-1.222526e+001	-5.783454e+001	-1.357908e+001	-1.049693e+002
4927902.946	-1.121134e+001	1.389309e+002	-1.222547e+001	-6.332097e+001	-1.216571e+001	-6.253049e+001	-1.362219e+001	-1.078870e+002
4952339.688	-1.141677e+001	1.360174e+002	-1.217133e+001	-6.804172e+001	-1.211005e+001	-6.722440e+001	-1.367737e+001	-1.108264e+002
4976776.430	-1.165111e+001	1.331476e+002	-1.212429e+001	-7.272059e+001	-1.206017e+001	-7.194103e+001	-1.373889e+001	-1.137296e+002
5001213.172	-1.190713e+001	1.303429e+002	-1.208044e+001	-7.743054e+001	-1.201283e+001	-7.668668e+001	-1.381156e+001	-1.166126e+002
5025649.913	-1.218862e+001	1.276274e+002	-1.203956e+001	-8.216269e+001	-1.197009e+001	-8.145157e+001	-1.389076e+001	-1.194845e+002
5050086.655	-1.249672e+001	1.250111e+002	-1.200299e+001	-8.689142e+001	-1.193496e+001	-8.621698e+001	-1.397852e+001	-1.223739e+002
5074523.397	-1.283132e+001	1.225124e+002	-1.196818e+001	-9.164241e+001	-1.189937e+001	-9.100562e+001	-1.407539e+001	-1.251888e+002
5098960.139	-1.318757e+001	1.201298e+002	-1.193975e+001	-9.642588e+001	-1.186825e+001	-9.582732e+001	-1.417486e+001	-1.279876e+002
5123396.880	-1.356871e+001	1.178933e+002	-1.191389e+001	-1.012206e+002	-1.184510e+001	-1.006435e+002	-1.428256e+001	-1.308032e+002
5147833.622	-1.397662e+001	1.157849e+002	-1.189707e+001	-1.060248e+002	-1.182798e+001	-1.054840e+002	-1.439034e+001	-1.335824e+002
5172270.364	-1.440976e+001	1.138653e+002	-1.188444e+001	-1.108381e+002	-1.181883e+001	-1.103252e+002	-1.450537e+001	-1.364194e+002
5196707.106	-1.487352e+001	1.121332e+002	-1.187932e+001	-1.156468e+002	-1.181422e+001	-1.151474e+002	-1.462856e+001	-1.392315e+002
5221143.847	-1.536546e+001	1.106899e+002	-1.187554e+001	-1.203849e+002	-1.181249e+001	-1.199758e+002	-1.475884e+001	-1.420155e+002
5245580.589	-1.587895e+001	1.094945e+002	-1.187696e+001	-1.251740e+002	-1.181563e+001	-1.247713e+002	-1.490053e+001	-1.448141e+002
5270017.331	-1.641072e+001	1.086390e+002	-1.187901e+001	-1.299474e+002	-1.182125e+001	-1.295776e+002	-1.504360e+001	-1.476005e+002
5294454.073	-1.695661e+001	1.081160e+002	-1.188311e+001	-1.347273e+002	-1.182750e+001	-1.343689e+002	-1.519506e+001	-1.503586e+002
5318890.815	-1.751066e+001	1.079731e+002	-1.188931e+001	-1.395010e+002	-1.183634e+001	-1.391693e+002	-1.534731e+001	-1.530922e+002
5343327.556	-1.806704e+001	1.082087e+002	-1.189839e+001	-1.443039e+002	-1.184909e+001	-1.439663e+002	-1.550221e+001	-1.558423e+002
5367764.298	-1.862291e+001	1.088672e+002	-1.191006e+001	-1.490888e+002	-1.186312e+001	-1.487790e+002	-1.565485e+001	-1.585892e+002
5392201.040	-1.916327e+001	1.099426e+002	-1.192436e+001	-1.538840e+002	-1.188148e+001	-1.535845e+002	-1.581120e+001	-1.613462e+002
5416637.782	-1.968860e+001	1.114242e+002	-1.194368e+001	-1.586938e+002	-1.190197e+001	-1.584044e+002	-1.596665e+001	-1.641408e+002
5441074.523	-2.018101e+001	1.133459e+002	-1.196334e+001	-1.635087e+002	-1.192683e+001	-1.632258e+002	-1.611929e+001	-1.669692e+002
