!Agilent Technologies,E5061B,MY49101568,A.02.00
!Date: Wed Mar 01 15:54:23 2023
!Data & Calibration Information:
!Freq	S11:SOLT2(OFF)	S21:SOLT2(OFF)	S12:SOLT2(OFF)	S22:SOLT2(OFF)
# Hz S dB R 50
1800000.000	-9.975155e+000	-1.841357e+001	-2.248785e+001	-1.482364e+002	-2.248933e+001	-1.482214e+002	-1.044840e+001	1.774945e+001
1824436.742	-1.010216e+001	-2.261600e+001	-2.215125e+001	-1.522317e+002	-2.215899e+001	-1.522724e+002	-1.059551e+001	1.408355e+001
1848873.484	-1.023759e+001	-2.690332e+001	-2.180472e+001	-1.563395e+002	-2.181494e+001	-1.563981e+002	-1.074801e+001	1.035835e+001
1873310.225	-1.038011e+001	-3.120581e+001	-2.145687e+001	-1.605283e+002	-2.147235e+001	-1.604674e+002	-1.089736e+001	6.598284e+000
1897746.967	-1.052859e+001	-3.557464e+001	-2.109712e+001	-1.647964e+002	-2.110633e+001	-1.648037e+002	-1.104906e+001	2.812316e+000
1922183.709	-1.068332e+001	-4.006861e+001	-2.073737e+001	-1.691601e+002	-2.075235e+001	-1.692386e+002	-1.120123e+001	-1.048136e+000
1946620.451	-1.084995e+001	-4.459108e+001	-2.036055e+001	-1.737429e+002	-2.040336e+001	-1.736301e+002	-1.134478e+001	-4.980506e+000
1971057.192	-1.102010e+001	-4.927246e+001	-1.999166e+001	-1.782882e+002	-2.002548e+001	-1.782303e+002	-1.149969e+001	-9.009281e+000
1995493.934	-1.119979e+001	-5.405349e+001	-1.961974e+001	1.770844e+002	-1.966257e+001	1.770891e+002	-1.165294e+001	-1.306861e+001
2019930.676	-1.139899e+001	-5.881730e+001	-1.925476e+001	1.720997e+002	-1.929286e+001	1.722070e+002	-1.180612e+001	-1.714002e+001
2044367.418	-1.159827e+001	-6.372256e+001	-1.890433e+001	1.671658e+002	-1.893856e+001	1.673371e+002	-1.194776e+001	-2.135662e+001
2068804.159	-1.180324e+001	-6.882337e+001	-1.855088e+001	1.623722e+002	-1.858135e+001	1.625078e+002	-1.208052e+001	-2.567961e+001
2093240.901	-1.204026e+001	-7.409438e+001	-1.815519e+001	1.574424e+002	-1.819628e+001	1.575943e+002	-1.222066e+001	-3.011517e+001
2117677.643	-1.229856e+001	-7.945408e+001	-1.776364e+001	1.522273e+002	-1.780036e+001	1.524357e+002	-1.236978e+001	-3.462029e+001
2142114.385	-1.258206e+001	-8.493020e+001	-1.737416e+001	1.468571e+002	-1.741435e+001	1.471492e+002	-1.250923e+001	-3.921683e+001
2166551.127	-1.289460e+001	-9.052643e+001	-1.698080e+001	1.412955e+002	-1.703451e+001	1.415444e+002	-1.265213e+001	-4.383646e+001
2190987.868	-1.321468e+001	-9.611684e+001	-1.662881e+001	1.354717e+002	-1.667505e+001	1.358514e+002	-1.278446e+001	-4.852023e+001
2215424.610	-1.355178e+001	-1.019122e+002	-1.629063e+001	1.295845e+002	-1.632219e+001	1.300185e+002	-1.290928e+001	-5.330237e+001
2239861.352	-1.390838e+001	-1.078954e+002	-1.596270e+001	1.236645e+002	-1.600433e+001	1.240634e+002	-1.301486e+001	-5.817877e+001
2264298.094	-1.427673e+001	-1.140780e+002	-1.565106e+001	1.176530e+002	-1.568866e+001	1.181119e+002	-1.310328e+001	-6.322886e+001
2288734.835	-1.467015e+001	-1.205036e+002	-1.535022e+001	1.115488e+002	-1.538529e+001	1.120928e+002	-1.317917e+001	-6.843817e+001
2313171.577	-1.509222e+001	-1.271865e+002	-1.505803e+001	1.053754e+002	-1.508664e+001	1.059102e+002	-1.324967e+001	-7.376727e+001
2337608.319	-1.554146e+001	-1.340680e+002	-1.478120e+001	9.903074e+001	-1.480590e+001	9.961902e+001	-1.331233e+001	-7.922795e+001
2362045.061	-1.600066e+001	-1.411255e+002	-1.452272e+001	9.257204e+001	-1.454667e+001	9.315617e+001	-1.335936e+001	-8.477300e+001
2386481.802	-1.644920e+001	-1.484481e+002	-1.430093e+001	8.601559e+001	-1.431975e+001	8.656399e+001	-1.338190e+001	-9.041958e+001
2410918.544	-1.688905e+001	-1.561029e+002	-1.410427e+001	7.936519e+001	-1.412003e+001	7.995927e+001	-1.338150e+001	-9.625937e+001
2435355.286	-1.728031e+001	-1.642548e+002	-1.395036e+001	7.277087e+001	-1.396007e+001	7.335847e+001	-1.334539e+001	-1.022734e+002
2459792.028	-1.762982e+001	-1.731562e+002	-1.381824e+001	6.631938e+001	-1.381711e+001	6.689699e+001	-1.328303e+001	-1.086055e+002
2484228.769	-1.797319e+001	1.771360e+002	-1.368424e+001	5.991025e+001	-1.367605e+001	6.064556e+001	-1.320231e+001	-1.153826e+002
2508665.511	-1.832043e+001	1.668060e+002	-1.353659e+001	5.348550e+001	-1.351219e+001	5.415289e+001	-1.315744e+001	-1.223323e+002
2533102.253	-1.864695e+001	1.563060e+002	-1.340413e+001	4.682898e+001	-1.337362e+001	4.740654e+001	-1.312174e+001	-1.293126e+002
2557538.995	-1.888627e+001	1.456799e+002	-1.330783e+001	4.003912e+001	-1.327404e+001	4.056035e+001	-1.307908e+001	-1.363262e+002
2581975.737	-1.901052e+001	1.350354e+002	-1.325882e+001	3.316824e+001	-1.320825e+001	3.370195e+001	-1.302681e+001	-1.434265e+002
2606412.478	-1.902643e+001	1.242793e+002	-1.323754e+001	2.635231e+001	-1.318592e+001	2.687653e+001	-1.296272e+001	-1.505593e+002
2630849.220	-1.891863e+001	1.133748e+002	-1.324663e+001	1.970692e+001	-1.319029e+001	2.013263e+001	-1.289612e+001	-1.578080e+002
2655285.962	-1.872748e+001	1.027685e+002	-1.327930e+001	1.306672e+001	-1.321441e+001	1.342393e+001	-1.283940e+001	-1.651082e+002
2679722.704	-1.847351e+001	9.255365e+001	-1.333926e+001	6.478209e+000	-1.327503e+001	6.792051e+000	-1.278032e+001	-1.723723e+002
2704159.445	-1.815419e+001	8.287128e+001	-1.343121e+001	-5.739049e-002	-1.336915e+001	1.608827e-001	-1.272996e+001	-1.794836e+002
2728596.187	-1.775902e+001	7.363863e+001	-1.356259e+001	-6.356142e+000	-1.350158e+001	-6.118113e+000	-1.264804e+001	1.733489e+002
2753032.929	-1.734233e+001	6.474219e+001	-1.370548e+001	-1.244217e+001	-1.363960e+001	-1.223082e+001	-1.257616e+001	1.661748e+002
2777469.671	-1.693159e+001	5.612922e+001	-1.384635e+001	-1.832855e+001	-1.378195e+001	-1.819558e+001	-1.252311e+001	1.590279e+002
2801906.412	-1.654106e+001	4.794845e+001	-1.398431e+001	-2.410939e+001	-1.391735e+001	-2.402352e+001	-1.248722e+001	1.518930e+002
2826343.154	-1.618663e+001	4.028859e+001	-1.413348e+001	-2.992561e+001	-1.406630e+001	-2.987670e+001	-1.248192e+001	1.450274e+002
2850779.896	-1.584761e+001	3.313245e+001	-1.429665e+001	-3.567607e+001	-1.423954e+001	-3.563629e+001	-1.248411e+001	1.384039e+002
2875216.638	-1.551503e+001	2.637381e+001	-1.448147e+001	-4.122629e+001	-1.442499e+001	-4.125358e+001	-1.249318e+001	1.319803e+002
2899653.380	-1.520428e+001	1.999494e+001	-1.467322e+001	-4.666988e+001	-1.462715e+001	-4.671591e+001	-1.249858e+001	1.257727e+002
2924090.121	-1.489396e+001	1.393741e+001	-1.488691e+001	-5.189524e+001	-1.483787e+001	-5.198108e+001	-1.250529e+001	1.197637e+002
2948526.863	-1.460653e+001	8.131084e+000	-1.509235e+001	-5.695112e+001	-1.505394e+001	-5.707107e+001	-1.251279e+001	1.139319e+002
2972963.605	-1.433288e+001	2.564912e+000	-1.530036e+001	-6.185149e+001	-1.527270e+001	-6.197543e+001	-1.251944e+001	1.082675e+002
2997400.347	-1.407161e+001	-2.785342e+000	-1.550564e+001	-6.655544e+001	-1.548511e+001	-6.670827e+001	-1.252795e+001	1.027406e+002
3021837.088	-1.382552e+001	-7.965373e+000	-1.570156e+001	-7.111812e+001	-1.569120e+001	-7.129514e+001	-1.253838e+001	9.735804e+001
3046273.830	-1.359486e+001	-1.293338e+001	-1.589712e+001	-7.555514e+001	-1.588552e+001	-7.574113e+001	-1.255322e+001	9.210305e+001
3070710.572	-1.337793e+001	-1.779470e+001	-1.607371e+001	-7.988760e+001	-1.607108e+001	-8.006388e+001	-1.257213e+001	8.698385e+001
3095147.314	-1.317811e+001	-2.246065e+001	-1.624601e+001	-8.413905e+001	-1.624661e+001	-8.430490e+001	-1.259590e+001	8.202051e+001
3119584.055	-1.298720e+001	-2.705462e+001	-1.639094e+001	-8.822036e+001	-1.640631e+001	-8.843414e+001	-1.262106e+001	7.715122e+001
3144020.797	-1.281003e+001	-3.146343e+001	-1.653944e+001	-9.227320e+001	-1.655448e+001	-9.249682e+001	-1.265271e+001	7.246999e+001
3168457.539	-1.264773e+001	-3.576581e+001	-1.667437e+001	-9.630295e+001	-1.669550e+001	-9.652515e+001	-1.268980e+001	6.788717e+001
3192894.281	-1.249501e+001	-3.997665e+001	-1.679997e+001	-1.002982e+002	-1.682433e+001	-1.004999e+002	-1.272903e+001	6.343733e+001
3217331.023	-1.235157e+001	-4.404123e+001	-1.691424e+001	-1.042563e+002	-1.695060e+001	-1.044281e+002	-1.277028e+001	5.913350e+001
3241767.764	-1.221857e+001	-4.800872e+001	-1.702818e+001	-1.081621e+002	-1.706735e+001	-1.083157e+002	-1.281203e+001	5.493388e+001
3266204.506	-1.208930e+001	-5.187485e+001	-1.713547e+001	-1.120022e+002	-1.718138e+001	-1.121398e+002	-1.284977e+001	5.087054e+001
3290641.248	-1.196355e+001	-5.566641e+001	-1.723915e+001	-1.157188e+002	-1.728736e+001	-1.158454e+002	-1.288421e+001	4.691107e+001
3315077.990	-1.184273e+001	-5.941895e+001	-1.731693e+001	-1.193814e+002	-1.737388e+001	-1.194704e+002	-1.291773e+001	4.298219e+001
3339514.731	-1.173162e+001	-6.312064e+001	-1.738129e+001	-1.230338e+002	-1.744068e+001	-1.231084e+002	-1.295470e+001	3.911302e+001
3363951.473	-1.163096e+001	-6.675869e+001	-1.742911e+001	-1.266852e+002	-1.749534e+001	-1.267432e+002	-1.300240e+001	3.533506e+001
3388388.215	-1.153845e+001	-7.033636e+001	-1.747449e+001	-1.303744e+002	-1.754234e+001	-1.304000e+002	-1.305120e+001	3.165834e+001
3412824.957	-1.145410e+001	-7.384823e+001	-1.751366e+001	-1.340791e+002	-1.758578e+001	-1.340576e+002	-1.310277e+001	2.807451e+001
3437261.698	-1.137577e+001	-7.730304e+001	-1.753782e+001	-1.377561e+002	-1.761504e+001	-1.376997e+002	-1.315592e+001	2.458212e+001
3461698.440	-1.130615e+001	-8.068096e+001	-1.756274e+001	-1.414421e+002	-1.764037e+001	-1.413493e+002	-1.321043e+001	2.117748e+001
3486135.182	-1.124281e+001	-8.401135e+001	-1.757745e+001	-1.451104e+002	-1.765855e+001	-1.450049e+002	-1.326890e+001	1.787702e+001
3510571.924	-1.118425e+001	-8.727594e+001	-1.758904e+001	-1.488166e+002	-1.767147e+001	-1.486817e+002	-1.332591e+001	1.467787e+001
3535008.666	-1.113149e+001	-9.047494e+001	-1.759593e+001	-1.524878e+002	-1.767953e+001	-1.522990e+002	-1.338014e+001	1.156800e+001
3559445.407	-1.108152e+001	-9.359964e+001	-1.759786e+001	-1.561346e+002	-1.768072e+001	-1.559219e+002	-1.342892e+001	8.540664e+000
3583882.149	-1.103393e+001	-9.668650e+001	-1.758445e+001	-1.597592e+002	-1.767071e+001	-1.594970e+002	-1.347130e+001	5.589889e+000
3608318.891	-1.098843e+001	-9.973289e+001	-1.756247e+001	-1.633862e+002	-1.764623e+001	-1.631026e+002	-1.350933e+001	2.671619e+000
3632755.633	-1.094736e+001	-1.027519e+002	-1.752346e+001	-1.670849e+002	-1.761043e+001	-1.667058e+002	-1.354674e+001	-2.256429e-001
3657192.374	-1.090852e+001	-1.057324e+002	-1.747457e+001	-1.707853e+002	-1.756225e+001	-1.703767e+002	-1.358559e+001	-3.076225e+000
3681629.116	-1.087413e+001	-1.086864e+002	-1.741474e+001	-1.745751e+002	-1.750148e+001	-1.741266e+002	-1.362660e+001	-5.876723e+000
3706065.858	-1.084657e+001	-1.116058e+002	-1.734522e+001	-1.784564e+002	-1.743107e+001	-1.780000e+002	-1.367285e+001	-8.634151e+000
3730502.600	-1.082902e+001	-1.144767e+002	-1.727526e+001	1.775120e+002	-1.735898e+001	1.780266e+002	-1.371924e+001	-1.131534e+001
3754939.341	-1.081461e+001	-1.172831e+002	-1.721476e+001	1.733750e+002	-1.729774e+001	1.739244e+002	-1.376906e+001	-1.386882e+001
3779376.083	-1.080575e+001	-1.199994e+002	-1.717000e+001	1.691469e+002	-1.725108e+001	1.696840e+002	-1.381796e+001	-1.629688e+001
3803812.825	-1.079669e+001	-1.226200e+002	-1.714076e+001	1.648440e+002	-1.721678e+001	1.654690e+002	-1.385370e+001	-1.865004e+001
3828249.567	-1.078209e+001	-1.251899e+002	-1.713119e+001	1.606052e+002	-1.720809e+001	1.611726e+002	-1.387946e+001	-2.084672e+001
3852686.308	-1.076429e+001	-1.276969e+002	-1.713072e+001	1.563342e+002	-1.720979e+001	1.569638e+002	-1.388841e+001	-2.303224e+001
3877123.050	-1.074397e+001	-1.301369e+002	-1.715067e+001	1.520634e+002	-1.722532e+001	1.527243e+002	-1.388785e+001	-2.511807e+001
3901559.792	-1.071265e+001	-1.324900e+002	-1.719743e+001	1.478174e+002	-1.726906e+001	1.484868e+002	-1.386699e+001	-2.710959e+001
3925996.534	-1.066360e+001	-1.347956e+002	-1.727455e+001	1.436960e+002	-1.735564e+001	1.444460e+002	-1.380460e+001	-2.906539e+001
3950433.276	-1.058428e+001	-1.371398e+002	-1.738458e+001	1.399095e+002	-1.745532e+001	1.406948e+002	-1.371162e+001	-3.111654e+001
3974870.017	-1.048783e+001	-1.396273e+002	-1.749356e+001	1.365236e+002	-1.755568e+001	1.372907e+002	-1.359139e+001	-3.334788e+001
3999306.759	-1.038187e+001	-1.422796e+002	-1.757987e+001	1.334526e+002	-1.763984e+001	1.342313e+002	-1.345966e+001	-3.578411e+001
4023743.501	-1.027740e+001	-1.451249e+002	-1.762752e+001	1.306883e+002	-1.767760e+001	1.315262e+002	-1.332221e+001	-3.851044e+001
4048180.243	-1.018527e+001	-1.481883e+002	-1.761522e+001	1.281699e+002	-1.766961e+001	1.290029e+002	-1.319530e+001	-4.141494e+001
4072616.984	-1.011560e+001	-1.514124e+002	-1.753519e+001	1.257096e+002	-1.759010e+001	1.264861e+002	-1.309295e+001	-4.450575e+001
4097053.726	-1.007777e+001	-1.547258e+002	-1.739651e+001	1.230691e+002	-1.744775e+001	1.239551e+002	-1.301465e+001	-4.774647e+001
4121490.468	-1.006685e+001	-1.581090e+002	-1.721011e+001	1.202805e+002	-1.725936e+001	1.211730e+002	-1.296493e+001	-5.103014e+001
4145927.210	-1.008889e+001	-1.614898e+002	-1.698688e+001	1.172001e+002	-1.703395e+001	1.181257e+002	-1.294273e+001	-5.433630e+001
4170363.951	-1.013573e+001	-1.648312e+002	-1.674905e+001	1.139043e+002	-1.679060e+001	1.148103e+002	-1.294458e+001	-5.758123e+001
4194800.693	-1.021286e+001	-1.681487e+002	-1.649429e+001	1.103042e+002	-1.653441e+001	1.112184e+002	-1.296893e+001	-6.080478e+001
4219237.435	-1.031439e+001	-1.713750e+002	-1.624316e+001	1.064512e+002	-1.627374e+001	1.073719e+002	-1.301471e+001	-6.397094e+001
4243674.177	-1.043898e+001	-1.744782e+002	-1.599885e+001	1.023150e+002	-1.602584e+001	1.032870e+002	-1.307276e+001	-6.701938e+001
4268110.919	-1.057705e+001	-1.774687e+002	-1.577188e+001	9.803886e+001	-1.579058e+001	9.899343e+001	-1.314082e+001	-6.994416e+001
4292547.660	-1.072516e+001	1.796465e+002	-1.556180e+001	9.366931e+001	-1.557148e+001	9.464434e+001	-1.320933e+001	-7.281038e+001
4316984.402	-1.088692e+001	1.768560e+002	-1.535782e+001	8.919658e+001	-1.536193e+001	9.013325e+001	-1.328516e+001	-7.558335e+001
4341421.144	-1.106137e+001	1.741926e+002	-1.516836e+001	8.460937e+001	-1.516153e+001	8.555496e+001	-1.336466e+001	-7.830364e+001
4365857.886	-1.124902e+001	1.716450e+002	-1.498150e+001	7.992923e+001	-1.497606e+001	8.086542e+001	-1.344551e+001	-8.092162e+001
4390294.627	-1.143602e+001	1.692380e+002	-1.481686e+001	7.518044e+001	-1.480785e+001	7.610369e+001	-1.352124e+001	-8.346198e+001
4414731.369	-1.162263e+001	1.669584e+002	-1.466846e+001	7.038893e+001	-1.465614e+001	7.128165e+001	-1.359602e+001	-8.591559e+001
4439168.111	-1.180896e+001	1.648000e+002	-1.453744e+001	6.549414e+001	-1.451238e+001	6.640937e+001	-1.366323e+001	-8.835806e+001
4463604.853	-1.198714e+001	1.627168e+002	-1.441923e+001	6.065075e+001	-1.439184e+001	6.157218e+001	-1.371458e+001	-9.076006e+001
4488041.594	-1.216128e+001	1.607221e+002	-1.431330e+001	5.577702e+001	-1.429085e+001	5.667790e+001	-1.375572e+001	-9.308313e+001
4512478.336	-1.232498e+001	1.587615e+002	-1.422153e+001	5.091071e+001	-1.419168e+001	5.180570e+001	-1.379067e+001	-9.547013e+001
4536915.078	-1.248463e+001	1.568127e+002	-1.413835e+001	4.607951e+001	-1.410789e+001	4.694850e+001	-1.381408e+001	-9.786712e+001
4561351.820	-1.263808e+001	1.548934e+002	-1.406737e+001	4.122920e+001	-1.403168e+001	4.206198e+001	-1.383248e+001	-1.002783e+002
4585788.562	-1.277375e+001	1.529973e+002	-1.401625e+001	3.633379e+001	-1.397860e+001	3.718297e+001	-1.383266e+001	-1.027010e+002
4610225.303	-1.289437e+001	1.509486e+002	-1.398730e+001	3.157541e+001	-1.394608e+001	3.239829e+001	-1.381173e+001	-1.052130e+002
4634662.045	-1.300923e+001	1.487107e+002	-1.397812e+001	2.695487e+001	-1.393284e+001	2.774391e+001	-1.376705e+001	-1.078801e+002
4659098.787	-1.315548e+001	1.462785e+002	-1.395070e+001	2.250209e+001	-1.390872e+001	2.327582e+001	-1.372403e+001	-1.108304e+002
4683535.529	-1.332375e+001	1.436316e+002	-1.392734e+001	1.823133e+001	-1.387704e+001	1.899305e+001	-1.368519e+001	-1.140634e+002
4707972.270	-1.354273e+001	1.409415e+002	-1.387657e+001	1.406248e+001	-1.382452e+001	1.476324e+001	-1.366972e+001	-1.174814e+002
4732409.012	-1.380909e+001	1.381830e+002	-1.380721e+001	9.938194e+000	-1.374995e+001	1.053989e+001	-1.367790e+001	-1.210910e+002
4756845.754	-1.413013e+001	1.355229e+002	-1.371012e+001	5.768473e+000	-1.365772e+001	6.374623e+000	-1.371334e+001	-1.249084e+002
4781282.496	-1.449253e+001	1.330591e+002	-1.359842e+001	1.466279e+000	-1.353760e+001	2.036851e+000	-1.379541e+001	-1.287662e+002
4805719.237	-1.490323e+001	1.308063e+002	-1.346976e+001	-2.933631e+000	-1.341111e+001	-2.403689e+000	-1.390390e+001	-1.326664e+002
4830155.979	-1.535020e+001	1.288378e+002	-1.333115e+001	-7.469603e+000	-1.326947e+001	-6.942191e+000	-1.405359e+001	-1.366658e+002
4854592.721	-1.580940e+001	1.272130e+002	-1.320030e+001	-1.220637e+001	-1.313740e+001	-1.169397e+001	-1.422927e+001	-1.405309e+002
4879029.463	-1.629370e+001	1.258166e+002	-1.307414e+001	-1.701197e+001	-1.302149e+001	-1.656630e+001	-1.442038e+001	-1.443438e+002
4903466.205	-1.678758e+001	1.247062e+002	-1.296116e+001	-2.194445e+001	-1.291184e+001	-2.151949e+001	-1.463540e+001	-1.481617e+002
4927902.946	-1.728983e+001	1.238079e+002	-1.286469e+001	-2.693373e+001	-1.281555e+001	-2.654484e+001	-1.486741e+001	-1.519434e+002
4952339.688	-1.779710e+001	1.231829e+002	-1.278132e+001	-3.204681e+001	-1.273493e+001	-3.158370e+001	-1.511144e+001	-1.557396e+002
4976776.430	-1.833705e+001	1.227112e+002	-1.271309e+001	-3.707530e+001	-1.266922e+001	-3.668754e+001	-1.537150e+001	-1.594914e+002
5001213.172	-1.889492e+001	1.225826e+002	-1.265446e+001	-4.215552e+001	-1.261521e+001	-4.177381e+001	-1.564591e+001	-1.632890e+002
5025649.913	-1.947969e+001	1.227561e+002	-1.260966e+001	-4.723763e+001	-1.257159e+001	-4.688613e+001	-1.593885e+001	-1.671021e+002
5050086.655	-2.008350e+001	1.233720e+002	-1.257365e+001	-5.233331e+001	-1.253886e+001	-5.195736e+001	-1.624892e+001	-1.709886e+002
5074523.397	-2.071884e+001	1.244671e+002	-1.255081e+001	-5.741257e+001	-1.251975e+001	-5.707773e+001	-1.657443e+001	-1.748212e+002
5098960.139	-2.137587e+001	1.261668e+002	-1.253771e+001	-6.247826e+001	-1.250952e+001	-6.214479e+001	-1.691811e+001	-1.787458e+002
5123396.880	-2.203110e+001	1.286377e+002	-1.253517e+001	-6.753911e+001	-1.251263e+001	-6.720852e+001	-1.727374e+001	1.773160e+002
5147833.622	-2.268526e+001	1.320129e+002	-1.254488e+001	-7.254297e+001	-1.252609e+001	-7.222583e+001	-1.764007e+001	1.732777e+002
5172270.364	-2.329600e+001	1.364361e+002	-1.256462e+001	-7.750467e+001	-1.255091e+001	-7.717379e+001	-1.801827e+001	1.691149e+002
5196707.106	-2.380308e+001	1.421694e+002	-1.258713e+001	-8.239354e+001	-1.257619e+001	-8.206096e+001	-1.842621e+001	1.647742e+002
5221143.847	-2.411184e+001	1.490210e+002	-1.261308e+001	-8.720459e+001	-1.260609e+001	-8.691106e+001	-1.885678e+001	1.603052e+002
5245580.589	-2.414321e+001	1.564756e+002	-1.264021e+001	-9.201283e+001	-1.263552e+001	-9.169714e+001	-1.931990e+001	1.556303e+002
5270017.331	-2.387649e+001	1.637530e+002	-1.266910e+001	-9.681184e+001	-1.266887e+001	-9.647755e+001	-1.981301e+001	1.508320e+002
5294454.073	-2.336224e+001	1.702713e+002	-1.270098e+001	-1.015560e+002	-1.270460e+001	-1.012287e+002	-2.033862e+001	1.458780e+002
5318890.815	-2.266629e+001	1.755263e+002	-1.273277e+001	-1.062854e+002	-1.273962e+001	-1.059453e+002	-2.089663e+001	1.407060e+002
5343327.556	-2.188390e+001	1.794239e+002	-1.277027e+001	-1.110077e+002	-1.277803e+001	-1.106368e+002	-2.148443e+001	1.353248e+002
5367764.298	-2.106428e+001	-1.778457e+002	-1.280856e+001	-1.156746e+002	-1.281784e+001	-1.153043e+002	-2.209766e+001	1.296835e+002
5392201.040	-2.025054e+001	-1.761658e+002	-1.284710e+001	-1.203358e+002	-1.285797e+001	-1.199376e+002	-2.274168e+001	1.237383e+002
5416637.782	-1.947317e+001	-1.753363e+002	-1.288716e+001	-1.249715e+002	-1.290098e+001	-1.245484e+002	-2.340420e+001	1.174353e+002
5441074.523	-1.873927e+001	-1.751736e+002	-1.292965e+001	-1.295986e+002	-1.294502e+001	-1.291371e+002	-2.407913e+001	1.107156e+002
