!Agilent Technologies,E5061B,MY49101568,A.02.00
!Date: Wed Mar 01 15:49:03 2023
!Data & Calibration Information:
!Freq	S11:SOLT2(OFF)	S21:SOLT2(OFF)	S12:SOLT2(OFF)	S22:SOLT2(OFF)
# Hz S dB R 50
1800000.000	-1.367389e+001	-4.592198e+001	-1.190215e+001	-1.447405e+002	-1.189594e+001	-1.446662e+002	-1.476116e+001	-1.706104e+001
1824436.742	-1.470834e+001	-5.190578e+001	-1.142248e+001	-1.522723e+002	-1.141775e+001	-1.521851e+002	-1.593019e+001	-2.320244e+001
1848873.484	-1.598001e+001	-5.743175e+001	-1.099913e+001	-1.600757e+002	-1.099731e+001	-1.600261e+002	-1.737437e+001	-2.882924e+001
1873310.225	-1.754388e+001	-6.184887e+001	-1.064201e+001	-1.681206e+002	-1.064135e+001	-1.680052e+002	-1.914323e+001	-3.344083e+001
1897746.967	-1.944023e+001	-6.455917e+001	-1.034139e+001	-1.761589e+002	-1.034526e+001	-1.760626e+002	-2.130525e+001	-3.624798e+001
1922183.709	-2.175997e+001	-6.406757e+001	-1.009587e+001	1.757150e+002	-1.010373e+001	1.758753e+002	-2.401789e+001	-3.563543e+001
1946620.451	-2.441535e+001	-5.673365e+001	-9.907356e+000	1.675819e+002	-9.914946e+000	1.677698e+002	-2.733857e+001	-2.651036e+001
1971057.192	-2.649687e+001	-3.846657e+001	-9.783975e+000	1.595277e+002	-9.788866e+000	1.597422e+002	-2.987286e+001	-9.412414e-001
1995493.934	-2.629628e+001	-1.467819e+001	-9.717442e+000	1.515773e+002	-9.709645e+000	1.519036e+002	-2.888755e+001	2.893656e+001
2019930.676	-2.438942e+001	5.083595e-003	-9.689162e+000	1.438846e+002	-9.681704e+000	1.441987e+002	-2.611983e+001	4.253704e+001
2044367.418	-2.228723e+001	4.770279e+000	-9.706434e+000	1.363693e+002	-9.695802e+000	1.366826e+002	-2.377358e+001	4.502598e+001
2068804.159	-2.060453e+001	4.224297e+000	-9.759661e+000	1.291899e+002	-9.752127e+000	1.295011e+002	-2.202894e+001	4.262202e+001
2093240.901	-1.933521e+001	9.527515e-001	-9.842803e+000	1.223889e+002	-9.825908e+000	1.226935e+002	-2.080657e+001	3.823530e+001
2117677.643	-1.842518e+001	-3.195934e+000	-9.919190e+000	1.159434e+002	-9.902262e+000	1.162125e+002	-1.991636e+001	3.307376e+001
2142114.385	-1.774428e+001	-7.688714e+000	-9.977214e+000	1.097765e+002	-9.962403e+000	1.100336e+002	-1.929165e+001	2.759735e+001
2166551.127	-1.718611e+001	-1.230962e+001	-1.001651e+001	1.037198e+002	-1.000418e+001	1.039599e+002	-1.880798e+001	2.213624e+001
2190987.868	-1.673549e+001	-1.734087e+001	-1.005778e+001	9.776023e+001	-1.004445e+001	9.799173e+001	-1.843837e+001	1.639824e+001
2215424.610	-1.640235e+001	-2.259148e+001	-1.009440e+001	9.191445e+001	-1.008073e+001	9.219469e+001	-1.817235e+001	1.039109e+001
2239861.352	-1.617655e+001	-2.795106e+001	-1.011635e+001	8.624058e+001	-1.010438e+001	8.653386e+001	-1.801149e+001	4.200116e+000
2264298.094	-1.604597e+001	-3.326574e+001	-1.012133e+001	8.071132e+001	-1.011448e+001	8.101185e+001	-1.794300e+001	-2.121564e+000
2288734.835	-1.597816e+001	-3.848050e+001	-1.010276e+001	7.523881e+001	-1.009692e+001	7.552843e+001	-1.795010e+001	-8.424989e+000
2313171.577	-1.595421e+001	-4.371789e+001	-1.006862e+001	6.972068e+001	-1.006450e+001	7.002391e+001	-1.800404e+001	-1.478550e+001
2337608.319	-1.598648e+001	-4.907978e+001	-1.002630e+001	6.419604e+001	-1.002450e+001	6.449262e+001	-1.809727e+001	-2.133538e+001
2362045.061	-1.607720e+001	-5.453674e+001	-9.980067e+000	5.869862e+001	-9.980543e+000	5.896918e+001	-1.823856e+001	-2.809867e+001
2386481.802	-1.625032e+001	-6.006941e+001	-9.926084e+000	5.318199e+001	-9.928432e+000	5.345980e+001	-1.844094e+001	-3.523596e+001
2410918.544	-1.650345e+001	-6.553059e+001	-9.856510e+000	4.769013e+001	-9.860480e+000	4.797337e+001	-1.871653e+001	-4.263030e+001
2435355.286	-1.679633e+001	-7.084958e+001	-9.772704e+000	4.209411e+001	-9.776854e+000	4.238138e+001	-1.904498e+001	-5.006978e+001
2459792.028	-1.714319e+001	-7.629899e+001	-9.688735e+000	3.638166e+001	-9.694409e+000	3.668673e+001	-1.940742e+001	-5.781893e+001
2484228.769	-1.757808e+001	-8.179250e+001	-9.611338e+000	3.056787e+001	-9.617937e+000	3.092063e+001	-1.981342e+001	-6.602434e+001
2508665.511	-1.810718e+001	-8.731301e+001	-9.537362e+000	2.474822e+001	-9.542811e+000	2.510028e+001	-2.027846e+001	-7.465053e+001
2533102.253	-1.874851e+001	-9.271861e+001	-9.469068e+000	1.890144e+001	-9.474067e+000	1.920518e+001	-2.079889e+001	-8.366973e+001
2557538.995	-1.950228e+001	-9.801182e+001	-9.406679e+000	1.296906e+001	-9.408804e+000	1.328124e+001	-2.137139e+001	-9.327109e+001
2581975.737	-2.039290e+001	-1.030999e+002	-9.351198e+000	6.972219e+000	-9.353326e+000	7.295981e+000	-2.199344e+001	-1.034160e+002
2606412.478	-2.144337e+001	-1.078673e+002	-9.309759e+000	9.442220e-001	-9.309149e+000	1.268888e+000	-2.264871e+001	-1.142343e+002
2630849.220	-2.270408e+001	-1.121913e+002	-9.280176e+000	-5.117717e+000	-9.279337e+000	-4.795856e+000	-2.332948e+001	-1.256756e+002
2655285.962	-2.420726e+001	-1.156796e+002	-9.265452e+000	-1.117727e+001	-9.261016e+000	-1.087901e+001	-2.399144e+001	-1.379822e+002
2679722.704	-2.604532e+001	-1.179364e+002	-9.266283e+000	-1.723969e+001	-9.261163e+000	-1.695325e+001	-2.463114e+001	-1.509852e+002
2704159.445	-2.833083e+001	-1.175983e+002	-9.277481e+000	-2.325590e+001	-9.272863e+000	-2.297252e+001	-2.520193e+001	-1.646441e+002
2728596.187	-3.114022e+001	-1.119420e+002	-9.303622e+000	-2.924254e+001	-9.298572e+000	-2.896048e+001	-2.567568e+001	-1.789283e+002
2753032.929	-3.407789e+001	-9.483247e+001	-9.336143e+000	-3.516853e+001	-9.331633e+000	-3.490729e+001	-2.605269e+001	1.664856e+002
2777469.671	-3.500586e+001	-6.418739e+001	-9.377534e+000	-4.103134e+001	-9.372680e+000	-4.079042e+001	-2.630821e+001	1.518284e+002
2801906.412	-3.295528e+001	-4.011456e+001	-9.425504e+000	-4.685466e+001	-9.421924e+000	-4.663768e+001	-2.646303e+001	1.377157e+002
2826343.154	-3.035349e+001	-3.011612e+001	-9.480693e+000	-5.264467e+001	-9.476991e+000	-5.241690e+001	-2.655428e+001	1.241476e+002
2850779.896	-2.818512e+001	-2.715245e+001	-9.538384e+000	-5.835635e+001	-9.537132e+000	-5.814955e+001	-2.658857e+001	1.112298e+002
2875216.638	-2.646551e+001	-2.748790e+001	-9.600925e+000	-6.401842e+001	-9.599557e+000	-6.380713e+001	-2.662544e+001	9.919964e+001
2899653.380	-2.512283e+001	-2.957374e+001	-9.663677e+000	-6.961031e+001	-9.663126e+000	-6.941406e+001	-2.669525e+001	8.768661e+001
2924090.121	-2.404891e+001	-3.249704e+001	-9.726690e+000	-7.514268e+001	-9.727683e+000	-7.496257e+001	-2.680056e+001	7.685143e+001
2948526.863	-2.319629e+001	-3.599759e+001	-9.784796e+000	-8.064404e+001	-9.787752e+000	-8.046771e+001	-2.698039e+001	6.623416e+001
2972963.605	-2.250562e+001	-3.971474e+001	-9.842055e+000	-8.610906e+001	-9.847077e+000	-8.594417e+001	-2.726555e+001	5.605863e+001
2997400.347	-2.196233e+001	-4.356161e+001	-9.897129e+000	-9.154784e+001	-9.902825e+000	-9.139009e+001	-2.765238e+001	4.608524e+001
3021837.088	-2.153461e+001	-4.743892e+001	-9.949462e+000	-9.695570e+001	-9.955387e+000	-9.681024e+001	-2.816708e+001	3.604324e+001
3046273.830	-2.120344e+001	-5.131058e+001	-9.997221e+000	-1.023544e+002	-1.000541e+001	-1.022143e+002	-2.881809e+001	2.592040e+001
3070710.572	-2.096994e+001	-5.524500e+001	-1.003666e+001	-1.077355e+002	-1.004706e+001	-1.076017e+002	-2.963395e+001	1.496341e+001
3095147.314	-2.083304e+001	-5.911821e+001	-1.006745e+001	-1.131414e+002	-1.007769e+001	-1.130133e+002	-3.062663e+001	2.180732e+000
3119584.055	-2.079398e+001	-6.289020e+001	-1.009214e+001	-1.185901e+002	-1.010046e+001	-1.184768e+002	-3.184775e+001	-1.332638e+001
3144020.797	-2.085874e+001	-6.645089e+001	-1.011284e+001	-1.240922e+002	-1.012125e+001	-1.240611e+002	-3.332091e+001	-3.330488e+001
3168457.539	-2.103465e+001	-6.959306e+001	-1.013821e+001	-1.297367e+002	-1.014511e+001	-1.297083e+002	-3.456505e+001	-6.005551e+001
3192894.281	-2.130201e+001	-7.217500e+001	-1.017037e+001	-1.354508e+002	-1.017690e+001	-1.354408e+002	-3.468979e+001	-9.296492e+001
3217331.023	-2.165008e+001	-7.397483e+001	-1.021437e+001	-1.412391e+002	-1.022166e+001	-1.412588e+002	-3.325902e+001	-1.244228e+002
3241767.764	-2.204013e+001	-7.480991e+001	-1.027450e+001	-1.470694e+002	-1.028207e+001	-1.471064e+002	-3.113705e+001	-1.486419e+002
3266204.506	-2.242459e+001	-7.465255e+001	-1.035246e+001	-1.528571e+002	-1.036151e+001	-1.529171e+002	-2.909160e+001	-1.665244e+002
3290641.248	-2.277790e+001	-7.391324e+001	-1.042578e+001	-1.585527e+002	-1.043516e+001	-1.586357e+002	-2.726553e+001	-1.793948e+002
3315077.990	-2.319248e+001	-7.237076e+001	-1.047818e+001	-1.643531e+002	-1.048773e+001	-1.644584e+002	-2.549220e+001	1.707902e+002
3339514.731	-2.360822e+001	-6.887327e+001	-1.053669e+001	-1.703983e+002	-1.054858e+001	-1.705364e+002	-2.378057e+001	1.616487e+002
3363951.473	-2.378879e+001	-6.322059e+001	-1.062954e+001	-1.766232e+002	-1.064277e+001	-1.767718e+002	-2.224818e+001	1.525650e+002
3388388.215	-2.356490e+001	-5.660049e+001	-1.075605e+001	1.770989e+002	-1.077418e+001	1.769142e+002	-2.091075e+001	1.436327e+002
3412824.957	-2.289699e+001	-5.050145e+001	-1.092004e+001	1.708238e+002	-1.094085e+001	1.706177e+002	-1.975871e+001	1.350226e+002
3437261.698	-2.193203e+001	-4.613199e+001	-1.111739e+001	1.645746e+002	-1.114327e+001	1.643564e+002	-1.875363e+001	1.266786e+002
3461698.440	-2.082465e+001	-4.380949e+001	-1.134754e+001	1.584153e+002	-1.137837e+001	1.581809e+002	-1.788214e+001	1.186348e+002
3486135.182	-1.970382e+001	-4.335640e+001	-1.161199e+001	1.523923e+002	-1.164826e+001	1.521381e+002	-1.713363e+001	1.108819e+002
3510571.924	-1.864651e+001	-4.434697e+001	-1.190406e+001	1.465308e+002	-1.194704e+001	1.462855e+002	-1.649148e+001	1.034008e+002
3535008.666	-1.769131e+001	-4.638461e+001	-1.221512e+001	1.409174e+002	-1.226468e+001	1.406800e+002	-1.595018e+001	9.627521e+001
3559445.407	-1.685149e+001	-4.903149e+001	-1.253033e+001	1.355394e+002	-1.258486e+001	1.353088e+002	-1.548664e+001	8.957078e+001
3583882.149	-1.610745e+001	-5.198800e+001	-1.283685e+001	1.303426e+002	-1.289691e+001	1.301141e+002	-1.507972e+001	8.332131e+001
3608318.891	-1.543591e+001	-5.507553e+001	-1.313677e+001	1.252308e+002	-1.320381e+001	1.250375e+002	-1.470609e+001	7.743850e+001
3632755.633	-1.480832e+001	-5.833561e+001	-1.344372e+001	1.201258e+002	-1.350133e+001	1.200449e+002	-1.435765e+001	7.182562e+001
3657192.374	-1.423040e+001	-6.170229e+001	-1.374863e+001	1.151395e+002	-1.381139e+001	1.150995e+002	-1.402918e+001	6.635404e+001
3681629.116	-1.369312e+001	-6.517454e+001	-1.405672e+001	1.102110e+002	-1.412499e+001	1.102052e+002	-1.371675e+001	6.103883e+001
3706065.858	-1.319108e+001	-6.876407e+001	-1.437790e+001	1.053748e+002	-1.444692e+001	1.053906e+002	-1.342976e+001	5.583419e+001
3730502.600	-1.272901e+001	-7.245990e+001	-1.470591e+001	1.006545e+002	-1.478061e+001	1.006901e+002	-1.316496e+001	5.070219e+001
3754939.341	-1.230380e+001	-7.621771e+001	-1.503980e+001	9.605894e+001	-1.511838e+001	9.612250e+001	-1.292715e+001	4.568022e+001
3779376.083	-1.191317e+001	-7.999879e+001	-1.537640e+001	9.157246e+001	-1.545826e+001	9.169252e+001	-1.271399e+001	4.077341e+001
3803812.825	-1.155401e+001	-8.379836e+001	-1.571291e+001	8.721683e+001	-1.579953e+001	8.738700e+001	-1.252050e+001	3.600180e+001
3828249.567	-1.122086e+001	-8.759244e+001	-1.605179e+001	8.295953e+001	-1.613925e+001	8.316811e+001	-1.234147e+001	3.134351e+001
3852686.308	-1.091744e+001	-9.137394e+001	-1.638858e+001	7.885997e+001	-1.647655e+001	7.911779e+001	-1.218261e+001	2.680602e+001
3877123.050	-1.063590e+001	-9.512857e+001	-1.671471e+001	7.483948e+001	-1.680742e+001	7.514541e+001	-1.203805e+001	2.239665e+001
3901559.792	-1.037027e+001	-9.885113e+001	-1.704151e+001	7.087055e+001	-1.713402e+001	7.123451e+001	-1.189887e+001	1.808815e+001
3925996.534	-1.012229e+001	-1.025644e+002	-1.736895e+001	6.699206e+001	-1.746144e+001	6.739211e+001	-1.176900e+001	1.388151e+001
3950433.276	-9.890211e+000	-1.062644e+002	-1.769576e+001	6.316513e+001	-1.778850e+001	6.363404e+001	-1.164404e+001	9.743529e+000
3974870.017	-9.669924e+000	-1.099629e+002	-1.803075e+001	5.941446e+001	-1.812313e+001	5.995546e+001	-1.152646e+001	5.671882e+000
3999306.759	-9.464277e+000	-1.136624e+002	-1.836686e+001	5.577556e+001	-1.845854e+001	5.637399e+001	-1.141466e+001	1.660051e+000
4023743.501	-9.270705e+000	-1.173534e+002	-1.870590e+001	5.220294e+001	-1.879488e+001	5.283420e+001	-1.130582e+001	-2.293499e+000
4048180.243	-9.088488e+000	-1.210627e+002	-1.905591e+001	4.870226e+001	-1.914290e+001	4.942584e+001	-1.120129e+001	-6.214201e+000
4072616.984	-8.918262e+000	-1.247839e+002	-1.942163e+001	4.535861e+001	-1.950468e+001	4.610350e+001	-1.110107e+001	-1.011390e+001
4097053.726	-8.761322e+000	-1.285325e+002	-1.979613e+001	4.213374e+001	-1.987260e+001	4.298354e+001	-1.100777e+001	-1.398193e+001
4121490.468	-8.616521e+000	-1.322929e+002	-2.018496e+001	3.913683e+001	-2.025843e+001	3.998186e+001	-1.091692e+001	-1.784230e+001
4145927.210	-8.484135e+000	-1.360961e+002	-2.059409e+001	3.631000e+001	-2.065970e+001	3.721800e+001	-1.083233e+001	-2.170453e+001
4170363.951	-8.366908e+000	-1.399557e+002	-2.104288e+001	3.386374e+001	-2.108463e+001	3.479096e+001	-1.075321e+001	-2.555806e+001
4194800.693	-8.267999e+000	-1.438367e+002	-2.148182e+001	3.183918e+001	-2.152718e+001	3.280979e+001	-1.068509e+001	-2.946040e+001
4219237.435	-8.191696e+000	-1.477578e+002	-2.191468e+001	3.043361e+001	-2.195017e+001	3.139817e+001	-1.063229e+001	-3.335449e+001
4243674.177	-8.137596e+000	-1.516543e+002	-2.229681e+001	2.955637e+001	-2.232250e+001	3.054840e+001	-1.059551e+001	-3.722483e+001
4268110.919	-8.103526e+000	-1.555265e+002	-2.261170e+001	2.909889e+001	-2.263536e+001	3.009113e+001	-1.056729e+001	-4.103413e+001
4292547.660	-8.084460e+000	-1.593918e+002	-2.287059e+001	2.891991e+001	-2.289508e+001	2.988868e+001	-1.054414e+001	-4.482298e+001
4316984.402	-8.082915e+000	-1.632561e+002	-2.305676e+001	2.913158e+001	-2.307903e+001	3.016395e+001	-1.053213e+001	-4.861391e+001
4341421.144	-8.106580e+000	-1.670931e+002	-2.311792e+001	2.973569e+001	-2.313082e+001	3.075071e+001	-1.053612e+001	-5.236674e+001
4365857.886	-8.148110e+000	-1.708500e+002	-2.304978e+001	3.008539e+001	-2.306123e+001	3.117286e+001	-1.054894e+001	-5.604398e+001
4390294.627	-8.196835e+000	-1.744967e+002	-2.289076e+001	2.977405e+001	-2.289076e+001	3.086355e+001	-1.056202e+001	-5.956840e+001
4414731.369	-8.237808e+000	-1.781254e+002	-2.276398e+001	2.878943e+001	-2.275808e+001	2.984813e+001	-1.055246e+001	-6.304445e+001
4439168.111	-8.273130e+000	1.780929e+002	-2.274339e+001	2.788458e+001	-2.273509e+001	2.894848e+001	-1.051710e+001	-6.669199e+001
4463604.853	-8.320467e+000	1.740337e+002	-2.278806e+001	2.807950e+001	-2.277639e+001	2.921343e+001	-1.047359e+001	-7.064246e+001
4488041.594	-8.424305e+000	1.696442e+002	-2.269716e+001	3.016088e+001	-2.268611e+001	3.130699e+001	-1.046088e+001	-7.500478e+001
4512478.336	-8.623966e+000	1.651247e+002	-2.219349e+001	3.319327e+001	-2.216676e+001	3.436419e+001	-1.052554e+001	-7.966433e+001
4536915.078	-8.942057e+000	1.609159e+002	-2.119211e+001	3.455196e+001	-2.115675e+001	3.573005e+001	-1.070265e+001	-8.423803e+001
4561351.820	-9.314282e+000	1.574117e+002	-2.009138e+001	3.262246e+001	-2.003930e+001	3.368587e+001	-1.095039e+001	-8.823655e+001
4585788.562	-9.667847e+000	1.544994e+002	-1.918703e+001	2.856433e+001	-1.913162e+001	2.958791e+001	-1.119040e+001	-9.169857e+001
4610225.303	-9.997632e+000	1.518243e+002	-1.846786e+001	2.396077e+001	-1.841008e+001	2.498253e+001	-1.140162e+001	-9.496932e+001
4634662.045	-1.031783e+001	1.492848e+002	-1.785509e+001	1.921583e+001	-1.780054e+001	2.021968e+001	-1.160098e+001	-9.817929e+001
4659098.787	-1.063473e+001	1.468361e+002	-1.731868e+001	1.441857e+001	-1.726094e+001	1.539469e+001	-1.179690e+001	-1.013688e+002
4683535.529	-1.095823e+001	1.444120e+002	-1.684090e+001	9.757644e+000	-1.677543e+001	1.065538e+001	-1.199405e+001	-1.046219e+002
4707972.270	-1.131749e+001	1.419873e+002	-1.636933e+001	5.396202e+000	-1.630538e+001	6.245993e+000	-1.220603e+001	-1.080652e+002
4732409.012	-1.176441e+001	1.397854e+002	-1.582394e+001	1.188293e+000	-1.576614e+001	2.000743e+000	-1.249414e+001	-1.117598e+002
4756845.754	-1.228617e+001	1.385004e+002	-1.517216e+001	-3.605629e+000	-1.511577e+001	-2.805664e+000	-1.291198e+001	-1.152156e+002
4781282.496	-1.274468e+001	1.385255e+002	-1.452293e+001	-9.649763e+000	-1.444681e+001	-8.754754e+000	-1.343555e+001	-1.177194e+002
4805719.237	-1.304339e+001	1.392607e+002	-1.397047e+001	-1.643467e+001	-1.388721e+001	-1.567218e+001	-1.393874e+001	-1.189925e+002
4830155.979	-1.317240e+001	1.398993e+002	-1.354467e+001	-2.348816e+001	-1.345026e+001	-2.287615e+001	-1.434907e+001	-1.194620e+002
4854592.721	-1.319351e+001	1.402113e+002	-1.319002e+001	-3.056519e+001	-1.311236e+001	-3.005360e+001	-1.464865e+001	-1.195490e+002
4879029.463	-1.313167e+001	1.400717e+002	-1.289290e+001	-3.767281e+001	-1.283231e+001	-3.718370e+001	-1.485748e+001	-1.193963e+002
4903466.205	-1.302291e+001	1.393617e+002	-1.264882e+001	-4.474163e+001	-1.260185e+001	-4.427892e+001	-1.496741e+001	-1.191307e+002
4927902.946	-1.287957e+001	1.380876e+002	-1.245032e+001	-5.187989e+001	-1.241586e+001	-5.136367e+001	-1.497384e+001	-1.189022e+002
4952339.688	-1.274294e+001	1.362095e+002	-1.229977e+001	-5.897646e+001	-1.227139e+001	-5.839784e+001	-1.488903e+001	-1.189572e+002
4976776.430	-1.263203e+001	1.337734e+002	-1.220022e+001	-6.598198e+001	-1.216844e+001	-6.535544e+001	-1.472647e+001	-1.193864e+002
5001213.172	-1.256682e+001	1.309530e+002	-1.213238e+001	-7.288771e+001	-1.209962e+001	-7.223471e+001	-1.451539e+001	-1.202982e+002
5025649.913	-1.255360e+001	1.277931e+002	-1.210063e+001	-7.966197e+001	-1.205790e+001	-7.899428e+001	-1.428150e+001	-1.216908e+002
5050086.655	-1.259994e+001	1.244386e+002	-1.209071e+001	-8.629164e+001	-1.204144e+001	-8.564217e+001	-1.403826e+001	-1.235287e+002
5074523.397	-1.269862e+001	1.209640e+002	-1.209736e+001	-9.281858e+001	-1.204200e+001	-9.219287e+001	-1.380114e+001	-1.257485e+002
5098960.139	-1.284947e+001	1.173979e+002	-1.211689e+001	-9.923935e+001	-1.205876e+001	-9.867304e+001	-1.357301e+001	-1.282954e+002
5123396.880	-1.304885e+001	1.137939e+002	-1.214776e+001	-1.055747e+002	-1.208601e+001	-1.050576e+002	-1.336192e+001	-1.311048e+002
5147833.622	-1.329408e+001	1.101556e+002	-1.218923e+001	-1.118469e+002	-1.212553e+001	-1.114004e+002	-1.316362e+001	-1.341723e+002
5172270.364	-1.358574e+001	1.064755e+002	-1.223952e+001	-1.180689e+002	-1.217705e+001	-1.176814e+002	-1.298297e+001	-1.374396e+002
5196707.106	-1.392011e+001	1.027643e+002	-1.229876e+001	-1.242638e+002	-1.223859e+001	-1.239298e+002	-1.281583e+001	-1.409077e+002
5221143.847	-1.430674e+001	9.904052e+001	-1.236666e+001	-1.303512e+002	-1.231561e+001	-1.301539e+002	-1.266587e+001	-1.445687e+002
5245580.589	-1.474474e+001	9.522003e+001	-1.244961e+001	-1.364751e+002	-1.240157e+001	-1.363320e+002	-1.253480e+001	-1.484128e+002
5270017.331	-1.524153e+001	9.132856e+001	-1.254585e+001	-1.425618e+002	-1.250210e+001	-1.424617e+002	-1.242499e+001	-1.524336e+002
5294454.073	-1.580375e+001	8.738952e+001	-1.265033e+001	-1.485821e+002	-1.261094e+001	-1.485343e+002	-1.233661e+001	-1.566008e+002
5318890.815	-1.643563e+001	8.338382e+001	-1.276147e+001	-1.545640e+002	-1.272887e+001	-1.545552e+002	-1.227083e+001	-1.608790e+002
5343327.556	-1.714253e+001	7.927578e+001	-1.287969e+001	-1.605107e+002	-1.285254e+001	-1.605626e+002	-1.222193e+001	-1.652535e+002
5367764.298	-1.793376e+001	7.500279e+001	-1.300459e+001	-1.664593e+002	-1.298265e+001	-1.665448e+002	-1.218703e+001	-1.697268e+002
5392201.040	-1.883229e+001	7.043360e+001	-1.313825e+001	-1.723930e+002	-1.312522e+001	-1.725267e+002	-1.216896e+001	-1.743155e+002
5416637.782	-1.986291e+001	6.544972e+001	-1.328631e+001	-1.783241e+002	-1.328054e+001	-1.784904e+002	-1.216399e+001	-1.790432e+002
5441074.523	-2.106701e+001	5.989248e+001	-1.344447e+001	1.757628e+002	-1.344757e+001	1.755786e+002	-1.217626e+001	1.761143e+002
