!Agilent Technologies,E5061B,MY49101568,A.02.00
!Date: Wed Mar 01 15:47:41 2023
!Data & Calibration Information:
!Freq	S11:SOLT2(OFF)	S21:SOLT2(OFF)	S12:SOLT2(OFF)	S22:SOLT2(OFF)
# Hz S dB R 50
1800000.000	-1.295154e+001	-4.741311e+001	-1.230460e+001	-1.419446e+002	-1.231288e+001	-1.417516e+002	-1.380085e+001	-1.813698e+001
1824436.742	-1.377071e+001	-5.386896e+001	-1.180039e+001	-1.490628e+002	-1.180466e+001	-1.488749e+002	-1.469079e+001	-2.466368e+001
1848873.484	-1.477921e+001	-6.028094e+001	-1.133535e+001	-1.565501e+002	-1.134613e+001	-1.563479e+002	-1.577309e+001	-3.104436e+001
1873310.225	-1.600638e+001	-6.630832e+001	-1.092622e+001	-1.642410e+002	-1.093848e+001	-1.640152e+002	-1.707825e+001	-3.714774e+001
1897746.967	-1.750980e+001	-7.168474e+001	-1.057045e+001	-1.720638e+002	-1.058127e+001	-1.718386e+002	-1.865994e+001	-4.273964e+001
1922183.709	-1.937262e+001	-7.598011e+001	-1.026563e+001	1.799629e+002	-1.027384e+001	-1.797970e+002	-2.061204e+001	-4.742199e+001
1946620.451	-2.173298e+001	-7.789877e+001	-1.001160e+001	1.719132e+002	-1.001816e+001	1.721519e+002	-2.311542e+001	-5.007117e+001
1971057.192	-2.468193e+001	-7.442312e+001	-9.828518e+000	1.638334e+002	-9.828730e+000	1.640911e+002	-2.631982e+001	-4.744635e+001
1995493.934	-2.785660e+001	-5.917918e+001	-9.696068e+000	1.558289e+002	-9.698756e+000	1.561583e+002	-3.003158e+001	-3.240414e+001
2019930.676	-2.896526e+001	-2.896776e+001	-9.618926e+000	1.479957e+002	-9.618554e+000	1.483078e+002	-3.148301e+001	2.695701e+000
2044367.418	-2.669520e+001	-6.412196e+000	-9.591472e+000	1.402907e+002	-9.586311e+000	1.405888e+002	-2.889081e+001	2.783548e+001
2068804.159	-2.410822e+001	7.271978e-001	-9.609054e+000	1.328714e+002	-9.607904e+000	1.331793e+002	-2.601870e+001	3.423267e+001
2093240.901	-2.215024e+001	5.423274e-001	-9.663728e+000	1.258944e+002	-9.663802e+000	1.261205e+002	-2.394629e+001	3.318931e+001
2117677.643	-2.073420e+001	-2.371037e+000	-9.724562e+000	1.191963e+002	-9.718333e+000	1.194408e+002	-2.253078e+001	2.955298e+001
2142114.385	-1.970445e+001	-6.177260e+000	-9.775493e+000	1.128230e+002	-9.769428e+000	1.130303e+002	-2.151900e+001	2.483533e+001
2166551.127	-1.887012e+001	-1.036081e+001	-9.809976e+000	1.065468e+002	-9.805704e+000	1.067612e+002	-2.074980e+001	1.978355e+001
2190987.868	-1.820996e+001	-1.518481e+001	-9.846680e+000	1.004187e+002	-9.843883e+000	1.006074e+002	-2.013987e+001	1.422292e+001
2215424.610	-1.770819e+001	-2.038678e+001	-9.885773e+000	9.439916e+001	-9.883443e+000	9.463806e+001	-1.968722e+001	8.210932e+000
2239861.352	-1.735024e+001	-2.575100e+001	-9.913704e+000	8.859291e+001	-9.916350e+000	8.885648e+001	-1.938354e+001	1.815416e+000
2264298.094	-1.711790e+001	-3.112100e+001	-9.927789e+000	8.294855e+001	-9.927935e+000	8.319321e+001	-1.920058e+001	-4.601816e+000
2288734.835	-1.697018e+001	-3.633345e+001	-9.918791e+000	7.735804e+001	-9.920606e+000	7.760067e+001	-1.910538e+001	-1.110928e+001
2313171.577	-1.687136e+001	-4.155727e+001	-9.894970e+000	7.175144e+001	-9.897813e+000	7.199288e+001	-1.906482e+001	-1.769672e+001
2337608.319	-1.684388e+001	-4.689231e+001	-9.865005e+000	6.616438e+001	-9.868953e+000	6.640748e+001	-1.908647e+001	-2.452114e+001
2362045.061	-1.689078e+001	-5.232446e+001	-9.827734e+000	6.060157e+001	-9.834488e+000	6.082848e+001	-1.916535e+001	-3.155142e+001
2386481.802	-1.702148e+001	-5.788625e+001	-9.785580e+000	5.505323e+001	-9.794270e+000	5.525991e+001	-1.930128e+001	-3.904522e+001
2410918.544	-1.724690e+001	-6.323454e+001	-9.728154e+000	4.951460e+001	-9.737115e+000	4.976092e+001	-1.952547e+001	-4.686065e+001
2435355.286	-1.752137e+001	-6.847734e+001	-9.655849e+000	4.388506e+001	-9.663944e+000	4.413979e+001	-1.981025e+001	-5.466753e+001
2459792.028	-1.785802e+001	-7.376869e+001	-9.586343e+000	3.816397e+001	-9.592549e+000	3.842163e+001	-2.012013e+001	-6.287052e+001
2484228.769	-1.827167e+001	-7.911631e+001	-9.519144e+000	3.233395e+001	-9.526666e+000	3.265824e+001	-2.046845e+001	-7.158865e+001
2508665.511	-1.881218e+001	-8.448631e+001	-9.459443e+000	2.652545e+001	-9.461013e+000	2.686106e+001	-2.088068e+001	-8.080350e+001
2533102.253	-1.946127e+001	-8.957405e+001	-9.398733e+000	2.069183e+001	-9.401239e+000	2.096555e+001	-2.133135e+001	-9.044536e+001
2557538.995	-2.023992e+001	-9.448754e+001	-9.344312e+000	1.477495e+001	-9.345988e+000	1.504792e+001	-2.181807e+001	-1.007962e+002
2581975.737	-2.116101e+001	-9.911481e+001	-9.302608e+000	8.792652e+000	-9.302440e+000	9.085843e+000	-2.232820e+001	-1.117531e+002
2606412.478	-2.227175e+001	-1.032202e+002	-9.270078e+000	2.793970e+000	-9.269066e+000	3.076416e+000	-2.284078e+001	-1.233876e+002
2630849.220	-2.360317e+001	-1.065471e+002	-9.250081e+000	-3.233895e+000	-9.247626e+000	-2.957058e+000	-2.335284e+001	-1.357256e+002
2655285.962	-2.520620e+001	-1.085527e+002	-9.245582e+000	-9.259482e+000	-9.242832e+000	-8.986871e+000	-2.381330e+001	-1.487097e+002
2679722.704	-2.714270e+001	-1.083600e+002	-9.255548e+000	-1.527405e+001	-9.251094e+000	-1.501774e+001	-2.418895e+001	-1.622969e+002
2704159.445	-2.946422e+001	-1.039171e+002	-9.278688e+000	-2.125476e+001	-9.273188e+000	-2.100048e+001	-2.445894e+001	-1.761938e+002
2728596.187	-3.189424e+001	-9.126171e+001	-9.313629e+000	-2.719392e+001	-9.306858e+000	-2.695244e+001	-2.461574e+001	1.697513e+002
2753032.929	-3.314100e+001	-6.793613e+001	-9.356759e+000	-3.305837e+001	-9.352134e+000	-3.283638e+001	-2.467628e+001	1.557521e+002
2777469.671	-3.204658e+001	-4.499368e+001	-9.408793e+000	-3.887134e+001	-9.403127e+000	-3.865325e+001	-2.464327e+001	1.421235e+002
2801906.412	-2.985947e+001	-3.238375e+001	-9.465740e+000	-4.462992e+001	-9.462689e+000	-4.442236e+001	-2.455015e+001	1.291774e+002
2826343.154	-2.777471e+001	-2.750937e+001	-9.530828e+000	-5.033234e+001	-9.528512e+000	-5.012803e+001	-2.442647e+001	1.169595e+002
2850779.896	-2.604224e+001	-2.661928e+001	-9.599467e+000	-5.595977e+001	-9.597530e+000	-5.576111e+001	-2.428277e+001	1.053941e+002
2875216.638	-2.463267e+001	-2.787436e+001	-9.670692e+000	-6.153834e+001	-9.669816e+000	-6.131696e+001	-2.415203e+001	9.455422e+001
2899653.380	-2.347772e+001	-3.037258e+001	-9.744413e+000	-6.703650e+001	-9.742842e+000	-6.680358e+001	-2.405773e+001	8.422065e+001
2924090.121	-2.252558e+001	-3.356763e+001	-9.813426e+000	-7.245176e+001	-9.815934e+000	-7.223952e+001	-2.400449e+001	7.453359e+001
2948526.863	-2.173941e+001	-3.712850e+001	-9.880348e+000	-7.781927e+001	-9.885243e+000	-7.760507e+001	-2.399131e+001	6.513155e+001
2972963.605	-2.109983e+001	-4.096123e+001	-9.943162e+000	-8.316450e+001	-9.950180e+000	-8.294203e+001	-2.405477e+001	5.606870e+001
2997400.347	-2.057229e+001	-4.487983e+001	-1.000477e+001	-8.845515e+001	-1.001254e+001	-8.824168e+001	-2.419391e+001	4.732367e+001
3021837.088	-2.014286e+001	-4.889864e+001	-1.006010e+001	-9.372996e+001	-1.007036e+001	-9.350324e+001	-2.439464e+001	3.881051e+001
3046273.830	-1.979096e+001	-5.292887e+001	-1.011071e+001	-9.894519e+001	-1.012212e+001	-9.871696e+001	-2.464609e+001	3.034094e+001
3070710.572	-1.952283e+001	-5.698835e+001	-1.015320e+001	-1.041581e+002	-1.016587e+001	-1.039142e+002	-2.497657e+001	2.177551e+001
3095147.314	-1.932720e+001	-6.107833e+001	-1.018329e+001	-1.093645e+002	-1.019585e+001	-1.091166e+002	-2.540079e+001	1.274922e+001
3119584.055	-1.921521e+001	-6.526205e+001	-1.019896e+001	-1.146317e+002	-1.021462e+001	-1.143675e+002	-2.595420e+001	3.036654e+000
3144020.797	-1.920283e+001	-6.926308e+001	-1.021466e+001	-1.199548e+002	-1.022847e+001	-1.197245e+002	-2.668935e+001	-7.401196e+000
3168457.539	-1.926648e+001	-7.310030e+001	-1.022765e+001	-1.253730e+002	-1.023982e+001	-1.251358e+002	-2.762070e+001	-1.910284e+001
3192894.281	-1.941447e+001	-7.664916e+001	-1.024409e+001	-1.308756e+002	-1.025447e+001	-1.306407e+002	-2.876781e+001	-3.255466e+001
3217331.023	-1.964532e+001	-7.977309e+001	-1.026736e+001	-1.364670e+002	-1.027748e+001	-1.362249e+002	-3.012273e+001	-4.863590e+001
3241767.764	-1.994516e+001	-8.236473e+001	-1.030422e+001	-1.421011e+002	-1.031142e+001	-1.418596e+002	-3.157462e+001	-6.874031e+001
3266204.506	-2.027721e+001	-8.436638e+001	-1.035345e+001	-1.477140e+002	-1.036039e+001	-1.474706e+002	-3.267084e+001	-9.338083e+001
3290641.248	-2.062580e+001	-8.603723e+001	-1.039811e+001	-1.532396e+002	-1.040482e+001	-1.530060e+002	-3.267648e+001	-1.200872e+002
3315077.990	-2.108069e+001	-8.746432e+001	-1.041687e+001	-1.588490e+002	-1.042098e+001	-1.586306e+002	-3.121417e+001	-1.445928e+002
3339514.731	-2.168925e+001	-8.783044e+001	-1.043650e+001	-1.647247e+002	-1.043893e+001	-1.645265e+002	-2.906056e+001	-1.652953e+002
3363951.473	-2.236631e+001	-8.623233e+001	-1.048011e+001	-1.708237e+002	-1.048126e+001	-1.706338e+002	-2.691412e+001	1.777879e+002
3388388.215	-2.296509e+001	-8.231332e+001	-1.055891e+001	-1.770368e+002	-1.055965e+001	-1.768617e+002	-2.499235e+001	1.635884e+002
3412824.957	-2.330039e+001	-7.628938e+001	-1.067157e+001	1.767134e+002	-1.067108e+001	1.768638e+002	-2.332134e+001	1.514062e+002
3437261.698	-2.320674e+001	-6.904989e+001	-1.081720e+001	1.704424e+002	-1.081743e+001	1.705629e+002	-2.187390e+001	1.404979e+002
3461698.440	-2.264016e+001	-6.219253e+001	-1.099776e+001	1.642012e+002	-1.099883e+001	1.642999e+002	-2.062209e+001	1.305487e+002
3486135.182	-2.171945e+001	-5.717418e+001	-1.121501e+001	1.580649e+002	-1.122241e+001	1.581366e+002	-1.955635e+001	1.211639e+002
3510571.924	-2.063151e+001	-5.437117e+001	-1.146394e+001	1.520510e+002	-1.147518e+001	1.520950e+002	-1.863366e+001	1.124145e+002
3535008.666	-1.954793e+001	-5.360733e+001	-1.173821e+001	1.462652e+002	-1.175446e+001	1.462871e+002	-1.786082e+001	1.042264e+002
3559445.407	-1.854336e+001	-5.425459e+001	-1.202446e+001	1.406953e+002	-1.204376e+001	1.406878e+002	-1.720066e+001	9.666066e+001
3583882.149	-1.764519e+001	-5.574239e+001	-1.230340e+001	1.353008e+002	-1.233010e+001	1.352888e+002	-1.662626e+001	8.967052e+001
3608318.891	-1.682236e+001	-5.773682e+001	-1.258122e+001	1.299967e+002	-1.261374e+001	1.299725e+002	-1.609868e+001	8.317692e+001
3632755.633	-1.605911e+001	-6.013424e+001	-1.286423e+001	1.247011e+002	-1.289830e+001	1.247121e+002	-1.560884e+001	7.701129e+001
3657192.374	-1.535953e+001	-6.283318e+001	-1.314828e+001	1.195150e+002	-1.319334e+001	1.195395e+002	-1.515923e+001	7.105362e+001
3681629.116	-1.470299e+001	-6.579655e+001	-1.344152e+001	1.143773e+002	-1.349143e+001	1.144087e+002	-1.473596e+001	6.533281e+001
3706065.858	-1.409148e+001	-6.900303e+001	-1.374801e+001	1.092986e+002	-1.380616e+001	1.093368e+002	-1.434434e+001	5.970374e+001
3730502.600	-1.353053e+001	-7.241425e+001	-1.406908e+001	1.043475e+002	-1.413635e+001	1.043873e+002	-1.399204e+001	5.419134e+001
3754939.341	-1.301522e+001	-7.598827e+001	-1.440089e+001	9.951166e+001	-1.447265e+001	9.958120e+001	-1.367582e+001	4.881038e+001
3779376.083	-1.254582e+001	-7.963968e+001	-1.473396e+001	9.480110e+001	-1.481459e+001	9.492284e+001	-1.339059e+001	4.356807e+001
3803812.825	-1.211752e+001	-8.336148e+001	-1.507607e+001	9.024306e+001	-1.516128e+001	9.037740e+001	-1.313430e+001	3.846606e+001
3828249.567	-1.172782e+001	-8.710416e+001	-1.541697e+001	8.580334e+001	-1.550909e+001	8.599578e+001	-1.290781e+001	3.351367e+001
3852686.308	-1.136827e+001	-9.087369e+001	-1.576054e+001	8.151413e+001	-1.585430e+001	8.174400e+001	-1.269963e+001	2.870934e+001
3877123.050	-1.103882e+001	-9.461776e+001	-1.610092e+001	7.731437e+001	-1.620075e+001	7.758566e+001	-1.250893e+001	2.404426e+001
3901559.792	-1.073341e+001	-9.833449e+001	-1.643284e+001	7.319031e+001	-1.653545e+001	7.351299e+001	-1.233404e+001	1.953187e+001
3925996.534	-1.044719e+001	-1.020715e+002	-1.677634e+001	6.915811e+001	-1.687988e+001	6.954260e+001	-1.216821e+001	1.509745e+001
3950433.276	-1.018049e+001	-1.057941e+002	-1.711536e+001	6.520442e+001	-1.722258e+001	6.562707e+001	-1.201195e+001	1.078297e+001
3974870.017	-9.932509e+000	-1.095175e+002	-1.746123e+001	6.132837e+001	-1.757318e+001	6.179815e+001	-1.186437e+001	6.523461e+000
3999306.759	-9.699083e+000	-1.132262e+002	-1.780879e+001	5.754770e+001	-1.792603e+001	5.810567e+001	-1.172597e+001	2.348268e+000
4023743.501	-9.481455e+000	-1.169567e+002	-1.816729e+001	5.386775e+001	-1.828068e+001	5.446662e+001	-1.159291e+001	-1.744945e+000
4048180.243	-9.277213e+000	-1.207070e+002	-1.853800e+001	5.027313e+001	-1.864842e+001	5.095233e+001	-1.146677e+001	-5.810647e+000
4072616.984	-9.088425e+000	-1.244646e+002	-1.891517e+001	4.683716e+001	-1.902835e+001	4.753816e+001	-1.134454e+001	-9.835769e+000
4097053.726	-8.914349e+000	-1.282487e+002	-1.930914e+001	4.355081e+001	-1.941960e+001	4.427566e+001	-1.122873e+001	-1.382440e+001
4121490.468	-8.751832e+000	-1.320559e+002	-1.971968e+001	4.042751e+001	-1.983106e+001	4.124713e+001	-1.112154e+001	-1.781107e+001
4145927.210	-8.606423e+000	-1.359046e+002	-2.015169e+001	3.756388e+001	-2.025662e+001	3.846990e+001	-1.102003e+001	-2.178782e+001
4170363.951	-8.476602e+000	-1.397909e+002	-2.060559e+001	3.508870e+001	-2.070309e+001	3.591674e+001	-1.092362e+001	-2.573275e+001
4194800.693	-8.366600e+000	-1.437269e+002	-2.107231e+001	3.301513e+001	-2.116645e+001	3.393822e+001	-1.084472e+001	-2.974261e+001
4219237.435	-8.281927e+000	-1.476895e+002	-2.152614e+001	3.156463e+001	-2.161427e+001	3.256555e+001	-1.078142e+001	-3.373944e+001
4243674.177	-8.221286e+000	-1.516387e+002	-2.193009e+001	3.068418e+001	-2.201107e+001	3.169588e+001	-1.073325e+001	-3.768687e+001
4268110.919	-8.179027e+000	-1.555484e+002	-2.227487e+001	3.014948e+001	-2.234666e+001	3.127004e+001	-1.069625e+001	-4.157478e+001
4292547.660	-8.152168e+000	-1.594590e+002	-2.256263e+001	2.997191e+001	-2.262697e+001	3.107361e+001	-1.066286e+001	-4.542472e+001
4316984.402	-8.146580e+000	-1.633826e+002	-2.278541e+001	3.028350e+001	-2.283464e+001	3.144178e+001	-1.064264e+001	-4.928897e+001
4341421.144	-8.167380e+000	-1.672712e+002	-2.287332e+001	3.095116e+001	-2.291299e+001	3.209577e+001	-1.063797e+001	-5.310872e+001
4365857.886	-8.211261e+000	-1.710538e+002	-2.280568e+001	3.142828e+001	-2.284681e+001	3.259916e+001	-1.064605e+001	-5.682768e+001
4390294.627	-8.259450e+000	-1.747305e+002	-2.265620e+001	3.115443e+001	-2.269397e+001	3.233838e+001	-1.065100e+001	-6.039892e+001
4414731.369	-8.296661e+000	-1.783676e+002	-2.254742e+001	3.017155e+001	-2.257157e+001	3.139135e+001	-1.063457e+001	-6.390883e+001
4439168.111	-8.324713e+000	1.778390e+002	-2.254923e+001	2.922817e+001	-2.255596e+001	3.049591e+001	-1.058984e+001	-6.756774e+001
4463604.853	-8.367079e+000	1.737203e+002	-2.262892e+001	2.955846e+001	-2.262431e+001	3.075865e+001	-1.053212e+001	-7.153097e+001
4488041.594	-8.461708e+000	1.692764e+002	-2.257178e+001	3.170226e+001	-2.255817e+001	3.292667e+001	-1.050330e+001	-7.593089e+001
4512478.336	-8.656338e+000	1.646446e+002	-2.209388e+001	3.499369e+001	-2.207374e+001	3.622855e+001	-1.054800e+001	-8.069244e+001
4536915.078	-8.974710e+000	1.602794e+002	-2.110066e+001	3.667497e+001	-2.106308e+001	3.778927e+001	-1.071113e+001	-8.539615e+001
4561351.820	-9.361414e+000	1.566686e+002	-1.997767e+001	3.479555e+001	-1.992719e+001	3.591023e+001	-1.095691e+001	-8.955546e+001
4585788.562	-9.725475e+000	1.537265e+002	-1.907746e+001	3.065069e+001	-1.902318e+001	3.169382e+001	-1.119326e+001	-9.306534e+001
4610225.303	-1.004598e+001	1.509647e+002	-1.841371e+001	2.603618e+001	-1.835724e+001	2.705829e+001	-1.138329e+001	-9.637817e+001
4634662.045	-1.035859e+001	1.481805e+002	-1.786181e+001	2.161126e+001	-1.779968e+001	2.257629e+001	-1.155521e+001	-9.976200e+001
4659098.787	-1.069605e+001	1.454262e+002	-1.733832e+001	1.730956e+001	-1.727507e+001	1.821434e+001	-1.173348e+001	-1.032545e+002
4683535.529	-1.105413e+001	1.427350e+002	-1.684986e+001	1.301188e+001	-1.678301e+001	1.385116e+001	-1.192339e+001	-1.068123e+002
4707972.270	-1.145733e+001	1.400731e+002	-1.636345e+001	8.943069e+000	-1.629076e+001	9.690635e+000	-1.213852e+001	-1.105578e+002
4732409.012	-1.195571e+001	1.375881e+002	-1.580477e+001	4.993346e+000	-1.573544e+001	5.612202e+000	-1.242291e+001	-1.145578e+002
4756845.754	-1.255450e+001	1.360293e+002	-1.513771e+001	4.055807e-001	-1.507860e+001	1.002122e+000	-1.283676e+001	-1.184656e+002
4781282.496	-1.314479e+001	1.358828e+002	-1.445642e+001	-5.323622e+000	-1.440437e+001	-4.704540e+000	-1.337002e+001	-1.216301e+002
4805719.237	-1.358123e+001	1.368565e+002	-1.387454e+001	-1.197988e+001	-1.382356e+001	-1.132064e+001	-1.393140e+001	-1.236961e+002
4830155.979	-1.383477e+001	1.380344e+002	-1.341828e+001	-1.889439e+001	-1.336281e+001	-1.826231e+001	-1.444804e+001	-1.248990e+002
4854592.721	-1.394313e+001	1.390689e+002	-1.304219e+001	-2.589284e+001	-1.298886e+001	-2.528890e+001	-1.489785e+001	-1.254692e+002
4879029.463	-1.395131e+001	1.397208e+002	-1.272423e+001	-3.283424e+001	-1.267361e+001	-3.229382e+001	-1.528203e+001	-1.255470e+002
4903466.205	-1.386505e+001	1.399287e+002	-1.245075e+001	-3.987258e+001	-1.240592e+001	-3.929518e+001	-1.558199e+001	-1.251866e+002
4927902.946	-1.371914e+001	1.395172e+002	-1.222614e+001	-4.693921e+001	-1.218516e+001	-4.632769e+001	-1.577450e+001	-1.245044e+002
4952339.688	-1.355746e+001	1.383583e+002	-1.205575e+001	-5.400491e+001	-1.200628e+001	-5.332319e+001	-1.585182e+001	-1.237807e+002
4976776.430	-1.340877e+001	1.366241e+002	-1.192537e+001	-6.097770e+001	-1.187714e+001	-6.030354e+001	-1.579978e+001	-1.232304e+002
5001213.172	-1.329443e+001	1.343616e+002	-1.183555e+001	-6.787635e+001	-1.178231e+001	-6.718499e+001	-1.566131e+001	-1.231161e+002
5025649.913	-1.323249e+001	1.317092e+002	-1.177726e+001	-7.465557e+001	-1.172106e+001	-7.398141e+001	-1.545760e+001	-1.234925e+002
5050086.655	-1.322403e+001	1.287853e+002	-1.174462e+001	-8.132223e+001	-1.168514e+001	-8.065676e+001	-1.522272e+001	-1.244099e+002
5074523.397	-1.327035e+001	1.256721e+002	-1.173242e+001	-8.789245e+001	-1.167001e+001	-8.723399e+001	-1.497273e+001	-1.258180e+002
5098960.139	-1.337045e+001	1.224684e+002	-1.173589e+001	-9.434820e+001	-1.166869e+001	-9.371969e+001	-1.472529e+001	-1.276375e+002
5123396.880	-1.352205e+001	1.191777e+002	-1.175210e+001	-1.007287e+002	-1.168533e+001	-1.001362e+002	-1.448072e+001	-1.298265e+002
5147833.622	-1.372474e+001	1.158382e+002	-1.178306e+001	-1.070380e+002	-1.171089e+001	-1.064586e+002	-1.425079e+001	-1.323402e+002
5172270.364	-1.397094e+001	1.124891e+002	-1.182048e+001	-1.132886e+002	-1.174860e+001	-1.127517e+002	-1.403226e+001	-1.351112e+002
5196707.106	-1.426603e+001	1.091180e+002	-1.187023e+001	-1.194886e+002	-1.179449e+001	-1.189903e+002	-1.382900e+001	-1.381329e+002
5221143.847	-1.460536e+001	1.057169e+002	-1.192849e+001	-1.256412e+002	-1.185577e+001	-1.252158e+002	-1.363874e+001	-1.413795e+002
5245580.589	-1.499813e+001	1.022802e+002	-1.199969e+001	-1.317861e+002	-1.192624e+001	-1.314033e+002	-1.346705e+001	-1.448625e+002
5270017.331	-1.544694e+001	9.883520e+001	-1.208098e+001	-1.378830e+002	-1.200871e+001	-1.375562e+002	-1.331505e+001	-1.485597e+002
5294454.073	-1.595691e+001	9.537030e+001	-1.217300e+001	-1.439365e+002	-1.210319e+001	-1.436422e+002	-1.318637e+001	-1.524505e+002
5318890.815	-1.653539e+001	9.192340e+001	-1.227153e+001	-1.499401e+002	-1.220529e+001	-1.496751e+002	-1.308289e+001	-1.564875e+002
5343327.556	-1.718408e+001	8.846042e+001	-1.237716e+001	-1.559192e+002	-1.231220e+001	-1.556996e+002	-1.299562e+001	-1.606437e+002
5367764.298	-1.790756e+001	8.492532e+001	-1.248722e+001	-1.618891e+002	-1.242718e+001	-1.617024e+002	-1.292683e+001	-1.649275e+002
5392201.040	-1.872830e+001	8.126803e+001	-1.260692e+001	-1.678711e+002	-1.255331e+001	-1.677226e+002	-1.286874e+001	-1.693546e+002
5416637.782	-1.967887e+001	7.742688e+001	-1.273967e+001	-1.738397e+002	-1.269246e+001	-1.737189e+002	-1.282983e+001	-1.739472e+002
5441074.523	-2.079248e+001	7.334826e+001	-1.288517e+001	-1.797851e+002	-1.284219e+001	-1.796909e+002	-1.281004e+001	-1.786547e+002
