!Agilent Technologies,E5061B,MY49101568,A.02.00
!Date: Wed Mar 01 15:50:35 2023
!Data & Calibration Information:
!Freq	S11:SOLT2(OFF)	S21:SOLT2(OFF)	S12:SOLT2(OFF)	S22:SOLT2(OFF)
# Hz S dB R 50
1800000.000	-9.177757e+000	-1.710410e+001	-2.773280e+001	-1.269096e+002	-2.776865e+001	-1.269096e+002	-9.556276e+000	1.926989e+001
1824436.742	-9.244173e+000	-2.132091e+001	-2.735294e+001	-1.305462e+002	-2.739080e+001	-1.305008e+002	-9.646976e+000	1.559718e+001
1848873.484	-9.312567e+000	-2.562254e+001	-2.697459e+001	-1.342146e+002	-2.701855e+001	-1.341882e+002	-9.740152e+000	1.185490e+001
1873310.225	-9.383010e+000	-2.998124e+001	-2.656816e+001	-1.380228e+002	-2.662724e+001	-1.379729e+002	-9.827423e+000	8.082053e+000
1897746.967	-9.454972e+000	-3.442867e+001	-2.614208e+001	-1.419062e+002	-2.623025e+001	-1.417812e+002	-9.909001e+000	4.240881e+000
1922183.709	-9.523665e+000	-3.898706e+001	-2.573086e+001	-1.458108e+002	-2.580996e+001	-1.456697e+002	-9.987876e+000	3.041170e-001
1946620.451	-9.594589e+000	-4.365918e+001	-2.528354e+001	-1.498947e+002	-2.538946e+001	-1.497063e+002	-1.006317e+001	-3.708037e+000
1971057.192	-9.665902e+000	-4.847051e+001	-2.484196e+001	-1.540225e+002	-2.495220e+001	-1.537645e+002	-1.013513e+001	-7.825163e+000
1995493.934	-9.745231e+000	-5.340327e+001	-2.438294e+001	-1.583480e+002	-2.449678e+001	-1.579190e+002	-1.020473e+001	-1.202929e+001
2019930.676	-9.825096e+000	-5.847595e+001	-2.392218e+001	-1.626590e+002	-2.403781e+001	-1.622375e+002	-1.027077e+001	-1.629496e+001
2044367.418	-9.908625e+000	-6.368684e+001	-2.343742e+001	-1.672119e+002	-2.355548e+001	-1.666877e+002	-1.033039e+001	-2.072269e+001
2068804.159	-9.997365e+000	-6.903521e+001	-2.295425e+001	-1.718160e+002	-2.307501e+001	-1.713202e+002	-1.038695e+001	-2.521344e+001
2093240.901	-1.009018e+001	-7.453712e+001	-2.247378e+001	-1.765979e+002	-2.258491e+001	-1.761312e+002	-1.044076e+001	-2.976550e+001
2117677.643	-1.019415e+001	-8.025475e+001	-2.198497e+001	1.784145e+002	-2.209200e+001	1.788979e+002	-1.049077e+001	-3.444756e+001
2142114.385	-1.030669e+001	-8.616034e+001	-2.149153e+001	1.732452e+002	-2.159565e+001	1.737603e+002	-1.053044e+001	-3.922509e+001
2166551.127	-1.043136e+001	-9.225012e+001	-2.099173e+001	1.679200e+002	-2.109649e+001	1.684737e+002	-1.057133e+001	-4.413378e+001
2190987.868	-1.056760e+001	-9.857056e+001	-2.050168e+001	1.623306e+002	-2.060488e+001	1.629331e+002	-1.060703e+001	-4.915539e+001
2215424.610	-1.072271e+001	-1.051107e+002	-2.001624e+001	1.565051e+002	-2.010809e+001	1.571632e+002	-1.064241e+001	-5.429910e+001
2239861.352	-1.089150e+001	-1.118622e+002	-1.954499e+001	1.505197e+002	-1.963763e+001	1.512207e+002	-1.066769e+001	-5.955077e+001
2264298.094	-1.107497e+001	-1.188509e+002	-1.908701e+001	1.443568e+002	-1.917368e+001	1.451434e+002	-1.069051e+001	-6.490808e+001
2288734.835	-1.127308e+001	-1.261005e+002	-1.864314e+001	1.380284e+002	-1.872448e+001	1.388530e+002	-1.070674e+001	-7.037621e+001
2313171.577	-1.148902e+001	-1.335846e+002	-1.822023e+001	1.315706e+002	-1.828938e+001	1.323626e+002	-1.071855e+001	-7.596794e+001
2337608.319	-1.172425e+001	-1.413120e+002	-1.781956e+001	1.249099e+002	-1.787518e+001	1.256899e+002	-1.072631e+001	-8.165373e+001
2362045.061	-1.196627e+001	-1.492495e+002	-1.745042e+001	1.181565e+002	-1.747434e+001	1.187124e+002	-1.073845e+001	-8.741312e+001
2386481.802	-1.222599e+001	-1.574347e+002	-1.710655e+001	1.111674e+002	-1.711505e+001	1.117454e+002	-1.073018e+001	-9.329073e+001
2410918.544	-1.248851e+001	-1.658367e+002	-1.679001e+001	1.040768e+002	-1.679054e+001	1.046448e+002	-1.071200e+001	-9.928120e+001
2435355.286	-1.275917e+001	-1.744889e+002	-1.650120e+001	9.691005e+001	-1.649035e+001	9.746400e+001	-1.068771e+001	-1.053810e+002
2459792.028	-1.302953e+001	1.766727e+002	-1.624550e+001	8.959418e+001	-1.622288e+001	9.013623e+001	-1.065711e+001	-1.115904e+002
2484228.769	-1.328301e+001	1.676753e+002	-1.602706e+001	8.223093e+001	-1.599361e+001	8.282910e+001	-1.061567e+001	-1.179205e+002
2508665.511	-1.352675e+001	1.585426e+002	-1.584642e+001	7.482203e+001	-1.579749e+001	7.540417e+001	-1.057222e+001	-1.243251e+002
2533102.253	-1.374046e+001	1.493248e+002	-1.569980e+001	6.746191e+001	-1.564045e+001	6.795841e+001	-1.052470e+001	-1.308124e+002
2557538.995	-1.393200e+001	1.400203e+002	-1.558981e+001	6.000102e+001	-1.551751e+001	6.049099e+001	-1.047417e+001	-1.374046e+002
2581975.737	-1.408716e+001	1.307401e+002	-1.551085e+001	5.259551e+001	-1.543020e+001	5.304098e+001	-1.042601e+001	-1.440808e+002
2606412.478	-1.420488e+001	1.214885e+002	-1.546911e+001	4.523073e+001	-1.537607e+001	4.561176e+001	-1.037972e+001	-1.508157e+002
2630849.220	-1.428618e+001	1.123308e+002	-1.546141e+001	3.792954e+001	-1.536058e+001	3.823639e+001	-1.033840e+001	-1.576145e+002
2655285.962	-1.432605e+001	1.033284e+002	-1.548346e+001	3.072708e+001	-1.537608e+001	3.095606e+001	-1.030275e+001	-1.644397e+002
2679722.704	-1.432676e+001	9.451084e+001	-1.553563e+001	2.361184e+001	-1.542229e+001	2.376506e+001	-1.027592e+001	-1.712623e+002
2704159.445	-1.429229e+001	8.593417e+001	-1.561641e+001	1.661159e+001	-1.550032e+001	1.670838e+001	-1.025712e+001	-1.780550e+002
2728596.187	-1.423009e+001	7.757714e+001	-1.572378e+001	9.741188e+000	-1.560684e+001	9.772269e+000	-1.024914e+001	1.751748e+002
2753032.929	-1.414380e+001	6.951919e+001	-1.585478e+001	3.046635e+000	-1.573714e+001	2.988872e+000	-1.024951e+001	1.684741e+002
2777469.671	-1.403807e+001	6.173701e+001	-1.600586e+001	-3.491423e+000	-1.588694e+001	-3.583823e+000	-1.025790e+001	1.618431e+002
2801906.412	-1.391622e+001	5.426116e+001	-1.617275e+001	-9.868173e+000	-1.606343e+001	-1.002152e+001	-1.027676e+001	1.553280e+002
2826343.154	-1.378416e+001	4.705343e+001	-1.635648e+001	-1.607482e+001	-1.625056e+001	-1.626900e+001	-1.030579e+001	1.489280e+002
2850779.896	-1.364548e+001	4.014020e+001	-1.655110e+001	-2.211946e+001	-1.645280e+001	-2.235819e+001	-1.034487e+001	1.426639e+002
2875216.638	-1.350087e+001	3.349938e+001	-1.675926e+001	-2.801054e+001	-1.667006e+001	-2.821223e+001	-1.038597e+001	1.365463e+002
2899653.380	-1.335650e+001	2.712950e+001	-1.697110e+001	-3.371094e+001	-1.689177e+001	-3.394287e+001	-1.044069e+001	1.305794e+002
2924090.121	-1.321102e+001	2.102384e+001	-1.718999e+001	-3.922054e+001	-1.711986e+001	-3.948260e+001	-1.049997e+001	1.247676e+002
2948526.863	-1.306544e+001	1.514977e+001	-1.741067e+001	-4.457674e+001	-1.734757e+001	-4.485746e+001	-1.056303e+001	1.191131e+002
2972963.605	-1.291964e+001	9.495665e+000	-1.763110e+001	-4.976473e+001	-1.757633e+001	-5.006504e+001	-1.062990e+001	1.136123e+002
2997400.347	-1.277719e+001	4.044108e+000	-1.784665e+001	-5.480047e+001	-1.780196e+001	-5.511462e+001	-1.070060e+001	1.082671e+002
3021837.088	-1.263642e+001	-1.197551e+000	-1.806326e+001	-5.967873e+001	-1.802835e+001	-6.001190e+001	-1.077126e+001	1.030633e+002
3046273.830	-1.249891e+001	-6.266617e+000	-1.827252e+001	-6.442211e+001	-1.824837e+001	-6.474718e+001	-1.084342e+001	9.800919e+001
3070710.572	-1.236307e+001	-1.116938e+001	-1.847596e+001	-6.900920e+001	-1.846163e+001	-6.933757e+001	-1.091294e+001	9.307834e+001
3095147.314	-1.223053e+001	-1.592719e+001	-1.867143e+001	-7.347266e+001	-1.866625e+001	-7.379186e+001	-1.098311e+001	8.828714e+001
3119584.055	-1.210167e+001	-2.054091e+001	-1.885802e+001	-7.782631e+001	-1.885822e+001	-7.812406e+001	-1.105320e+001	8.362060e+001
3144020.797	-1.197647e+001	-2.503144e+001	-1.903105e+001	-8.204520e+001	-1.904585e+001	-8.236527e+001	-1.112189e+001	7.907780e+001
3168457.539	-1.185513e+001	-2.940023e+001	-1.919572e+001	-8.618913e+001	-1.921669e+001	-8.650234e+001	-1.119130e+001	7.463716e+001
3192894.281	-1.173730e+001	-3.364919e+001	-1.934915e+001	-9.027873e+001	-1.937656e+001	-9.057845e+001	-1.125887e+001	7.030579e+001
3217331.023	-1.162245e+001	-3.779429e+001	-1.949087e+001	-9.428737e+001	-1.952753e+001	-9.455591e+001	-1.132458e+001	6.607706e+001
3241767.764	-1.151146e+001	-4.184503e+001	-1.962628e+001	-9.818840e+001	-1.966887e+001	-9.846269e+001	-1.139010e+001	6.195216e+001
3266204.506	-1.140196e+001	-4.580206e+001	-1.975274e+001	-1.020505e+002	-1.980445e+001	-1.022769e+002	-1.145075e+001	5.792678e+001
3290641.248	-1.129262e+001	-4.967915e+001	-1.987065e+001	-1.057696e+002	-1.992452e+001	-1.059706e+002	-1.150383e+001	5.397283e+001
3315077.990	-1.118540e+001	-5.351014e+001	-1.996080e+001	-1.093811e+002	-2.002687e+001	-1.095672e+002	-1.155650e+001	5.006978e+001
3339514.731	-1.108322e+001	-5.728648e+001	-2.003545e+001	-1.129742e+002	-2.010013e+001	-1.131506e+002	-1.160965e+001	4.622322e+001
3363951.473	-1.098778e+001	-6.100485e+001	-2.008900e+001	-1.166039e+002	-2.016340e+001	-1.167150e+002	-1.166633e+001	4.243774e+001
3388388.215	-1.089633e+001	-6.466864e+001	-2.012937e+001	-1.201911e+002	-2.020828e+001	-1.202559e+002	-1.172122e+001	3.873123e+001
3412824.957	-1.080925e+001	-6.826617e+001	-2.015985e+001	-1.237572e+002	-2.024457e+001	-1.237892e+002	-1.177539e+001	3.509697e+001
3437261.698	-1.072870e+001	-7.181397e+001	-2.017891e+001	-1.273212e+002	-2.026549e+001	-1.273166e+002	-1.183101e+001	3.152726e+001
3461698.440	-1.065154e+001	-7.531230e+001	-2.017790e+001	-1.308771e+002	-2.026986e+001	-1.308382e+002	-1.188784e+001	2.802203e+001
3486135.182	-1.057988e+001	-7.875708e+001	-2.016755e+001	-1.344423e+002	-2.026395e+001	-1.343480e+002	-1.194167e+001	2.457347e+001
3510571.924	-1.051322e+001	-8.215756e+001	-2.014382e+001	-1.380286e+002	-2.024425e+001	-1.378796e+002	-1.199731e+001	2.120942e+001
3535008.666	-1.045076e+001	-8.549616e+001	-2.010701e+001	-1.416092e+002	-2.021091e+001	-1.414108e+002	-1.205133e+001	1.789957e+001
3559445.407	-1.039106e+001	-8.878290e+001	-2.005712e+001	-1.451874e+002	-2.016343e+001	-1.449372e+002	-1.210317e+001	1.465469e+001
3583882.149	-1.033286e+001	-9.203534e+001	-1.998668e+001	-1.487444e+002	-2.009733e+001	-1.484616e+002	-1.214848e+001	1.144125e+001
3608318.891	-1.027598e+001	-9.525334e+001	-1.990297e+001	-1.523558e+002	-2.001159e+001	-1.520194e+002	-1.219585e+001	8.255362e+000
3632755.633	-1.022717e+001	-9.846615e+001	-1.978382e+001	-1.561983e+002	-1.990167e+001	-1.556481e+002	-1.224488e+001	5.071429e+000
3657192.374	-1.017793e+001	-1.016506e+002	-1.965774e+001	-1.599693e+002	-1.977562e+001	-1.594093e+002	-1.229547e+001	1.938885e+000
3681629.116	-1.013589e+001	-1.048144e+002	-1.951775e+001	-1.639130e+002	-1.963849e+001	-1.632714e+002	-1.235034e+001	-1.161207e+000
3706065.858	-1.009824e+001	-1.079631e+002	-1.937016e+001	-1.679725e+002	-1.948942e+001	-1.672579e+002	-1.240896e+001	-4.234747e+000
3730502.600	-1.006825e+001	-1.111003e+002	-1.921360e+001	-1.721619e+002	-1.933734e+001	-1.713582e+002	-1.247075e+001	-7.259863e+000
3754939.341	-1.004664e+001	-1.142048e+002	-1.905767e+001	-1.764760e+002	-1.917880e+001	-1.756057e+002	-1.253985e+001	-1.022846e+001
3779376.083	-1.003223e+001	-1.172962e+002	-1.890206e+001	1.791218e+002	-1.901979e+001	-1.799685e+002	-1.261458e+001	-1.315081e+001
3803812.825	-1.002715e+001	-1.203554e+002	-1.874668e+001	1.746052e+002	-1.886211e+001	1.755676e+002	-1.269421e+001	-1.600513e+001
3828249.567	-1.003256e+001	-1.233780e+002	-1.858873e+001	1.699793e+002	-1.870138e+001	1.709796e+002	-1.277872e+001	-1.879472e+001
3852686.308	-1.005100e+001	-1.263441e+002	-1.843364e+001	1.652079e+002	-1.854180e+001	1.662639e+002	-1.287185e+001	-2.150884e+001
3877123.050	-1.007862e+001	-1.292779e+002	-1.827834e+001	1.603822e+002	-1.838088e+001	1.614180e+002	-1.297156e+001	-2.414922e+001
3901559.792	-1.011948e+001	-1.321212e+002	-1.812680e+001	1.553977e+002	-1.821779e+001	1.564218e+002	-1.308056e+001	-2.668114e+001
3925996.534	-1.017360e+001	-1.348824e+002	-1.797622e+001	1.502616e+002	-1.806394e+001	1.512871e+002	-1.319628e+001	-2.908620e+001
3950433.276	-1.024212e+001	-1.375328e+002	-1.782989e+001	1.449274e+002	-1.791392e+001	1.459355e+002	-1.332032e+001	-3.133617e+001
3974870.017	-1.032258e+001	-1.400008e+002	-1.769811e+001	1.393691e+002	-1.778050e+001	1.403740e+002	-1.344882e+001	-3.337424e+001
3999306.759	-1.040816e+001	-1.422773e+002	-1.758671e+001	1.336019e+002	-1.766384e+001	1.345848e+002	-1.357756e+001	-3.516536e+001
4023743.501	-1.049356e+001	-1.443066e+002	-1.750539e+001	1.275626e+002	-1.758171e+001	1.285553e+002	-1.369532e+001	-3.664753e+001
4048180.243	-1.056946e+001	-1.461063e+002	-1.745507e+001	1.213332e+002	-1.753468e+001	1.222787e+002	-1.379092e+001	-3.781679e+001
4072616.984	-1.062000e+001	-1.476105e+002	-1.746418e+001	1.148617e+002	-1.753665e+001	1.158473e+002	-1.384477e+001	-3.870516e+001
4097053.726	-1.062638e+001	-1.489078e+002	-1.753568e+001	1.082630e+002	-1.761367e+001	1.091797e+002	-1.383488e+001	-3.929143e+001
4121490.468	-1.057900e+001	-1.500634e+002	-1.767874e+001	1.015637e+002	-1.776620e+001	1.025143e+002	-1.374322e+001	-3.982286e+001
4145927.210	-1.046168e+001	-1.512282e+002	-1.791912e+001	9.488318e+001	-1.799964e+001	9.587292e+001	-1.357113e+001	-4.042709e+001
4170363.951	-1.027546e+001	-1.525181e+002	-1.826606e+001	8.831297e+001	-1.834340e+001	8.935657e+001	-1.331356e+001	-4.122121e+001
4194800.693	-1.003507e+001	-1.542298e+002	-1.871414e+001	8.223029e+001	-1.878607e+001	8.333370e+001	-1.299402e+001	-4.256288e+001
4219237.435	-9.763964e+000	-1.564675e+002	-1.926167e+001	7.693880e+001	-1.932133e+001	7.812263e+001	-1.264173e+001	-4.452831e+001
4243674.177	-9.502547e+000	-1.592164e+002	-1.983813e+001	7.263569e+001	-1.988274e+001	7.384920e+001	-1.230515e+001	-4.707085e+001
4268110.919	-9.274755e+000	-1.623261e+002	-2.038752e+001	6.918236e+001	-2.042713e+001	7.033244e+001	-1.200171e+001	-4.995604e+001
4292547.660	-9.080760e+000	-1.656616e+002	-2.090658e+001	6.635969e+001	-2.093634e+001	6.749297e+001	-1.173208e+001	-5.308828e+001
4316984.402	-8.915610e+000	-1.692057e+002	-2.138854e+001	6.430807e+001	-2.142453e+001	6.542381e+001	-1.148615e+001	-5.642955e+001
4341421.144	-8.790028e+000	-1.729219e+002	-2.177580e+001	6.297555e+001	-2.180733e+001	6.420009e+001	-1.127863e+001	-5.997198e+001
4365857.886	-8.708814e+000	-1.767216e+002	-2.202131e+001	6.205772e+001	-2.203516e+001	6.330134e+001	-1.111622e+001	-6.356330e+001
4390294.627	-8.665536e+000	1.795335e+002	-2.212728e+001	6.084997e+001	-2.212008e+001	6.206525e+001	-1.099045e+001	-6.709021e+001
4414731.369	-8.637950e+000	1.758994e+002	-2.220124e+001	5.901884e+001	-2.217937e+001	6.005360e+001	-1.087445e+001	-7.042386e+001
4439168.111	-8.602681e+000	1.722733e+002	-2.234965e+001	5.688668e+001	-2.233739e+001	5.770533e+001	-1.073610e+001	-7.367249e+001
4463604.853	-8.549011e+000	1.684998e+002	-2.262548e+001	5.537421e+001	-2.261482e+001	5.621610e+001	-1.056519e+001	-7.706956e+001
4488041.594	-8.503888e+000	1.643438e+002	-2.289031e+001	5.558774e+001	-2.289056e+001	5.659831e+001	-1.037582e+001	-8.082679e+001
4512478.336	-8.511553e+000	1.597710e+002	-2.287798e+001	5.754936e+001	-2.286121e+001	5.870139e+001	-1.021549e+001	-8.506251e+001
4536915.078	-8.610055e+000	1.550201e+002	-2.241249e+001	5.920699e+001	-2.236073e+001	6.042314e+001	-1.012972e+001	-8.958111e+001
4561351.820	-8.791639e+000	1.504531e+002	-2.170236e+001	5.863417e+001	-2.162946e+001	5.965969e+001	-1.012046e+001	-9.397576e+001
4585788.562	-9.012237e+000	1.462036e+002	-2.103917e+001	5.605241e+001	-2.095277e+001	5.698245e+001	-1.014448e+001	-9.811638e+001
4610225.303	-9.246087e+000	1.421366e+002	-2.049131e+001	5.261315e+001	-2.040049e+001	5.345845e+001	-1.017156e+001	-1.020821e+002
4634662.045	-9.495840e+000	1.381438e+002	-2.001931e+001	4.877134e+001	-1.992969e+001	4.954913e+001	-1.019760e+001	-1.059757e+002
4659098.787	-9.756692e+000	1.342140e+002	-1.961353e+001	4.473149e+001	-1.952292e+001	4.545568e+001	-1.022328e+001	-1.098279e+002
4683535.529	-1.002436e+001	1.302652e+002	-1.927348e+001	4.069210e+001	-1.917688e+001	4.136006e+001	-1.024055e+001	-1.136964e+002
4707972.270	-1.030730e+001	1.262056e+002	-1.896512e+001	3.692367e+001	-1.887109e+001	3.746783e+001	-1.024503e+001	-1.176357e+002
4732409.012	-1.062108e+001	1.219292e+002	-1.863496e+001	3.338706e+001	-1.853280e+001	3.389903e+001	-1.025093e+001	-1.218314e+002
4756845.754	-1.100499e+001	1.174220e+002	-1.821362e+001	2.991332e+001	-1.811486e+001	3.032502e+001	-1.027967e+001	-1.263107e+002
4781282.496	-1.147823e+001	1.129663e+002	-1.772422e+001	2.586772e+001	-1.762511e+001	2.624563e+001	-1.035732e+001	-1.309582e+002
4805719.237	-1.202356e+001	1.087460e+002	-1.724166e+001	2.111740e+001	-1.714409e+001	2.145387e+001	-1.048299e+001	-1.355766e+002
4830155.979	-1.262745e+001	1.047656e+002	-1.679707e+001	1.591967e+001	-1.670339e+001	1.619520e+001	-1.064070e+001	-1.401206e+002
4854592.721	-1.327612e+001	1.009927e+002	-1.640267e+001	1.047326e+001	-1.631388e+001	1.069945e+001	-1.081773e+001	-1.446330e+002
4879029.463	-1.398003e+001	9.740144e+001	-1.604780e+001	4.878713e+000	-1.596037e+001	5.074217e+000	-1.101556e+001	-1.491258e+002
4903466.205	-1.474764e+001	9.400662e+001	-1.572235e+001	-8.400720e-001	-1.563705e+001	-6.759130e-001	-1.123593e+001	-1.536181e+002
4927902.946	-1.558373e+001	9.085626e+001	-1.542208e+001	-6.663588e+000	-1.534359e+001	-6.544999e+000	-1.148181e+001	-1.580943e+002
4952339.688	-1.649166e+001	8.800615e+001	-1.515413e+001	-1.263372e+001	-1.508030e+001	-1.247831e+001	-1.174936e+001	-1.625563e+002
4976776.430	-1.748014e+001	8.551658e+001	-1.491155e+001	-1.864311e+001	-1.484650e+001	-1.853340e+001	-1.204297e+001	-1.669451e+002
5001213.172	-1.855524e+001	8.347518e+001	-1.470050e+001	-2.472327e+001	-1.464133e+001	-2.461589e+001	-1.235841e+001	-1.712942e+002
5025649.913	-1.972762e+001	8.191466e+001	-1.451725e+001	-3.082745e+001	-1.446687e+001	-3.072388e+001	-1.269270e+001	-1.755708e+002
5050086.655	-2.101622e+001	8.095342e+001	-1.435844e+001	-3.693877e+001	-1.431744e+001	-3.682857e+001	-1.304611e+001	-1.798150e+002
5074523.397	-2.244141e+001	8.078344e+001	-1.422622e+001	-4.304028e+001	-1.419043e+001	-4.290658e+001	-1.341705e+001	1.759747e+002
5098960.139	-2.405488e+001	8.170394e+001	-1.411268e+001	-4.910616e+001	-1.408516e+001	-4.897398e+001	-1.380606e+001	1.718335e+002
5123396.880	-2.588579e+001	8.440251e+001	-1.401617e+001	-5.514226e+001	-1.399486e+001	-5.498808e+001	-1.421580e+001	1.677006e+002
5147833.622	-2.797330e+001	8.996582e+001	-1.393835e+001	-6.115033e+001	-1.391996e+001	-6.098532e+001	-1.464613e+001	1.636036e+002
5172270.364	-3.022800e+001	1.007924e+002	-1.387112e+001	-6.712613e+001	-1.385892e+001	-6.693392e+001	-1.509723e+001	1.595480e+002
5196707.106	-3.210796e+001	1.195595e+002	-1.381894e+001	-7.308624e+001	-1.380960e+001	-7.285427e+001	-1.556721e+001	1.555393e+002
5221143.847	-3.250292e+001	1.445765e+002	-1.377599e+001	-7.895333e+001	-1.377046e+001	-7.875772e+001	-1.606291e+001	1.516001e+002
5245580.589	-3.112682e+001	1.655544e+002	-1.374504e+001	-8.484734e+001	-1.374429e+001	-8.462445e+001	-1.657643e+001	1.477454e+002
5270017.331	-2.915636e+001	1.782303e+002	-1.372719e+001	-9.071942e+001	-1.372768e+001	-9.047622e+001	-1.711214e+001	1.439671e+002
5294454.073	-2.727243e+001	-1.749147e+002	-1.371758e+001	-9.653988e+001	-1.372236e+001	-9.628499e+001	-1.766113e+001	1.402708e+002
5318890.815	-2.563697e+001	-1.712460e+002	-1.371634e+001	-1.023082e+002	-1.372453e+001	-1.020393e+002	-1.822933e+001	1.366317e+002
5343327.556	-2.422707e+001	-1.695778e+002	-1.371824e+001	-1.080343e+002	-1.373026e+001	-1.077571e+002	-1.881777e+001	1.330265e+002
5367764.298	-2.300553e+001	-1.691605e+002	-1.372260e+001	-1.137309e+002	-1.373693e+001	-1.134553e+002	-1.943698e+001	1.295098e+002
5392201.040	-2.195710e+001	-1.695701e+002	-1.372971e+001	-1.194430e+002	-1.374492e+001	-1.191528e+002	-2.008304e+001	1.261477e+002
5416637.782	-2.104985e+001	-1.705470e+002	-1.374219e+001	-1.251418e+002	-1.375762e+001	-1.248419e+002	-2.074430e+001	1.229707e+002
5441074.523	-2.026085e+001	-1.718726e+002	-1.375811e+001	-1.308529e+002	-1.377520e+001	-1.305407e+002	-2.142673e+001	1.200156e+002
