!Agilent Technologies,E5061B,MY49101568,A.02.00
!Date: Wed Mar 01 15:51:12 2023
!Data & Calibration Information:
!Freq	S11:SOLT2(OFF)	S21:SOLT2(OFF)	S12:SOLT2(OFF)	S22:SOLT2(OFF)
# Hz S dB R 50
1800000.000	-9.505937e+000	-1.853332e+001	-2.451326e+001	-1.341216e+002	-2.452544e+001	-1.341388e+002	-9.907557e+000	1.768296e+001
1824436.742	-9.604574e+000	-2.281587e+001	-2.414038e+001	-1.380248e+002	-2.414975e+001	-1.381296e+002	-1.002971e+001	1.392675e+001
1848873.484	-9.708737e+000	-2.719057e+001	-2.375123e+001	-1.420404e+002	-2.375985e+001	-1.420896e+002	-1.015317e+001	1.011613e+001
1873310.225	-9.817885e+000	-3.163801e+001	-2.334675e+001	-1.461700e+002	-2.338043e+001	-1.461944e+002	-1.027336e+001	6.270579e+000
1897746.967	-9.928375e+000	-3.614850e+001	-2.294557e+001	-1.503360e+002	-2.297251e+001	-1.504283e+002	-1.039342e+001	2.372444e+000
1922183.709	-1.004427e+001	-4.079821e+001	-2.253505e+001	-1.546105e+002	-2.255968e+001	-1.546770e+002	-1.051155e+001	-1.652662e+000
1946620.451	-1.016520e+001	-4.555343e+001	-2.210084e+001	-1.589818e+002	-2.213361e+001	-1.590227e+002	-1.062920e+001	-5.755056e+000
1971057.192	-1.029308e+001	-5.044698e+001	-2.166931e+001	-1.635493e+002	-2.170570e+001	-1.634907e+002	-1.074712e+001	-9.958326e+000
1995493.934	-1.043164e+001	-5.545264e+001	-2.122558e+001	-1.681871e+002	-2.126448e+001	-1.681023e+002	-1.087004e+001	-1.424081e+001
2019930.676	-1.058036e+001	-6.061129e+001	-2.077408e+001	-1.729406e+002	-2.081620e+001	-1.728177e+002	-1.099031e+001	-1.858018e+001
2044367.418	-1.074266e+001	-6.588214e+001	-2.031578e+001	-1.779038e+002	-2.035687e+001	-1.777458e+002	-1.110860e+001	-2.307607e+001
2068804.159	-1.091536e+001	-7.129187e+001	-1.986251e+001	1.769813e+002	-1.990254e+001	1.771516e+002	-1.123004e+001	-2.759558e+001
2093240.901	-1.110431e+001	-7.683713e+001	-1.940687e+001	1.717584e+002	-1.944948e+001	1.719231e+002	-1.134920e+001	-3.218849e+001
2117677.643	-1.130878e+001	-8.256927e+001	-1.895464e+001	1.663272e+002	-1.900021e+001	1.665561e+002	-1.146696e+001	-3.687863e+001
2142114.385	-1.153018e+001	-8.846819e+001	-1.850424e+001	1.607738e+002	-1.855340e+001	1.610255e+002	-1.157857e+001	-4.168620e+001
2166551.127	-1.177547e+001	-9.454564e+001	-1.806383e+001	1.550095e+002	-1.810687e+001	1.553163e+002	-1.169247e+001	-4.659404e+001
2190987.868	-1.204033e+001	-1.007817e+002	-1.762589e+001	1.490560e+002	-1.767336e+001	1.494078e+002	-1.180307e+001	-5.157957e+001
2215424.610	-1.232785e+001	-1.071943e+002	-1.720658e+001	1.429058e+002	-1.725407e+001	1.433490e+002	-1.191064e+001	-5.666445e+001
2239861.352	-1.263653e+001	-1.138036e+002	-1.680754e+001	1.366529e+002	-1.685509e+001	1.371492e+002	-1.200822e+001	-6.182620e+001
2264298.094	-1.296758e+001	-1.206396e+002	-1.642776e+001	1.302813e+002	-1.646786e+001	1.308370e+002	-1.209867e+001	-6.709998e+001
2288734.835	-1.331744e+001	-1.276671e+002	-1.606273e+001	1.237902e+002	-1.609838e+001	1.243826e+002	-1.218085e+001	-7.245958e+001
2313171.577	-1.369914e+001	-1.349458e+002	-1.571268e+001	1.171489e+002	-1.574432e+001	1.177708e+002	-1.225457e+001	-7.794237e+001
2337608.319	-1.409102e+001	-1.424162e+002	-1.538771e+001	1.103836e+002	-1.541356e+001	1.110490e+002	-1.231834e+001	-8.351520e+001
2362045.061	-1.449923e+001	-1.501040e+002	-1.508859e+001	1.035550e+002	-1.511113e+001	1.041967e+002	-1.236791e+001	-8.915877e+001
2386481.802	-1.491141e+001	-1.580525e+002	-1.482006e+001	9.661178e+001	-1.483437e+001	9.727189e+001	-1.239989e+001	-9.493958e+001
2410918.544	-1.531382e+001	-1.662985e+002	-1.457721e+001	8.963182e+001	-1.458141e+001	9.031757e+001	-1.241222e+001	-1.008532e+002
2435355.286	-1.571393e+001	-1.748893e+002	-1.435174e+001	8.260359e+001	-1.434908e+001	8.329210e+001	-1.241408e+001	-1.069387e+002
2459792.028	-1.610174e+001	1.762858e+002	-1.415307e+001	7.549160e+001	-1.414098e+001	7.618015e+001	-1.240213e+001	-1.131446e+002
2484228.769	-1.645441e+001	1.671646e+002	-1.398545e+001	6.832409e+001	-1.396908e+001	6.902343e+001	-1.237762e+001	-1.195102e+002
2508665.511	-1.676255e+001	1.577778e+002	-1.384660e+001	6.117266e+001	-1.382248e+001	6.186312e+001	-1.234362e+001	-1.260065e+002
2533102.253	-1.701423e+001	1.481794e+002	-1.373537e+001	5.404503e+001	-1.370510e+001	5.467250e+001	-1.229941e+001	-1.325919e+002
2557538.995	-1.720059e+001	1.384166e+002	-1.365307e+001	4.691655e+001	-1.361167e+001	4.749204e+001	-1.224740e+001	-1.393322e+002
2581975.737	-1.731986e+001	1.285329e+002	-1.360011e+001	3.980779e+001	-1.355222e+001	4.034700e+001	-1.219731e+001	-1.461978e+002
2606412.478	-1.736072e+001	1.186670e+002	-1.357372e+001	3.274116e+001	-1.351618e+001	3.323361e+001	-1.214101e+001	-1.531365e+002
2630849.220	-1.733279e+001	1.088825e+002	-1.357333e+001	2.573378e+001	-1.351255e+001	2.618404e+001	-1.209239e+001	-1.601699e+002
2655285.962	-1.723694e+001	9.926048e+001	-1.359860e+001	1.878364e+001	-1.353314e+001	1.917123e+001	-1.204457e+001	-1.672219e+002
2679722.704	-1.708931e+001	8.990488e+001	-1.364901e+001	1.194386e+001	-1.358020e+001	1.227829e+001	-1.200628e+001	-1.742851e+002
2704159.445	-1.689096e+001	8.086533e+001	-1.372383e+001	5.198548e+000	-1.365419e+001	5.479878e+000	-1.197387e+001	1.786798e+002
2728596.187	-1.665511e+001	7.215242e+001	-1.381828e+001	-1.419549e+000	-1.374923e+001	-1.203672e+000	-1.194882e+001	1.716771e+002
2753032.929	-1.640109e+001	6.376866e+001	-1.393749e+001	-7.898641e+000	-1.386699e+001	-7.745978e+000	-1.193391e+001	1.647383e+002
2777469.671	-1.612838e+001	5.576380e+001	-1.406601e+001	-1.425012e+001	-1.399858e+001	-1.415261e+001	-1.193154e+001	1.578854e+002
2801906.412	-1.585594e+001	4.811582e+001	-1.421251e+001	-2.046818e+001	-1.414500e+001	-2.041936e+001	-1.193512e+001	1.511617e+002
2826343.154	-1.558490e+001	4.082694e+001	-1.436934e+001	-2.652394e+001	-1.430811e+001	-2.652224e+001	-1.195366e+001	1.445699e+002
2850779.896	-1.531567e+001	3.386123e+001	-1.453788e+001	-3.243587e+001	-1.448012e+001	-3.249597e+001	-1.197719e+001	1.381226e+002
2875216.638	-1.505639e+001	2.720656e+001	-1.471246e+001	-3.821829e+001	-1.466009e+001	-3.828717e+001	-1.201250e+001	1.318287e+002
2899653.380	-1.480551e+001	2.083256e+001	-1.489119e+001	-4.382264e+001	-1.484664e+001	-4.392317e+001	-1.205208e+001	1.257152e+002
2924090.121	-1.456491e+001	1.476097e+001	-1.507637e+001	-4.927674e+001	-1.503590e+001	-4.942928e+001	-1.210100e+001	1.197791e+002
2948526.863	-1.433892e+001	8.922053e+000	-1.525865e+001	-5.459209e+001	-1.522641e+001	-5.475892e+001	-1.215418e+001	1.140038e+002
2972963.605	-1.412046e+001	3.329518e+000	-1.544083e+001	-5.977217e+001	-1.541582e+001	-5.995630e+001	-1.221050e+001	1.083996e+002
2997400.347	-1.391552e+001	-2.057971e+000	-1.562127e+001	-6.480624e+001	-1.560350e+001	-6.502506e+001	-1.227111e+001	1.029471e+002
3021837.088	-1.372185e+001	-7.235365e+000	-1.579769e+001	-6.972895e+001	-1.578512e+001	-6.994971e+001	-1.233491e+001	9.765971e+001
3046273.830	-1.353682e+001	-1.225563e+001	-1.596516e+001	-7.452571e+001	-1.596345e+001	-7.475053e+001	-1.239992e+001	9.253188e+001
3070710.572	-1.336105e+001	-1.710579e+001	-1.612858e+001	-7.919134e+001	-1.613307e+001	-7.943130e+001	-1.246675e+001	8.754273e+001
3095147.314	-1.319643e+001	-2.180354e+001	-1.628280e+001	-8.375683e+001	-1.629211e+001	-8.398809e+001	-1.253317e+001	8.267546e+001
3119584.055	-1.303940e+001	-2.638563e+001	-1.641964e+001	-8.822659e+001	-1.643735e+001	-8.848247e+001	-1.260615e+001	7.793162e+001
3144020.797	-1.289043e+001	-3.082093e+001	-1.655226e+001	-9.261077e+001	-1.657251e+001	-9.288407e+001	-1.268048e+001	7.332879e+001
3168457.539	-1.275538e+001	-3.516301e+001	-1.666938e+001	-9.695599e+001	-1.669707e+001	-9.722982e+001	-1.275714e+001	6.884319e+001
3192894.281	-1.262891e+001	-3.936943e+001	-1.678033e+001	-1.012731e+002	-1.681314e+001	-1.015259e+002	-1.283699e+001	6.448506e+001
3217331.023	-1.251061e+001	-4.348474e+001	-1.688079e+001	-1.055393e+002	-1.692104e+001	-1.057748e+002	-1.291708e+001	6.023716e+001
3241767.764	-1.239914e+001	-4.748834e+001	-1.697719e+001	-1.097531e+002	-1.702124e+001	-1.099674e+002	-1.299776e+001	5.612809e+001
3266204.506	-1.229226e+001	-5.138458e+001	-1.706857e+001	-1.138798e+002	-1.711492e+001	-1.141011e+002	-1.307440e+001	5.210647e+001
3290641.248	-1.218664e+001	-5.522383e+001	-1.714674e+001	-1.179010e+002	-1.719612e+001	-1.181166e+002	-1.314648e+001	4.816838e+001
3315077.990	-1.208875e+001	-5.903838e+001	-1.719851e+001	-1.218608e+002	-1.725553e+001	-1.220258e+002	-1.321804e+001	4.423778e+001
3339514.731	-1.200290e+001	-6.281497e+001	-1.722722e+001	-1.258543e+002	-1.728641e+001	-1.260103e+002	-1.330636e+001	4.035166e+001
3363951.473	-1.193011e+001	-6.652786e+001	-1.724035e+001	-1.299120e+002	-1.730545e+001	-1.300287e+002	-1.340311e+001	3.657718e+001
3388388.215	-1.186814e+001	-7.016457e+001	-1.724686e+001	-1.339913e+002	-1.731382e+001	-1.340890e+002	-1.350572e+001	3.289683e+001
3412824.957	-1.181669e+001	-7.373214e+001	-1.724318e+001	-1.381034e+002	-1.731564e+001	-1.381794e+002	-1.361486e+001	2.933592e+001
3437261.698	-1.177545e+001	-7.722078e+001	-1.723161e+001	-1.422587e+002	-1.730852e+001	-1.423039e+002	-1.373071e+001	2.587073e+001
3461698.440	-1.174396e+001	-8.064355e+001	-1.721259e+001	-1.464333e+002	-1.729133e+001	-1.464605e+002	-1.385290e+001	2.252494e+001
3486135.182	-1.172206e+001	-8.396146e+001	-1.719114e+001	-1.506478e+002	-1.726813e+001	-1.506445e+002	-1.397812e+001	1.929074e+001
3510571.924	-1.171034e+001	-8.721304e+001	-1.716204e+001	-1.549229e+002	-1.724362e+001	-1.548704e+002	-1.410846e+001	1.620078e+001
3535008.666	-1.170524e+001	-9.036195e+001	-1.712913e+001	-1.591956e+002	-1.721439e+001	-1.591242e+002	-1.423934e+001	1.324595e+001
3559445.407	-1.170528e+001	-9.342765e+001	-1.709476e+001	-1.634780e+002	-1.717722e+001	-1.633335e+002	-1.436503e+001	1.037979e+001
3583882.149	-1.170819e+001	-9.642189e+001	-1.704531e+001	-1.677406e+002	-1.712921e+001	-1.675762e+002	-1.449158e+001	7.605975e+000
3608318.891	-1.171818e+001	-9.936137e+001	-1.697731e+001	-1.720486e+002	-1.706157e+001	-1.718531e+002	-1.462247e+001	4.884213e+000
3632755.633	-1.174069e+001	-1.022421e+002	-1.689337e+001	-1.765160e+002	-1.697840e+001	-1.762071e+002	-1.476061e+001	2.226956e+000
3657192.374	-1.176826e+001	-1.050147e+002	-1.680559e+001	1.789393e+002	-1.688643e+001	1.793186e+002	-1.490896e+001	-2.604159e-001
3681629.116	-1.180696e+001	-1.077083e+002	-1.670552e+001	1.742538e+002	-1.678607e+001	1.746543e+002	-1.507017e+001	-2.549175e+000
3706065.858	-1.185532e+001	-1.102627e+002	-1.660735e+001	1.693974e+002	-1.668516e+001	1.698397e+002	-1.523851e+001	-4.645151e+000
3730502.600	-1.191005e+001	-1.126826e+002	-1.651766e+001	1.643796e+002	-1.659142e+001	1.648585e+002	-1.540419e+001	-6.474289e+000
3754939.341	-1.196774e+001	-1.149470e+002	-1.643418e+001	1.592279e+002	-1.650970e+001	1.597307e+002	-1.556222e+001	-8.050360e+000
3779376.083	-1.202531e+001	-1.170240e+002	-1.636908e+001	1.539444e+002	-1.643659e+001	1.544974e+002	-1.570426e+001	-9.359706e+000
3803812.825	-1.207899e+001	-1.189513e+002	-1.631493e+001	1.485715e+002	-1.638739e+001	1.491198e+002	-1.581508e+001	-1.037833e+001
3828249.567	-1.212321e+001	-1.206698e+002	-1.628408e+001	1.430525e+002	-1.634808e+001	1.436860e+002	-1.589543e+001	-1.121341e+001
3852686.308	-1.214989e+001	-1.222505e+002	-1.627043e+001	1.375198e+002	-1.633180e+001	1.381215e+002	-1.593397e+001	-1.180191e+001
3877123.050	-1.216079e+001	-1.236490e+002	-1.627332e+001	1.318687e+002	-1.633392e+001	1.325197e+002	-1.592175e+001	-1.231136e+001
3901559.792	-1.214530e+001	-1.249056e+002	-1.629476e+001	1.261292e+002	-1.635589e+001	1.268338e+002	-1.586250e+001	-1.270867e+001
3925996.534	-1.209803e+001	-1.260238e+002	-1.634037e+001	1.203237e+002	-1.640173e+001	1.210630e+002	-1.574670e+001	-1.309963e+001
3950433.276	-1.201189e+001	-1.270694e+002	-1.641666e+001	1.144358e+002	-1.647306e+001	1.152076e+002	-1.557496e+001	-1.350841e+001
3974870.017	-1.187974e+001	-1.280793e+002	-1.652519e+001	1.084677e+002	-1.658104e+001	1.092838e+002	-1.534318e+001	-1.405393e+001
3999306.759	-1.170043e+001	-1.291639e+002	-1.668071e+001	1.025012e+002	-1.672877e+001	1.033637e+002	-1.505897e+001	-1.483950e+001
4023743.501	-1.148025e+001	-1.304032e+002	-1.686792e+001	9.655863e+001	-1.691005e+001	9.743093e+001	-1.473802e+001	-1.590351e+001
4048180.243	-1.122207e+001	-1.318540e+002	-1.709989e+001	9.062367e+001	-1.714099e+001	9.154723e+001	-1.438045e+001	-1.730744e+001
4072616.984	-1.093468e+001	-1.335659e+002	-1.738382e+001	8.477229e+001	-1.742208e+001	8.572912e+001	-1.400125e+001	-1.907441e+001
4097053.726	-1.062582e+001	-1.356039e+002	-1.772300e+001	7.909093e+001	-1.775068e+001	8.008546e+001	-1.361979e+001	-2.124035e+001
4121490.468	-1.031325e+001	-1.379679e+002	-1.811086e+001	7.360768e+001	-1.813669e+001	7.463481e+001	-1.323666e+001	-2.374484e+001
4145927.210	-1.000361e+001	-1.406599e+002	-1.855574e+001	6.843630e+001	-1.857862e+001	6.947511e+001	-1.286689e+001	-2.659238e+001
4170363.951	-9.700036e+000	-1.436636e+002	-1.907457e+001	6.363399e+001	-1.907649e+001	6.466495e+001	-1.251773e+001	-2.972040e+001
4194800.693	-9.421348e+000	-1.469870e+002	-1.963786e+001	5.940019e+001	-1.963123e+001	6.048467e+001	-1.219446e+001	-3.317573e+001
4219237.435	-9.182147e+000	-1.505957e+002	-2.022037e+001	5.603970e+001	-2.021910e+001	5.707915e+001	-1.190768e+001	-3.688163e+001
4243674.177	-8.985913e+000	-1.543781e+002	-2.078335e+001	5.350821e+001	-2.077344e+001	5.451795e+001	-1.167138e+001	-4.071044e+001
4268110.919	-8.830496e+000	-1.582059e+002	-2.128252e+001	5.157800e+001	-2.126437e+001	5.256933e+001	-1.147524e+001	-4.454682e+001
4292547.660	-8.704908e+000	-1.620746e+002	-2.173135e+001	5.007829e+001	-2.170769e+001	5.110431e+001	-1.130567e+001	-4.839069e+001
4316984.402	-8.607482e+000	-1.659947e+002	-2.211732e+001	4.917010e+001	-2.209631e+001	5.019492e+001	-1.115573e+001	-5.225508e+001
4341421.144	-8.546617e+000	-1.699633e+002	-2.239758e+001	4.880798e+001	-2.238367e+001	4.981913e+001	-1.103520e+001	-5.614383e+001
4365857.886	-8.520791e+000	-1.738940e+002	-2.252582e+001	4.859487e+001	-2.250416e+001	4.958572e+001	-1.094610e+001	-5.997489e+001
4390294.627	-8.517092e+000	-1.777150e+002	-2.254017e+001	4.789025e+001	-2.252171e+001	4.890016e+001	-1.087251e+001	-6.365622e+001
4414731.369	-8.516339e+000	1.785847e+002	-2.254461e+001	4.645980e+001	-2.251828e+001	4.756134e+001	-1.079529e+001	-6.719786e+001
4439168.111	-8.502654e+000	1.748240e+002	-2.264185e+001	4.483771e+001	-2.261493e+001	4.606150e+001	-1.069183e+001	-7.074687e+001
4463604.853	-8.482297e+000	1.708404e+002	-2.284488e+001	4.406273e+001	-2.280321e+001	4.528564e+001	-1.056200e+001	-7.444760e+001
4488041.594	-8.487486e+000	1.664787e+002	-2.299293e+001	4.515226e+001	-2.295045e+001	4.628322e+001	-1.042888e+001	-7.853135e+001
4512478.336	-8.562170e+000	1.617825e+002	-2.281151e+001	4.771735e+001	-2.277040e+001	4.885112e+001	-1.033838e+001	-8.303524e+001
4536915.078	-8.739602e+000	1.570646e+002	-2.215337e+001	4.952116e+001	-2.210170e+001	5.070243e+001	-1.033491e+001	-8.771941e+001
4561351.820	-8.994536e+000	1.527004e+002	-2.128690e+001	4.865142e+001	-2.123195e+001	4.974990e+001	-1.040407e+001	-9.216142e+001
4585788.562	-9.274409e+000	1.487505e+002	-2.052111e+001	4.566964e+001	-2.045207e+001	4.672435e+001	-1.050246e+001	-9.624925e+001
4610225.303	-9.556883e+000	1.450271e+002	-1.989963e+001	4.183847e+001	-1.982543e+001	4.286420e+001	-1.059207e+001	-1.001273e+002
4634662.045	-9.842463e+000	1.413966e+002	-1.938050e+001	3.773294e+001	-1.930707e+001	3.872477e+001	-1.067323e+001	-1.039301e+002
4659098.787	-1.013836e+001	1.378251e+002	-1.893531e+001	3.347416e+001	-1.885029e+001	3.443308e+001	-1.075113e+001	-1.077250e+002
4683535.529	-1.044140e+001	1.342219e+002	-1.855065e+001	2.932426e+001	-1.846326e+001	3.020752e+001	-1.081538e+001	-1.115360e+002
4707972.270	-1.076546e+001	1.304849e+002	-1.819177e+001	2.547231e+001	-1.810441e+001	2.629858e+001	-1.087052e+001	-1.155230e+002
4732409.012	-1.114586e+001	1.265054e+002	-1.779036e+001	2.196076e+001	-1.770087e+001	2.269308e+001	-1.094045e+001	-1.198322e+002
4756845.754	-1.162894e+001	1.225125e+002	-1.727971e+001	1.830486e+001	-1.719336e+001	1.899352e+001	-1.106174e+001	-1.244435e+002
4781282.496	-1.221672e+001	1.188942e+002	-1.670637e+001	1.390661e+001	-1.662026e+001	1.454965e+001	-1.126059e+001	-1.291005e+002
4805719.237	-1.286381e+001	1.158984e+002	-1.616359e+001	8.677848e+000	-1.606897e+001	9.273598e+000	-1.152220e+001	-1.335750e+002
4830155.979	-1.354344e+001	1.134746e+002	-1.567898e+001	2.968310e+000	-1.558120e+001	3.478919e+000	-1.182314e+001	-1.377972e+002
4854592.721	-1.423847e+001	1.115480e+002	-1.525810e+001	-2.942203e+000	-1.516082e+001	-2.535765e+000	-1.214411e+001	-1.418456e+002
4879029.463	-1.496302e+001	1.101126e+002	-1.487264e+001	-8.969476e+000	-1.478555e+001	-8.685515e+000	-1.248926e+001	-1.457354e+002
4903466.205	-1.569679e+001	1.093323e+002	-1.452117e+001	-1.517502e+001	-1.445097e+001	-1.495004e+001	-1.286261e+001	-1.494751e+002
4927902.946	-1.641539e+001	1.092496e+002	-1.420924e+001	-2.152250e+001	-1.414822e+001	-2.131236e+001	-1.326625e+001	-1.530387e+002
4952339.688	-1.709559e+001	1.097612e+002	-1.393658e+001	-2.797458e+001	-1.388821e+001	-2.775841e+001	-1.368823e+001	-1.563537e+002
4976776.430	-1.770743e+001	1.108370e+002	-1.370236e+001	-3.448828e+001	-1.366116e+001	-3.427698e+001	-1.413127e+001	-1.594042e+002
5001213.172	-1.823749e+001	1.122940e+002	-1.350689e+001	-4.105226e+001	-1.347049e+001	-4.080799e+001	-1.457937e+001	-1.621775e+002
5025649.913	-1.869005e+001	1.138929e+002	-1.334358e+001	-4.756807e+001	-1.331438e+001	-4.732035e+001	-1.502875e+001	-1.646635e+002
5050086.655	-1.906672e+001	1.155081e+002	-1.321497e+001	-5.407639e+001	-1.318729e+001	-5.381708e+001	-1.547642e+001	-1.669317e+002
5074523.397	-1.939787e+001	1.170243e+002	-1.311163e+001	-6.050591e+001	-1.308500e+001	-6.025244e+001	-1.591581e+001	-1.689515e+002
5098960.139	-1.968894e+001	1.184396e+002	-1.302974e+001	-6.689427e+001	-1.300291e+001	-6.664038e+001	-1.634253e+001	-1.707398e+002
5123396.880	-1.995957e+001	1.198097e+002	-1.296308e+001	-7.321803e+001	-1.293842e+001	-7.298511e+001	-1.675442e+001	-1.723075e+002
5147833.622	-2.021191e+001	1.210985e+002	-1.291303e+001	-7.950899e+001	-1.288968e+001	-7.928134e+001	-1.714891e+001	-1.736932e+002
5172270.364	-2.045009e+001	1.223774e+002	-1.287642e+001	-8.574622e+001	-1.285383e+001	-8.553903e+001	-1.751953e+001	-1.748429e+002
5196707.106	-2.067714e+001	1.236528e+002	-1.284987e+001	-9.196103e+001	-1.283224e+001	-9.177156e+001	-1.785419e+001	-1.758078e+002
5221143.847	-2.090937e+001	1.249650e+002	-1.283770e+001	-9.807561e+001	-1.282284e+001	-9.798010e+001	-1.814891e+001	-1.766138e+002
5245580.589	-2.112869e+001	1.262307e+002	-1.283758e+001	-1.042278e+002	-1.282570e+001	-1.041585e+002	-1.839608e+001	-1.773470e+002
5270017.331	-2.134950e+001	1.275366e+002	-1.285025e+001	-1.103667e+002	-1.284064e+001	-1.102968e+002	-1.859355e+001	-1.780987e+002
5294454.073	-2.157706e+001	1.289444e+002	-1.287560e+001	-1.164609e+002	-1.286767e+001	-1.163940e+002	-1.874117e+001	-1.789304e+002
5318890.815	-2.179806e+001	1.305828e+002	-1.290783e+001	-1.224898e+002	-1.290271e+001	-1.224423e+002	-1.885225e+001	-1.798959e+002
5343327.556	-2.200510e+001	1.323904e+002	-1.294368e+001	-1.284870e+002	-1.293976e+001	-1.284628e+002	-1.893346e+001	1.790251e+002
5367764.298	-2.218555e+001	1.343105e+002	-1.298524e+001	-1.344992e+002	-1.298344e+001	-1.344821e+002	-1.896980e+001	1.778099e+002
5392201.040	-2.234976e+001	1.363069e+002	-1.303392e+001	-1.405108e+002	-1.303371e+001	-1.405123e+002	-1.896891e+001	1.763743e+002
5416637.782	-2.250754e+001	1.383508e+002	-1.309039e+001	-1.465374e+002	-1.309362e+001	-1.465569e+002	-1.892789e+001	1.746970e+002
5441074.523	-2.265947e+001	1.405516e+002	-1.315683e+001	-1.525617e+002	-1.316271e+001	-1.526059e+002	-1.885360e+001	1.726644e+002
