!Agilent Technologies,E5061B,MY49101568,A.02.00
!Date: Wed Mar 01 15:55:32 2023
!Data & Calibration Information:
!Freq	S11:SOLT2(OFF)	S21:SOLT2(OFF)	S12:SOLT2(OFF)	S22:SOLT2(OFF)
# Hz S dB R 50
1800000.000	-9.708534e+000	-1.776642e+001	-2.379410e+001	-1.461106e+002	-2.380036e+001	-1.461425e+002	-1.013388e+001	1.847073e+001
1824436.742	-9.816884e+000	-2.193550e+001	-2.346986e+001	-1.500221e+002	-2.347262e+001	-1.500678e+002	-1.026315e+001	1.481248e+001
1848873.484	-9.932809e+000	-2.618365e+001	-2.312824e+001	-1.541379e+002	-2.313163e+001	-1.541002e+002	-1.039800e+001	1.111387e+001
1873310.225	-1.005803e+001	-3.047986e+001	-2.276314e+001	-1.582298e+002	-2.277815e+001	-1.582124e+002	-1.053208e+001	7.392287e+000
1897746.967	-1.018306e+001	-3.483429e+001	-2.240864e+001	-1.624278e+002	-2.242333e+001	-1.624133e+002	-1.066181e+001	3.620984e+000
1922183.709	-1.031243e+001	-3.929774e+001	-2.205204e+001	-1.667218e+002	-2.205721e+001	-1.666874e+002	-1.079343e+001	-2.414732e-001
1946620.451	-1.044747e+001	-4.386784e+001	-2.167484e+001	-1.710701e+002	-2.171068e+001	-1.711083e+002	-1.091790e+001	-4.147644e+000
1971057.192	-1.058903e+001	-4.852993e+001	-2.129708e+001	-1.755683e+002	-2.132758e+001	-1.754913e+002	-1.104707e+001	-8.177549e+000
1995493.934	-1.073983e+001	-5.327489e+001	-2.092572e+001	1.798017e+002	-2.094855e+001	1.799226e+002	-1.117760e+001	-1.225063e+001
2019930.676	-1.090065e+001	-5.813356e+001	-2.054256e+001	1.751037e+002	-2.058304e+001	1.752464e+002	-1.129994e+001	-1.633971e+001
2044367.418	-1.106386e+001	-6.308391e+001	-2.017245e+001	1.703293e+002	-2.020917e+001	1.704402e+002	-1.142182e+001	-2.057283e+001
2068804.159	-1.123729e+001	-6.823288e+001	-1.978817e+001	1.656103e+002	-1.982720e+001	1.657666e+002	-1.153010e+001	-2.493477e+001
2093240.901	-1.142640e+001	-7.351202e+001	-1.938864e+001	1.607581e+002	-1.943650e+001	1.608716e+002	-1.164508e+001	-2.933857e+001
2117677.643	-1.164203e+001	-7.898895e+001	-1.896500e+001	1.557416e+002	-1.901975e+001	1.558354e+002	-1.176543e+001	-3.387823e+001
2142114.385	-1.187435e+001	-8.449807e+001	-1.856345e+001	1.503489e+002	-1.860841e+001	1.506263e+002	-1.187815e+001	-3.849608e+001
2166551.127	-1.212880e+001	-9.018792e+001	-1.814939e+001	1.448522e+002	-1.820150e+001	1.451083e+002	-1.199446e+001	-4.316970e+001
2190987.868	-1.239701e+001	-9.597126e+001	-1.776143e+001	1.391360e+002	-1.781457e+001	1.394725e+002	-1.210223e+001	-4.791309e+001
2215424.610	-1.268151e+001	-1.018971e+002	-1.739415e+001	1.332246e+002	-1.744069e+001	1.336755e+002	-1.220321e+001	-5.275541e+001
2239861.352	-1.297824e+001	-1.080311e+002	-1.704407e+001	1.273122e+002	-1.709468e+001	1.277496e+002	-1.228695e+001	-5.766892e+001
2264298.094	-1.328761e+001	-1.144233e+002	-1.670567e+001	1.213120e+002	-1.674774e+001	1.218008e+002	-1.236619e+001	-6.278492e+001
2288734.835	-1.362371e+001	-1.210306e+002	-1.637067e+001	1.152334e+002	-1.641411e+001	1.157915e+002	-1.243019e+001	-6.800849e+001
2313171.577	-1.397752e+001	-1.278549e+002	-1.605533e+001	1.090308e+002	-1.608705e+001	1.095976e+002	-1.248683e+001	-7.337894e+001
2337608.319	-1.435708e+001	-1.348857e+002	-1.574663e+001	1.026217e+002	-1.578010e+001	1.032226e+002	-1.253767e+001	-7.882156e+001
2362045.061	-1.475484e+001	-1.421184e+002	-1.546461e+001	9.609189e+001	-1.549526e+001	9.667337e+001	-1.257982e+001	-8.434561e+001
2386481.802	-1.514448e+001	-1.496390e+002	-1.521225e+001	8.945916e+001	-1.523499e+001	9.003515e+001	-1.260256e+001	-9.002824e+001
2410918.544	-1.552354e+001	-1.573118e+002	-1.500240e+001	8.267055e+001	-1.501023e+001	8.335624e+001	-1.260165e+001	-9.584533e+001
2435355.286	-1.587173e+001	-1.655075e+002	-1.482183e+001	7.599961e+001	-1.482698e+001	7.667812e+001	-1.257317e+001	-1.018101e+002
2459792.028	-1.618952e+001	-1.742049e+002	-1.466852e+001	6.939264e+001	-1.466277e+001	7.003414e+001	-1.252647e+001	-1.080140e+002
2484228.769	-1.649822e+001	1.764551e+002	-1.451391e+001	6.284969e+001	-1.451247e+001	6.354055e+001	-1.246039e+001	-1.145287e+002
2508665.511	-1.682545e+001	1.666769e+002	-1.434581e+001	5.621280e+001	-1.433106e+001	5.692728e+001	-1.242280e+001	-1.213079e+002
2533102.253	-1.712281e+001	1.567275e+002	-1.420519e+001	4.939971e+001	-1.417631e+001	5.001591e+001	-1.239643e+001	-1.281147e+002
2557538.995	-1.736685e+001	1.467006e+002	-1.409971e+001	4.242071e+001	-1.406335e+001	4.306968e+001	-1.235973e+001	-1.350018e+002
2581975.737	-1.751205e+001	1.364805e+002	-1.403813e+001	3.549901e+001	-1.398993e+001	3.605745e+001	-1.231955e+001	-1.419162e+002
2606412.478	-1.758640e+001	1.262631e+002	-1.400960e+001	2.855497e+001	-1.396015e+001	2.915511e+001	-1.226524e+001	-1.489359e+002
2630849.220	-1.755656e+001	1.159960e+002	-1.401736e+001	2.174865e+001	-1.395658e+001	2.224788e+001	-1.221676e+001	-1.559867e+002
2655285.962	-1.746733e+001	1.058360e+002	-1.404629e+001	1.497310e+001	-1.397365e+001	1.540004e+001	-1.217618e+001	-1.631454e+002
2679722.704	-1.731456e+001	9.599366e+001	-1.410642e+001	8.255212e+000	-1.402724e+001	8.613719e+000	-1.213794e+001	-1.702361e+002
2704159.445	-1.710832e+001	8.645866e+001	-1.419262e+001	1.630733e+000	-1.412709e+001	1.881753e+000	-1.209552e+001	-1.772332e+002
2728596.187	-1.683658e+001	7.742424e+001	-1.432464e+001	-4.857782e+000	-1.424894e+001	-4.570751e+000	-1.204801e+001	1.757286e+002
2753032.929	-1.652963e+001	6.852911e+001	-1.446512e+001	-1.103374e+001	-1.438813e+001	-1.082934e+001	-1.200632e+001	1.687017e+002
2777469.671	-1.622714e+001	6.000732e+001	-1.460499e+001	-1.709267e+001	-1.452708e+001	-1.689110e+001	-1.196908e+001	1.616499e+002
2801906.412	-1.592330e+001	5.181400e+001	-1.474350e+001	-2.302561e+001	-1.466287e+001	-2.294157e+001	-1.196853e+001	1.547007e+002
2826343.154	-1.563787e+001	4.408961e+001	-1.489250e+001	-2.889735e+001	-1.483077e+001	-2.890003e+001	-1.197039e+001	1.479959e+002
2850779.896	-1.535987e+001	3.684466e+001	-1.506227e+001	-3.474348e+001	-1.500451e+001	-3.476615e+001	-1.199015e+001	1.414450e+002
2875216.638	-1.508697e+001	3.000582e+001	-1.525737e+001	-4.043853e+001	-1.519664e+001	-4.045763e+001	-1.200987e+001	1.350818e+002
2899653.380	-1.481771e+001	2.351549e+001	-1.545856e+001	-4.594183e+001	-1.540674e+001	-4.602264e+001	-1.203484e+001	1.289442e+002
2924090.121	-1.455676e+001	1.734556e+001	-1.567112e+001	-5.128687e+001	-1.562478e+001	-5.137185e+001	-1.205474e+001	1.229812e+002
2948526.863	-1.430536e+001	1.143073e+001	-1.588620e+001	-5.643960e+001	-1.584517e+001	-5.657910e+001	-1.207977e+001	1.171699e+002
2972963.605	-1.406167e+001	5.772575e+000	-1.610211e+001	-6.141511e+001	-1.606842e+001	-6.158729e+001	-1.210600e+001	1.115392e+002
2997400.347	-1.382969e+001	3.247103e-001	-1.631777e+001	-6.622053e+001	-1.628657e+001	-6.639882e+001	-1.213168e+001	1.060247e+002
3021837.088	-1.361069e+001	-4.934105e+000	-1.652006e+001	-7.087866e+001	-1.650156e+001	-7.107037e+001	-1.215665e+001	1.006788e+002
3046273.830	-1.340168e+001	-9.993344e+000	-1.672256e+001	-7.540644e+001	-1.670991e+001	-7.560171e+001	-1.218676e+001	9.545422e+001
3070710.572	-1.320446e+001	-1.490450e+001	-1.690747e+001	-7.981140e+001	-1.690446e+001	-8.001455e+001	-1.221820e+001	9.038382e+001
3095147.314	-1.302094e+001	-1.964687e+001	-1.708688e+001	-8.410511e+001	-1.708912e+001	-8.430674e+001	-1.225276e+001	8.542652e+001
3119584.055	-1.284608e+001	-2.426528e+001	-1.725039e+001	-8.829334e+001	-1.726099e+001	-8.851646e+001	-1.229171e+001	8.061473e+001
3144020.797	-1.268139e+001	-2.873144e+001	-1.740950e+001	-9.243180e+001	-1.742139e+001	-9.265833e+001	-1.233115e+001	7.595209e+001
3168457.539	-1.252791e+001	-3.306759e+001	-1.755363e+001	-9.649791e+001	-1.757479e+001	-9.672257e+001	-1.237826e+001	7.140294e+001
3192894.281	-1.238327e+001	-3.728106e+001	-1.769062e+001	-1.005065e+002	-1.771655e+001	-1.007622e+002	-1.242190e+001	6.697910e+001
3217331.023	-1.224730e+001	-4.138056e+001	-1.782289e+001	-1.045006e+002	-1.785398e+001	-1.047106e+002	-1.246776e+001	6.269708e+001
3241767.764	-1.211650e+001	-4.537606e+001	-1.794681e+001	-1.084376e+002	-1.798529e+001	-1.086393e+002	-1.251395e+001	5.854256e+001
3266204.506	-1.199264e+001	-4.926546e+001	-1.806917e+001	-1.123142e+002	-1.811502e+001	-1.124647e+002	-1.255435e+001	5.449765e+001
3290641.248	-1.186969e+001	-5.307405e+001	-1.818344e+001	-1.160818e+002	-1.823436e+001	-1.162361e+002	-1.259321e+001	5.053660e+001
3315077.990	-1.175165e+001	-5.682948e+001	-1.827587e+001	-1.197446e+002	-1.833179e+001	-1.198664e+002	-1.262993e+001	4.662792e+001
3339514.731	-1.164187e+001	-6.053463e+001	-1.835397e+001	-1.234194e+002	-1.841433e+001	-1.235011e+002	-1.266943e+001	4.278296e+001
3363951.473	-1.154133e+001	-6.417588e+001	-1.841967e+001	-1.270689e+002	-1.848301e+001	-1.271545e+002	-1.271443e+001	3.905653e+001
3388388.215	-1.144738e+001	-6.774574e+001	-1.847740e+001	-1.307302e+002	-1.854580e+001	-1.307764e+002	-1.276044e+001	3.541516e+001
3412824.957	-1.135920e+001	-7.125624e+001	-1.852962e+001	-1.344077e+002	-1.860121e+001	-1.344154e+002	-1.280701e+001	3.184841e+001
3437261.698	-1.127951e+001	-7.468244e+001	-1.857326e+001	-1.380602e+002	-1.864590e+001	-1.380226e+002	-1.285349e+001	2.838012e+001
3461698.440	-1.120406e+001	-7.806332e+001	-1.860449e+001	-1.417015e+002	-1.868460e+001	-1.416522e+002	-1.290386e+001	2.500485e+001
3486135.182	-1.113411e+001	-8.137756e+001	-1.863109e+001	-1.453320e+002	-1.871475e+001	-1.452280e+002	-1.295123e+001	2.172634e+001
3510571.924	-1.106883e+001	-8.463968e+001	-1.865209e+001	-1.489605e+002	-1.874010e+001	-1.488361e+002	-1.299701e+001	1.853472e+001
3535008.666	-1.100879e+001	-8.782120e+001	-1.866948e+001	-1.525728e+002	-1.875538e+001	-1.523892e+002	-1.304009e+001	1.542268e+001
3559445.407	-1.094895e+001	-9.094898e+001	-1.867655e+001	-1.561405e+002	-1.876528e+001	-1.559400e+002	-1.307741e+001	1.238395e+001
3583882.149	-1.089208e+001	-9.403263e+001	-1.866708e+001	-1.596861e+002	-1.876017e+001	-1.594654e+002	-1.310977e+001	9.410838e+000
3608318.891	-1.083667e+001	-9.706674e+001	-1.865227e+001	-1.632557e+002	-1.874089e+001	-1.629890e+002	-1.313655e+001	6.482753e+000
3632755.633	-1.078138e+001	-1.000787e+002	-1.862095e+001	-1.668677e+002	-1.871114e+001	-1.665317e+002	-1.316129e+001	3.566981e+000
3657192.374	-1.072871e+001	-1.030590e+002	-1.857801e+001	-1.705001e+002	-1.866702e+001	-1.701034e+002	-1.318216e+001	7.085843e-001
3681629.116	-1.068069e+001	-1.060180e+002	-1.851761e+001	-1.741920e+002	-1.861059e+001	-1.737532e+002	-1.320501e+001	-2.137173e+000
3706065.858	-1.063582e+001	-1.089463e+002	-1.845182e+001	-1.779794e+002	-1.854310e+001	-1.775124e+002	-1.323019e+001	-4.939360e+000
3730502.600	-1.059809e+001	-1.118423e+002	-1.838288e+001	1.780974e+002	-1.847284e+001	1.785999e+002	-1.325936e+001	-7.674233e+000
3754939.341	-1.056572e+001	-1.146885e+002	-1.832304e+001	1.740682e+002	-1.840863e+001	1.745959e+002	-1.328818e+001	-1.031669e+001
3779376.083	-1.053633e+001	-1.174604e+002	-1.827193e+001	1.699300e+002	-1.835863e+001	1.705065e+002	-1.331287e+001	-1.286984e+001
3803812.825	-1.050617e+001	-1.201753e+002	-1.823635e+001	1.657699e+002	-1.831797e+001	1.663907e+002	-1.332963e+001	-1.535466e+001
3828249.567	-1.047361e+001	-1.228366e+002	-1.821865e+001	1.616186e+002	-1.829715e+001	1.622393e+002	-1.333791e+001	-1.776536e+001
3852686.308	-1.043985e+001	-1.254655e+002	-1.820975e+001	1.574691e+002	-1.828854e+001	1.581343e+002	-1.333575e+001	-2.012313e+001
3877123.050	-1.040140e+001	-1.280402e+002	-1.821626e+001	1.533181e+002	-1.829134e+001	1.540147e+002	-1.332334e+001	-2.243376e+001
3901559.792	-1.035473e+001	-1.305797e+002	-1.824997e+001	1.492457e+002	-1.832114e+001	1.499209e+002	-1.329403e+001	-2.466500e+001
3925996.534	-1.029549e+001	-1.330752e+002	-1.830457e+001	1.452919e+002	-1.837418e+001	1.460607e+002	-1.323824e+001	-2.692113e+001
3950433.276	-1.022158e+001	-1.356581e+002	-1.836740e+001	1.416426e+002	-1.843505e+001	1.423644e+002	-1.316632e+001	-2.922897e+001
3974870.017	-1.014286e+001	-1.383186e+002	-1.842122e+001	1.382111e+002	-1.849207e+001	1.389476e+002	-1.307981e+001	-3.164002e+001
3999306.759	-1.005519e+001	-1.410587e+002	-1.847095e+001	1.349973e+002	-1.853559e+001	1.358194e+002	-1.297823e+001	-3.421663e+001
4023743.501	-9.971574e+000	-1.439620e+002	-1.848049e+001	1.320769e+002	-1.855299e+001	1.328929e+002	-1.287503e+001	-3.691448e+001
4048180.243	-9.895029e+000	-1.470087e+002	-1.844771e+001	1.293449e+002	-1.851250e+001	1.301692e+002	-1.278154e+001	-3.979692e+001
4072616.984	-9.838250e+000	-1.501736e+002	-1.835529e+001	1.266261e+002	-1.842014e+001	1.274864e+002	-1.270064e+001	-4.282172e+001
4097053.726	-9.804343e+000	-1.534177e+002	-1.820995e+001	1.238166e+002	-1.827266e+001	1.247315e+002	-1.263991e+001	-4.593308e+001
4121490.468	-9.795157e+000	-1.566938e+002	-1.802764e+001	1.207830e+002	-1.808441e+001	1.217316e+002	-1.260310e+001	-4.908502e+001
4145927.210	-9.808668e+000	-1.599521e+002	-1.782533e+001	1.175306e+002	-1.787501e+001	1.184898e+002	-1.258533e+001	-5.219967e+001
4170363.951	-9.843173e+000	-1.631665e+002	-1.761104e+001	1.140758e+002	-1.765109e+001	1.150401e+002	-1.258026e+001	-5.527090e+001
4194800.693	-9.896040e+000	-1.663834e+002	-1.738296e+001	1.104380e+002	-1.742726e+001	1.114276e+002	-1.258658e+001	-5.833675e+001
4219237.435	-9.964733e+000	-1.695471e+002	-1.715843e+001	1.066267e+002	-1.718559e+001	1.076292e+002	-1.260824e+001	-6.139565e+001
4243674.177	-1.005435e+001	-1.726762e+002	-1.692433e+001	1.026627e+002	-1.694766e+001	1.036364e+002	-1.264176e+001	-6.440181e+001
4268110.919	-1.016049e+001	-1.757248e+002	-1.669640e+001	9.849364e+001	-1.671181e+001	9.949159e+001	-1.268363e+001	-6.734971e+001
4292547.660	-1.028187e+001	-1.786827e+002	-1.647453e+001	9.417343e+001	-1.648629e+001	9.515395e+001	-1.273494e+001	-7.021349e+001
4316984.402	-1.041601e+001	1.784538e+002	-1.626538e+001	8.971390e+001	-1.626781e+001	9.072069e+001	-1.278970e+001	-7.302878e+001
4341421.144	-1.056100e+001	1.756867e+002	-1.606689e+001	8.514589e+001	-1.606997e+001	8.615486e+001	-1.284423e+001	-7.574633e+001
4365857.886	-1.071166e+001	1.730190e+002	-1.588692e+001	8.049862e+001	-1.588077e+001	8.145436e+001	-1.290459e+001	-7.838878e+001
4390294.627	-1.086842e+001	1.704432e+002	-1.571649e+001	7.578585e+001	-1.570440e+001	7.673318e+001	-1.295830e+001	-8.099811e+001
4414731.369	-1.102562e+001	1.679684e+002	-1.556153e+001	7.100544e+001	-1.554767e+001	7.196288e+001	-1.300797e+001	-8.355432e+001
4439168.111	-1.118974e+001	1.655769e+002	-1.541490e+001	6.612397e+001	-1.539903e+001	6.714285e+001	-1.305187e+001	-8.610761e+001
4463604.853	-1.133970e+001	1.632057e+002	-1.529672e+001	6.135768e+001	-1.527270e+001	6.232957e+001	-1.308519e+001	-8.860640e+001
4488041.594	-1.149673e+001	1.609081e+002	-1.517587e+001	5.653305e+001	-1.515070e+001	5.746767e+001	-1.311746e+001	-9.111963e+001
4512478.336	-1.165111e+001	1.586279e+002	-1.507164e+001	5.171338e+001	-1.504144e+001	5.263808e+001	-1.313917e+001	-9.365021e+001
4536915.078	-1.180566e+001	1.563785e+002	-1.497294e+001	4.689568e+001	-1.493913e+001	4.778697e+001	-1.315979e+001	-9.620383e+001
4561351.820	-1.195930e+001	1.541474e+002	-1.488598e+001	4.206439e+001	-1.484898e+001	4.294737e+001	-1.317195e+001	-9.878559e+001
4585788.562	-1.210614e+001	1.519395e+002	-1.481487e+001	3.718687e+001	-1.477346e+001	3.807496e+001	-1.317623e+001	-1.013779e+002
4610225.303	-1.224619e+001	1.496539e+002	-1.476320e+001	3.238626e+001	-1.472040e+001	3.323222e+001	-1.316587e+001	-1.040155e+002
4634662.045	-1.238300e+001	1.472480e+002	-1.472865e+001	2.768464e+001	-1.467790e+001	2.850989e+001	-1.314293e+001	-1.067793e+002
4659098.787	-1.253796e+001	1.446630e+002	-1.468991e+001	2.316508e+001	-1.464023e+001	2.398994e+001	-1.311211e+001	-1.097738e+002
4683535.529	-1.272271e+001	1.419437e+002	-1.464083e+001	1.879213e+001	-1.458698e+001	1.953253e+001	-1.309347e+001	-1.129460e+002
4707972.270	-1.293415e+001	1.391693e+002	-1.458527e+001	1.449430e+001	-1.452168e+001	1.522158e+001	-1.308514e+001	-1.163276e+002
4732409.012	-1.319346e+001	1.363390e+002	-1.450389e+001	1.022467e+001	-1.443301e+001	1.088997e+001	-1.310551e+001	-1.198577e+002
4756845.754	-1.349893e+001	1.336130e+002	-1.439811e+001	5.882492e+000	-1.432779e+001	6.528671e+000	-1.315003e+001	-1.235155e+002
4781282.496	-1.384958e+001	1.309549e+002	-1.427562e+001	1.520102e+000	-1.421189e+001	2.089494e+000	-1.321858e+001	-1.272258e+002
4805719.237	-1.423252e+001	1.285196e+002	-1.414329e+001	-3.006849e+000	-1.407839e+001	-2.469151e+000	-1.332182e+001	-1.310020e+002
4830155.979	-1.464267e+001	1.262481e+002	-1.401166e+001	-7.673270e+000	-1.394527e+001	-7.161106e+000	-1.344946e+001	-1.347645e+002
4854592.721	-1.508339e+001	1.242198e+002	-1.387658e+001	-1.245107e+001	-1.381382e+001	-1.198870e+001	-1.360326e+001	-1.385018e+002
4879029.463	-1.553533e+001	1.223909e+002	-1.375811e+001	-1.737601e+001	-1.369710e+001	-1.691050e+001	-1.376875e+001	-1.422210e+002
4903466.205	-1.601112e+001	1.207284e+002	-1.364746e+001	-2.235922e+001	-1.358869e+001	-2.193102e+001	-1.395553e+001	-1.459087e+002
4927902.946	-1.650683e+001	1.192602e+002	-1.354840e+001	-2.740464e+001	-1.349032e+001	-2.701958e+001	-1.415768e+001	-1.495947e+002
4952339.688	-1.702360e+001	1.179834e+002	-1.346170e+001	-3.256114e+001	-1.340947e+001	-3.210994e+001	-1.436920e+001	-1.533085e+002
4976776.430	-1.757043e+001	1.168108e+002	-1.339205e+001	-3.765375e+001	-1.334175e+001	-3.726893e+001	-1.459724e+001	-1.569747e+002
5001213.172	-1.815221e+001	1.159053e+002	-1.333337e+001	-4.279291e+001	-1.328726e+001	-4.240235e+001	-1.483217e+001	-1.606991e+002
5025649.913	-1.877402e+001	1.152348e+002	-1.328498e+001	-4.791766e+001	-1.324156e+001	-4.755317e+001	-1.508809e+001	-1.644481e+002
5050086.655	-1.943523e+001	1.149029e+002	-1.325012e+001	-5.306697e+001	-1.320582e+001	-5.272712e+001	-1.535856e+001	-1.681769e+002
5074523.397	-2.015829e+001	1.150430e+002	-1.321968e+001	-5.817631e+001	-1.318322e+001	-5.787421e+001	-1.564372e+001	-1.719495e+002
5098960.139	-2.092611e+001	1.156767e+002	-1.320299e+001	-6.330673e+001	-1.316957e+001	-6.299465e+001	-1.594326e+001	-1.757761e+002
5123396.880	-2.174594e+001	1.170429e+002	-1.319715e+001	-6.841719e+001	-1.316639e+001	-6.811259e+001	-1.625717e+001	-1.796267e+002
5147833.622	-2.261679e+001	1.193393e+002	-1.320208e+001	-7.348227e+001	-1.317742e+001	-7.319130e+001	-1.658117e+001	1.764688e+002
5172270.364	-2.351239e+001	1.229286e+002	-1.321237e+001	-7.850805e+001	-1.319219e+001	-7.823227e+001	-1.692356e+001	1.725001e+002
5196707.106	-2.437601e+001	1.281170e+002	-1.323038e+001	-8.350077e+001	-1.321262e+001	-8.320085e+001	-1.728433e+001	1.683871e+002
5221143.847	-2.512136e+001	1.352345e+002	-1.325108e+001	-8.840421e+001	-1.323949e+001	-8.814915e+001	-1.766773e+001	1.642253e+002
5245580.589	-2.560086e+001	1.440553e+002	-1.327847e+001	-9.330235e+001	-1.326750e+001	-9.304864e+001	-1.807161e+001	1.599254e+002
5270017.331	-2.566061e+001	1.538198e+002	-1.330281e+001	-9.818581e+001	-1.330058e+001	-9.791919e+001	-1.850167e+001	1.555465e+002
5294454.073	-2.531349e+001	1.632627e+002	-1.333394e+001	-1.030325e+002	-1.333384e+001	-1.027460e+002	-1.896281e+001	1.510421e+002
5318890.815	-2.461156e+001	1.712417e+002	-1.336829e+001	-1.078532e+002	-1.337045e+001	-1.075656e+002	-1.944022e+001	1.464644e+002
5343327.556	-2.371307e+001	1.772793e+002	-1.340449e+001	-1.126701e+002	-1.341005e+001	-1.123375e+002	-1.994393e+001	1.417157e+002
5367764.298	-2.274939e+001	-1.784371e+002	-1.344531e+001	-1.174529e+002	-1.345302e+001	-1.171024e+002	-2.047069e+001	1.368808e+002
5392201.040	-2.177254e+001	-1.756777e+002	-1.348422e+001	-1.221889e+002	-1.349464e+001	-1.218294e+002	-2.102464e+001	1.318407e+002
5416637.782	-2.085215e+001	-1.741137e+002	-1.352926e+001	-1.269104e+002	-1.354017e+001	-1.265346e+002	-2.159093e+001	1.266339e+002
5441074.523	-1.998249e+001	-1.734531e+002	-1.357237e+001	-1.316057e+002	-1.358783e+001	-1.312139e+002	-2.217460e+001	1.212122e+002
