!Agilent Technologies,E5061B,MY49101568,A.02.00
!Date: Wed Mar 01 15:50:05 2023
!Data & Calibration Information:
!Freq	S11:SOLT2(OFF)	S21:SOLT2(OFF)	S12:SOLT2(OFF)	S22:SOLT2(OFF)
# Hz S dB R 50
1800000.000	-9.522863e+000	-1.883324e+001	-2.482225e+001	-1.314218e+002	-2.482078e+001	-1.313520e+002	-9.980575e+000	1.736897e+001
1824436.742	-9.614420e+000	-2.314519e+001	-2.443562e+001	-1.352851e+002	-2.443933e+001	-1.352038e+002	-1.009560e+001	1.358463e+001
1848873.484	-9.706876e+000	-2.755035e+001	-2.404304e+001	-1.392466e+002	-2.404645e+001	-1.391824e+002	-1.021066e+001	9.740358e+000
1873310.225	-9.807098e+000	-3.201104e+001	-2.364109e+001	-1.432441e+002	-2.364415e+001	-1.432086e+002	-1.032496e+001	5.847010e+000
1897746.967	-9.905753e+000	-3.655987e+001	-2.323472e+001	-1.473515e+002	-2.323935e+001	-1.473502e+002	-1.043462e+001	1.916268e+000
1922183.709	-1.000984e+001	-4.125656e+001	-2.280087e+001	-1.516178e+002	-2.282079e+001	-1.515716e+002	-1.054397e+001	-2.140732e+000
1946620.451	-1.011874e+001	-4.603631e+001	-2.238196e+001	-1.559485e+002	-2.238426e+001	-1.558805e+002	-1.065204e+001	-6.303212e+000
1971057.192	-1.023242e+001	-5.100076e+001	-2.192741e+001	-1.603855e+002	-2.194657e+001	-1.603789e+002	-1.076100e+001	-1.053636e+001
1995493.934	-1.035676e+001	-5.606456e+001	-2.147260e+001	-1.649868e+002	-2.150385e+001	-1.649229e+002	-1.086788e+001	-1.487522e+001
2019930.676	-1.049254e+001	-6.126747e+001	-2.101046e+001	-1.696805e+002	-2.104752e+001	-1.695707e+002	-1.097347e+001	-1.926838e+001
2044367.418	-1.063862e+001	-6.661864e+001	-2.054550e+001	-1.745813e+002	-2.058365e+001	-1.744154e+002	-1.107924e+001	-2.382917e+001
2068804.159	-1.079356e+001	-7.211535e+001	-2.006890e+001	-1.796244e+002	-2.011848e+001	-1.794416e+002	-1.118328e+001	-2.844015e+001
2093240.901	-1.096433e+001	-7.775141e+001	-1.960204e+001	1.751792e+002	-1.964986e+001	1.753376e+002	-1.128959e+001	-3.311681e+001
2117677.643	-1.114978e+001	-8.358292e+001	-1.913645e+001	1.697747e+002	-1.918962e+001	1.700022e+002	-1.139121e+001	-3.789291e+001
2142114.385	-1.135383e+001	-8.960168e+001	-1.867442e+001	1.642333e+002	-1.872500e+001	1.645253e+002	-1.148775e+001	-4.276984e+001
2166551.127	-1.157655e+001	-9.579414e+001	-1.821339e+001	1.585057e+002	-1.826543e+001	1.588402e+002	-1.158361e+001	-4.778492e+001
2190987.868	-1.181965e+001	-1.021846e+002	-1.776003e+001	1.525921e+002	-1.781504e+001	1.529479e+002	-1.168067e+001	-5.286432e+001
2215424.610	-1.208834e+001	-1.087606e+002	-1.732477e+001	1.464173e+002	-1.738429e+001	1.468826e+002	-1.177307e+001	-5.805201e+001
2239861.352	-1.237767e+001	-1.155231e+002	-1.691051e+001	1.401676e+002	-1.696529e+001	1.406588e+002	-1.185634e+001	-6.330543e+001
2264298.094	-1.268422e+001	-1.225154e+002	-1.651535e+001	1.337551e+002	-1.656309e+001	1.343128e+002	-1.193185e+001	-6.864505e+001
2288734.835	-1.301569e+001	-1.297508e+002	-1.613398e+001	1.272430e+002	-1.618316e+001	1.278108e+002	-1.200086e+001	-7.410837e+001
2313171.577	-1.337107e+001	-1.372012e+002	-1.577324e+001	1.205564e+002	-1.581141e+001	1.211676e+002	-1.206144e+001	-7.964910e+001
2337608.319	-1.374701e+001	-1.448600e+002	-1.543517e+001	1.137475e+002	-1.546917e+001	1.143957e+002	-1.211406e+001	-8.528108e+001
2362045.061	-1.413653e+001	-1.527388e+002	-1.512519e+001	1.068457e+002	-1.515452e+001	1.074774e+002	-1.215349e+001	-9.097744e+001
2386481.802	-1.452841e+001	-1.608397e+002	-1.484599e+001	9.984393e+001	-1.487069e+001	1.004906e+002	-1.217584e+001	-9.677025e+001
2410918.544	-1.491518e+001	-1.692068e+002	-1.459502e+001	9.278910e+001	-1.460830e+001	9.345734e+001	-1.218012e+001	-1.026987e+002
2435355.286	-1.529371e+001	-1.778644e+002	-1.436607e+001	8.568505e+001	-1.436962e+001	8.637921e+001	-1.217280e+001	-1.087726e+002
2459792.028	-1.565753e+001	1.732205e+002	-1.416725e+001	7.851354e+001	-1.416084e+001	7.920224e+001	-1.215294e+001	-1.149602e+002
2484228.769	-1.599275e+001	1.640979e+002	-1.399675e+001	7.129157e+001	-1.398271e+001	7.197878e+001	-1.211786e+001	-1.212909e+002
2508665.511	-1.628227e+001	1.547645e+002	-1.385775e+001	6.408530e+001	-1.383408e+001	6.473192e+001	-1.207549e+001	-1.277243e+002
2533102.253	-1.652043e+001	1.452470e+002	-1.374752e+001	5.690564e+001	-1.371852e+001	5.746813e+001	-1.202147e+001	-1.342637e+002
2557538.995	-1.669768e+001	1.356415e+002	-1.366720e+001	4.971368e+001	-1.362933e+001	5.026479e+001	-1.196371e+001	-1.409232e+002
2581975.737	-1.680730e+001	1.259782e+002	-1.361587e+001	4.255860e+001	-1.357012e+001	4.305491e+001	-1.190241e+001	-1.476941e+002
2606412.478	-1.685052e+001	1.163562e+002	-1.359412e+001	3.544431e+001	-1.354145e+001	3.591189e+001	-1.184035e+001	-1.545485e+002
2630849.220	-1.683180e+001	1.068346e+002	-1.359938e+001	2.840426e+001	-1.353859e+001	2.882329e+001	-1.178375e+001	-1.614632e+002
2655285.962	-1.674745e+001	9.748955e+001	-1.363052e+001	2.143353e+001	-1.356489e+001	2.179118e+001	-1.173132e+001	-1.684372e+002
2679722.704	-1.661612e+001	8.839229e+001	-1.368768e+001	1.455787e+001	-1.362015e+001	1.484344e+001	-1.168705e+001	-1.754096e+002
2704159.445	-1.643690e+001	7.957319e+001	-1.376824e+001	7.794716e+000	-1.369825e+001	8.047927e+000	-1.164983e+001	1.776557e+002
2728596.187	-1.622953e+001	7.107849e+001	-1.387219e+001	1.169989e+000	-1.380001e+001	1.339632e+000	-1.162047e+001	1.707542e+002
2753032.929	-1.599830e+001	6.290913e+001	-1.399395e+001	-5.325992e+000	-1.392391e+001	-5.208031e+000	-1.160407e+001	1.639120e+002
2777469.671	-1.575124e+001	5.505231e+001	-1.413139e+001	-1.167908e+001	-1.406347e+001	-1.161330e+001	-1.159775e+001	1.571393e+002
2801906.412	-1.550336e+001	4.757370e+001	-1.428659e+001	-1.787677e+001	-1.422046e+001	-1.786338e+001	-1.160437e+001	1.505149e+002
2826343.154	-1.525062e+001	4.039487e+001	-1.445033e+001	-2.393993e+001	-1.438865e+001	-2.399281e+001	-1.161935e+001	1.439894e+002
2850779.896	-1.500451e+001	3.353412e+001	-1.462172e+001	-2.984562e+001	-1.456780e+001	-2.991436e+001	-1.164696e+001	1.376264e+002
2875216.638	-1.476318e+001	2.696263e+001	-1.480792e+001	-3.560622e+001	-1.475524e+001	-3.568269e+001	-1.167904e+001	1.313823e+002
2899653.380	-1.453027e+001	2.068949e+001	-1.499551e+001	-4.119916e+001	-1.494880e+001	-4.130806e+001	-1.172255e+001	1.253362e+002
2924090.121	-1.430658e+001	1.466867e+001	-1.518608e+001	-4.663141e+001	-1.514638e+001	-4.676828e+001	-1.176978e+001	1.194568e+002
2948526.863	-1.409034e+001	8.872849e+000	-1.537731e+001	-5.191866e+001	-1.534365e+001	-5.207162e+001	-1.182478e+001	1.137278e+002
2972963.605	-1.388494e+001	3.320783e+000	-1.556750e+001	-5.706951e+001	-1.554009e+001	-5.723385e+001	-1.188346e+001	1.081588e+002
2997400.347	-1.368814e+001	-2.046261e+000	-1.575277e+001	-6.205995e+001	-1.573290e+001	-6.225132e+001	-1.194602e+001	1.027480e+002
3021837.088	-1.350123e+001	-7.199550e+000	-1.593677e+001	-6.694567e+001	-1.592181e+001	-6.713380e+001	-1.201124e+001	9.749493e+001
3046273.830	-1.332441e+001	-1.219005e+001	-1.611310e+001	-7.169361e+001	-1.610686e+001	-7.188912e+001	-1.207748e+001	9.238883e+001
3070710.572	-1.315227e+001	-1.701849e+001	-1.628349e+001	-7.630933e+001	-1.628411e+001	-7.650863e+001	-1.214446e+001	8.743323e+001
3095147.314	-1.299310e+001	-2.171300e+001	-1.644115e+001	-8.082786e+001	-1.644861e+001	-8.101077e+001	-1.221193e+001	8.257322e+001
3119584.055	-1.283766e+001	-2.627516e+001	-1.659073e+001	-8.523748e+001	-1.660337e+001	-8.541641e+001	-1.228208e+001	7.783775e+001
3144020.797	-1.269622e+001	-3.071410e+001	-1.672627e+001	-8.955743e+001	-1.674320e+001	-8.975734e+001	-1.235486e+001	7.324976e+001
3168457.539	-1.256181e+001	-3.504087e+001	-1.685058e+001	-9.386917e+001	-1.687385e+001	-9.403102e+001	-1.242899e+001	6.876018e+001
3192894.281	-1.243446e+001	-3.927196e+001	-1.696475e+001	-9.807737e+001	-1.699484e+001	-9.823837e+001	-1.250536e+001	6.438693e+001
3217331.023	-1.231387e+001	-4.338483e+001	-1.707093e+001	-1.022640e+002	-1.710492e+001	-1.024059e+002	-1.258358e+001	6.013114e+001
3241767.764	-1.220037e+001	-4.739676e+001	-1.716828e+001	-1.063831e+002	-1.721137e+001	-1.065051e+002	-1.266138e+001	5.599466e+001
3266204.506	-1.209318e+001	-5.131661e+001	-1.726152e+001	-1.104815e+002	-1.730704e+001	-1.105327e+002	-1.273396e+001	5.195717e+001
3290641.248	-1.198467e+001	-5.517494e+001	-1.734077e+001	-1.144149e+002	-1.739543e+001	-1.144487e+002	-1.280100e+001	4.798697e+001
3315077.990	-1.188215e+001	-5.899886e+001	-1.739614e+001	-1.182790e+002	-1.745384e+001	-1.182864e+002	-1.286851e+001	4.403451e+001
3339514.731	-1.179032e+001	-6.279264e+001	-1.742820e+001	-1.221565e+002	-1.749012e+001	-1.221416e+002	-1.294569e+001	4.011459e+001
3363951.473	-1.170977e+001	-6.653126e+001	-1.744477e+001	-1.260939e+002	-1.750945e+001	-1.260361e+002	-1.303156e+001	3.627419e+001
3388388.215	-1.163918e+001	-7.020659e+001	-1.744857e+001	-1.300654e+002	-1.751856e+001	-1.299617e+002	-1.312403e+001	3.253235e+001
3412824.957	-1.157943e+001	-7.381206e+001	-1.744405e+001	-1.340545e+002	-1.751749e+001	-1.339265e+002	-1.322151e+001	2.888268e+001
3437261.698	-1.152857e+001	-7.736107e+001	-1.742949e+001	-1.380959e+002	-1.750670e+001	-1.379146e+002	-1.332485e+001	2.530364e+001
3461698.440	-1.148741e+001	-8.084142e+001	-1.740660e+001	-1.421461e+002	-1.748626e+001	-1.419129e+002	-1.343369e+001	2.182605e+001
3486135.182	-1.145679e+001	-8.425196e+001	-1.737425e+001	-1.462432e+002	-1.745649e+001	-1.459516e+002	-1.354915e+001	1.844499e+001
3510571.924	-1.143424e+001	-8.759521e+001	-1.733712e+001	-1.503871e+002	-1.742102e+001	-1.500466e+002	-1.366806e+001	1.517063e+001
3535008.666	-1.141873e+001	-9.084092e+001	-1.729795e+001	-1.545272e+002	-1.737941e+001	-1.541564e+002	-1.378912e+001	1.201632e+001
3559445.407	-1.140920e+001	-9.402462e+001	-1.724790e+001	-1.586757e+002	-1.733063e+001	-1.582622e+002	-1.390905e+001	8.963793e+000
3583882.149	-1.140435e+001	-9.714240e+001	-1.718582e+001	-1.628100e+002	-1.726789e+001	-1.623612e+002	-1.402656e+001	5.952847e+000
3608318.891	-1.140476e+001	-1.002203e+002	-1.710174e+001	-1.669953e+002	-1.718589e+001	-1.665160e+002	-1.415446e+001	2.990001e+000
3632755.633	-1.141676e+001	-1.032624e+002	-1.700296e+001	-1.713325e+002	-1.708853e+001	-1.707769e+002	-1.429335e+001	9.507432e-002
3657192.374	-1.143822e+001	-1.062301e+002	-1.689281e+001	-1.757440e+002	-1.697469e+001	-1.751560e+002	-1.444261e+001	-2.712703e+000
3681629.116	-1.147120e+001	-1.091305e+002	-1.677104e+001	1.796767e+002	-1.685454e+001	-1.796729e+002	-1.460439e+001	-5.369602e+000
3706065.858	-1.151811e+001	-1.119243e+002	-1.664862e+001	1.749349e+002	-1.672896e+001	1.756124e+002	-1.478094e+001	-7.864421e+000
3730502.600	-1.157489e+001	-1.146075e+002	-1.653024e+001	1.700270e+002	-1.660805e+001	1.707313e+002	-1.496734e+001	-1.015779e+001
3754939.341	-1.164047e+001	-1.171699e+002	-1.641991e+001	1.649945e+002	-1.649436e+001	1.656993e+002	-1.515649e+001	-1.218853e+001
3779376.083	-1.171608e+001	-1.195598e+002	-1.631828e+001	1.597698e+002	-1.639149e+001	1.605347e+002	-1.534473e+001	-1.399739e+001
3803812.825	-1.179619e+001	-1.217893e+002	-1.623256e+001	1.544482e+002	-1.630370e+001	1.551955e+002	-1.552775e+001	-1.547167e+001
3828249.567	-1.187812e+001	-1.238129e+002	-1.616131e+001	1.489847e+002	-1.622712e+001	1.497681e+002	-1.569168e+001	-1.668687e+001
3852686.308	-1.195469e+001	-1.256695e+002	-1.610540e+001	1.434475e+002	-1.617079e+001	1.442395e+002	-1.582891e+001	-1.762098e+001
3877123.050	-1.202450e+001	-1.272846e+002	-1.606581e+001	1.377753e+002	-1.612764e+001	1.385949e+002	-1.593557e+001	-1.829838e+001
3901559.792	-1.208172e+001	-1.286925e+002	-1.604186e+001	1.319731e+002	-1.610544e+001	1.328140e+002	-1.599961e+001	-1.868977e+001
3925996.534	-1.210613e+001	-1.298633e+002	-1.605343e+001	1.260970e+002	-1.610977e+001	1.269299e+002	-1.600857e+001	-1.887588e+001
3950433.276	-1.210046e+001	-1.308308e+002	-1.608595e+001	1.200376e+002	-1.614186e+001	1.209053e+002	-1.595140e+001	-1.889298e+001
3974870.017	-1.204542e+001	-1.316607e+002	-1.615758e+001	1.139313e+002	-1.621157e+001	1.147669e+002	-1.581298e+001	-1.886457e+001
3999306.759	-1.193439e+001	-1.324384e+002	-1.627197e+001	1.077519e+002	-1.632279e+001	1.085922e+002	-1.560194e+001	-1.895243e+001
4023743.501	-1.176642e+001	-1.332635e+002	-1.642987e+001	1.015352e+002	-1.647928e+001	1.023814e+002	-1.531481e+001	-1.927416e+001
4048180.243	-1.154054e+001	-1.342489e+002	-1.664012e+001	9.533801e+001	-1.669039e+001	9.617696e+001	-1.496414e+001	-1.995348e+001
4072616.984	-1.126648e+001	-1.354833e+002	-1.690577e+001	8.917257e+001	-1.695682e+001	9.002671e+001	-1.457061e+001	-2.106493e+001
4097053.726	-1.095230e+001	-1.370837e+002	-1.723704e+001	8.316141e+001	-1.729123e+001	8.401210e+001	-1.414304e+001	-2.265887e+001
4121490.468	-1.062171e+001	-1.390641e+002	-1.762496e+001	7.735704e+001	-1.767783e+001	7.823137e+001	-1.371391e+001	-2.473464e+001
4145927.210	-1.028170e+001	-1.414650e+002	-1.808214e+001	7.185856e+001	-1.812952e+001	7.272388e+001	-1.329386e+001	-2.726160e+001
4170363.951	-9.953187e+000	-1.442534e+002	-1.859584e+001	6.686988e+001	-1.866446e+001	6.758759e+001	-1.288067e+001	-3.019203e+001
4194800.693	-9.645718e+000	-1.474361e+002	-1.917387e+001	6.244376e+001	-1.925066e+001	6.319330e+001	-1.250621e+001	-3.356512e+001
4219237.435	-9.373868e+000	-1.509499e+002	-1.977902e+001	5.881730e+001	-1.986632e+001	5.961479e+001	-1.217902e+001	-3.723622e+001
4243674.177	-9.151627e+000	-1.546620e+002	-2.035940e+001	5.603293e+001	-2.045323e+001	5.694399e+001	-1.190719e+001	-4.107362e+001
4268110.919	-8.970486e+000	-1.584791e+002	-2.089584e+001	5.389048e+001	-2.098360e+001	5.499137e+001	-1.168154e+001	-4.496306e+001
4292547.660	-8.824907e+000	-1.623456e+002	-2.137745e+001	5.225370e+001	-2.144915e+001	5.340829e+001	-1.148574e+001	-4.882098e+001
4316984.402	-8.708977e+000	-1.663070e+002	-2.181260e+001	5.129084e+001	-2.186719e+001	5.248551e+001	-1.131527e+001	-5.273259e+001
4341421.144	-8.635555e+000	-1.703165e+002	-2.211731e+001	5.099443e+001	-2.216772e+001	5.214230e+001	-1.117709e+001	-5.665250e+001
4365857.886	-8.600635e+000	-1.742944e+002	-2.226958e+001	5.085871e+001	-2.232088e+001	5.196237e+001	-1.107123e+001	-6.053794e+001
4390294.627	-8.593060e+000	-1.781244e+002	-2.228466e+001	5.013373e+001	-2.234159e+001	5.130079e+001	-1.098652e+001	-6.425274e+001
4414731.369	-8.585930e+000	1.781806e+002	-2.230490e+001	4.856195e+001	-2.235498e+001	4.989825e+001	-1.089919e+001	-6.780390e+001
4439168.111	-8.560356e+000	1.744784e+002	-2.242973e+001	4.663859e+001	-2.246431e+001	4.827563e+001	-1.078279e+001	-7.133127e+001
4463604.853	-8.522649e+000	1.704746e+002	-2.269541e+001	4.591415e+001	-2.267694e+001	4.749818e+001	-1.063762e+001	-7.502295e+001
4488041.594	-8.507486e+000	1.660371e+002	-2.291805e+001	4.722958e+001	-2.285239e+001	4.855112e+001	-1.048607e+001	-7.911166e+001
4512478.336	-8.572446e+000	1.612493e+002	-2.274280e+001	5.013195e+001	-2.269542e+001	5.116949e+001	-1.037697e+001	-8.363517e+001
4536915.078	-8.745021e+000	1.564190e+002	-2.206535e+001	5.218011e+001	-2.205191e+001	5.302203e+001	-1.035150e+001	-8.834854e+001
4561351.820	-8.998076e+000	1.519834e+002	-2.118885e+001	5.122797e+001	-2.120074e+001	5.228415e+001	-1.040102e+001	-9.287587e+001
4585788.562	-9.275141e+000	1.479760e+002	-2.043459e+001	4.818844e+001	-2.044191e+001	4.941569e+001	-1.047941e+001	-9.704460e+001
4610225.303	-9.549261e+000	1.441586e+002	-1.983959e+001	4.446119e+001	-1.981740e+001	4.572660e+001	-1.055518e+001	-1.010245e+002
4634662.045	-9.831028e+000	1.404327e+002	-1.933907e+001	4.040717e+001	-1.929624e+001	4.160327e+001	-1.062637e+001	-1.048881e+002
4659098.787	-1.012401e+001	1.367289e+002	-1.890335e+001	3.631414e+001	-1.885490e+001	3.741008e+001	-1.068916e+001	-1.087439e+002
4683535.529	-1.042451e+001	1.330044e+002	-1.852953e+001	3.224670e+001	-1.847363e+001	3.325039e+001	-1.074058e+001	-1.126226e+002
4707972.270	-1.074101e+001	1.291474e+002	-1.818768e+001	2.848056e+001	-1.811391e+001	2.935367e+001	-1.078558e+001	-1.166485e+002
4732409.012	-1.110939e+001	1.250295e+002	-1.780594e+001	2.504851e+001	-1.772772e+001	2.584257e+001	-1.083168e+001	-1.209999e+002
4756845.754	-1.157439e+001	1.207955e+002	-1.732215e+001	2.155322e+001	-1.723485e+001	2.221395e+001	-1.092576e+001	-1.256614e+002
4781282.496	-1.215034e+001	1.168361e+002	-1.676739e+001	1.732904e+001	-1.667730e+001	1.790051e+001	-1.109233e+001	-1.304376e+002
4805719.237	-1.280595e+001	1.133705e+002	-1.622043e+001	1.234957e+001	-1.614687e+001	1.277926e+001	-1.131405e+001	-1.350480e+002
4830155.979	-1.351112e+001	1.104255e+002	-1.573318e+001	6.843115e+000	-1.566722e+001	7.276278e+000	-1.157024e+001	-1.395469e+002
4854592.721	-1.425137e+001	1.079707e+002	-1.530547e+001	1.078096e+000	-1.524551e+001	1.498052e+000	-1.185419e+001	-1.438990e+002
4879029.463	-1.503404e+001	1.060218e+002	-1.491747e+001	-4.857493e+000	-1.485917e+001	-4.450486e+000	-1.217181e+001	-1.481863e+002
4903466.205	-1.584992e+001	1.046481e+002	-1.456902e+001	-1.091691e+001	-1.450881e+001	-1.050952e+001	-1.251667e+001	-1.523731e+002
4927902.946	-1.669138e+001	1.039535e+002	-1.425557e+001	-1.710137e+001	-1.419264e+001	-1.674951e+001	-1.290276e+001	-1.564134e+002
4952339.688	-1.753338e+001	1.039804e+002	-1.397913e+001	-2.341419e+001	-1.391430e+001	-2.303459e+001	-1.331363e+001	-1.603226e+002
4976776.430	-1.835723e+001	1.048384e+002	-1.373627e+001	-2.977692e+001	-1.367421e+001	-2.943780e+001	-1.375366e+001	-1.639809e+002
5001213.172	-1.912870e+001	1.064202e+002	-1.352813e+001	-3.618022e+001	-1.347087e+001	-3.588661e+001	-1.421531e+001	-1.674032e+002
5025649.913	-1.982854e+001	1.085988e+002	-1.335484e+001	-4.258886e+001	-1.330254e+001	-4.232372e+001	-1.468971e+001	-1.705906e+002
5050086.655	-2.044552e+001	1.112439e+002	-1.321006e+001	-4.897013e+001	-1.316401e+001	-4.873224e+001	-1.517605e+001	-1.735568e+002
5074523.397	-2.097835e+001	1.142348e+002	-1.309276e+001	-5.531187e+001	-1.305194e+001	-5.507461e+001	-1.566588e+001	-1.763459e+002
5098960.139	-2.141848e+001	1.174953e+002	-1.299492e+001	-6.162457e+001	-1.296137e+001	-6.137893e+001	-1.616643e+001	-1.789218e+002
5123396.880	-2.178147e+001	1.208430e+002	-1.291715e+001	-6.787887e+001	-1.288817e+001	-6.762393e+001	-1.667212e+001	1.787180e+002
5147833.622	-2.205527e+001	1.243054e+002	-1.285285e+001	-7.409679e+001	-1.282897e+001	-7.382266e+001	-1.718473e+001	1.765638e+002
5172270.364	-2.225364e+001	1.277882e+002	-1.280200e+001	-8.028333e+001	-1.278196e+001	-7.998417e+001	-1.770197e+001	1.746776e+002
5196707.106	-2.237026e+001	1.311544e+002	-1.276494e+001	-8.643737e+001	-1.274686e+001	-8.611457e+001	-1.821590e+001	1.730863e+002
5221143.847	-2.240962e+001	1.343066e+002	-1.273960e+001	-9.256549e+001	-1.272222e+001	-9.219310e+001	-1.871885e+001	1.717558e+002
5245580.589	-2.241441e+001	1.372470e+002	-1.272843e+001	-9.868231e+001	-1.271224e+001	-9.827941e+001	-1.919376e+001	1.707702e+002
5270017.331	-2.237123e+001	1.399786e+002	-1.272919e+001	-1.047726e+002	-1.271365e+001	-1.043333e+002	-1.963349e+001	1.700474e+002
5294454.073	-2.230174e+001	1.425031e+002	-1.274072e+001	-1.108147e+002	-1.272556e+001	-1.103471e+002	-2.002425e+001	1.694939e+002
5318890.815	-2.220656e+001	1.448525e+002	-1.276116e+001	-1.168108e+002	-1.274548e+001	-1.163106e+002	-2.037322e+001	1.690623e+002
5343327.556	-2.207684e+001	1.470901e+002	-1.278517e+001	-1.227711e+002	-1.276902e+001	-1.222335e+002	-2.068061e+001	1.687451e+002
5367764.298	-2.190784e+001	1.490200e+002	-1.281256e+001	-1.287242e+002	-1.279611e+001	-1.281578e+002	-2.093200e+001	1.685294e+002
5392201.040	-2.173386e+001	1.506304e+002	-1.284609e+001	-1.346936e+002	-1.282729e+001	-1.340899e+002	-2.111621e+001	1.683757e+002
5416637.782	-2.155878e+001	1.519770e+002	-1.288498e+001	-1.406756e+002	-1.286630e+001	-1.400372e+002	-2.122532e+001	1.681195e+002
5441074.523	-2.140205e+001	1.530874e+002	-1.293348e+001	-1.466707e+002	-1.291423e+001	-1.459980e+002	-2.125930e+001	1.676252e+002
