!Agilent Technologies,E5061B,MY49101568,A.02.00
!Date: Wed Mar 01 15:53:01 2023
!Data & Calibration Information:
!Freq	S11:SOLT2(OFF)	S21:SOLT2(OFF)	S12:SOLT2(OFF)	S22:SOLT2(OFF)
# Hz S dB R 50
1800000.000	-1.564347e+001	-1.424192e+000	-1.263039e+001	1.759448e+002	-1.261083e+001	1.760850e+002	-1.733965e+001	4.268362e+001
1824436.742	-1.568933e+001	-1.665464e+000	-1.256656e+001	1.698597e+002	-1.253971e+001	1.699724e+002	-1.720313e+001	4.323554e+001
1848873.484	-1.567494e+001	-2.162812e+000	-1.251804e+001	1.638954e+002	-1.248779e+001	1.640028e+002	-1.700793e+001	4.310747e+001
1873310.225	-1.561252e+001	-2.895561e+000	-1.247769e+001	1.580212e+002	-1.246054e+001	1.581365e+002	-1.675862e+001	4.232367e+001
1897746.967	-1.549199e+001	-3.984180e+000	-1.245351e+001	1.522526e+002	-1.242728e+001	1.523302e+002	-1.651268e+001	4.110000e+001
1922183.709	-1.536992e+001	-5.441419e+000	-1.241982e+001	1.466194e+002	-1.239435e+001	1.467811e+002	-1.630357e+001	3.921100e+001
1946620.451	-1.520109e+001	-7.224205e+000	-1.240063e+001	1.409526e+002	-1.240275e+001	1.409255e+002	-1.599880e+001	3.692352e+001
1971057.192	-1.503563e+001	-9.668863e+000	-1.240703e+001	1.355254e+002	-1.240791e+001	1.354880e+002	-1.578881e+001	3.398683e+001
1995493.934	-1.488160e+001	-1.248725e+001	-1.241974e+001	1.302019e+002	-1.241963e+001	1.302827e+002	-1.562244e+001	3.064506e+001
2019930.676	-1.480106e+001	-1.566702e+001	-1.242054e+001	1.252976e+002	-1.243248e+001	1.252736e+002	-1.549682e+001	2.692519e+001
2044367.418	-1.475211e+001	-1.882654e+001	-1.238159e+001	1.204578e+002	-1.238951e+001	1.205111e+002	-1.547189e+001	2.318132e+001
2068804.159	-1.469123e+001	-2.179573e+001	-1.231140e+001	1.154464e+002	-1.231672e+001	1.156397e+002	-1.544270e+001	1.961213e+001
2093240.901	-1.461137e+001	-2.494250e+001	-1.224408e+001	1.104228e+002	-1.224795e+001	1.104346e+002	-1.536474e+001	1.603506e+001
2117677.643	-1.453800e+001	-2.851664e+001	-1.219706e+001	1.053692e+002	-1.220404e+001	1.054626e+002	-1.531882e+001	1.191734e+001
2142114.385	-1.449359e+001	-3.222570e+001	-1.213767e+001	1.004100e+002	-1.215803e+001	1.004842e+002	-1.527643e+001	7.543988e+000
2166551.127	-1.446242e+001	-3.620513e+001	-1.208053e+001	9.546020e+001	-1.210023e+001	9.552112e+001	-1.526666e+001	3.009659e+000
2190987.868	-1.445270e+001	-4.045054e+001	-1.202579e+001	9.054343e+001	-1.205562e+001	9.073462e+001	-1.528720e+001	-1.958004e+000
2215424.610	-1.452170e+001	-4.487429e+001	-1.195649e+001	8.580993e+001	-1.197725e+001	8.615089e+001	-1.537822e+001	-7.046386e+000
2239861.352	-1.463299e+001	-4.933149e+001	-1.186640e+001	8.114418e+001	-1.187467e+001	8.144594e+001	-1.548848e+001	-1.215084e+001
2264298.094	-1.477396e+001	-5.372056e+001	-1.174766e+001	7.641315e+001	-1.175525e+001	7.663513e+001	-1.561113e+001	-1.733640e+001
2288734.835	-1.491889e+001	-5.810683e+001	-1.161634e+001	7.150920e+001	-1.162051e+001	7.176415e+001	-1.575771e+001	-2.265562e+001
2313171.577	-1.509444e+001	-6.261105e+001	-1.148136e+001	6.655601e+001	-1.148869e+001	6.676629e+001	-1.590933e+001	-2.817989e+001
2337608.319	-1.529699e+001	-6.739546e+001	-1.135292e+001	6.151239e+001	-1.136685e+001	6.171988e+001	-1.607385e+001	-3.409014e+001
2362045.061	-1.555376e+001	-7.230046e+001	-1.122262e+001	5.649083e+001	-1.123693e+001	5.670195e+001	-1.627918e+001	-4.024250e+001
2386481.802	-1.585793e+001	-7.731808e+001	-1.108465e+001	5.134941e+001	-1.110417e+001	5.156298e+001	-1.650376e+001	-4.668237e+001
2410918.544	-1.623428e+001	-8.233961e+001	-1.093619e+001	4.617572e+001	-1.095504e+001	4.644759e+001	-1.679078e+001	-5.339743e+001
2435355.286	-1.665560e+001	-8.743990e+001	-1.079105e+001	4.086282e+001	-1.080948e+001	4.113454e+001	-1.708559e+001	-6.034594e+001
2459792.028	-1.713963e+001	-9.260130e+001	-1.064618e+001	3.543346e+001	-1.066162e+001	3.572002e+001	-1.741365e+001	-6.757869e+001
2484228.769	-1.769662e+001	-9.794458e+001	-1.051141e+001	2.987411e+001	-1.052879e+001	3.021179e+001	-1.776014e+001	-7.526012e+001
2508665.511	-1.833405e+001	-1.033914e+002	-1.038790e+001	2.422340e+001	-1.039634e+001	2.457562e+001	-1.814749e+001	-8.322699e+001
2533102.253	-1.908369e+001	-1.090139e+002	-1.027661e+001	1.853004e+001	-1.028562e+001	1.884941e+001	-1.854946e+001	-9.160805e+001
2557538.995	-1.995644e+001	-1.148423e+002	-1.018565e+001	1.270559e+001	-1.018966e+001	1.305381e+001	-1.896203e+001	-1.004817e+002
2581975.737	-2.100230e+001	-1.209963e+002	-1.011402e+001	6.843096e+000	-1.011707e+001	7.180600e+000	-1.937741e+001	-1.098013e+002
2606412.478	-2.227115e+001	-1.273119e+002	-1.006121e+001	9.432800e-001	-1.006031e+001	1.293709e+000	-1.980517e+001	-1.196072e+002
2630849.220	-2.384992e+001	-1.337545e+002	-1.002390e+001	-4.921265e+000	-1.001574e+001	-4.579133e+000	-2.024633e+001	-1.300117e+002
2655285.962	-2.583244e+001	-1.406191e+002	-1.000609e+001	-1.081539e+001	-9.992059e+000	-1.050218e+001	-2.066730e+001	-1.407605e+002
2679722.704	-2.842231e+001	-1.483993e+002	-1.000938e+001	-1.670989e+001	-9.995055e+000	-1.642448e+001	-2.102608e+001	-1.518007e+002
2704159.445	-3.218146e+001	-1.585892e+002	-1.003127e+001	-2.256824e+001	-1.002092e+001	-2.230322e+001	-2.132175e+001	-1.630607e+002
2728596.187	-3.869574e+001	-1.794322e+002	-1.008172e+001	-2.833826e+001	-1.007147e+001	-2.805881e+001	-2.150721e+001	-1.747450e+002
2753032.929	-4.390377e+001	7.847311e+001	-1.014369e+001	-3.397458e+001	-1.012891e+001	-3.371760e+001	-2.164177e+001	1.734376e+002
2777469.671	-3.499322e+001	3.212748e+001	-1.020986e+001	-3.947436e+001	-1.019831e+001	-3.925305e+001	-2.169685e+001	1.615836e+002
2801906.412	-3.038957e+001	1.854458e+001	-1.027449e+001	-4.496382e+001	-1.026406e+001	-4.474539e+001	-2.173990e+001	1.499884e+002
2826343.154	-2.747603e+001	1.003605e+001	-1.034988e+001	-5.036679e+001	-1.032969e+001	-5.019803e+001	-2.176740e+001	1.388046e+002
2850779.896	-2.544355e+001	3.177567e+000	-1.043304e+001	-5.579521e+001	-1.041627e+001	-5.561507e+001	-2.174486e+001	1.284946e+002
2875216.638	-2.387028e+001	-2.867884e+000	-1.052718e+001	-6.112631e+001	-1.051465e+001	-6.094760e+001	-2.168720e+001	1.189283e+002
2899653.380	-2.260518e+001	-8.348055e+000	-1.063322e+001	-6.634774e+001	-1.062098e+001	-6.619381e+001	-2.160772e+001	1.099428e+002
2924090.121	-2.155607e+001	-1.351522e+001	-1.074728e+001	-7.145373e+001	-1.073639e+001	-7.131824e+001	-2.150184e+001	1.015787e+002
2948526.863	-2.067719e+001	-1.851707e+001	-1.086007e+001	-7.645908e+001	-1.085460e+001	-7.633902e+001	-2.138903e+001	9.373883e+001
2972963.605	-1.991684e+001	-2.331208e+001	-1.097448e+001	-8.134352e+001	-1.097335e+001	-8.122592e+001	-2.126749e+001	8.635672e+001
2997400.347	-1.926167e+001	-2.804322e+001	-1.108546e+001	-8.611434e+001	-1.108837e+001	-8.598429e+001	-2.114422e+001	7.926400e+001
3021837.088	-1.869184e+001	-3.264459e+001	-1.119080e+001	-9.077237e+001	-1.119610e+001	-9.065222e+001	-2.103733e+001	7.245321e+001
3046273.830	-1.819619e+001	-3.723018e+001	-1.128354e+001	-9.534348e+001	-1.129438e+001	-9.522973e+001	-2.096132e+001	6.584938e+001
3070710.572	-1.776859e+001	-4.172775e+001	-1.136580e+001	-9.984003e+001	-1.137931e+001	-9.973617e+001	-2.090585e+001	5.943318e+001
3095147.314	-1.740193e+001	-4.616823e+001	-1.143568e+001	-1.042995e+002	-1.145525e+001	-1.041878e+002	-2.088382e+001	5.323892e+001
3119584.055	-1.709838e+001	-5.052220e+001	-1.149401e+001	-1.087594e+002	-1.151161e+001	-1.086495e+002	-2.093799e+001	4.709598e+001
3144020.797	-1.684351e+001	-5.483850e+001	-1.153579e+001	-1.131880e+002	-1.155559e+001	-1.130980e+002	-2.102348e+001	4.111650e+001
3168457.539	-1.664390e+001	-5.903509e+001	-1.157299e+001	-1.176893e+002	-1.159222e+001	-1.175913e+002	-2.119017e+001	3.547320e+001
3192894.281	-1.649557e+001	-6.309536e+001	-1.159870e+001	-1.222278e+002	-1.162300e+001	-1.221106e+002	-2.140987e+001	3.008007e+001
3217331.023	-1.638447e+001	-6.697549e+001	-1.162942e+001	-1.268237e+002	-1.165255e+001	-1.266884e+002	-2.170898e+001	2.510395e+001
3241767.764	-1.630844e+001	-7.065605e+001	-1.166211e+001	-1.314324e+002	-1.168814e+001	-1.312990e+002	-2.204661e+001	2.061688e+001
3266204.506	-1.625696e+001	-7.416952e+001	-1.169963e+001	-1.360397e+002	-1.172654e+001	-1.358816e+002	-2.241659e+001	1.659254e+001
3290641.248	-1.621748e+001	-7.757360e+001	-1.173350e+001	-1.405673e+002	-1.176107e+001	-1.404247e+002	-2.279713e+001	1.282540e+001
3315077.990	-1.620934e+001	-8.096480e+001	-1.175029e+001	-1.451019e+002	-1.177979e+001	-1.449240e+002	-2.322557e+001	8.921236e+000
3339514.731	-1.624883e+001	-8.426008e+001	-1.175776e+001	-1.497357e+002	-1.178425e+001	-1.495680e+002	-2.381141e+001	5.333470e+000
3363951.473	-1.633194e+001	-8.730073e+001	-1.176663e+001	-1.544876e+002	-1.179475e+001	-1.543128e+002	-2.452127e+001	2.507987e+000
3388388.215	-1.645363e+001	-9.007682e+001	-1.178398e+001	-1.593241e+002	-1.181491e+001	-1.591457e+002	-2.534780e+001	9.053139e-001
3412824.957	-1.659432e+001	-9.251164e+001	-1.181389e+001	-1.642116e+002	-1.184401e+001	-1.640293e+002	-2.626248e+001	7.485020e-001
3437261.698	-1.675233e+001	-9.455383e+001	-1.185473e+001	-1.691454e+002	-1.188650e+001	-1.689367e+002	-2.721798e+001	2.588452e+000
3461698.440	-1.691984e+001	-9.621308e+001	-1.191027e+001	-1.741008e+002	-1.194256e+001	-1.739051e+002	-2.811397e+001	7.050439e+000
3486135.182	-1.707571e+001	-9.742806e+001	-1.198391e+001	-1.790604e+002	-1.201319e+001	-1.788579e+002	-2.873788e+001	1.416139e+001
3510571.924	-1.721005e+001	-9.826206e+001	-1.207098e+001	1.760011e+002	-1.210397e+001	1.761885e+002	-2.885723e+001	2.298437e+001
3535008.666	-1.729980e+001	-9.872013e+001	-1.217555e+001	1.711238e+002	-1.221037e+001	1.713292e+002	-2.836616e+001	3.136772e+001
3559445.407	-1.733651e+001	-9.895283e+001	-1.229468e+001	1.663655e+002	-1.232853e+001	1.665605e+002	-2.746997e+001	3.751577e+001
3583882.149	-1.732202e+001	-9.908646e+001	-1.241373e+001	1.616914e+002	-1.245199e+001	1.618962e+002	-2.642851e+001	4.112644e+001
3608318.891	-1.725521e+001	-9.913954e+001	-1.253542e+001	1.570999e+002	-1.257362e+001	1.572947e+002	-2.539082e+001	4.293667e+001
3632755.633	-1.715086e+001	-9.917699e+001	-1.265350e+001	1.525092e+002	-1.269682e+001	1.527443e+002	-2.438097e+001	4.335014e+001
3657192.374	-1.699731e+001	-9.922246e+001	-1.277334e+001	1.479759e+002	-1.281769e+001	1.482311e+002	-2.345594e+001	4.278798e+001
3681629.116	-1.679906e+001	-9.927712e+001	-1.289562e+001	1.434335e+002	-1.294207e+001	1.436845e+002	-2.256800e+001	4.161441e+001
3706065.858	-1.654807e+001	-9.932725e+001	-1.303271e+001	1.388313e+002	-1.308218e+001	1.390996e+002	-2.170174e+001	3.992408e+001
3730502.600	-1.623766e+001	-9.959251e+001	-1.318528e+001	1.342836e+002	-1.324095e+001	1.345392e+002	-2.087262e+001	3.754817e+001
3754939.341	-1.586969e+001	-1.001014e+002	-1.336662e+001	1.297636e+002	-1.342757e+001	1.300619e+002	-2.008803e+001	3.451021e+001
3779376.083	-1.545989e+001	-1.010414e+002	-1.357714e+001	1.254051e+002	-1.363559e+001	1.257406e+002	-1.937547e+001	3.095621e+001
3803812.825	-1.503118e+001	-1.024861e+002	-1.380506e+001	1.212841e+002	-1.387510e+001	1.216594e+002	-1.872400e+001	2.684405e+001
3828249.567	-1.460350e+001	-1.044096e+002	-1.404708e+001	1.174310e+002	-1.410725e+001	1.178012e+002	-1.817588e+001	2.261296e+001
3852686.308	-1.420770e+001	-1.067315e+002	-1.427962e+001	1.138469e+002	-1.434299e+001	1.142403e+002	-1.770217e+001	1.813554e+001
3877123.050	-1.382935e+001	-1.093285e+002	-1.451925e+001	1.104930e+002	-1.458875e+001	1.108714e+002	-1.726962e+001	1.358388e+001
3901559.792	-1.347950e+001	-1.123070e+002	-1.475614e+001	1.075279e+002	-1.483755e+001	1.079157e+002	-1.689656e+001	8.743844e+000
3925996.534	-1.316901e+001	-1.156024e+002	-1.497225e+001	1.049738e+002	-1.506280e+001	1.054374e+002	-1.660725e+001	3.733364e+000
3950433.276	-1.292211e+001	-1.191824e+002	-1.513403e+001	1.028952e+002	-1.522289e+001	1.034970e+002	-1.642346e+001	-1.421999e+000
3974870.017	-1.275080e+001	-1.229064e+002	-1.520933e+001	1.011150e+002	-1.528665e+001	1.018308e+002	-1.634309e+001	-6.416351e+000
3999306.759	-1.265879e+001	-1.266068e+002	-1.517792e+001	9.941176e+001	-1.524976e+001	1.001423e+002	-1.634656e+001	-1.109189e+001
4023743.501	-1.263736e+001	-1.301526e+002	-1.505387e+001	9.751751e+001	-1.510747e+001	9.823285e+001	-1.643460e+001	-1.532881e+001
4048180.243	-1.268206e+001	-1.333399e+002	-1.484619e+001	9.516313e+001	-1.488995e+001	9.588279e+001	-1.658625e+001	-1.897792e+001
4072616.984	-1.276850e+001	-1.361097e+002	-1.459381e+001	9.227764e+001	-1.464169e+001	9.298143e+001	-1.675532e+001	-2.198210e+001
4097053.726	-1.286097e+001	-1.383819e+002	-1.434012e+001	8.884478e+001	-1.438484e+001	8.951611e+001	-1.691603e+001	-2.427301e+001
4121490.468	-1.294221e+001	-1.402585e+002	-1.410242e+001	8.502667e+001	-1.414722e+001	8.567436e+001	-1.703559e+001	-2.607827e+001
4145927.210	-1.299207e+001	-1.417834e+002	-1.389245e+001	8.085282e+001	-1.393751e+001	8.153551e+001	-1.710114e+001	-2.749723e+001
4170363.951	-1.300480e+001	-1.430965e+002	-1.371176e+001	7.656618e+001	-1.376059e+001	7.719674e+001	-1.710052e+001	-2.869517e+001
4194800.693	-1.297167e+001	-1.443084e+002	-1.356448e+001	7.208789e+001	-1.361067e+001	7.271805e+001	-1.704155e+001	-2.984082e+001
4219237.435	-1.289502e+001	-1.454592e+002	-1.344215e+001	6.751500e+001	-1.349124e+001	6.817674e+001	-1.692388e+001	-3.105306e+001
4243674.177	-1.277837e+001	-1.467274e+002	-1.334929e+001	6.295183e+001	-1.339631e+001	6.363795e+001	-1.676663e+001	-3.243808e+001
4268110.919	-1.263655e+001	-1.481409e+002	-1.327679e+001	5.842048e+001	-1.332355e+001	5.912700e+001	-1.657868e+001	-3.404153e+001
4292547.660	-1.247311e+001	-1.497178e+002	-1.322095e+001	5.391563e+001	-1.326562e+001	5.464107e+001	-1.637614e+001	-3.586867e+001
4316984.402	-1.230442e+001	-1.514597e+002	-1.317279e+001	4.947269e+001	-1.321424e+001	5.021282e+001	-1.617111e+001	-3.786395e+001
4341421.144	-1.213230e+001	-1.533457e+002	-1.312873e+001	4.506072e+001	-1.317031e+001	4.578132e+001	-1.596125e+001	-4.000834e+001
4365857.886	-1.195550e+001	-1.553666e+002	-1.309491e+001	4.064299e+001	-1.313773e+001	4.140377e+001	-1.575094e+001	-4.232715e+001
4390294.627	-1.178320e+001	-1.575736e+002	-1.306852e+001	3.630002e+001	-1.310767e+001	3.707926e+001	-1.555211e+001	-4.482413e+001
4414731.369	-1.161959e+001	-1.599067e+002	-1.304333e+001	3.199711e+001	-1.308070e+001	3.279916e+001	-1.536493e+001	-4.742728e+001
4439168.111	-1.146638e+001	-1.623788e+002	-1.302067e+001	2.769445e+001	-1.305769e+001	2.855036e+001	-1.518247e+001	-5.020907e+001
4463604.853	-1.132831e+001	-1.649494e+002	-1.299916e+001	2.348442e+001	-1.302980e+001	2.437507e+001	-1.502312e+001	-5.304141e+001
4488041.594	-1.120591e+001	-1.676128e+002	-1.297353e+001	1.929798e+001	-1.300021e+001	2.022116e+001	-1.487785e+001	-5.596435e+001
4512478.336	-1.110532e+001	-1.703395e+002	-1.294320e+001	1.517101e+001	-1.296366e+001	1.611530e+001	-1.475543e+001	-5.893731e+001
4536915.078	-1.101818e+001	-1.731097e+002	-1.290834e+001	1.104475e+001	-1.292582e+001	1.199784e+001	-1.464338e+001	-6.194658e+001
4561351.820	-1.094750e+001	-1.759448e+002	-1.287261e+001	6.928955e+000	-1.288875e+001	7.875860e+000	-1.453931e+001	-6.500151e+001
4585788.562	-1.089737e+001	-1.788284e+002	-1.283414e+001	2.852457e+000	-1.284310e+001	3.801718e+000	-1.446183e+001	-6.811985e+001
4610225.303	-1.087116e+001	1.782779e+002	-1.278523e+001	-1.188687e+000	-1.278798e+001	-2.296731e-001	-1.440648e+001	-7.127661e+001
4634662.045	-1.086876e+001	1.754304e+002	-1.271755e+001	-5.227057e+000	-1.272108e+001	-4.270449e+000	-1.437585e+001	-7.439213e+001
4659098.787	-1.087681e+001	1.726007e+002	-1.264570e+001	-9.329693e+000	-1.263913e+001	-8.363689e+000	-1.436204e+001	-7.743881e+001
4683535.529	-1.089884e+001	1.698308e+002	-1.255947e+001	-1.349343e+001	-1.254755e+001	-1.254787e+001	-1.436229e+001	-8.040026e+001
4707972.270	-1.092613e+001	1.670912e+002	-1.247176e+001	-1.773164e+001	-1.245499e+001	-1.682280e+001	-1.436984e+001	-8.326973e+001
4732409.012	-1.096479e+001	1.643456e+002	-1.238207e+001	-2.205789e+001	-1.236705e+001	-2.116880e+001	-1.437523e+001	-8.616943e+001
4756845.754	-1.101091e+001	1.615735e+002	-1.229845e+001	-2.648654e+001	-1.227693e+001	-2.558088e+001	-1.439448e+001	-8.901881e+001
4781282.496	-1.107407e+001	1.587923e+002	-1.221661e+001	-3.093454e+001	-1.218960e+001	-3.006415e+001	-1.441314e+001	-9.181361e+001
4805719.237	-1.114990e+001	1.559840e+002	-1.214116e+001	-3.544836e+001	-1.210827e+001	-3.456972e+001	-1.444279e+001	-9.467218e+001
4830155.979	-1.124437e+001	1.531634e+002	-1.207094e+001	-3.998943e+001	-1.203483e+001	-3.913854e+001	-1.447234e+001	-9.749060e+001
4854592.721	-1.135820e+001	1.503381e+002	-1.200440e+001	-4.456215e+001	-1.196267e+001	-4.374241e+001	-1.451192e+001	-1.003167e+002
4879029.463	-1.149146e+001	1.475252e+002	-1.194210e+001	-4.916762e+001	-1.189913e+001	-4.835115e+001	-1.456220e+001	-1.031740e+002
4903466.205	-1.164792e+001	1.447319e+002	-1.188710e+001	-5.377627e+001	-1.183997e+001	-5.299364e+001	-1.462187e+001	-1.060229e+002
4927902.946	-1.182791e+001	1.419597e+002	-1.183597e+001	-5.841979e+001	-1.178667e+001	-5.765940e+001	-1.468824e+001	-1.088669e+002
4952339.688	-1.203143e+001	1.392468e+002	-1.178673e+001	-6.310119e+001	-1.173501e+001	-6.232036e+001	-1.477215e+001	-1.117205e+002
4976776.430	-1.226164e+001	1.365880e+002	-1.174622e+001	-6.777173e+001	-1.168902e+001	-6.701808e+001	-1.486258e+001	-1.145203e+002
5001213.172	-1.251520e+001	1.340223e+002	-1.170585e+001	-7.245355e+001	-1.165024e+001	-7.172616e+001	-1.496274e+001	-1.173337e+002
5025649.913	-1.279673e+001	1.315654e+002	-1.167014e+001	-7.713681e+001	-1.161245e+001	-7.643479e+001	-1.507698e+001	-1.200962e+002
5050086.655	-1.310335e+001	1.292211e+002	-1.164088e+001	-8.182635e+001	-1.158012e+001	-8.116109e+001	-1.520061e+001	-1.228435e+002
5074523.397	-1.343236e+001	1.270328e+002	-1.161183e+001	-8.653503e+001	-1.155217e+001	-8.589044e+001	-1.533356e+001	-1.255177e+002
5098960.139	-1.378830e+001	1.249991e+002	-1.158893e+001	-9.125205e+001	-1.152833e+001	-9.064076e+001	-1.547524e+001	-1.281759e+002
5123396.880	-1.416276e+001	1.231378e+002	-1.156898e+001	-9.600007e+001	-1.150863e+001	-9.540268e+001	-1.562252e+001	-1.307754e+002
5147833.622	-1.456427e+001	1.214789e+002	-1.155674e+001	-1.007332e+002	-1.149698e+001	-1.001808e+002	-1.577360e+001	-1.333689e+002
5172270.364	-1.498693e+001	1.200242e+002	-1.155081e+001	-1.054756e+002	-1.149223e+001	-1.049441e+002	-1.593191e+001	-1.359436e+002
5196707.106	-1.543192e+001	1.188677e+002	-1.154778e+001	-1.101976e+002	-1.149100e+001	-1.096955e+002	-1.609913e+001	-1.385164e+002
5221143.847	-1.589652e+001	1.180192e+002	-1.154980e+001	-1.148738e+002	-1.149478e+001	-1.144273e+002	-1.627741e+001	-1.410185e+002
5245580.589	-1.637346e+001	1.175579e+002	-1.155290e+001	-1.195578e+002	-1.150191e+001	-1.191385e+002	-1.646651e+001	-1.435214e+002
5270017.331	-1.684674e+001	1.174452e+002	-1.155728e+001	-1.242493e+002	-1.150738e+001	-1.238584e+002	-1.665717e+001	-1.459304e+002
5294454.073	-1.732082e+001	1.177468e+002	-1.156622e+001	-1.289231e+002	-1.151866e+001	-1.285385e+002	-1.686090e+001	-1.483356e+002
5318890.815	-1.777364e+001	1.184634e+002	-1.157444e+001	-1.336007e+002	-1.152972e+001	-1.332327e+002	-1.706549e+001	-1.506502e+002
5343327.556	-1.820059e+001	1.195444e+002	-1.158608e+001	-1.382988e+002	-1.154339e+001	-1.379137e+002	-1.727437e+001	-1.529504e+002
5367764.298	-1.857976e+001	1.210509e+002	-1.159482e+001	-1.429609e+002	-1.155682e+001	-1.426072e+002	-1.747821e+001	-1.551810e+002
5392201.040	-1.891789e+001	1.228147e+002	-1.161029e+001	-1.476525e+002	-1.157468e+001	-1.472949e+002	-1.768237e+001	-1.574061e+002
5416637.782	-1.919814e+001	1.248525e+002	-1.162836e+001	-1.523471e+002	-1.159384e+001	-1.519963e+002	-1.787822e+001	-1.595804e+002
5441074.523	-1.941200e+001	1.270377e+002	-1.164576e+001	-1.570482e+002	-1.161403e+001	-1.566861e+002	-1.807772e+001	-1.617642e+002
