!Agilent Technologies,E5061B,MY49101568,A.02.00
!Date: Wed Mar 01 15:49:37 2023
!Data & Calibration Information:
!Freq	S11:SOLT2(OFF)	S21:SOLT2(OFF)	S12:SOLT2(OFF)	S22:SOLT2(OFF)
# Hz S dB R 50
1800000.000	-9.625260e+000	-2.323224e+001	-2.088604e+001	-1.249513e+002	-2.090440e+001	-1.248566e+002	-1.001740e+001	1.199160e+001
1824436.742	-9.758541e+000	-2.791431e+001	-2.043609e+001	-1.292772e+002	-2.043753e+001	-1.292555e+002	-1.017897e+001	7.833193e+000
1848873.484	-9.903957e+000	-3.272436e+001	-1.997443e+001	-1.337521e+002	-1.996698e+001	-1.337732e+002	-1.034633e+001	3.611874e+000
1873310.225	-1.006551e+001	-3.761701e+001	-1.949849e+001	-1.383817e+002	-1.948890e+001	-1.384960e+002	-1.052336e+001	-6.817102e-001
1897746.967	-1.022698e+001	-4.262027e+001	-1.904226e+001	-1.429811e+002	-1.898414e+001	-1.434080e+002	-1.071057e+001	-5.082054e+000
1922183.709	-1.041482e+001	-4.781992e+001	-1.855135e+001	-1.479143e+002	-1.849668e+001	-1.482740e+002	-1.089502e+001	-9.610888e+000
1946620.451	-1.061849e+001	-5.317894e+001	-1.805411e+001	-1.529867e+002	-1.800060e+001	-1.533784e+002	-1.109199e+001	-1.424095e+001
1971057.192	-1.084920e+001	-5.873188e+001	-1.754906e+001	-1.582750e+002	-1.750169e+001	-1.586622e+002	-1.130154e+001	-1.897595e+001
1995493.934	-1.110282e+001	-6.440855e+001	-1.704650e+001	-1.637423e+002	-1.697982e+001	-1.642638e+002	-1.154368e+001	-2.387075e+001
2019930.676	-1.138885e+001	-7.030047e+001	-1.654861e+001	-1.694174e+002	-1.647603e+001	-1.699896e+002	-1.179231e+001	-2.875506e+001
2044367.418	-1.171670e+001	-7.632401e+001	-1.604791e+001	-1.753584e+002	-1.597697e+001	-1.759378e+002	-1.205447e+001	-3.381294e+001
2068804.159	-1.208414e+001	-8.248030e+001	-1.556921e+001	1.785166e+002	-1.550203e+001	1.778821e+002	-1.233329e+001	-3.883417e+001
2093240.901	-1.248699e+001	-8.872754e+001	-1.511598e+001	1.722432e+002	-1.506445e+001	1.716963e+002	-1.260802e+001	-4.383838e+001
2117677.643	-1.293470e+001	-9.514015e+001	-1.467860e+001	1.658049e+002	-1.463993e+001	1.652996e+002	-1.289673e+001	-4.886640e+001
2142114.385	-1.343047e+001	-1.017220e+002	-1.426268e+001	1.592213e+002	-1.423183e+001	1.587835e+002	-1.319214e+001	-5.392600e+001
2166551.127	-1.398419e+001	-1.084750e+002	-1.386103e+001	1.525265e+002	-1.383551e+001	1.521602e+002	-1.349236e+001	-5.906989e+001
2190987.868	-1.460040e+001	-1.153203e+002	-1.348193e+001	1.456228e+002	-1.345989e+001	1.453153e+002	-1.380840e+001	-6.415817e+001
2215424.610	-1.527387e+001	-1.222461e+002	-1.313458e+001	1.385687e+002	-1.313772e+001	1.386653e+002	-1.407128e+001	-6.927218e+001
2239861.352	-1.600669e+001	-1.292038e+002	-1.282564e+001	1.314437e+002	-1.282966e+001	1.316358e+002	-1.436308e+001	-7.424671e+001
2264298.094	-1.677408e+001	-1.362580e+002	-1.254914e+001	1.243253e+002	-1.255234e+001	1.245499e+002	-1.463294e+001	-7.920012e+001
2288734.835	-1.758915e+001	-1.435294e+002	-1.229556e+001	1.172088e+002	-1.229897e+001	1.175034e+002	-1.486713e+001	-8.421265e+001
2313171.577	-1.845321e+001	-1.510021e+002	-1.206294e+001	1.100728e+002	-1.206217e+001	1.103968e+002	-1.507853e+001	-8.927211e+001
2337608.319	-1.935411e+001	-1.586153e+002	-1.185792e+001	1.029051e+002	-1.185675e+001	1.032780e+002	-1.525457e+001	-9.440571e+001
2362045.061	-2.025967e+001	-1.664692e+002	-1.168412e+001	9.576295e+001	-1.168196e+001	9.617381e+001	-1.537904e+001	-9.958577e+001
2386481.802	-2.113026e+001	-1.746613e+002	-1.153876e+001	8.865523e+001	-1.153023e+001	8.905545e+001	-1.546128e+001	-1.049193e+002
2410918.544	-2.193115e+001	1.765108e+002	-1.141084e+001	8.164177e+001	-1.139860e+001	8.207395e+001	-1.548466e+001	-1.105470e+002
2435355.286	-2.268450e+001	1.667883e+002	-1.129040e+001	7.463849e+001	-1.127153e+001	7.508185e+001	-1.548364e+001	-1.164851e+002
2459792.028	-2.334216e+001	1.565732e+002	-1.118776e+001	6.763330e+001	-1.116546e+001	6.804735e+001	-1.545519e+001	-1.226158e+002
2484228.769	-2.382789e+001	1.457833e+002	-1.110921e+001	6.060412e+001	-1.108081e+001	6.109659e+001	-1.538929e+001	-1.290167e+002
2508665.511	-2.410443e+001	1.345549e+002	-1.104841e+001	5.364588e+001	-1.101574e+001	5.413311e+001	-1.530026e+001	-1.356449e+002
2533102.253	-2.415472e+001	1.231185e+002	-1.100387e+001	4.675911e+001	-1.097093e+001	4.721019e+001	-1.518815e+001	-1.425146e+002
2557538.995	-2.397867e+001	1.117606e+002	-1.097791e+001	3.987767e+001	-1.094087e+001	4.031390e+001	-1.506535e+001	-1.495592e+002
2581975.737	-2.360385e+001	1.008455e+002	-1.097222e+001	3.303178e+001	-1.093010e+001	3.344992e+001	-1.493725e+001	-1.568032e+002
2606412.478	-2.307419e+001	9.057031e+001	-1.098336e+001	2.625377e+001	-1.093665e+001	2.663135e+001	-1.480050e+001	-1.641612e+002
2630849.220	-2.245310e+001	8.091895e+001	-1.101176e+001	1.953687e+001	-1.096532e+001	1.987936e+001	-1.466784e+001	-1.716236e+002
2655285.962	-2.177196e+001	7.196200e+001	-1.106130e+001	1.287883e+001	-1.101242e+001	1.319537e+001	-1.453583e+001	-1.791420e+002
2679722.704	-2.107159e+001	6.356112e+001	-1.112920e+001	6.321068e+000	-1.107766e+001	6.592732e+000	-1.441286e+001	1.733436e+002
2704159.445	-2.037212e+001	5.569962e+001	-1.121132e+001	-1.408547e-001	-1.116429e+001	8.912632e-002	-1.429349e+001	1.658495e+002
2728596.187	-1.969390e+001	4.826092e+001	-1.131031e+001	-6.504107e+000	-1.126520e+001	-6.298157e+000	-1.418903e+001	1.584127e+002
2753032.929	-1.904876e+001	4.117879e+001	-1.142192e+001	-1.274410e+001	-1.137918e+001	-1.255461e+001	-1.409255e+001	1.510824e+002
2777469.671	-1.844455e+001	3.437241e+001	-1.154011e+001	-1.887051e+001	-1.150242e+001	-1.870970e+001	-1.401786e+001	1.438260e+002
2801906.412	-1.788828e+001	2.786359e+001	-1.166890e+001	-2.486086e+001	-1.163600e+001	-2.471876e+001	-1.395325e+001	1.367210e+002
2826343.154	-1.737552e+001	2.158035e+001	-1.180573e+001	-3.073547e+001	-1.177679e+001	-3.061116e+001	-1.390849e+001	1.297850e+002
2850779.896	-1.690390e+001	1.556544e+001	-1.194573e+001	-3.649892e+001	-1.192571e+001	-3.637945e+001	-1.387724e+001	1.230206e+002
2875216.638	-1.649876e+001	9.695899e+000	-1.208699e+001	-4.225415e+001	-1.207516e+001	-4.198165e+001	-1.386087e+001	1.164317e+002
2899653.380	-1.610945e+001	4.096223e+000	-1.223329e+001	-4.776389e+001	-1.222922e+001	-4.747542e+001	-1.386008e+001	1.100488e+002
2924090.121	-1.574581e+001	-1.329947e+000	-1.237845e+001	-5.311552e+001	-1.238322e+001	-5.284390e+001	-1.387098e+001	1.038668e+002
2948526.863	-1.542005e+001	-6.600380e+000	-1.252055e+001	-5.835620e+001	-1.253113e+001	-5.810459e+001	-1.389597e+001	9.783111e+001
2972963.605	-1.512396e+001	-1.170375e+001	-1.265737e+001	-6.350636e+001	-1.267920e+001	-6.322917e+001	-1.393093e+001	9.200664e+001
2997400.347	-1.485847e+001	-1.666151e+001	-1.279013e+001	-6.857193e+001	-1.281904e+001	-6.823723e+001	-1.397558e+001	8.634102e+001
3021837.088	-1.461134e+001	-2.147946e+001	-1.291854e+001	-7.350765e+001	-1.295455e+001	-7.315718e+001	-1.403102e+001	8.084320e+001
3046273.830	-1.438003e+001	-2.616452e+001	-1.303975e+001	-7.831128e+001	-1.307983e+001	-7.797598e+001	-1.409326e+001	7.550672e+001
3070710.572	-1.417029e+001	-3.074275e+001	-1.314981e+001	-8.302847e+001	-1.319548e+001	-8.271032e+001	-1.416548e+001	7.029522e+001
3095147.314	-1.398324e+001	-3.522333e+001	-1.324826e+001	-8.766500e+001	-1.329826e+001	-8.734365e+001	-1.424265e+001	6.518979e+001
3119584.055	-1.381402e+001	-3.965271e+001	-1.333031e+001	-9.226799e+001	-1.338422e+001	-9.193587e+001	-1.433533e+001	6.017180e+001
3144020.797	-1.368456e+001	-4.402088e+001	-1.339143e+001	-9.694051e+001	-1.345510e+001	-9.651119e+001	-1.444304e+001	5.528390e+001
3168457.539	-1.356193e+001	-4.828057e+001	-1.344793e+001	-1.015309e+002	-1.351694e+001	-1.010677e+002	-1.456923e+001	5.051028e+001
3192894.281	-1.345861e+001	-5.245283e+001	-1.349166e+001	-1.061216e+002	-1.356728e+001	-1.056013e+002	-1.471027e+001	4.585081e+001
3217331.023	-1.337420e+001	-5.652741e+001	-1.353050e+001	-1.107171e+002	-1.360874e+001	-1.101361e+002	-1.486474e+001	4.134667e+001
3241767.764	-1.330309e+001	-6.050145e+001	-1.356444e+001	-1.152822e+002	-1.364488e+001	-1.146863e+002	-1.503531e+001	3.697707e+001
3266204.506	-1.323868e+001	-6.437277e+001	-1.359709e+001	-1.197832e+002	-1.367777e+001	-1.191976e+002	-1.521043e+001	3.278536e+001
3290641.248	-1.318139e+001	-6.819772e+001	-1.361567e+001	-1.242083e+002	-1.369912e+001	-1.236190e+002	-1.538009e+001	2.864808e+001
3315077.990	-1.313751e+001	-7.205717e+001	-1.360846e+001	-1.285952e+002	-1.368820e+001	-1.280051e+002	-1.556710e+001	2.436295e+001
3339514.731	-1.312786e+001	-7.594020e+001	-1.357156e+001	-1.331192e+002	-1.365240e+001	-1.324942e+002	-1.579934e+001	2.009726e+001
3363951.473	-1.314909e+001	-7.975030e+001	-1.352265e+001	-1.377687e+002	-1.360178e+001	-1.371410e+002	-1.608454e+001	1.591420e+001
3388388.215	-1.320018e+001	-8.346862e+001	-1.347292e+001	-1.425415e+002	-1.354868e+001	-1.419241e+002	-1.641794e+001	1.195216e+001
3412824.957	-1.328146e+001	-8.704863e+001	-1.341944e+001	-1.474275e+002	-1.349107e+001	-1.468162e+002	-1.679811e+001	8.185794e+000
3437261.698	-1.339067e+001	-9.050368e+001	-1.336424e+001	-1.524058e+002	-1.343460e+001	-1.518366e+002	-1.723204e+001	4.728467e+000
3461698.440	-1.353371e+001	-9.375076e+001	-1.331572e+001	-1.575180e+002	-1.338169e+001	-1.569576e+002	-1.771815e+001	1.645510e+000
3486135.182	-1.370201e+001	-9.675182e+001	-1.327668e+001	-1.627029e+002	-1.333711e+001	-1.621962e+002	-1.825995e+001	-9.471190e-001
3510571.924	-1.389225e+001	-9.949442e+001	-1.324561e+001	-1.679692e+002	-1.330316e+001	-1.675335e+002	-1.884718e+001	-2.862758e+000
3535008.666	-1.409906e+001	-1.018997e+002	-1.322844e+001	-1.732916e+002	-1.328619e+001	-1.729391e+002	-1.945854e+001	-3.927205e+000
3559445.407	-1.430878e+001	-1.039883e+002	-1.322339e+001	-1.785973e+002	-1.327772e+001	-1.783070e+002	-2.006009e+001	-4.287935e+000
3583882.149	-1.452325e+001	-1.058202e+002	-1.321681e+001	1.761071e+002	-1.327204e+001	1.763319e+002	-2.063658e+001	-3.845947e+000
3608318.891	-1.474494e+001	-1.073132e+002	-1.320633e+001	1.707258e+002	-1.325926e+001	1.708926e+002	-2.120967e+001	-2.528573e+000
3632755.633	-1.496113e+001	-1.085315e+002	-1.319624e+001	1.652885e+002	-1.325313e+001	1.651984e+002	-2.175392e+001	4.167522e-001
3657192.374	-1.517984e+001	-1.091929e+002	-1.319168e+001	1.596857e+002	-1.325186e+001	1.595779e+002	-2.212774e+001	4.096461e+000
3681629.116	-1.537380e+001	-1.093093e+002	-1.320058e+001	1.538786e+002	-1.326232e+001	1.538308e+002	-2.228702e+001	8.876975e+000
3706065.858	-1.551261e+001	-1.088959e+002	-1.323022e+001	1.479573e+002	-1.329549e+001	1.479142e+002	-2.213887e+001	1.426050e+001
3730502.600	-1.556006e+001	-1.080131e+002	-1.329302e+001	1.419152e+002	-1.336124e+001	1.418920e+002	-2.165933e+001	1.921557e+001
3754939.341	-1.549655e+001	-1.069185e+002	-1.338673e+001	1.358558e+002	-1.346107e+001	1.358255e+002	-2.092292e+001	2.286878e+001
3779376.083	-1.531781e+001	-1.058277e+002	-1.351465e+001	1.297639e+002	-1.359278e+001	1.297526e+002	-2.005032e+001	2.493006e+001
3803812.825	-1.503465e+001	-1.049941e+002	-1.366935e+001	1.237280e+002	-1.375717e+001	1.237120e+002	-1.914394e+001	2.544485e+001
3828249.567	-1.465988e+001	-1.045556e+002	-1.385778e+001	1.177246e+002	-1.395193e+001	1.177524e+002	-1.826568e+001	2.469628e+001
3852686.308	-1.422759e+001	-1.046669e+002	-1.407596e+001	1.118547e+002	-1.417639e+001	1.118712e+002	-1.744421e+001	2.299155e+001
3877123.050	-1.376322e+001	-1.052919e+002	-1.431301e+001	1.060647e+002	-1.442500e+001	1.060846e+002	-1.669492e+001	2.061288e+001
3901559.792	-1.328076e+001	-1.064060e+002	-1.457267e+001	1.003493e+002	-1.468924e+001	1.004100e+002	-1.602044e+001	1.777539e+001
3925996.534	-1.279948e+001	-1.079772e+002	-1.485475e+001	9.473581e+001	-1.497802e+001	9.482402e+001	-1.540656e+001	1.458164e+001
3950433.276	-1.232315e+001	-1.099644e+002	-1.516238e+001	8.920455e+001	-1.529140e+001	8.937597e+001	-1.485350e+001	1.112752e+001
3974870.017	-1.186244e+001	-1.123261e+002	-1.549881e+001	8.382211e+001	-1.562054e+001	8.406478e+001	-1.435542e+001	7.475221e+000
3999306.759	-1.142879e+001	-1.149858e+002	-1.585332e+001	7.856644e+001	-1.597209e+001	7.891919e+001	-1.390740e+001	3.691088e+000
4023743.501	-1.101910e+001	-1.179260e+002	-1.623413e+001	7.348180e+001	-1.634969e+001	7.389943e+001	-1.349584e+001	-2.029483e-001
4048180.243	-1.063699e+001	-1.210983e+002	-1.664181e+001	6.854312e+001	-1.675224e+001	6.904970e+001	-1.312445e+001	-4.176898e+000
4072616.984	-1.028475e+001	-1.244558e+002	-1.707184e+001	6.382486e+001	-1.718041e+001	6.439732e+001	-1.278578e+001	-8.220264e+000
4097053.726	-9.960624e+000	-1.279991e+002	-1.753663e+001	5.933134e+001	-1.763348e+001	5.998052e+001	-1.248156e+001	-1.231700e+001
4121490.468	-9.667102e+000	-1.316651e+002	-1.801817e+001	5.511500e+001	-1.811399e+001	5.580724e+001	-1.220379e+001	-1.643863e+001
4145927.210	-9.401128e+000	-1.354623e+002	-1.853737e+001	5.119710e+001	-1.862445e+001	5.194136e+001	-1.195115e+001	-2.059052e+001
4170363.951	-9.164078e+000	-1.393690e+002	-1.908762e+001	4.771047e+001	-1.915128e+001	4.851938e+001	-1.173264e+001	-2.476662e+001
4194800.693	-8.962594e+000	-1.434239e+002	-1.966922e+001	4.483427e+001	-1.972176e+001	4.567848e+001	-1.153570e+001	-2.904467e+001
4219237.435	-8.799513e+000	-1.475494e+002	-2.023918e+001	4.267170e+001	-2.028908e+001	4.351086e+001	-1.137219e+001	-3.333886e+001
4243674.177	-8.675729e+000	-1.516674e+002	-2.076021e+001	4.119631e+001	-2.080343e+001	4.208753e+001	-1.124369e+001	-3.758297e+001
4268110.919	-8.582203e+000	-1.557538e+002	-2.121395e+001	4.019818e+001	-2.125021e+001	4.116590e+001	-1.113950e+001	-4.173950e+001
4292547.660	-8.513258e+000	-1.598199e+002	-2.160002e+001	3.961619e+001	-2.163674e+001	4.060926e+001	-1.104826e+001	-4.583305e+001
4316984.402	-8.470539e+000	-1.639005e+002	-2.191588e+001	3.956990e+001	-2.194881e+001	4.057084e+001	-1.097329e+001	-4.991741e+001
4341421.144	-8.456360e+000	-1.679548e+002	-2.211381e+001	3.992323e+001	-2.213855e+001	4.088704e+001	-1.092026e+001	-5.394523e+001
4365857.886	-8.474005e+000	-1.719145e+002	-2.214330e+001	4.017205e+001	-2.216723e+001	4.120342e+001	-1.088921e+001	-5.786862e+001
4390294.627	-8.504309e+000	-1.757298e+002	-2.207788e+001	3.978104e+001	-2.209402e+001	4.086916e+001	-1.086575e+001	-6.161459e+001
4414731.369	-8.527809e+000	-1.794644e+002	-2.202491e+001	3.866649e+001	-2.203563e+001	3.981452e+001	-1.082386e+001	-6.523159e+001
4439168.111	-8.535608e+000	1.767043e+002	-2.208305e+001	3.743168e+001	-2.208346e+001	3.868155e+001	-1.074749e+001	-6.893069e+001
4463604.853	-8.544739e+000	1.725649e+002	-2.223462e+001	3.729423e+001	-2.221813e+001	3.853605e+001	-1.065050e+001	-7.287472e+001
4488041.594	-8.595439e+000	1.680177e+002	-2.229376e+001	3.909617e+001	-2.225651e+001	4.021460e+001	-1.056489e+001	-7.727501e+001
4512478.336	-8.738512e+000	1.632006e+002	-2.194688e+001	4.210517e+001	-2.191703e+001	4.316825e+001	-1.054123e+001	-8.207496e+001
4536915.078	-9.000680e+000	1.584809e+002	-2.111425e+001	4.392930e+001	-2.109840e+001	4.492146e+001	-1.061854e+001	-8.696203e+001
4561351.820	-9.341081e+000	1.543342e+002	-2.013068e+001	4.260193e+001	-2.011162e+001	4.364580e+001	-1.077851e+001	-9.147566e+001
4585788.562	-9.692636e+000	1.507159e+002	-1.929013e+001	3.925137e+001	-1.926105e+001	4.034024e+001	-1.095571e+001	-9.555269e+001
4610225.303	-1.003905e+001	1.473435e+002	-1.861331e+001	3.521070e+001	-1.857006e+001	3.628250e+001	-1.112114e+001	-9.941501e+001
4634662.045	-1.039259e+001	1.441192e+002	-1.802534e+001	3.092128e+001	-1.798043e+001	3.197459e+001	-1.128056e+001	-1.032106e+002
4659098.787	-1.075585e+001	1.410290e+002	-1.750558e+001	2.640768e+001	-1.745999e+001	2.744134e+001	-1.144145e+001	-1.069593e+002
4683535.529	-1.112599e+001	1.379609e+002	-1.705619e+001	2.195574e+001	-1.700400e+001	2.298529e+001	-1.159438e+001	-1.107585e+002
4707972.270	-1.152905e+001	1.348141e+002	-1.662761e+001	1.781092e+001	-1.657310e+001	1.875497e+001	-1.174757e+001	-1.147319e+002
4732409.012	-1.201134e+001	1.315814e+002	-1.615200e+001	1.389577e+001	-1.609190e+001	1.478255e+001	-1.193687e+001	-1.190825e+002
4756845.754	-1.261664e+001	1.287715e+002	-1.558230e+001	9.586257e+000	-1.550783e+001	1.049778e+001	-1.222629e+001	-1.236788e+002
4781282.496	-1.330450e+001	1.269847e+002	-1.497451e+001	4.384971e+000	-1.488312e+001	5.251671e+000	-1.263466e+001	-1.279864e+002
4805719.237	-1.396871e+001	1.262868e+002	-1.443937e+001	-1.588941e+000	-1.432323e+001	-8.676845e-001	-1.311325e+001	-1.316597e+002
4830155.979	-1.457470e+001	1.264438e+002	-1.397260e+001	-7.914921e+000	-1.386495e+001	-7.386172e+000	-1.360795e+001	-1.347192e+002
4854592.721	-1.508888e+001	1.272105e+002	-1.357509e+001	-1.439928e+001	-1.348575e+001	-1.401007e+001	-1.410054e+001	-1.373196e+002
4879029.463	-1.551127e+001	1.283582e+002	-1.322722e+001	-2.088737e+001	-1.315763e+001	-2.064466e+001	-1.460050e+001	-1.395516e+002
4903466.205	-1.580413e+001	1.298931e+002	-1.291752e+001	-2.757510e+001	-1.287048e+001	-2.731877e+001	-1.510192e+001	-1.413412e+002
4927902.946	-1.596066e+001	1.313846e+002	-1.265595e+001	-3.436265e+001	-1.262445e+001	-3.403889e+001	-1.559256e+001	-1.426274e+002
4952339.688	-1.599707e+001	1.324576e+002	-1.244020e+001	-4.123159e+001	-1.241656e+001	-4.078442e+001	-1.605119e+001	-1.434182e+002
4976776.430	-1.595790e+001	1.329530e+002	-1.227208e+001	-4.807954e+001	-1.224747e+001	-4.754462e+001	-1.645128e+001	-1.436833e+002
5001213.172	-1.589075e+001	1.328103e+002	-1.214106e+001	-5.486046e+001	-1.211508e+001	-5.428010e+001	-1.677465e+001	-1.436168e+002
5025649.913	-1.582781e+001	1.320698e+002	-1.204656e+001	-6.157038e+001	-1.201289e+001	-6.094713e+001	-1.701779e+001	-1.433642e+002
5050086.655	-1.579124e+001	1.308801e+002	-1.197874e+001	-6.818046e+001	-1.193886e+001	-6.754879e+001	-1.717233e+001	-1.430793e+002
5074523.397	-1.579818e+001	1.293529e+002	-1.193075e+001	-7.469757e+001	-1.188676e+001	-7.407421e+001	-1.724766e+001	-1.429142e+002
5098960.139	-1.584433e+001	1.276219e+002	-1.190043e+001	-8.114013e+001	-1.185258e+001	-8.052715e+001	-1.725809e+001	-1.429396e+002
5123396.880	-1.593347e+001	1.257029e+002	-1.188599e+001	-8.751929e+001	-1.183503e+001	-8.691310e+001	-1.721519e+001	-1.432233e+002
5147833.622	-1.606983e+001	1.236901e+002	-1.188530e+001	-9.382943e+001	-1.182995e+001	-9.324173e+001	-1.712722e+001	-1.437919e+002
5172270.364	-1.624506e+001	1.216730e+002	-1.189019e+001	-1.000907e+002	-1.183505e+001	-9.952811e+001	-1.700323e+001	-1.446828e+002
5196707.106	-1.646424e+001	1.196429e+002	-1.190535e+001	-1.062964e+002	-1.185340e+001	-1.057695e+002	-1.685378e+001	-1.459157e+002
5221143.847	-1.672449e+001	1.175742e+002	-1.193396e+001	-1.124558e+002	-1.188075e+001	-1.119775e+002	-1.669024e+001	-1.474280e+002
5245580.589	-1.702879e+001	1.154967e+002	-1.197393e+001	-1.186275e+002	-1.192035e+001	-1.181629e+002	-1.650977e+001	-1.493265e+002
5270017.331	-1.738540e+001	1.134481e+002	-1.202620e+001	-1.247636e+002	-1.197302e+001	-1.243145e+002	-1.632589e+001	-1.515922e+002
5294454.073	-1.779589e+001	1.114293e+002	-1.209191e+001	-1.308803e+002	-1.203560e+001	-1.304213e+002	-1.615162e+001	-1.542042e+002
5318890.815	-1.826581e+001	1.095737e+002	-1.216209e+001	-1.369345e+002	-1.210631e+001	-1.364824e+002	-1.598883e+001	-1.570717e+002
5343327.556	-1.879143e+001	1.079069e+002	-1.223981e+001	-1.429490e+002	-1.217854e+001	-1.425220e+002	-1.584098e+001	-1.601176e+002
5367764.298	-1.936962e+001	1.063807e+002	-1.231836e+001	-1.489658e+002	-1.225926e+001	-1.485507e+002	-1.569920e+001	-1.634104e+002
5392201.040	-2.001862e+001	1.050267e+002	-1.240432e+001	-1.549698e+002	-1.234665e+001	-1.546041e+002	-1.556414e+001	-1.669236e+002
5416637.782	-2.075591e+001	1.039098e+002	-1.249815e+001	-1.609895e+002	-1.244504e+001	-1.606544e+002	-1.543882e+001	-1.706801e+002
5441074.523	-2.160485e+001	1.030763e+002	-1.260513e+001	-1.670078e+002	-1.255382e+001	-1.667077e+002	-1.532484e+001	-1.746776e+002
