!Agilent Technologies,E5061B,MY49101568,A.02.00
!Date: Wed Mar 01 15:42:16 2023
!Data & Calibration Information:
!Freq	S11:SOLT2(OFF)	S21:SOLT2(OFF)	S12:SOLT2(OFF)	S22:SOLT2(OFF)
# Hz S dB R 50
1800000.000	-1.138872e+001	3.257683e+001	-1.088017e+001	1.400740e+002	-1.084046e+001	1.401953e+002	-1.118284e+001	7.724156e+001
1824436.742	-1.123305e+001	2.788078e+001	-1.111161e+001	1.351415e+002	-1.107037e+001	1.352730e+002	-1.111808e+001	7.217991e+001
1848873.484	-1.111489e+001	2.330453e+001	-1.131568e+001	1.303986e+002	-1.129060e+001	1.305165e+002	-1.108606e+001	6.724759e+001
1873310.225	-1.103309e+001	1.887470e+001	-1.149198e+001	1.258649e+002	-1.145038e+001	1.259104e+002	-1.106925e+001	6.270835e+001
1897746.967	-1.096902e+001	1.447618e+001	-1.164744e+001	1.214946e+002	-1.160835e+001	1.214876e+002	-1.108825e+001	5.818273e+001
1922183.709	-1.090557e+001	1.016593e+001	-1.177218e+001	1.170338e+002	-1.176573e+001	1.171424e+002	-1.112098e+001	5.356339e+001
1946620.451	-1.088308e+001	5.607053e+000	-1.192260e+001	1.128468e+002	-1.187738e+001	1.127699e+002	-1.115030e+001	4.914989e+001
1971057.192	-1.087340e+001	1.283406e+000	-1.201526e+001	1.087300e+002	-1.200752e+001	1.085848e+002	-1.121435e+001	4.457116e+001
1995493.934	-1.089775e+001	-3.198087e+000	-1.211969e+001	1.047913e+002	-1.211642e+001	1.047685e+002	-1.132730e+001	4.006479e+001
2019930.676	-1.095616e+001	-7.576673e+000	-1.219212e+001	1.011155e+002	-1.216840e+001	1.011099e+002	-1.146043e+001	3.580034e+001
2044367.418	-1.102443e+001	-1.168646e+001	-1.218999e+001	9.747253e+001	-1.217103e+001	9.741603e+001	-1.159917e+001	3.167786e+001
2068804.159	-1.105966e+001	-1.558586e+001	-1.213638e+001	9.355783e+001	-1.213409e+001	9.345324e+001	-1.170499e+001	2.766608e+001
2093240.901	-1.106305e+001	-1.966853e+001	-1.209023e+001	8.940735e+001	-1.209164e+001	8.934664e+001	-1.179890e+001	2.359118e+001
2117677.643	-1.110552e+001	-2.403510e+001	-1.206758e+001	8.538320e+001	-1.208395e+001	8.525961e+001	-1.190358e+001	1.917313e+001
2142114.385	-1.115177e+001	-2.848446e+001	-1.203411e+001	8.128744e+001	-1.203640e+001	8.126404e+001	-1.203085e+001	1.481520e+001
2166551.127	-1.121940e+001	-3.293848e+001	-1.198090e+001	7.725564e+001	-1.199363e+001	7.724229e+001	-1.216704e+001	1.026769e+001
2190987.868	-1.131489e+001	-3.759041e+001	-1.193057e+001	7.330263e+001	-1.194193e+001	7.330576e+001	-1.233237e+001	5.589287e+000
2215424.610	-1.144995e+001	-4.211103e+001	-1.183719e+001	6.942428e+001	-1.185958e+001	6.944559e+001	-1.252602e+001	9.098978e-001
2239861.352	-1.159755e+001	-4.660090e+001	-1.171845e+001	6.546706e+001	-1.174860e+001	6.553164e+001	-1.274073e+001	-3.776607e+000
2264298.094	-1.175307e+001	-5.108946e+001	-1.157635e+001	6.139675e+001	-1.160489e+001	6.146515e+001	-1.296181e+001	-8.441193e+000
2288734.835	-1.190252e+001	-5.557148e+001	-1.141259e+001	5.708707e+001	-1.145494e+001	5.728990e+001	-1.319335e+001	-1.324078e+001
2313171.577	-1.208109e+001	-6.026145e+001	-1.126028e+001	5.273771e+001	-1.129511e+001	5.287386e+001	-1.342345e+001	-1.810515e+001
2337608.319	-1.227637e+001	-6.512032e+001	-1.110757e+001	4.826427e+001	-1.114204e+001	4.849607e+001	-1.369374e+001	-2.322602e+001
2362045.061	-1.252918e+001	-7.006243e+001	-1.095203e+001	4.384259e+001	-1.098882e+001	4.404373e+001	-1.399365e+001	-2.853601e+001
2386481.802	-1.282720e+001	-7.505777e+001	-1.078820e+001	3.933822e+001	-1.081585e+001	3.955735e+001	-1.434428e+001	-3.395453e+001
2410918.544	-1.316351e+001	-7.978143e+001	-1.058690e+001	3.474778e+001	-1.061990e+001	3.498390e+001	-1.474453e+001	-3.939907e+001
2435355.286	-1.352226e+001	-8.460656e+001	-1.039029e+001	2.992909e+001	-1.041574e+001	3.020719e+001	-1.517568e+001	-4.487594e+001
2459792.028	-1.389290e+001	-8.937048e+001	-1.018519e+001	2.487231e+001	-1.021429e+001	2.515878e+001	-1.562546e+001	-5.040220e+001
2484228.769	-1.430540e+001	-9.431602e+001	-9.997775e+000	1.964138e+001	-1.002271e+001	1.994848e+001	-1.611151e+001	-5.611882e+001
2508665.511	-1.476584e+001	-9.944865e+001	-9.829525e+000	1.426708e+001	-9.846021e+000	1.459365e+001	-1.664241e+001	-6.197740e+001
2533102.253	-1.529773e+001	-1.046357e+002	-9.676547e+000	8.830945e+000	-9.700785e+000	9.114030e+000	-1.722410e+001	-6.819375e+001
2557538.995	-1.591004e+001	-1.099059e+002	-9.543639e+000	3.277092e+000	-9.566623e+000	3.626949e+000	-1.788429e+001	-7.463183e+001
2581975.737	-1.663132e+001	-1.151777e+002	-9.429516e+000	-2.319061e+000	-9.449277e+000	-1.956894e+000	-1.862359e+001	-8.124716e+001
2606412.478	-1.747281e+001	-1.202494e+002	-9.328692e+000	-7.916193e+000	-9.346067e+000	-7.535970e+000	-1.947509e+001	-8.817616e+001
2630849.220	-1.843305e+001	-1.251824e+002	-9.247438e+000	-1.357149e+001	-9.261438e+000	-1.322286e+001	-2.041245e+001	-9.515217e+001
2655285.962	-1.953484e+001	-1.298463e+002	-9.182614e+000	-1.927292e+001	-9.193295e+000	-1.890417e+001	-2.148463e+001	-1.024521e+002
2679722.704	-2.082752e+001	-1.341355e+002	-9.141860e+000	-2.496893e+001	-9.148602e+000	-2.461718e+001	-2.266018e+001	-1.100276e+002
2704159.445	-2.232065e+001	-1.377804e+002	-9.114138e+000	-3.067176e+001	-9.127330e+000	-3.029618e+001	-2.399091e+001	-1.181861e+002
2728596.187	-2.417788e+001	-1.404580e+002	-9.117098e+000	-3.628414e+001	-9.120417e+000	-3.590793e+001	-2.554457e+001	-1.271174e+002
2753032.929	-2.647143e+001	-1.408913e+002	-9.130401e+000	-4.179463e+001	-9.129084e+000	-4.145518e+001	-2.734089e+001	-1.372604e+002
2777469.671	-2.925683e+001	-1.366263e+002	-9.149108e+000	-4.721953e+001	-9.145665e+000	-4.691656e+001	-2.950051e+001	-1.493677e+002
2801906.412	-3.227291e+001	-1.229529e+002	-9.168723e+000	-5.260945e+001	-9.164699e+000	-5.229873e+001	-3.215388e+001	-1.648670e+002
2826343.154	-3.408806e+001	-9.599512e+001	-9.195680e+000	-5.797779e+001	-9.190207e+000	-5.767388e+001	-3.526944e+001	1.735365e+002
2850779.896	-3.295792e+001	-6.892244e+001	-9.228245e+000	-6.334168e+001	-9.228440e+000	-6.306181e+001	-3.804464e+001	1.420330e+002
2875216.638	-3.057634e+001	-5.418375e+001	-9.279421e+000	-6.865707e+001	-9.278003e+000	-6.834635e+001	-3.839972e+001	1.020812e+002
2899653.380	-2.838771e+001	-4.824004e+001	-9.335557e+000	-7.387368e+001	-9.334245e+000	-7.355767e+001	-3.660408e+001	7.085130e+001
2924090.121	-2.658487e+001	-4.664201e+001	-9.399965e+000	-7.898349e+001	-9.397109e+000	-7.868782e+001	-3.450876e+001	5.132686e+001
2948526.863	-2.514217e+001	-4.732074e+001	-9.464901e+000	-8.401285e+001	-9.464434e+000	-8.372661e+001	-3.280726e+001	3.784195e+001
2972963.605	-2.396024e+001	-4.922322e+001	-9.530073e+000	-8.895230e+001	-9.530910e+000	-8.867530e+001	-3.144567e+001	2.726831e+001
2997400.347	-2.297861e+001	-5.190321e+001	-9.590111e+000	-9.378972e+001	-9.591761e+000	-9.352969e+001	-3.031667e+001	1.800654e+001
3021837.088	-2.216384e+001	-5.506533e+001	-9.645007e+000	-9.854653e+001	-9.648725e+000	-9.830408e+001	-2.942216e+001	9.736850e+000
3046273.830	-2.149389e+001	-5.863560e+001	-9.688414e+000	-1.032527e+002	-9.696060e+000	-1.030117e+002	-2.868322e+001	1.738460e+000
3070710.572	-2.094919e+001	-6.243954e+001	-9.721750e+000	-1.079434e+002	-9.729095e+000	-1.076771e+002	-2.803526e+001	-6.474984e+000
3095147.314	-2.050180e+001	-6.653921e+001	-9.738814e+000	-1.125966e+002	-9.750123e+000	-1.123369e+002	-2.752955e+001	-1.497493e+001
3119584.055	-2.016722e+001	-7.066044e+001	-9.747052e+000	-1.172749e+002	-9.756544e+000	-1.169909e+002	-2.708937e+001	-2.375969e+001
3144020.797	-1.993966e+001	-7.496567e+001	-9.739485e+000	-1.219879e+002	-9.750153e+000	-1.217549e+002	-2.680762e+001	-3.342401e+001
3168457.539	-1.981806e+001	-7.920109e+001	-9.728745e+000	-1.268347e+002	-9.738562e+000	-1.265943e+002	-2.663424e+001	-4.371394e+001
3192894.281	-1.979876e+001	-8.331754e+001	-9.714518e+000	-1.317654e+002	-9.723270e+000	-1.314993e+002	-2.652425e+001	-5.466710e+001
3217331.023	-1.987428e+001	-8.718608e+001	-9.709388e+000	-1.367914e+002	-9.716812e+000	-1.365128e+002	-2.654622e+001	-6.625564e+001
3241767.764	-2.003794e+001	-9.069051e+001	-9.712460e+000	-1.418792e+002	-9.720883e+000	-1.415939e+002	-2.663845e+001	-7.844322e+001
3266204.506	-2.025921e+001	-9.378767e+001	-9.730110e+000	-1.469632e+002	-9.735743e+000	-1.466860e+002	-2.676673e+001	-9.085198e+001
3290641.248	-2.051554e+001	-9.657751e+001	-9.749376e+000	-1.519937e+002	-9.752050e+000	-1.517089e+002	-2.679244e+001	-1.031707e+002
3315077.990	-2.086957e+001	-9.939692e+001	-9.751757e+000	-1.570760e+002	-9.754686e+000	-1.567868e+002	-2.658074e+001	-1.162216e+002
3339514.731	-2.136818e+001	-1.017510e+002	-9.752275e+000	-1.623369e+002	-9.756188e+000	-1.620521e+002	-2.617920e+001	-1.305589e+002
3363951.473	-2.199821e+001	-1.030211e+002	-9.774021e+000	-1.677307e+002	-9.775360e+000	-1.674571e+002	-2.566134e+001	-1.453210e+002
3388388.215	-2.271670e+001	-1.028166e+002	-9.820912e+000	-1.732064e+002	-9.820063e+000	-1.729500e+002	-2.505939e+001	-1.600646e+002
3412824.957	-2.346043e+001	-1.008363e+002	-9.890420e+000	-1.787169e+002	-9.890305e+000	-1.784740e+002	-2.437599e+001	-1.743204e+002
3437261.698	-2.410685e+001	-9.662037e+001	-9.987003e+000	1.757693e+002	-9.983361e+000	1.759736e+002	-2.362613e+001	1.721241e+002
3461698.440	-2.451083e+001	-9.025118e+001	-1.011019e+001	1.702379e+002	-1.010529e+001	1.704320e+002	-2.284610e+001	1.593480e+002
3486135.182	-2.447960e+001	-8.270434e+001	-1.026025e+001	1.647899e+002	-1.025765e+001	1.649579e+002	-2.208561e+001	1.473829e+002
3510571.924	-2.398355e+001	-7.571329e+001	-1.043507e+001	1.594529e+002	-1.043787e+001	1.595879e+002	-2.136289e+001	1.361924e+002
3535008.666	-2.312489e+001	-7.034767e+001	-1.063913e+001	1.542483e+002	-1.064191e+001	1.543806e+002	-2.070606e+001	1.258136e+002
3559445.407	-2.214233e+001	-6.720791e+001	-1.085329e+001	1.492571e+002	-1.086074e+001	1.493562e+002	-2.010722e+001	1.162169e+002
3583882.149	-2.114828e+001	-6.583751e+001	-1.107106e+001	1.444209e+002	-1.108326e+001	1.445290e+002	-1.956638e+001	1.074134e+002
3608318.891	-2.021026e+001	-6.567844e+001	-1.128821e+001	1.397355e+002	-1.130384e+001	1.398271e+002	-1.906270e+001	9.929391e+001
3632755.633	-1.932917e+001	-6.638993e+001	-1.150586e+001	1.351002e+002	-1.152762e+001	1.352438e+002	-1.858341e+001	9.170773e+001
3657192.374	-1.851357e+001	-6.775617e+001	-1.172050e+001	1.306178e+002	-1.174292e+001	1.307181e+002	-1.812326e+001	8.470248e+001
3681629.116	-1.774159e+001	-6.947672e+001	-1.193647e+001	1.260967e+002	-1.196527e+001	1.262197e+002	-1.767173e+001	7.798724e+001
3706065.858	-1.700576e+001	-7.167074e+001	-1.216848e+001	1.216568e+002	-1.220099e+001	1.217710e+002	-1.723714e+001	7.141733e+001
3730502.600	-1.630716e+001	-7.429969e+001	-1.241820e+001	1.172931e+002	-1.245875e+001	1.174106e+002	-1.683139e+001	6.491309e+001
3754939.341	-1.565568e+001	-7.736871e+001	-1.269206e+001	1.130923e+002	-1.273729e+001	1.132114e+002	-1.646246e+001	5.848892e+001
3779376.083	-1.506463e+001	-8.081021e+001	-1.298003e+001	1.091543e+002	-1.303233e+001	1.092934e+002	-1.615547e+001	5.212533e+001
3803812.825	-1.453556e+001	-8.448009e+001	-1.327628e+001	1.054382e+002	-1.333525e+001	1.055830e+002	-1.588440e+001	4.591856e+001
3828249.567	-1.407886e+001	-8.834241e+001	-1.356533e+001	1.020573e+002	-1.362526e+001	1.022529e+002	-1.568463e+001	3.994515e+001
3852686.308	-1.367489e+001	-9.224785e+001	-1.384148e+001	9.889790e+001	-1.391736e+001	9.916220e+001	-1.551375e+001	3.408264e+001
3877123.050	-1.331225e+001	-9.628287e+001	-1.412275e+001	9.600362e+001	-1.419578e+001	9.631987e+001	-1.536971e+001	2.840560e+001
3901559.792	-1.300064e+001	-1.004620e+002	-1.439767e+001	9.351367e+001	-1.447570e+001	9.391607e+001	-1.527176e+001	2.266587e+001
3925996.534	-1.275749e+001	-1.048179e+002	-1.463791e+001	9.158670e+001	-1.469753e+001	9.201818e+001	-1.525373e+001	1.712117e+001
3950433.276	-1.260622e+001	-1.091411e+002	-1.478344e+001	9.012916e+001	-1.484624e+001	9.053337e+001	-1.530892e+001	1.179614e+001
3974870.017	-1.253383e+001	-1.132622e+002	-1.482066e+001	8.884354e+001	-1.488334e+001	8.927566e+001	-1.544034e+001	6.898044e+000
3999306.759	-1.253051e+001	-1.170270e+002	-1.473894e+001	8.743749e+001	-1.480846e+001	8.783708e+001	-1.561558e+001	2.600407e+000
4023743.501	-1.258196e+001	-1.203505e+002	-1.455852e+001	8.565632e+001	-1.462997e+001	8.611604e+001	-1.583777e+001	-1.050227e+000
4048180.243	-1.265740e+001	-1.231184e+002	-1.431634e+001	8.329024e+001	-1.438616e+001	8.377838e+001	-1.605206e+001	-3.888558e+000
4072616.984	-1.272399e+001	-1.253297e+002	-1.405129e+001	8.029790e+001	-1.411461e+001	8.081761e+001	-1.622931e+001	-6.025569e+000
4097053.726	-1.275692e+001	-1.270511e+002	-1.379291e+001	7.672637e+001	-1.385968e+001	7.734040e+001	-1.632483e+001	-7.720590e+000
4121490.468	-1.274256e+001	-1.285230e+002	-1.356139e+001	7.282768e+001	-1.363167e+001	7.340280e+001	-1.633303e+001	-9.070483e+000
4145927.210	-1.266560e+001	-1.298297e+002	-1.336789e+001	6.860783e+001	-1.343445e+001	6.921621e+001	-1.626486e+001	-1.035966e+001
4170363.951	-1.253604e+001	-1.311141e+002	-1.321059e+001	6.425322e+001	-1.327497e+001	6.485356e+001	-1.613063e+001	-1.175954e+001
4194800.693	-1.236167e+001	-1.325389e+002	-1.308622e+001	5.977851e+001	-1.315194e+001	6.038117e+001	-1.593789e+001	-1.337938e+001
4219237.435	-1.215399e+001	-1.341432e+002	-1.299460e+001	5.527742e+001	-1.306027e+001	5.586567e+001	-1.570989e+001	-1.525240e+001
4243674.177	-1.191989e+001	-1.359780e+002	-1.293343e+001	5.075754e+001	-1.299775e+001	5.138429e+001	-1.546658e+001	-1.745234e+001
4268110.919	-1.168469e+001	-1.380527e+002	-1.288738e+001	4.632392e+001	-1.295647e+001	4.696956e+001	-1.522442e+001	-1.991481e+001
4292547.660	-1.145120e+001	-1.403292e+002	-1.286016e+001	4.194108e+001	-1.292464e+001	4.261960e+001	-1.499248e+001	-2.256577e+001
4316984.402	-1.122572e+001	-1.427798e+002	-1.283864e+001	3.761930e+001	-1.290495e+001	3.834280e+001	-1.477254e+001	-2.539475e+001
4341421.144	-1.100544e+001	-1.453722e+002	-1.282751e+001	3.332604e+001	-1.288714e+001	3.407536e+001	-1.456282e+001	-2.828805e+001
4365857.886	-1.080678e+001	-1.481045e+002	-1.281957e+001	2.912476e+001	-1.288072e+001	2.991289e+001	-1.436983e+001	-3.136370e+001
4390294.627	-1.061791e+001	-1.509609e+002	-1.281836e+001	2.495933e+001	-1.287472e+001	2.578738e+001	-1.419190e+001	-3.448645e+001
4414731.369	-1.045016e+001	-1.539099e+002	-1.281786e+001	2.087105e+001	-1.287331e+001	2.171785e+001	-1.402785e+001	-3.769130e+001
4439168.111	-1.029939e+001	-1.569602e+002	-1.281765e+001	1.679888e+001	-1.286009e+001	1.775595e+001	-1.389049e+001	-4.095128e+001
4463604.853	-1.017416e+001	-1.600445e+002	-1.281176e+001	1.284755e+001	-1.285810e+001	1.379608e+001	-1.376012e+001	-4.427234e+001
4488041.594	-1.007040e+001	-1.631899e+002	-1.280353e+001	8.958148e+000	-1.284458e+001	9.948583e+000	-1.365889e+001	-4.761994e+001
4512478.336	-9.985418e+000	-1.663284e+002	-1.278305e+001	5.086388e+000	-1.281686e+001	6.098214e+000	-1.357339e+001	-5.091975e+001
4536915.078	-9.920729e+000	-1.694782e+002	-1.275628e+001	1.262879e+000	-1.278427e+001	2.260243e+000	-1.350033e+001	-5.421161e+001
4561351.820	-9.866620e+000	-1.726468e+002	-1.272566e+001	-2.611840e+000	-1.274780e+001	-1.553549e+000	-1.344280e+001	-5.753245e+001
4585788.562	-9.840988e+000	-1.758269e+002	-1.269011e+001	-6.382218e+000	-1.270705e+001	-5.333330e+000	-1.340213e+001	-6.087802e+001
4610225.303	-9.841507e+000	-1.789704e+002	-1.263683e+001	-1.009745e+001	-1.264956e+001	-9.019642e+000	-1.339303e+001	-6.421286e+001
4634662.045	-9.861367e+000	1.780053e+002	-1.255827e+001	-1.382607e+001	-1.256586e+001	-1.274751e+001	-1.340675e+001	-6.740829e+001
4659098.787	-9.891354e+000	1.750594e+002	-1.246201e+001	-1.762139e+001	-1.246088e+001	-1.656010e+001	-1.343475e+001	-7.044965e+001
4683535.529	-9.925596e+000	1.721936e+002	-1.235057e+001	-2.154367e+001	-1.234383e+001	-2.048922e+001	-1.346659e+001	-7.337407e+001
4707972.270	-9.962706e+000	1.693704e+002	-1.223524e+001	-2.555853e+001	-1.222385e+001	-2.457721e+001	-1.349561e+001	-7.617243e+001
4732409.012	-1.000235e+001	1.665268e+002	-1.212098e+001	-2.973820e+001	-1.210333e+001	-2.874002e+001	-1.352689e+001	-7.894396e+001
4756845.754	-1.004619e+001	1.636950e+002	-1.200668e+001	-3.403264e+001	-1.198082e+001	-3.301514e+001	-1.355641e+001	-8.163891e+001
4781282.496	-1.010204e+001	1.608364e+002	-1.189749e+001	-3.838113e+001	-1.187126e+001	-3.740211e+001	-1.357606e+001	-8.434274e+001
4805719.237	-1.016619e+001	1.579502e+002	-1.179696e+001	-4.281379e+001	-1.176534e+001	-4.183612e+001	-1.359932e+001	-8.703740e+001
4830155.979	-1.024744e+001	1.550374e+002	-1.170154e+001	-4.728151e+001	-1.166799e+001	-4.634729e+001	-1.361958e+001	-8.972708e+001
4854592.721	-1.034106e+001	1.520916e+002	-1.161706e+001	-5.183207e+001	-1.157373e+001	-5.090314e+001	-1.364446e+001	-9.239732e+001
4879029.463	-1.045605e+001	1.491479e+002	-1.153729e+001	-5.637800e+001	-1.149064e+001	-5.545930e+001	-1.367692e+001	-9.511897e+001
4903466.205	-1.059096e+001	1.462277e+002	-1.146340e+001	-6.096196e+001	-1.141374e+001	-6.007442e+001	-1.371013e+001	-9.783957e+001
4927902.946	-1.074618e+001	1.433253e+002	-1.139396e+001	-6.556729e+001	-1.134095e+001	-6.470235e+001	-1.375344e+001	-1.005535e+002
4952339.688	-1.092134e+001	1.404386e+002	-1.133049e+001	-7.022409e+001	-1.127495e+001	-6.935654e+001	-1.379779e+001	-1.032779e+002
4976776.430	-1.112158e+001	1.376321e+002	-1.127146e+001	-7.484455e+001	-1.121143e+001	-7.401215e+001	-1.385606e+001	-1.059558e+002
5001213.172	-1.134241e+001	1.348837e+002	-1.121675e+001	-7.949854e+001	-1.115367e+001	-7.869603e+001	-1.391741e+001	-1.086322e+002
5025649.913	-1.158311e+001	1.322064e+002	-1.116560e+001	-8.417640e+001	-1.109958e+001	-8.339523e+001	-1.398520e+001	-1.112506e+002
5050086.655	-1.184694e+001	1.296119e+002	-1.112118e+001	-8.886941e+001	-1.105241e+001	-8.811459e+001	-1.405619e+001	-1.138784e+002
5074523.397	-1.212830e+001	1.271448e+002	-1.107576e+001	-9.358383e+001	-1.100878e+001	-9.285876e+001	-1.413056e+001	-1.164707e+002
5098960.139	-1.243406e+001	1.247635e+002	-1.104093e+001	-9.830123e+001	-1.097054e+001	-9.761843e+001	-1.420651e+001	-1.190370e+002
5123396.880	-1.275840e+001	1.225036e+002	-1.100974e+001	-1.030465e+002	-1.093975e+001	-1.023904e+002	-1.428406e+001	-1.216340e+002
5147833.622	-1.310570e+001	1.203880e+002	-1.098607e+001	-1.077752e+002	-1.091619e+001	-1.071622e+002	-1.436407e+001	-1.242036e+002
5172270.364	-1.347232e+001	1.184323e+002	-1.096551e+001	-1.125111e+002	-1.089732e+001	-1.119243e+002	-1.445223e+001	-1.267969e+002
5196707.106	-1.385953e+001	1.166677e+002	-1.094937e+001	-1.172370e+002	-1.088089e+001	-1.166767e+002	-1.454461e+001	-1.293476e+002
5221143.847	-1.426225e+001	1.151386e+002	-1.093604e+001	-1.219241e+002	-1.086862e+001	-1.214284e+002	-1.464029e+001	-1.318701e+002
5245580.589	-1.467432e+001	1.138180e+002	-1.092426e+001	-1.266520e+002	-1.085832e+001	-1.261808e+002	-1.473694e+001	-1.343955e+002
5270017.331	-1.509589e+001	1.127142e+002	-1.091619e+001	-1.313939e+002	-1.085155e+001	-1.309474e+002	-1.483379e+001	-1.369128e+002
5294454.073	-1.552449e+001	1.118556e+002	-1.091065e+001	-1.361193e+002	-1.084873e+001	-1.356957e+002	-1.493052e+001	-1.394420e+002
5318890.815	-1.595456e+001	1.112399e+002	-1.090819e+001	-1.408589e+002	-1.084803e+001	-1.404655e+002	-1.502426e+001	-1.419724e+002
5343327.556	-1.638363e+001	1.108443e+002	-1.091044e+001	-1.456172e+002	-1.085131e+001	-1.452339e+002	-1.511672e+001	-1.445352e+002
5367764.298	-1.681001e+001	1.106905e+002	-1.091477e+001	-1.503713e+002	-1.085763e+001	-1.500034e+002	-1.521073e+001	-1.471194e+002
5392201.040	-1.722268e+001	1.107670e+002	-1.092048e+001	-1.551264e+002	-1.086657e+001	-1.547822e+002	-1.530035e+001	-1.497380e+002
5416637.782	-1.762981e+001	1.110607e+002	-1.093086e+001	-1.598977e+002	-1.087932e+001	-1.595561e+002	-1.539253e+001	-1.524278e+002
5441074.523	-1.802394e+001	1.115825e+002	-1.094417e+001	-1.646679e+002	-1.089552e+001	-1.643394e+002	-1.548229e+001	-1.551601e+002
