!Agilent Technologies,E5061B,MY49101568,A.02.00
!Date: Wed Mar 01 15:53:25 2023
!Data & Calibration Information:
!Freq	S11:SOLT2(OFF)	S21:SOLT2(OFF)	S12:SOLT2(OFF)	S22:SOLT2(OFF)
# Hz S dB R 50
1800000.000	-1.104192e+001	2.865219e+001	-1.147035e+001	1.363839e+002	-1.142638e+001	1.364832e+002	-1.090227e+001	7.269016e+001
1824436.742	-1.092314e+001	2.404866e+001	-1.169640e+001	1.316363e+002	-1.165214e+001	1.316499e+002	-1.085818e+001	6.780853e+001
1848873.484	-1.083644e+001	1.958710e+001	-1.188940e+001	1.270614e+002	-1.184122e+001	1.271137e+002	-1.085703e+001	6.319148e+001
1873310.225	-1.078110e+001	1.523615e+001	-1.205636e+001	1.226982e+002	-1.202220e+001	1.227866e+002	-1.088179e+001	5.862801e+001
1897746.967	-1.073848e+001	1.091143e+001	-1.220257e+001	1.184659e+002	-1.217215e+001	1.184694e+002	-1.090920e+001	5.420600e+001
1922183.709	-1.070358e+001	6.572808e+000	-1.233338e+001	1.142304e+002	-1.230539e+001	1.142674e+002	-1.095411e+001	4.979147e+001
1946620.451	-1.069789e+001	2.230070e+000	-1.244772e+001	1.102245e+002	-1.242618e+001	1.101176e+002	-1.100707e+001	4.537845e+001
1971057.192	-1.069865e+001	-2.089959e+000	-1.253774e+001	1.062153e+002	-1.253446e+001	1.060636e+002	-1.107731e+001	4.097232e+001
1995493.934	-1.074276e+001	-6.425287e+000	-1.261293e+001	1.024777e+002	-1.261768e+001	1.022894e+002	-1.118091e+001	3.663985e+001
2019930.676	-1.076922e+001	-1.068477e+001	-1.265843e+001	9.863888e+001	-1.267800e+001	9.872805e+001	-1.131362e+001	3.232084e+001
2044367.418	-1.083165e+001	-1.472770e+001	-1.263783e+001	9.503333e+001	-1.265957e+001	9.511139e+001	-1.144548e+001	2.829480e+001
2068804.159	-1.086917e+001	-1.878263e+001	-1.260200e+001	9.117820e+001	-1.259303e+001	9.120363e+001	-1.154365e+001	2.443166e+001
2093240.901	-1.089126e+001	-2.293922e+001	-1.255903e+001	8.721352e+001	-1.256393e+001	8.722651e+001	-1.164345e+001	2.025402e+001
2117677.643	-1.093483e+001	-2.726424e+001	-1.252175e+001	8.324551e+001	-1.252590e+001	8.314304e+001	-1.173315e+001	1.599547e+001
2142114.385	-1.098476e+001	-3.164241e+001	-1.246905e+001	7.925451e+001	-1.246405e+001	7.918624e+001	-1.184510e+001	1.171154e+001
2166551.127	-1.105366e+001	-3.608998e+001	-1.240504e+001	7.529831e+001	-1.240578e+001	7.519874e+001	-1.197010e+001	7.227983e+000
2190987.868	-1.115530e+001	-4.064052e+001	-1.232920e+001	7.147230e+001	-1.234343e+001	7.133727e+001	-1.212342e+001	2.609764e+000
2215424.610	-1.126116e+001	-4.518542e+001	-1.222732e+001	6.748003e+001	-1.225244e+001	6.743526e+001	-1.228414e+001	-2.026303e+000
2239861.352	-1.139463e+001	-4.968177e+001	-1.209448e+001	6.353402e+001	-1.212930e+001	6.356015e+001	-1.247854e+001	-6.656080e+000
2264298.094	-1.153704e+001	-5.419083e+001	-1.194062e+001	5.947258e+001	-1.197339e+001	5.957477e+001	-1.268395e+001	-1.127086e+001
2288734.835	-1.168963e+001	-5.879020e+001	-1.177563e+001	5.527710e+001	-1.180922e+001	5.542071e+001	-1.289277e+001	-1.599590e+001
2313171.577	-1.184496e+001	-6.342469e+001	-1.159812e+001	5.088767e+001	-1.162825e+001	5.105458e+001	-1.310457e+001	-2.075500e+001
2337608.319	-1.203035e+001	-6.825000e+001	-1.142691e+001	4.644093e+001	-1.146105e+001	4.661751e+001	-1.333297e+001	-2.578255e+001
2362045.061	-1.226176e+001	-7.317848e+001	-1.125189e+001	4.200824e+001	-1.128893e+001	4.210716e+001	-1.359004e+001	-3.092001e+001
2386481.802	-1.253398e+001	-7.824967e+001	-1.107797e+001	3.748236e+001	-1.110301e+001	3.762016e+001	-1.389824e+001	-3.621590e+001
2410918.544	-1.283745e+001	-8.303482e+001	-1.085974e+001	3.284646e+001	-1.089984e+001	3.301743e+001	-1.424445e+001	-4.154582e+001
2435355.286	-1.316142e+001	-8.792528e+001	-1.064890e+001	2.799430e+001	-1.068670e+001	2.816503e+001	-1.460686e+001	-4.688756e+001
2459792.028	-1.350487e+001	-9.288060e+001	-1.043600e+001	2.290922e+001	-1.047532e+001	2.314796e+001	-1.500536e+001	-5.230653e+001
2484228.769	-1.387881e+001	-9.800701e+001	-1.024056e+001	1.761117e+001	-1.026790e+001	1.793849e+001	-1.543272e+001	-5.782847e+001
2508665.511	-1.430300e+001	-1.032532e+002	-1.005610e+001	1.221030e+001	-1.008659e+001	1.254605e+001	-1.588687e+001	-6.352503e+001
2533102.253	-1.479224e+001	-1.086180e+002	-9.892330e+000	6.749315e+000	-9.922008e+000	7.077365e+000	-1.639606e+001	-6.940710e+001
2557538.995	-1.536311e+001	-1.141234e+002	-9.748284e+000	1.168780e+000	-9.773896e+000	1.540465e+000	-1.696446e+001	-7.546001e+001
2581975.737	-1.602021e+001	-1.196449e+002	-9.621698e+000	-4.461946e+000	-9.648309e+000	-4.090909e+000	-1.758179e+001	-8.166333e+001
2606412.478	-1.678137e+001	-1.251078e+002	-9.512220e+000	-1.012892e+001	-9.530085e+000	-9.755591e+000	-1.829268e+001	-8.788222e+001
2630849.220	-1.764554e+001	-1.304560e+002	-9.416682e+000	-1.585739e+001	-9.434575e+000	-1.546260e+001	-1.908028e+001	-9.424931e+001
2655285.962	-1.864039e+001	-1.356698e+002	-9.342010e+000	-2.159221e+001	-9.353181e+000	-2.121684e+001	-1.995021e+001	-1.004971e+002
2679722.704	-1.977791e+001	-1.407344e+002	-9.287681e+000	-2.736192e+001	-9.298045e+000	-2.700091e+001	-2.090687e+001	-1.068049e+002
2704159.445	-2.110646e+001	-1.456373e+002	-9.257485e+000	-3.313723e+001	-9.268648e+000	-3.272992e+001	-2.195723e+001	-1.134058e+002
2728596.187	-2.270417e+001	-1.498976e+002	-9.246095e+000	-3.880508e+001	-9.251966e+000	-3.842268e+001	-2.314587e+001	-1.199531e+002
2753032.929	-2.461943e+001	-1.531966e+002	-9.245064e+000	-4.440743e+001	-9.247075e+000	-4.402769e+001	-2.453020e+001	-1.266068e+002
2777469.671	-2.698397e+001	-1.543953e+002	-9.251117e+000	-4.990571e+001	-9.252648e+000	-4.955572e+001	-2.615159e+001	-1.331877e+002
2801906.412	-2.980945e+001	-1.516143e+002	-9.252915e+000	-5.539328e+001	-9.257131e+000	-5.506122e+001	-2.808120e+001	-1.390828e+002
2826343.154	-3.323592e+001	-1.412428e+002	-9.271714e+000	-6.086066e+001	-9.270679e+000	-6.054086e+001	-3.035798e+001	-1.437774e+002
2850779.896	-3.627652e+001	-1.154392e+002	-9.300198e+000	-6.633657e+001	-9.297419e+000	-6.602112e+001	-3.301130e+001	-1.465058e+002
2875216.638	-3.592256e+001	-7.926121e+001	-9.342377e+000	-7.177306e+001	-9.336971e+000	-7.144046e+001	-3.613761e+001	-1.463832e+002
2899653.380	-3.306203e+001	-5.922194e+001	-9.390572e+000	-7.710801e+001	-9.390393e+000	-7.676217e+001	-4.013482e+001	-1.408625e+002
2924090.121	-3.042361e+001	-5.192465e+001	-9.446334e+000	-8.234775e+001	-9.442600e+000	-8.203064e+001	-4.438304e+001	-1.153041e+002
2948526.863	-2.837641e+001	-5.010369e+001	-9.504783e+000	-8.750915e+001	-9.503526e+000	-8.719109e+001	-4.457478e+001	-7.150576e+001
2972963.605	-2.677536e+001	-5.083377e+001	-9.564836e+000	-9.254932e+001	-9.563553e+000	-9.226107e+001	-4.113059e+001	-4.970461e+001
2997400.347	-2.552436e+001	-5.297777e+001	-9.618008e+000	-9.754408e+001	-9.619511e+000	-9.724159e+001	-3.820117e+001	-4.394428e+001
3021837.088	-2.451228e+001	-5.584528e+001	-9.666220e+000	-1.024561e+002	-9.667417e+000	-1.021606e+002	-3.588573e+001	-4.496902e+001
3046273.830	-2.371302e+001	-5.926197e+001	-9.703781e+000	-1.073227e+002	-9.707673e+000	-1.070250e+002	-3.410900e+001	-4.904005e+001
3070710.572	-2.308635e+001	-6.298784e+001	-9.733830e+000	-1.121609e+002	-9.736048e+000	-1.118679e+002	-3.265438e+001	-5.508774e+001
3095147.314	-2.260492e+001	-6.698475e+001	-9.746632e+000	-1.169924e+002	-9.753612e+000	-1.167264e+002	-3.141604e+001	-6.254920e+001
3119584.055	-2.228302e+001	-7.092371e+001	-9.755767e+000	-1.218873e+002	-9.757469e+000	-1.215882e+002	-3.028691e+001	-7.087970e+001
3144020.797	-2.210157e+001	-7.511726e+001	-9.746917e+000	-1.268293e+002	-9.751446e+000	-1.265663e+002	-2.928719e+001	-8.062231e+001
3168457.539	-2.205669e+001	-7.901277e+001	-9.739140e+000	-1.318934e+002	-9.742952e+000	-1.316278e+002	-2.837820e+001	-9.139827e+001
3192894.281	-2.215309e+001	-8.259051e+001	-9.737833e+000	-1.370759e+002	-9.737936e+000	-1.367980e+002	-2.755739e+001	-1.028692e+002
3217331.023	-2.236684e+001	-8.567779e+001	-9.745576e+000	-1.423213e+002	-9.745476e+000	-1.420576e+002	-2.681573e+001	-1.146838e+002
3241767.764	-2.267345e+001	-8.804863e+001	-9.766502e+000	-1.476334e+002	-9.764904e+000	-1.473549e+002	-2.614774e+001	-1.265640e+002
3266204.506	-2.304835e+001	-8.957386e+001	-9.806352e+000	-1.529394e+002	-9.801670e+000	-1.526674e+002	-2.554220e+001	-1.382566e+002
3290641.248	-2.344936e+001	-9.048238e+001	-9.847605e+000	-1.581744e+002	-9.840252e+000	-1.579240e+002	-2.491130e+001	-1.491176e+002
3315077.990	-2.395657e+001	-9.093932e+001	-9.876019e+000	-1.634634e+002	-9.869452e+000	-1.632122e+002	-2.417102e+001	-1.593609e+002
3339514.731	-2.461075e+001	-8.985072e+001	-9.911354e+000	-1.689315e+002	-9.903694e+000	-1.686922e+002	-2.332958e+001	-1.698227e+002
3363951.473	-2.525993e+001	-8.646258e+001	-9.970328e+000	-1.744973e+002	-9.962865e+000	-1.742774e+002	-2.250416e+001	1.795256e+002
3388388.215	-2.571699e+001	-8.054086e+001	-1.005886e+001	1.798914e+002	-1.005029e+001	-1.799149e+002	-2.171725e+001	1.690034e+002
3412824.957	-2.578401e+001	-7.280566e+001	-1.017376e+001	1.742759e+002	-1.016292e+001	1.744430e+002	-2.097201e+001	1.588064e+002
3437261.698	-2.533843e+001	-6.478520e+001	-1.031417e+001	1.686935e+002	-1.030653e+001	1.688214e+002	-2.028219e+001	1.488928e+002
3461698.440	-2.446225e+001	-5.833185e+001	-1.048064e+001	1.631724e+002	-1.047664e+001	1.632678e+002	-1.963945e+001	1.393922e+002
3486135.182	-2.332969e+001	-5.411205e+001	-1.067761e+001	1.577357e+002	-1.067399e+001	1.578026e+002	-1.904394e+001	1.301896e+002
3510571.924	-2.213537e+001	-5.214004e+001	-1.089843e+001	1.524389e+002	-1.089873e+001	1.525017e+002	-1.852154e+001	1.213988e+002
3535008.666	-2.099124e+001	-5.200296e+001	-1.113400e+001	1.473218e+002	-1.114023e+001	1.473843e+002	-1.805512e+001	1.130058e+002
3559445.407	-1.996011e+001	-5.322515e+001	-1.138486e+001	1.424528e+002	-1.139520e+001	1.424671e+002	-1.764675e+001	1.050675e+002
3583882.149	-1.904400e+001	-5.511545e+001	-1.163174e+001	1.377402e+002	-1.164865e+001	1.377593e+002	-1.728225e+001	9.763049e+001
3608318.891	-1.821285e+001	-5.745791e+001	-1.187829e+001	1.331521e+002	-1.189792e+001	1.331686e+002	-1.693268e+001	9.064143e+001
3632755.633	-1.746822e+001	-6.012896e+001	-1.212072e+001	1.286634e+002	-1.214588e+001	1.287034e+002	-1.660904e+001	8.398998e+001
3657192.374	-1.678309e+001	-6.298061e+001	-1.235939e+001	1.242901e+002	-1.239174e+001	1.243326e+002	-1.629909e+001	7.765587e+001
3681629.116	-1.614473e+001	-6.598048e+001	-1.260107e+001	1.199491e+002	-1.263894e+001	1.200004e+002	-1.599448e+001	7.155129e+001
3706065.858	-1.553907e+001	-6.913491e+001	-1.285083e+001	1.156633e+002	-1.289556e+001	1.157456e+002	-1.570142e+001	6.556308e+001
3730502.600	-1.497051e+001	-7.253209e+001	-1.312009e+001	1.114676e+002	-1.316896e+001	1.116000e+002	-1.542613e+001	5.962883e+001
3754939.341	-1.444816e+001	-7.616874e+001	-1.340430e+001	1.075034e+002	-1.346051e+001	1.076264e+002	-1.518056e+001	5.372737e+001
3779376.083	-1.396937e+001	-7.999817e+001	-1.370348e+001	1.037283e+002	-1.375900e+001	1.038970e+002	-1.497176e+001	4.790649e+001
3803812.825	-1.354789e+001	-8.395256e+001	-1.399934e+001	1.002659e+002	-1.405986e+001	1.004515e+002	-1.480378e+001	4.224304e+001
3828249.567	-1.318018e+001	-8.798997e+001	-1.428981e+001	9.710036e+001	-1.435356e+001	9.731446e+001	-1.467535e+001	3.669664e+001
3852686.308	-1.285561e+001	-9.203478e+001	-1.456652e+001	9.418528e+001	-1.462497e+001	9.439692e+001	-1.457178e+001	3.138649e+001
3877123.050	-1.257428e+001	-9.607008e+001	-1.482571e+001	9.152019e+001	-1.489231e+001	9.175462e+001	-1.449412e+001	2.614416e+001
3901559.792	-1.233966e+001	-1.001561e+002	-1.506052e+001	8.921108e+001	-1.514357e+001	8.948606e+001	-1.445225e+001	2.092970e+001
3925996.534	-1.215957e+001	-1.043057e+002	-1.525682e+001	8.737593e+001	-1.534053e+001	8.764488e+001	-1.446766e+001	1.591094e+001
3950433.276	-1.204165e+001	-1.083558e+002	-1.536890e+001	8.585174e+001	-1.546741e+001	8.617949e+001	-1.453805e+001	1.109603e+001
3974870.017	-1.197707e+001	-1.121884e+002	-1.538940e+001	8.439960e+001	-1.548103e+001	8.486578e+001	-1.466553e+001	6.696778e+000
3999306.759	-1.196768e+001	-1.157373e+002	-1.530226e+001	8.287915e+001	-1.538553e+001	8.345702e+001	-1.483945e+001	2.791603e+000
4023743.501	-1.199779e+001	-1.188561e+002	-1.511604e+001	8.098261e+001	-1.519640e+001	8.158507e+001	-1.502000e+001	-4.655726e-001
4048180.243	-1.204615e+001	-1.215062e+002	-1.486814e+001	7.854770e+001	-1.494147e+001	7.913638e+001	-1.518868e+001	-3.037364e+000
4072616.984	-1.207045e+001	-1.236454e+002	-1.460408e+001	7.541670e+001	-1.466846e+001	7.602923e+001	-1.530256e+001	-5.046208e+000
4097053.726	-1.205942e+001	-1.254764e+002	-1.435050e+001	7.181351e+001	-1.441177e+001	7.238230e+001	-1.533872e+001	-6.693566e+000
4121490.468	-1.198949e+001	-1.270739e+002	-1.413205e+001	6.773684e+001	-1.419899e+001	6.832243e+001	-1.528796e+001	-8.253310e+000
4145927.210	-1.187116e+001	-1.286603e+002	-1.395322e+001	6.344873e+001	-1.402408e+001	6.405486e+001	-1.517495e+001	-9.894233e+000
4170363.951	-1.170914e+001	-1.303466e+002	-1.382013e+001	5.908111e+001	-1.388971e+001	5.965030e+001	-1.501038e+001	-1.168841e+001
4194800.693	-1.151792e+001	-1.321706e+002	-1.371462e+001	5.460432e+001	-1.378731e+001	5.522492e+001	-1.481749e+001	-1.375641e+001
4219237.435	-1.130617e+001	-1.342245e+002	-1.364519e+001	5.014573e+001	-1.371757e+001	5.076431e+001	-1.460467e+001	-1.604603e+001
4243674.177	-1.108567e+001	-1.364666e+002	-1.359886e+001	4.569953e+001	-1.367138e+001	4.636854e+001	-1.438694e+001	-1.857977e+001
4268110.919	-1.087335e+001	-1.389215e+002	-1.356932e+001	4.140051e+001	-1.363860e+001	4.206906e+001	-1.418290e+001	-2.131272e+001
4292547.660	-1.066650e+001	-1.415058e+002	-1.354947e+001	3.711724e+001	-1.361961e+001	3.786970e+001	-1.399048e+001	-2.421069e+001
4316984.402	-1.047241e+001	-1.441872e+002	-1.352934e+001	3.291531e+001	-1.359966e+001	3.368667e+001	-1.380769e+001	-2.712893e+001
4341421.144	-1.029157e+001	-1.469759e+002	-1.351434e+001	2.877657e+001	-1.358322e+001	2.955503e+001	-1.363566e+001	-3.013372e+001
4365857.886	-1.012000e+001	-1.498637e+002	-1.350459e+001	2.465339e+001	-1.356985e+001	2.549328e+001	-1.347752e+001	-3.321244e+001
4390294.627	-9.963662e+000	-1.528364e+002	-1.349562e+001	2.058541e+001	-1.355579e+001	2.145144e+001	-1.333074e+001	-3.632674e+001
4414731.369	-9.823171e+000	-1.558739e+002	-1.348633e+001	1.657831e+001	-1.354487e+001	1.747731e+001	-1.319583e+001	-3.951679e+001
4439168.111	-9.699680e+000	-1.589744e+002	-1.347395e+001	1.257539e+001	-1.352682e+001	1.355807e+001	-1.307835e+001	-4.273879e+001
4463604.853	-9.593413e+000	-1.621029e+002	-1.345719e+001	8.658961e+000	-1.350494e+001	9.678959e+000	-1.297315e+001	-4.596353e+001
4488041.594	-9.506169e+000	-1.652590e+002	-1.343286e+001	4.796980e+000	-1.347363e+001	5.835068e+000	-1.288330e+001	-4.918085e+001
4512478.336	-9.436029e+000	-1.684290e+002	-1.340132e+001	9.498575e-001	-1.343762e+001	2.010612e+000	-1.280568e+001	-5.240842e+001
4536915.078	-9.378557e+000	-1.716024e+002	-1.336462e+001	-2.916518e+000	-1.339319e+001	-1.837243e+000	-1.273730e+001	-5.561604e+001
4561351.820	-9.338691e+000	-1.747911e+002	-1.331935e+001	-6.748907e+000	-1.334410e+001	-5.668611e+000	-1.267869e+001	-5.883572e+001
4585788.562	-9.318035e+000	-1.779979e+002	-1.327083e+001	-1.055656e+001	-1.328690e+001	-9.449418e+000	-1.264020e+001	-6.206382e+001
4610225.303	-9.318556e+000	1.788252e+002	-1.320761e+001	-1.430845e+001	-1.321568e+001	-1.320316e+001	-1.262202e+001	-6.526522e+001
4634662.045	-9.333359e+000	1.757384e+002	-1.311872e+001	-1.810021e+001	-1.312304e+001	-1.698090e+001	-1.261986e+001	-6.837098e+001
4659098.787	-9.358433e+000	1.727053e+002	-1.301625e+001	-2.198260e+001	-1.301498e+001	-2.085474e+001	-1.262384e+001	-7.138161e+001
4683535.529	-9.390074e+000	1.697094e+002	-1.290299e+001	-2.594984e+001	-1.289308e+001	-2.483626e+001	-1.263440e+001	-7.428559e+001
4707972.270	-9.426262e+000	1.667486e+002	-1.278435e+001	-3.001330e+001	-1.276773e+001	-2.896275e+001	-1.264250e+001	-7.709836e+001
4732409.012	-9.465467e+000	1.637642e+002	-1.266825e+001	-3.423536e+001	-1.264655e+001	-3.318795e+001	-1.264544e+001	-7.989497e+001
4756845.754	-9.514733e+000	1.607670e+002	-1.255329e+001	-3.853631e+001	-1.252321e+001	-3.752792e+001	-1.264663e+001	-8.265673e+001
4781282.496	-9.571506e+000	1.577435e+002	-1.244366e+001	-4.295730e+001	-1.240907e+001	-4.193582e+001	-1.264882e+001	-8.543110e+001
4805719.237	-9.642513e+000	1.546811e+002	-1.234126e+001	-4.742383e+001	-1.230104e+001	-4.640276e+001	-1.264948e+001	-8.821554e+001
4830155.979	-9.727265e+000	1.515899e+002	-1.224684e+001	-5.195427e+001	-1.219914e+001	-5.095015e+001	-1.264837e+001	-9.099181e+001
4854592.721	-9.832095e+000	1.485131e+002	-1.215241e+001	-5.648607e+001	-1.210424e+001	-5.550151e+001	-1.265744e+001	-9.380482e+001
4879029.463	-9.954929e+000	1.453919e+002	-1.207317e+001	-6.106617e+001	-1.201693e+001	-6.013151e+001	-1.266330e+001	-9.663366e+001
4903466.205	-1.009768e+001	1.422970e+002	-1.199429e+001	-6.567381e+001	-1.193476e+001	-6.477275e+001	-1.267762e+001	-9.946596e+001
4927902.946	-1.025946e+001	1.392060e+002	-1.192245e+001	-7.032139e+001	-1.185881e+001	-6.943630e+001	-1.269850e+001	-1.023133e+002
4952339.688	-1.044265e+001	1.361377e+002	-1.185440e+001	-7.501143e+001	-1.178456e+001	-7.412774e+001	-1.272348e+001	-1.051655e+002
4976776.430	-1.064818e+001	1.331232e+002	-1.178956e+001	-7.969183e+001	-1.171742e+001	-7.884922e+001	-1.275327e+001	-1.080033e+002
5001213.172	-1.087508e+001	1.301498e+002	-1.172991e+001	-8.439657e+001	-1.165528e+001	-8.358700e+001	-1.278886e+001	-1.108357e+002
5025649.913	-1.112295e+001	1.272427e+002	-1.167285e+001	-8.913366e+001	-1.159709e+001	-8.835235e+001	-1.283021e+001	-1.136593e+002
5050086.655	-1.139313e+001	1.243919e+002	-1.162244e+001	-9.388549e+001	-1.154424e+001	-9.314187e+001	-1.287486e+001	-1.164677e+002
5074523.397	-1.168539e+001	1.216214e+002	-1.157627e+001	-9.865143e+001	-1.149394e+001	-9.795401e+001	-1.292320e+001	-1.192779e+002
5098960.139	-1.200047e+001	1.189173e+002	-1.153690e+001	-1.034481e+002	-1.145544e+001	-1.027850e+002	-1.297287e+001	-1.221203e+002
5123396.880	-1.233766e+001	1.163113e+002	-1.150215e+001	-1.082581e+002	-1.142081e+001	-1.076399e+002	-1.302567e+001	-1.249617e+002
5147833.622	-1.269901e+001	1.138045e+002	-1.147392e+001	-1.130865e+002	-1.139319e+001	-1.125021e+002	-1.308164e+001	-1.278358e+002
5172270.364	-1.308628e+001	1.114261e+002	-1.145160e+001	-1.178990e+002	-1.137153e+001	-1.173587e+002	-1.314227e+001	-1.307067e+002
5196707.106	-1.349751e+001	1.091836e+002	-1.143407e+001	-1.227197e+002	-1.135439e+001	-1.222134e+002	-1.320993e+001	-1.335977e+002
5221143.847	-1.393335e+001	1.071126e+002	-1.141890e+001	-1.274962e+002	-1.134088e+001	-1.270647e+002	-1.328145e+001	-1.364761e+002
5245580.589	-1.438764e+001	1.052075e+002	-1.140612e+001	-1.323186e+002	-1.132871e+001	-1.319256e+002	-1.335584e+001	-1.393619e+002
5270017.331	-1.486384e+001	1.034695e+002	-1.139866e+001	-1.371608e+002	-1.132285e+001	-1.367861e+002	-1.343249e+001	-1.422812e+002
5294454.073	-1.535719e+001	1.019232e+002	-1.139256e+001	-1.420064e+002	-1.132109e+001	-1.416582e+002	-1.350965e+001	-1.452306e+002
5318890.815	-1.587364e+001	1.005709e+002	-1.139332e+001	-1.468574e+002	-1.132298e+001	-1.465412e+002	-1.359047e+001	-1.482038e+002
5343327.556	-1.640963e+001	9.941632e+001	-1.139668e+001	-1.517163e+002	-1.133101e+001	-1.514150e+002	-1.367274e+001	-1.512276e+002
5367764.298	-1.696515e+001	9.847771e+001	-1.140338e+001	-1.566008e+002	-1.134120e+001	-1.563115e+002	-1.375643e+001	-1.542860e+002
5392201.040	-1.754250e+001	9.779880e+001	-1.141471e+001	-1.614688e+002	-1.135575e+001	-1.612214e+002	-1.384012e+001	-1.574085e+002
5416637.782	-1.814098e+001	9.734409e+001	-1.143087e+001	-1.663647e+002	-1.137599e+001	-1.661290e+002	-1.392801e+001	-1.605867e+002
5441074.523	-1.876204e+001	9.718488e+001	-1.145009e+001	-1.712601e+002	-1.140133e+001	-1.710413e+002	-1.402093e+001	-1.638341e+002
