!Agilent Technologies,E5061B,MY49101568,A.02.00
!Date: Wed Mar 01 15:55:13 2023
!Data & Calibration Information:
!Freq	S11:SOLT2(OFF)	S21:SOLT2(OFF)	S12:SOLT2(OFF)	S22:SOLT2(OFF)
# Hz S dB R 50
1800000.000	-9.999880e+000	-1.822086e+001	-2.241623e+001	-1.494166e+002	-2.241523e+001	-1.494682e+002	-1.047646e+001	1.799191e+001
1824436.742	-1.012956e+001	-2.240222e+001	-2.207988e+001	-1.534466e+002	-2.208649e+001	-1.534707e+002	-1.062549e+001	1.432400e+001
1848873.484	-1.026750e+001	-2.665941e+001	-2.173634e+001	-1.575987e+002	-2.175907e+001	-1.576279e+002	-1.077743e+001	1.063268e+001
1873310.225	-1.041557e+001	-3.092938e+001	-2.138984e+001	-1.618794e+002	-2.140313e+001	-1.619085e+002	-1.093519e+001	6.930187e+000
1897746.967	-1.056829e+001	-3.527190e+001	-2.102617e+001	-1.661747e+002	-2.104971e+001	-1.661948e+002	-1.108836e+001	3.163515e+000
1922183.709	-1.072305e+001	-3.970777e+001	-2.067605e+001	-1.705803e+002	-2.069472e+001	-1.705604e+002	-1.124033e+001	-6.937119e-001
1946620.451	-1.089444e+001	-4.423236e+001	-2.030099e+001	-1.751351e+002	-2.031824e+001	-1.751433e+002	-1.139991e+001	-4.603907e+000
1971057.192	-1.107032e+001	-4.885505e+001	-1.993159e+001	-1.797806e+002	-1.997175e+001	-1.798107e+002	-1.155236e+001	-8.541451e+000
1995493.934	-1.125985e+001	-5.351139e+001	-1.957189e+001	1.753495e+002	-1.959896e+001	1.755354e+002	-1.171045e+001	-1.258823e+001
2019930.676	-1.145404e+001	-5.829503e+001	-1.921444e+001	1.705172e+002	-1.924611e+001	1.706451e+002	-1.186393e+001	-1.661040e+001
2044367.418	-1.165743e+001	-6.314591e+001	-1.886102e+001	1.655951e+002	-1.889336e+001	1.657591e+002	-1.200775e+001	-2.080023e+001
2068804.159	-1.187022e+001	-6.816885e+001	-1.849956e+001	1.606875e+002	-1.854036e+001	1.609186e+002	-1.214372e+001	-2.508726e+001
2093240.901	-1.211280e+001	-7.334518e+001	-1.811450e+001	1.557608e+002	-1.815468e+001	1.559722e+002	-1.229052e+001	-2.946720e+001
2117677.643	-1.237294e+001	-7.865735e+001	-1.772835e+001	1.505758e+002	-1.777664e+001	1.507896e+002	-1.243736e+001	-3.390670e+001
2142114.385	-1.266271e+001	-8.402007e+001	-1.734397e+001	1.451668e+002	-1.737961e+001	1.454362e+002	-1.258707e+001	-3.844388e+001
2166551.127	-1.297243e+001	-8.945731e+001	-1.696686e+001	1.395431e+002	-1.700817e+001	1.398468e+002	-1.273205e+001	-4.301446e+001
2190987.868	-1.329902e+001	-9.500711e+001	-1.660632e+001	1.337807e+002	-1.664509e+001	1.341302e+002	-1.286951e+001	-4.765393e+001
2215424.610	-1.363948e+001	-1.006698e+002	-1.627190e+001	1.278675e+002	-1.631566e+001	1.282750e+002	-1.298765e+001	-5.234539e+001
2239861.352	-1.398717e+001	-1.065047e+002	-1.596018e+001	1.219432e+002	-1.599523e+001	1.223958e+002	-1.309375e+001	-5.720329e+001
2264298.094	-1.435982e+001	-1.126002e+002	-1.565048e+001	1.159709e+002	-1.568782e+001	1.164297e+002	-1.318517e+001	-6.220462e+001
2288734.835	-1.475428e+001	-1.188668e+002	-1.535370e+001	1.098865e+002	-1.538223e+001	1.104363e+002	-1.326776e+001	-6.737980e+001
2313171.577	-1.518920e+001	-1.254043e+002	-1.505421e+001	1.037039e+002	-1.508895e+001	1.042642e+002	-1.333932e+001	-7.266759e+001
2337608.319	-1.563293e+001	-1.321667e+002	-1.478051e+001	9.742326e+001	-1.481138e+001	9.796024e+001	-1.340054e+001	-7.809501e+001
2362045.061	-1.609218e+001	-1.390380e+002	-1.453093e+001	9.097553e+001	-1.455462e+001	9.149358e+001	-1.345361e+001	-8.357139e+001
2386481.802	-1.654341e+001	-1.462156e+002	-1.431078e+001	8.441076e+001	-1.431892e+001	8.497917e+001	-1.348136e+001	-8.927954e+001
2410918.544	-1.698317e+001	-1.537817e+002	-1.411554e+001	7.782593e+001	-1.413162e+001	7.837618e+001	-1.347509e+001	-9.505713e+001
2435355.286	-1.738042e+001	-1.617813e+002	-1.395887e+001	7.122215e+001	-1.396494e+001	7.182942e+001	-1.344532e+001	-1.011243e+002
2459792.028	-1.775840e+001	-1.706303e+002	-1.382158e+001	6.478632e+001	-1.383413e+001	6.534170e+001	-1.338249e+001	-1.074018e+002
2484228.769	-1.811747e+001	1.796646e+002	-1.368282e+001	5.843167e+001	-1.366867e+001	5.905811e+001	-1.332757e+001	-1.142272e+002
2508665.511	-1.850800e+001	1.694454e+002	-1.352767e+001	5.195711e+001	-1.351309e+001	5.263173e+001	-1.328117e+001	-1.212134e+002
2533102.253	-1.885460e+001	1.589634e+002	-1.339809e+001	4.533616e+001	-1.337253e+001	4.590193e+001	-1.325112e+001	-1.282097e+002
2557538.995	-1.912612e+001	1.482864e+002	-1.329695e+001	3.854985e+001	-1.326631e+001	3.911862e+001	-1.321432e+001	-1.352847e+002
2581975.737	-1.928501e+001	1.374396e+002	-1.323830e+001	3.172436e+001	-1.320336e+001	3.222644e+001	-1.317351e+001	-1.423607e+002
2606412.478	-1.930239e+001	1.264690e+002	-1.322041e+001	2.496186e+001	-1.317309e+001	2.544600e+001	-1.311467e+001	-1.495839e+002
2630849.220	-1.922060e+001	1.154739e+002	-1.322456e+001	1.825470e+001	-1.317474e+001	1.868480e+001	-1.305751e+001	-1.568507e+002
2655285.962	-1.904732e+001	1.045768e+002	-1.324788e+001	1.161237e+001	-1.319425e+001	1.199815e+001	-1.300562e+001	-1.642033e+002
2679722.704	-1.879823e+001	9.416065e+001	-1.330399e+001	4.987108e+000	-1.325168e+001	5.349622e+000	-1.295555e+001	-1.714853e+002
2704159.445	-1.845706e+001	8.433196e+001	-1.340594e+001	-1.556370e+000	-1.333754e+001	-1.213835e+000	-1.290186e+001	-1.786957e+002
2728596.187	-1.806350e+001	7.478468e+001	-1.352393e+001	-7.832048e+000	-1.345570e+001	-7.536330e+000	-1.283873e+001	1.740487e+002
2753032.929	-1.762154e+001	6.559346e+001	-1.365815e+001	-1.385758e+001	-1.359176e+001	-1.370410e+001	-1.277480e+001	1.668846e+002
2777469.671	-1.719443e+001	5.679634e+001	-1.379430e+001	-1.973249e+001	-1.372491e+001	-1.962278e+001	-1.272283e+001	1.596158e+002
2801906.412	-1.680570e+001	4.846117e+001	-1.392152e+001	-2.559130e+001	-1.385640e+001	-2.552865e+001	-1.270022e+001	1.524973e+002
2826343.154	-1.643657e+001	4.064239e+001	-1.405769e+001	-3.138726e+001	-1.400548e+001	-3.136477e+001	-1.269166e+001	1.455788e+002
2850779.896	-1.608470e+001	3.338479e+001	-1.421989e+001	-3.712519e+001	-1.416198e+001	-3.713315e+001	-1.270345e+001	1.388590e+002
2875216.638	-1.574894e+001	2.658118e+001	-1.439871e+001	-4.278002e+001	-1.434628e+001	-4.275398e+001	-1.270920e+001	1.324083e+002
2899653.380	-1.541893e+001	2.009534e+001	-1.458451e+001	-4.817417e+001	-1.453666e+001	-4.822160e+001	-1.272444e+001	1.261270e+002
2924090.121	-1.510704e+001	1.397359e+001	-1.478630e+001	-5.345273e+001	-1.474278e+001	-5.356208e+001	-1.273842e+001	1.201190e+002
2948526.863	-1.480731e+001	8.131762e+000	-1.499018e+001	-5.852856e+001	-1.495720e+001	-5.867292e+001	-1.274492e+001	1.142700e+002
2972963.605	-1.452368e+001	2.532324e+000	-1.519404e+001	-6.345086e+001	-1.516632e+001	-6.357529e+001	-1.275104e+001	1.085383e+002
2997400.347	-1.425743e+001	-2.871630e+000	-1.539259e+001	-6.820237e+001	-1.537257e+001	-6.835395e+001	-1.276309e+001	1.029908e+002
3021837.088	-1.400497e+001	-8.068856e+000	-1.558487e+001	-7.280607e+001	-1.557023e+001	-7.296692e+001	-1.277601e+001	9.755695e+001
3046273.830	-1.376909e+001	-1.310693e+001	-1.576506e+001	-7.726976e+001	-1.576056e+001	-7.742858e+001	-1.279143e+001	9.227421e+001
3070710.572	-1.354856e+001	-1.798048e+001	-1.593686e+001	-8.162513e+001	-1.593474e+001	-8.179275e+001	-1.281378e+001	8.710440e+001
3095147.314	-1.334670e+001	-2.269747e+001	-1.609432e+001	-8.590637e+001	-1.610388e+001	-8.605261e+001	-1.283788e+001	8.209031e+001
3119584.055	-1.315059e+001	-2.728878e+001	-1.624432e+001	-9.002462e+001	-1.625771e+001	-9.022826e+001	-1.286761e+001	7.721918e+001
3144020.797	-1.297565e+001	-3.173589e+001	-1.637942e+001	-9.415951e+001	-1.639713e+001	-9.435470e+001	-1.290484e+001	7.249100e+001
3168457.539	-1.281308e+001	-3.606504e+001	-1.650545e+001	-9.821728e+001	-1.652812e+001	-9.842378e+001	-1.294691e+001	6.786754e+001
3192894.281	-1.266028e+001	-4.027510e+001	-1.662053e+001	-1.022747e+002	-1.665427e+001	-1.024623e+002	-1.299014e+001	6.342298e+001
3217331.023	-1.251870e+001	-4.436152e+001	-1.673335e+001	-1.062801e+002	-1.676922e+001	-1.064467e+002	-1.303706e+001	5.908687e+001
3241767.764	-1.238457e+001	-4.833571e+001	-1.683871e+001	-1.102372e+002	-1.688092e+001	-1.104003e+002	-1.308329e+001	5.489857e+001
3266204.506	-1.225782e+001	-5.221596e+001	-1.694159e+001	-1.141691e+002	-1.698801e+001	-1.142727e+002	-1.312747e+001	5.082514e+001
3290641.248	-1.213259e+001	-5.600438e+001	-1.703710e+001	-1.179684e+002	-1.708697e+001	-1.180639e+002	-1.316474e+001	4.685030e+001
3315077.990	-1.201395e+001	-5.976403e+001	-1.711094e+001	-1.216736e+002	-1.716673e+001	-1.217565e+002	-1.320387e+001	4.290470e+001
3339514.731	-1.190779e+001	-6.347403e+001	-1.716847e+001	-1.254125e+002	-1.722486e+001	-1.254556e+002	-1.325076e+001	3.902391e+001
3363951.473	-1.181092e+001	-6.711651e+001	-1.721418e+001	-1.291729e+002	-1.727711e+001	-1.291909e+002	-1.330479e+001	3.525233e+001
3388388.215	-1.172443e+001	-7.069411e+001	-1.724797e+001	-1.329355e+002	-1.731850e+001	-1.329392e+002	-1.336480e+001	3.159611e+001
3412824.957	-1.164514e+001	-7.419495e+001	-1.728172e+001	-1.367145e+002	-1.735097e+001	-1.366784e+002	-1.342348e+001	2.802022e+001
3437261.698	-1.157460e+001	-7.764113e+001	-1.730606e+001	-1.405060e+002	-1.738018e+001	-1.404282e+002	-1.348840e+001	2.455250e+001
3461698.440	-1.151157e+001	-8.100437e+001	-1.732704e+001	-1.443008e+002	-1.740172e+001	-1.441822e+002	-1.355513e+001	2.117576e+001
3486135.182	-1.145423e+001	-8.431005e+001	-1.733950e+001	-1.480666e+002	-1.741812e+001	-1.479262e+002	-1.361955e+001	1.791574e+001
3510571.924	-1.140387e+001	-8.753885e+001	-1.735179e+001	-1.518722e+002	-1.743287e+001	-1.517153e+002	-1.368971e+001	1.477188e+001
3535008.666	-1.135957e+001	-9.070207e+001	-1.735926e+001	-1.556494e+002	-1.744132e+001	-1.554603e+002	-1.375252e+001	1.172634e+001
3559445.407	-1.131693e+001	-9.379298e+001	-1.735863e+001	-1.594120e+002	-1.744236e+001	-1.591793e+002	-1.381114e+001	8.767082e+000
3583882.149	-1.127706e+001	-9.682073e+001	-1.735276e+001	-1.631530e+002	-1.743603e+001	-1.628833e+002	-1.386084e+001	5.900377e+000
3608318.891	-1.123971e+001	-9.981482e+001	-1.733412e+001	-1.668870e+002	-1.741988e+001	-1.665911e+002	-1.390806e+001	3.068376e+000
3632755.633	-1.120368e+001	-1.027695e+002	-1.730269e+001	-1.706673e+002	-1.738806e+001	-1.702938e+002	-1.395189e+001	2.660117e-001
3657192.374	-1.117016e+001	-1.056850e+002	-1.726191e+001	-1.744550e+002	-1.734719e+001	-1.740568e+002	-1.399494e+001	-2.486184e+000
3681629.116	-1.114257e+001	-1.085614e+002	-1.720868e+001	-1.783026e+002	-1.728935e+001	-1.778872e+002	-1.404187e+001	-5.208056e+000
3706065.858	-1.112308e+001	-1.114133e+002	-1.714257e+001	1.777045e+002	-1.722527e+001	1.781774e+002	-1.409356e+001	-7.865088e+000
3730502.600	-1.111041e+001	-1.141984e+002	-1.708090e+001	1.735904e+002	-1.716405e+001	1.740802e+002	-1.414987e+001	-1.040812e+001
3754939.341	-1.110475e+001	-1.168811e+002	-1.702904e+001	1.693448e+002	-1.711041e+001	1.698705e+002	-1.420406e+001	-1.280846e+001
3779376.083	-1.109811e+001	-1.194692e+002	-1.699508e+001	1.650286e+002	-1.707480e+001	1.655626e+002	-1.425210e+001	-1.507983e+001
3803812.825	-1.108912e+001	-1.219705e+002	-1.698193e+001	1.606605e+002	-1.705946e+001	1.612578e+002	-1.427969e+001	-1.724189e+001
3828249.567	-1.107249e+001	-1.243968e+002	-1.698820e+001	1.563217e+002	-1.706302e+001	1.568986e+002	-1.429921e+001	-1.927093e+001
3852686.308	-1.105120e+001	-1.267552e+002	-1.700456e+001	1.519975e+002	-1.708504e+001	1.526267e+002	-1.429014e+001	-2.127740e+001
3877123.050	-1.101358e+001	-1.290627e+002	-1.705157e+001	1.477661e+002	-1.712327e+001	1.483504e+002	-1.426667e+001	-2.321110e+001
3901559.792	-1.096508e+001	-1.313072e+002	-1.711664e+001	1.435576e+002	-1.719340e+001	1.442156e+002	-1.420952e+001	-2.511933e+001
3925996.534	-1.089168e+001	-1.335698e+002	-1.721513e+001	1.395870e+002	-1.728686e+001	1.402896e+002	-1.412027e+001	-2.710126e+001
3950433.276	-1.079783e+001	-1.359534e+002	-1.731941e+001	1.359506e+002	-1.738919e+001	1.366716e+002	-1.400478e+001	-2.924027e+001
3974870.017	-1.069289e+001	-1.384870e+002	-1.741391e+001	1.326431e+002	-1.748305e+001	1.333350e+002	-1.387303e+001	-3.155462e+001
3999306.759	-1.058807e+001	-1.411575e+002	-1.748444e+001	1.295500e+002	-1.755456e+001	1.303482e+002	-1.373260e+001	-3.410792e+001
4023743.501	-1.048374e+001	-1.440565e+002	-1.751699e+001	1.268159e+002	-1.758040e+001	1.276016e+002	-1.359916e+001	-3.689262e+001
4048180.243	-1.039930e+001	-1.471228e+002	-1.748877e+001	1.242267e+002	-1.755428e+001	1.250666e+002	-1.348059e+001	-3.989414e+001
4072616.984	-1.034096e+001	-1.503304e+002	-1.739908e+001	1.216486e+002	-1.745934e+001	1.225444e+002	-1.338798e+001	-4.306839e+001
4097053.726	-1.031342e+001	-1.536217e+002	-1.724840e+001	1.189430e+002	-1.730568e+001	1.198402e+002	-1.333021e+001	-4.630189e+001
4121490.468	-1.031982e+001	-1.569159e+002	-1.705766e+001	1.159658e+002	-1.710604e+001	1.168833e+002	-1.330334e+001	-4.954734e+001
4145927.210	-1.035437e+001	-1.601698e+002	-1.684347e+001	1.127037e+002	-1.688720e+001	1.136566e+002	-1.330044e+001	-5.275559e+001
4170363.951	-1.041108e+001	-1.633442e+002	-1.661975e+001	1.092636e+002	-1.665485e+001	1.101879e+002	-1.331814e+001	-5.587773e+001
4194800.693	-1.048974e+001	-1.664881e+002	-1.638943e+001	1.055931e+002	-1.642367e+001	1.065026e+002	-1.334908e+001	-5.894459e+001
4219237.435	-1.058940e+001	-1.695404e+002	-1.615822e+001	1.017165e+002	-1.618642e+001	1.026791e+002	-1.339265e+001	-6.197457e+001
4243674.177	-1.071031e+001	-1.725217e+002	-1.592159e+001	9.766243e+001	-1.594533e+001	9.861642e+001	-1.345580e+001	-6.493855e+001
4268110.919	-1.085171e+001	-1.753878e+002	-1.568808e+001	9.344060e+001	-1.570884e+001	9.434440e+001	-1.353287e+001	-6.778163e+001
4292547.660	-1.100567e+001	-1.780780e+002	-1.546904e+001	8.899619e+001	-1.548233e+001	8.990995e+001	-1.361702e+001	-7.051754e+001
4316984.402	-1.116864e+001	1.793765e+002	-1.526960e+001	8.442674e+001	-1.528189e+001	8.534702e+001	-1.369765e+001	-7.308866e+001
4341421.144	-1.133567e+001	1.769993e+002	-1.508388e+001	7.974204e+001	-1.508603e+001	8.064725e+001	-1.378627e+001	-7.557247e+001
4365857.886	-1.150550e+001	1.747336e+002	-1.491142e+001	7.500385e+001	-1.491182e+001	7.590105e+001	-1.386611e+001	-7.798598e+001
4390294.627	-1.167033e+001	1.726340e+002	-1.475850e+001	7.016320e+001	-1.475590e+001	7.107794e+001	-1.393632e+001	-8.028762e+001
4414731.369	-1.182684e+001	1.706294e+002	-1.462368e+001	6.531881e+001	-1.461992e+001	6.621407e+001	-1.399330e+001	-8.250182e+001
4439168.111	-1.197004e+001	1.686836e+002	-1.450606e+001	6.044143e+001	-1.449491e+001	6.131350e+001	-1.404240e+001	-8.471064e+001
4463604.853	-1.210415e+001	1.667980e+002	-1.440289e+001	5.559421e+001	-1.439135e+001	5.646318e+001	-1.407018e+001	-8.691279e+001
4488041.594	-1.222652e+001	1.649761e+002	-1.431291e+001	5.071312e+001	-1.429100e+001	5.160414e+001	-1.409188e+001	-8.913181e+001
4512478.336	-1.234113e+001	1.631175e+002	-1.423050e+001	4.589733e+001	-1.420902e+001	4.677168e+001	-1.409780e+001	-9.138537e+001
4536915.078	-1.245042e+001	1.612581e+002	-1.415462e+001	4.107679e+001	-1.413572e+001	4.197733e+001	-1.409415e+001	-9.370609e+001
4561351.820	-1.254702e+001	1.593651e+002	-1.409400e+001	3.626637e+001	-1.406369e+001	3.717038e+001	-1.408920e+001	-9.606813e+001
4585788.562	-1.263738e+001	1.574131e+002	-1.404691e+001	3.148096e+001	-1.401583e+001	3.230689e+001	-1.406550e+001	-9.843288e+001
4610225.303	-1.271640e+001	1.553392e+002	-1.401741e+001	2.673203e+001	-1.398700e+001	2.759692e+001	-1.401859e+001	-1.009545e+002
4634662.045	-1.279998e+001	1.530183e+002	-1.400233e+001	2.218398e+001	-1.396711e+001	2.298879e+001	-1.396501e+001	-1.036653e+002
4659098.787	-1.290573e+001	1.505124e+002	-1.398538e+001	1.776997e+001	-1.395215e+001	1.860296e+001	-1.390341e+001	-1.066556e+002
4683535.529	-1.305062e+001	1.478695e+002	-1.395478e+001	1.352775e+001	-1.391118e+001	1.432842e+001	-1.386847e+001	-1.098919e+002
4707972.270	-1.324067e+001	1.451403e+002	-1.390554e+001	9.445374e+000	-1.385491e+001	1.012118e+001	-1.385652e+001	-1.132932e+002
4732409.012	-1.348279e+001	1.425476e+002	-1.381837e+001	5.250983e+000	-1.376803e+001	5.927307e+000	-1.388102e+001	-1.169080e+002
4756845.754	-1.376293e+001	1.399908e+002	-1.371967e+001	1.064530e+000	-1.366660e+001	1.732541e+000	-1.393429e+001	-1.206397e+002
4781282.496	-1.409074e+001	1.376371e+002	-1.359369e+001	-3.204910e+000	-1.354231e+001	-2.564756e+000	-1.402730e+001	-1.244275e+002
4805719.237	-1.444507e+001	1.355308e+002	-1.346051e+001	-7.632405e+000	-1.340540e+001	-7.029581e+000	-1.415760e+001	-1.281961e+002
4830155.979	-1.482045e+001	1.337314e+002	-1.331841e+001	-1.222999e+001	-1.326731e+001	-1.167466e+001	-1.431964e+001	-1.318660e+002
4854592.721	-1.520110e+001	1.321720e+002	-1.318222e+001	-1.698853e+001	-1.313403e+001	-1.645929e+001	-1.450188e+001	-1.354890e+002
4879029.463	-1.559154e+001	1.307968e+002	-1.305604e+001	-2.182427e+001	-1.300310e+001	-2.132100e+001	-1.471594e+001	-1.390919e+002
4903466.205	-1.597829e+001	1.296045e+002	-1.294514e+001	-2.678819e+001	-1.289237e+001	-2.631422e+001	-1.493769e+001	-1.425843e+002
4927902.946	-1.637494e+001	1.285460e+002	-1.284530e+001	-3.179389e+001	-1.279654e+001	-3.136216e+001	-1.517133e+001	-1.460307e+002
4952339.688	-1.677193e+001	1.276407e+002	-1.276067e+001	-3.690358e+001	-1.271742e+001	-3.643092e+001	-1.541402e+001	-1.495054e+002
4976776.430	-1.718904e+001	1.268957e+002	-1.268786e+001	-4.199133e+001	-1.264201e+001	-4.155956e+001	-1.568404e+001	-1.529015e+002
5001213.172	-1.762368e+001	1.262960e+002	-1.262914e+001	-4.708991e+001	-1.258643e+001	-4.666061e+001	-1.595573e+001	-1.563331e+002
5025649.913	-1.807850e+001	1.258822e+002	-1.257909e+001	-5.219782e+001	-1.254003e+001	-5.178878e+001	-1.624877e+001	-1.597439e+002
5050086.655	-1.856292e+001	1.257589e+002	-1.253940e+001	-5.728094e+001	-1.250206e+001	-5.689670e+001	-1.656006e+001	-1.631850e+002
5074523.397	-1.906499e+001	1.259351e+002	-1.251266e+001	-6.238520e+001	-1.247865e+001	-6.202700e+001	-1.688079e+001	-1.665805e+002
5098960.139	-1.958599e+001	1.265097e+002	-1.249509e+001	-6.749072e+001	-1.246308e+001	-6.712198e+001	-1.722506e+001	-1.700093e+002
5123396.880	-2.012368e+001	1.275325e+002	-1.248798e+001	-7.257981e+001	-1.245897e+001	-7.220690e+001	-1.758072e+001	-1.734477e+002
5147833.622	-2.068277e+001	1.291327e+002	-1.249411e+001	-7.761647e+001	-1.246558e+001	-7.725054e+001	-1.794915e+001	-1.769324e+002
5172270.364	-2.124457e+001	1.315086e+002	-1.250218e+001	-8.259037e+001	-1.247745e+001	-8.222545e+001	-1.834270e+001	1.794599e+002
5196707.106	-2.176825e+001	1.347378e+002	-1.251856e+001	-8.754051e+001	-1.249999e+001	-8.717715e+001	-1.875670e+001	1.758051e+002
5221143.847	-2.221369e+001	1.389313e+002	-1.253708e+001	-9.240115e+001	-1.251938e+001	-9.208302e+001	-1.920602e+001	1.720977e+002
5245580.589	-2.252309e+001	1.439093e+002	-1.255757e+001	-9.727497e+001	-1.254398e+001	-9.695766e+001	-1.968769e+001	1.683139e+002
5270017.331	-2.265109e+001	1.495069e+002	-1.257912e+001	-1.021138e+002	-1.256973e+001	-1.017891e+002	-2.021153e+001	1.644466e+002
5294454.073	-2.257799e+001	1.551291e+002	-1.260568e+001	-1.069392e+002	-1.259737e+001	-1.066055e+002	-2.077042e+001	1.605864e+002
5318890.815	-2.230315e+001	1.604711e+002	-1.263105e+001	-1.117404e+002	-1.262691e+001	-1.113973e+002	-2.137533e+001	1.566505e+002
5343327.556	-2.186443e+001	1.650943e+002	-1.265951e+001	-1.165405e+002	-1.265733e+001	-1.161695e+002	-2.201961e+001	1.526842e+002
5367764.298	-2.131277e+001	1.688664e+002	-1.269040e+001	-1.213031e+002	-1.269329e+001	-1.209110e+002	-2.270003e+001	1.485956e+002
5392201.040	-2.070511e+001	1.717493e+002	-1.272464e+001	-1.260401e+002	-1.272640e+001	-1.256508e+002	-2.344434e+001	1.444976e+002
5416637.782	-2.006605e+001	1.737465e+002	-1.275955e+001	-1.307633e+002	-1.276274e+001	-1.303514e+002	-2.423410e+001	1.401945e+002
5441074.523	-1.942710e+001	1.749962e+002	-1.279505e+001	-1.354640e+002	-1.280275e+001	-1.350462e+002	-2.506904e+001	1.358100e+002
