!Agilent Technologies,E5061B,MY49101568,A.02.00
!Date: Wed Mar 01 15:48:18 2023
!Data & Calibration Information:
!Freq	S11:SOLT2(OFF)	S21:SOLT2(OFF)	S12:SOLT2(OFF)	S22:SOLT2(OFF)
# Hz S dB R 50
1800000.000	-9.681183e+000	-2.423176e+001	-2.110832e+001	-1.244044e+002	-2.092614e+001	-1.250043e+002	-1.009111e+001	1.062533e+001
1824436.742	-9.801784e+000	-2.890590e+001	-2.065637e+001	-1.286536e+002	-2.048408e+001	-1.293106e+002	-1.023786e+001	6.486308e+000
1848873.484	-9.933296e+000	-3.370829e+001	-2.019518e+001	-1.330582e+002	-2.002760e+001	-1.337759e+002	-1.039436e+001	2.253663e+000
1873310.225	-1.007906e+001	-3.860326e+001	-1.971982e+001	-1.376463e+002	-1.957188e+001	-1.383310e+002	-1.055218e+001	-2.020842e+000
1897746.967	-1.024118e+001	-4.364392e+001	-1.922517e+001	-1.424277e+002	-1.917774e+001	-1.426926e+002	-1.068553e+001	-6.279037e+000
1922183.709	-1.041409e+001	-4.884932e+001	-1.872843e+001	-1.473168e+002	-1.870208e+001	-1.474737e+002	-1.084808e+001	-1.078630e+001
1946620.451	-1.059372e+001	-5.419443e+001	-1.823926e+001	-1.522409e+002	-1.821826e+001	-1.524224e+002	-1.102015e+001	-1.540733e+001
1971057.192	-1.079871e+001	-5.972795e+001	-1.773979e+001	-1.574352e+002	-1.772482e+001	-1.575644e+002	-1.120274e+001	-2.015267e+001
1995493.934	-1.102132e+001	-6.542736e+001	-1.724678e+001	-1.627724e+002	-1.725245e+001	-1.628276e+002	-1.139445e+001	-2.495252e+001
2019930.676	-1.128144e+001	-7.132421e+001	-1.674473e+001	-1.683757e+002	-1.675816e+001	-1.683294e+002	-1.160353e+001	-2.984423e+001
2044367.418	-1.157832e+001	-7.736470e+001	-1.623547e+001	-1.742241e+002	-1.625948e+001	-1.741319e+002	-1.182332e+001	-3.493248e+001
2068804.159	-1.191785e+001	-8.355149e+001	-1.575006e+001	1.796379e+002	-1.577991e+001	1.798534e+002	-1.206189e+001	-3.999529e+001
2093240.901	-1.228754e+001	-8.985170e+001	-1.528232e+001	1.734565e+002	-1.531671e+001	1.736556e+002	-1.231513e+001	-4.505674e+001
2117677.643	-1.269539e+001	-9.633765e+001	-1.484286e+001	1.670842e+002	-1.487682e+001	1.673365e+002	-1.257372e+001	-5.017841e+001
2142114.385	-1.314241e+001	-1.030264e+002	-1.441398e+001	1.606082e+002	-1.445065e+001	1.608973e+002	-1.283133e+001	-5.535346e+001
2166551.127	-1.364492e+001	-1.099055e+002	-1.400149e+001	1.539832e+002	-1.403703e+001	1.543248e+002	-1.310264e+001	-6.060006e+001
2190987.868	-1.421487e+001	-1.169100e+002	-1.360738e+001	1.471236e+002	-1.364352e+001	1.475160e+002	-1.338732e+001	-6.581666e+001
2215424.610	-1.484267e+001	-1.239710e+002	-1.324846e+001	1.400588e+002	-1.328833e+001	1.406104e+002	-1.366786e+001	-7.098927e+001
2239861.352	-1.552649e+001	-1.311132e+002	-1.292768e+001	1.329648e+002	-1.296294e+001	1.335622e+002	-1.394071e+001	-7.607016e+001
2264298.094	-1.624236e+001	-1.383259e+002	-1.263909e+001	1.258217e+002	-1.266856e+001	1.264650e+002	-1.419587e+001	-8.112540e+001
2288734.835	-1.700065e+001	-1.457964e+002	-1.237611e+001	1.186669e+002	-1.240202e+001	1.193505e+002	-1.442681e+001	-8.617835e+001
2313171.577	-1.780852e+001	-1.534661e+002	-1.213401e+001	1.115083e+002	-1.215351e+001	1.121949e+002	-1.463987e+001	-9.127142e+001
2337608.319	-1.864421e+001	-1.612989e+002	-1.192416e+001	1.043218e+002	-1.193566e+001	1.049626e+002	-1.481699e+001	-9.638687e+001
2362045.061	-1.944981e+001	-1.695011e+002	-1.173937e+001	9.727360e+001	-1.175180e+001	9.782643e+001	-1.494248e+001	-1.015759e+002
2386481.802	-2.027075e+001	-1.778134e+002	-1.158708e+001	9.013193e+001	-1.159354e+001	9.071355e+001	-1.502164e+001	-1.068745e+002
2410918.544	-2.102154e+001	1.733732e+002	-1.145624e+001	8.305638e+001	-1.145385e+001	8.368726e+001	-1.504614e+001	-1.124228e+002
2435355.286	-2.172193e+001	1.639153e+002	-1.133760e+001	7.601302e+001	-1.132629e+001	7.666934e+001	-1.504604e+001	-1.182626e+002
2459792.028	-2.231797e+001	1.540248e+002	-1.123714e+001	6.897911e+001	-1.121939e+001	6.959674e+001	-1.501926e+001	-1.242549e+002
2484228.769	-2.289674e+001	1.439704e+002	-1.115088e+001	6.174164e+001	-1.113349e+001	6.251903e+001	-1.497281e+001	-1.304624e+002
2508665.511	-2.318842e+001	1.332496e+002	-1.109095e+001	5.476798e+001	-1.106914e+001	5.551641e+001	-1.488951e+001	-1.369018e+002
2533102.253	-2.335615e+001	1.224161e+002	-1.104384e+001	4.775339e+001	-1.102370e+001	4.856206e+001	-1.477995e+001	-1.435822e+002
2557538.995	-2.324729e+001	1.116024e+002	-1.102015e+001	4.085658e+001	-1.099915e+001	4.167079e+001	-1.466234e+001	-1.504985e+002
2581975.737	-2.297255e+001	1.011036e+002	-1.101572e+001	3.397647e+001	-1.099161e+001	3.480671e+001	-1.453491e+001	-1.575630e+002
2606412.478	-2.255702e+001	9.108798e+001	-1.102990e+001	2.714693e+001	-1.100485e+001	2.798029e+001	-1.440453e+001	-1.647338e+002
2630849.220	-2.204951e+001	8.161691e+001	-1.106433e+001	2.036038e+001	-1.103779e+001	2.121912e+001	-1.427895e+001	-1.720706e+002
2655285.962	-2.147343e+001	7.270262e+001	-1.111145e+001	1.364245e+001	-1.108877e+001	1.451545e+001	-1.415798e+001	-1.794294e+002
2679722.704	-2.085931e+001	6.430615e+001	-1.118228e+001	7.009886e+000	-1.116281e+001	7.882317e+000	-1.404483e+001	1.731669e+002
2704159.445	-2.021285e+001	5.639152e+001	-1.126899e+001	5.199194e-001	-1.125281e+001	1.370143e+000	-1.394074e+001	1.658388e+002
2728596.187	-1.956993e+001	4.887351e+001	-1.137262e+001	-5.829913e+000	-1.135838e+001	-5.017441e+000	-1.384515e+001	1.585238e+002
2753032.929	-1.895356e+001	4.170953e+001	-1.148852e+001	-1.206273e+001	-1.147780e+001	-1.129200e+001	-1.376040e+001	1.512676e+002
2777469.671	-1.837631e+001	3.482807e+001	-1.161337e+001	-1.818880e+001	-1.160951e+001	-1.742710e+001	-1.369178e+001	1.441098e+002
2801906.412	-1.783210e+001	2.825625e+001	-1.174886e+001	-2.417233e+001	-1.175046e+001	-2.342613e+001	-1.363749e+001	1.370704e+002
2826343.154	-1.732658e+001	2.192789e+001	-1.189159e+001	-3.001743e+001	-1.190010e+001	-2.929572e+001	-1.359963e+001	1.301952e+002
2850779.896	-1.686163e+001	1.585110e+001	-1.203945e+001	-3.573805e+001	-1.205589e+001	-3.501792e+001	-1.356897e+001	1.234774e+002
2875216.638	-1.638324e+001	1.008127e+001	-1.220642e+001	-4.112672e+001	-1.221710e+001	-4.056146e+001	-1.354812e+001	1.169310e+002
2899653.380	-1.598381e+001	4.470155e+000	-1.236557e+001	-4.651734e+001	-1.237973e+001	-4.602112e+001	-1.354943e+001	1.105751e+002
2924090.121	-1.561567e+001	-9.767455e-001	-1.252245e+001	-5.177035e+001	-1.254156e+001	-5.135064e+001	-1.356440e+001	1.044131e+002
2948526.863	-1.528082e+001	-6.227021e+000	-1.268003e+001	-5.691222e+001	-1.269980e+001	-5.655018e+001	-1.358732e+001	9.842327e+001
2972963.605	-1.497088e+001	-1.131535e+001	-1.283143e+001	-6.191605e+001	-1.285425e+001	-6.164972e+001	-1.362337e+001	9.258348e+001
2997400.347	-1.468873e+001	-1.625819e+001	-1.297956e+001	-6.682781e+001	-1.300103e+001	-6.663420e+001	-1.367068e+001	8.693358e+001
3021837.088	-1.443064e+001	-2.106355e+001	-1.312024e+001	-7.162874e+001	-1.314377e+001	-7.152266e+001	-1.372599e+001	8.143587e+001
3046273.830	-1.419562e+001	-2.574517e+001	-1.325473e+001	-7.634332e+001	-1.327661e+001	-7.630812e+001	-1.378900e+001	7.610299e+001
3070710.572	-1.397856e+001	-3.031038e+001	-1.337758e+001	-8.095977e+001	-1.339883e+001	-8.098978e+001	-1.385430e+001	7.089204e+001
3095147.314	-1.378259e+001	-3.478637e+001	-1.348612e+001	-8.549625e+001	-1.350960e+001	-8.556076e+001	-1.392357e+001	6.579259e+001
3119584.055	-1.360255e+001	-3.919184e+001	-1.357943e+001	-8.997381e+001	-1.360604e+001	-9.007513e+001	-1.400341e+001	6.078794e+001
3144020.797	-1.343776e+001	-4.348419e+001	-1.366759e+001	-9.433404e+001	-1.367754e+001	-9.463870e+001	-1.411069e+001	5.586888e+001
3168457.539	-1.329934e+001	-4.774296e+001	-1.373420e+001	-9.878417e+001	-1.374638e+001	-9.909970e+001	-1.421723e+001	5.108689e+001
3192894.281	-1.317721e+001	-5.190014e+001	-1.379016e+001	-1.032133e+002	-1.380147e+001	-1.035735e+002	-1.434357e+001	4.641392e+001
3217331.023	-1.307192e+001	-5.599147e+001	-1.383554e+001	-1.076552e+002	-1.384667e+001	-1.080609e+002	-1.448441e+001	4.188218e+001
3241767.764	-1.298297e+001	-5.998893e+001	-1.387413e+001	-1.120990e+002	-1.388382e+001	-1.125800e+002	-1.464391e+001	3.746908e+001
3266204.506	-1.290738e+001	-6.388671e+001	-1.390988e+001	-1.165068e+002	-1.391653e+001	-1.170599e+002	-1.480726e+001	3.322479e+001
3290641.248	-1.283029e+001	-6.772770e+001	-1.393344e+001	-1.207776e+002	-1.394111e+001	-1.214421e+002	-1.496185e+001	2.903374e+001
3315077.990	-1.276284e+001	-7.160915e+001	-1.393015e+001	-1.250093e+002	-1.393451e+001	-1.256861e+002	-1.511038e+001	2.471356e+001
3339514.731	-1.272230e+001	-7.551216e+001	-1.389690e+001	-1.293453e+002	-1.390194e+001	-1.300597e+002	-1.530248e+001	2.038297e+001
3363951.473	-1.270992e+001	-7.939655e+001	-1.384939e+001	-1.338187e+002	-1.385444e+001	-1.345689e+002	-1.553463e+001	1.615456e+001
3388388.215	-1.272261e+001	-8.320337e+001	-1.379224e+001	-1.383805e+002	-1.379938e+001	-1.392138e+002	-1.581331e+001	1.204405e+001
3412824.957	-1.276316e+001	-8.690162e+001	-1.373539e+001	-1.430578e+002	-1.374104e+001	-1.439395e+002	-1.612568e+001	8.105785e+000
3437261.698	-1.282922e+001	-9.052733e+001	-1.366931e+001	-1.478309e+002	-1.368142e+001	-1.487357e+002	-1.646697e+001	4.361661e+000
3461698.440	-1.292935e+001	-9.401281e+001	-1.360667e+001	-1.527401e+002	-1.362243e+001	-1.536540e+002	-1.685868e+001	8.777011e-001
3486135.182	-1.305563e+001	-9.733474e+001	-1.354683e+001	-1.577641e+002	-1.356863e+001	-1.586183e+002	-1.728286e+001	-2.292864e+000
3510571.924	-1.320427e+001	-1.004474e+002	-1.349670e+001	-1.628319e+002	-1.352305e+001	-1.636486e+002	-1.774075e+001	-5.082116e+000
3535008.666	-1.337566e+001	-1.033036e+002	-1.345812e+001	-1.679849e+002	-1.348649e+001	-1.687039e+002	-1.821730e+001	-7.379253e+000
3559445.407	-1.355655e+001	-1.059531e+002	-1.342114e+001	-1.731186e+002	-1.345952e+001	-1.737857e+002	-1.871244e+001	-9.143247e+000
3583882.149	-1.374937e+001	-1.083878e+002	-1.338546e+001	-1.782727e+002	-1.343030e+001	-1.788763e+002	-1.922091e+001	-1.045107e+001
3608318.891	-1.396011e+001	-1.106112e+002	-1.333898e+001	1.765252e+002	-1.338851e+001	1.759872e+002	-1.975958e+001	-1.135097e+001
3632755.633	-1.420782e+001	-1.124722e+002	-1.329126e+001	1.710246e+002	-1.333804e+001	1.711690e+002	-2.022277e+001	-1.228457e+001
3657192.374	-1.445697e+001	-1.139445e+002	-1.325376e+001	1.654876e+002	-1.329382e+001	1.657592e+002	-2.082019e+001	-1.156694e+001
3681629.116	-1.471253e+001	-1.150468e+002	-1.321422e+001	1.598294e+002	-1.325660e+001	1.601387e+002	-2.141151e+001	-9.489881e+000
3706065.858	-1.495676e+001	-1.155990e+002	-1.319187e+001	1.540177e+002	-1.323898e+001	1.543515e+002	-2.188259e+001	-5.855135e+000
3730502.600	-1.515867e+001	-1.155234e+002	-1.320152e+001	1.480526e+002	-1.324672e+001	1.483993e+002	-2.212617e+001	-7.907090e-001
3754939.341	-1.528984e+001	-1.148995e+002	-1.324428e+001	1.419679e+002	-1.328746e+001	1.423302e+002	-2.202489e+001	4.932329e+000
3779376.083	-1.532522e+001	-1.139264e+002	-1.331493e+001	1.358715e+002	-1.336107e+001	1.362284e+002	-2.158146e+001	1.010515e+001
3803812.825	-1.524787e+001	-1.127580e+002	-1.341955e+001	1.297230e+002	-1.346788e+001	1.300911e+002	-2.086308e+001	1.401309e+001
3828249.567	-1.504905e+001	-1.116713e+002	-1.355891e+001	1.236199e+002	-1.361109e+001	1.239734e+002	-2.000863e+001	1.629453e+001
3852686.308	-1.475139e+001	-1.108391e+002	-1.372731e+001	1.175372e+002	-1.378295e+001	1.179418e+002	-1.911686e+001	1.695014e+001
3877123.050	-1.436556e+001	-1.104224e+002	-1.392787e+001	1.114971e+002	-1.398259e+001	1.119523e+002	-1.825201e+001	1.641043e+001
3901559.792	-1.392026e+001	-1.105423e+002	-1.415547e+001	1.055393e+002	-1.420859e+001	1.060260e+002	-1.743479e+001	1.496803e+001
3925996.534	-1.343976e+001	-1.111785e+002	-1.441091e+001	9.963141e+001	-1.446863e+001	1.001567e+002	-1.667051e+001	1.278755e+001
3950433.276	-1.294019e+001	-1.123765e+002	-1.470246e+001	9.381195e+001	-1.475794e+001	9.437724e+001	-1.597030e+001	1.006662e+001
3974870.017	-1.244237e+001	-1.140890e+002	-1.501925e+001	8.813459e+001	-1.507566e+001	8.870715e+001	-1.533004e+001	6.934864e+000
3999306.759	-1.196198e+001	-1.162459e+002	-1.536188e+001	8.262042e+001	-1.543253e+001	8.317136e+001	-1.474654e+001	3.465302e+000
4023743.501	-1.149863e+001	-1.187773e+002	-1.574063e+001	7.721765e+001	-1.580952e+001	7.783380e+001	-1.422941e+001	-2.315730e-001
4048180.243	-1.106284e+001	-1.216446e+002	-1.614674e+001	7.199305e+001	-1.621655e+001	7.265708e+001	-1.376017e+001	-4.087644e+000
4072616.984	-1.065912e+001	-1.248078e+002	-1.658948e+001	6.701050e+001	-1.665754e+001	6.771142e+001	-1.333563e+001	-8.088405e+000
4097053.726	-1.028767e+001	-1.282059e+002	-1.706319e+001	6.226910e+001	-1.712955e+001	6.301531e+001	-1.295415e+001	-1.219451e+001
4121490.468	-9.952002e+000	-1.317768e+002	-1.755834e+001	5.781951e+001	-1.763037e+001	5.857197e+001	-1.261333e+001	-1.636189e+001
4145927.210	-9.647931e+000	-1.355360e+002	-1.809569e+001	5.370657e+001	-1.816894e+001	5.448875e+001	-1.230428e+001	-2.060889e+001
4170363.951	-9.380167e+000	-1.394337e+002	-1.866000e+001	5.007205e+001	-1.874371e+001	5.079249e+001	-1.202889e+001	-2.487109e+001
4194800.693	-9.148260e+000	-1.434859e+002	-1.926104e+001	4.701113e+001	-1.934199e+001	4.780537e+001	-1.179427e+001	-2.925779e+001
4219237.435	-8.958570e+000	-1.476363e+002	-1.986070e+001	4.468272e+001	-1.994143e+001	4.554034e+001	-1.159758e+001	-3.364999e+001
4243674.177	-8.814226e+000	-1.518027e+002	-2.040899e+001	4.310228e+001	-2.049068e+001	4.403986e+001	-1.143996e+001	-3.800289e+001
4268110.919	-8.702885e+000	-1.559185e+002	-2.088783e+001	4.198369e+001	-2.096244e+001	4.307544e+001	-1.131350e+001	-4.224108e+001
4292547.660	-8.618319e+000	-1.600267e+002	-2.130486e+001	4.131180e+001	-2.137904e+001	4.247051e+001	-1.120037e+001	-4.640029e+001
4316984.402	-8.561689e+000	-1.641543e+002	-2.166139e+001	4.122080e+001	-2.171803e+001	4.239254e+001	-1.110794e+001	-5.054518e+001
4341421.144	-8.538911e+000	-1.682720e+002	-2.188861e+001	4.161792e+001	-2.193011e+001	4.278895e+001	-1.103934e+001	-5.464747e+001
4365857.886	-8.550899e+000	-1.722876e+002	-2.193917e+001	4.197657e+001	-2.197902e+001	4.312044e+001	-1.099651e+001	-5.862756e+001
4390294.627	-8.577310e+000	-1.761198e+002	-2.187381e+001	4.157012e+001	-2.192437e+001	4.272746e+001	-1.095922e+001	-6.239106e+001
4414731.369	-8.594339e+000	-1.798533e+002	-2.183996e+001	4.035496e+001	-2.188404e+001	4.169594e+001	-1.090493e+001	-6.604737e+001
4439168.111	-8.587152e+000	1.763459e+002	-2.193791e+001	3.884883e+001	-2.194957e+001	4.051072e+001	-1.081659e+001	-6.973611e+001
4463604.853	-8.576347e+000	1.721390e+002	-2.216640e+001	3.883795e+001	-2.210224e+001	4.039604e+001	-1.070208e+001	-7.368819e+001
4488041.594	-8.615520e+000	1.674874e+002	-2.226041e+001	4.097405e+001	-2.217040e+001	4.210113e+001	-1.059780e+001	-7.809353e+001
4512478.336	-8.748969e+000	1.625312e+002	-2.192515e+001	4.445867e+001	-2.186223e+001	4.514096e+001	-1.055252e+001	-8.292447e+001
4536915.078	-9.010927e+000	1.577146e+002	-2.106224e+001	4.634570e+001	-2.106312e+001	4.696268e+001	-1.060790e+001	-8.786462e+001
4561351.820	-9.353012e+000	1.534844e+002	-2.006060e+001	4.494711e+001	-2.010095e+001	4.588745e+001	-1.074429e+001	-9.247258e+001
4585788.562	-9.701671e+000	1.497944e+002	-1.924110e+001	4.148592e+001	-1.926677e+001	4.273353e+001	-1.090231e+001	-9.666321e+001
4610225.303	-1.003918e+001	1.463035e+002	-1.859575e+001	3.755342e+001	-1.858559e+001	3.881498e+001	-1.105084e+001	-1.006287e+002
4634662.045	-1.038679e+001	1.428907e+002	-1.803231e+001	3.343783e+001	-1.800726e+001	3.461522e+001	-1.119414e+001	-1.045239e+002
4659098.787	-1.074819e+001	1.396027e+002	-1.753030e+001	2.912199e+001	-1.749226e+001	3.024777e+001	-1.133718e+001	-1.084093e+002
4683535.529	-1.112445e+001	1.363324e+002	-1.708342e+001	2.483206e+001	-1.704387e+001	2.589101e+001	-1.147245e+001	-1.123201e+002
4707972.270	-1.151974e+001	1.329505e+002	-1.668297e+001	2.084689e+001	-1.661935e+001	2.183613e+001	-1.160178e+001	-1.164300e+002
4732409.012	-1.200591e+001	1.294204e+002	-1.621832e+001	1.708202e+001	-1.614707e+001	1.799758e+001	-1.176396e+001	-1.209291e+002
4756845.754	-1.262840e+001	1.261800e+002	-1.564660e+001	1.300161e+001	-1.557331e+001	1.390222e+001	-1.201125e+001	-1.257238e+002
4781282.496	-1.336697e+001	1.238405e+002	-1.502626e+001	8.004240e+000	-1.495228e+001	8.830217e+000	-1.237853e+001	-1.303665e+002
4805719.237	-1.412341e+001	1.227491e+002	-1.446296e+001	2.123464e+000	-1.439517e+001	2.927097e+000	-1.281851e+001	-1.345021e+002
4830155.979	-1.482801e+001	1.226535e+002	-1.399211e+001	-4.199975e+000	-1.393277e+001	-3.390589e+000	-1.328568e+001	-1.381390e+002
4854592.721	-1.546084e+001	1.232582e+002	-1.359321e+001	-1.062144e+001	-1.353899e+001	-9.814091e+000	-1.377256e+001	-1.414388e+002
4879029.463	-1.600381e+001	1.244471e+002	-1.325076e+001	-1.710255e+001	-1.319920e+001	-1.628249e+001	-1.427821e+001	-1.444352e+002
4903466.205	-1.644250e+001	1.261220e+002	-1.294718e+001	-2.364893e+001	-1.289472e+001	-2.277558e+001	-1.481076e+001	-1.471162e+002
4927902.946	-1.675058e+001	1.280524e+002	-1.268464e+001	-3.025423e+001	-1.263112e+001	-2.934142e+001	-1.536305e+001	-1.493342e+002
4952339.688	-1.694340e+001	1.298903e+002	-1.245601e+001	-3.688502e+001	-1.238738e+001	-3.583706e+001	-1.593750e+001	-1.512748e+002
4976776.430	-1.702056e+001	1.313890e+002	-1.226975e+001	-4.350593e+001	-1.219882e+001	-4.252888e+001	-1.648911e+001	-1.523567e+002
5001213.172	-1.702063e+001	1.323680e+002	-1.211975e+001	-5.012907e+001	-1.204628e+001	-4.920913e+001	-1.700271e+001	-1.528978e+002
5025649.913	-1.699246e+001	1.327850e+002	-1.200070e+001	-5.668865e+001	-1.192881e+001	-5.583532e+001	-1.745496e+001	-1.529831e+002
5050086.655	-1.695821e+001	1.327124e+002	-1.190811e+001	-6.318774e+001	-1.184209e+001	-6.239020e+001	-1.782953e+001	-1.527592e+002
5074523.397	-1.694366e+001	1.322330e+002	-1.183780e+001	-6.960217e+001	-1.177771e+001	-6.886244e+001	-1.812679e+001	-1.523652e+002
5098960.139	-1.695774e+001	1.314427e+002	-1.178750e+001	-7.596024e+001	-1.173046e+001	-7.525339e+001	-1.835171e+001	-1.518921e+002
5123396.880	-1.700528e+001	1.304756e+002	-1.175167e+001	-8.222658e+001	-1.170112e+001	-8.158385e+001	-1.849608e+001	-1.514355e+002
5147833.622	-1.708683e+001	1.293695e+002	-1.172913e+001	-8.844886e+001	-1.168229e+001	-8.784979e+001	-1.857481e+001	-1.510664e+002
5172270.364	-1.719920e+001	1.281834e+002	-1.171827e+001	-9.463875e+001	-1.167520e+001	-9.407491e+001	-1.858890e+001	-1.508397e+002
5196707.106	-1.734159e+001	1.269437e+002	-1.171816e+001	-1.007908e+002	-1.167887e+001	-1.002681e+002	-1.854047e+001	-1.508576e+002
5221143.847	-1.752112e+001	1.257285e+002	-1.172708e+001	-1.068759e+002	-1.169430e+001	-1.064763e+002	-1.842483e+001	-1.511521e+002
5245580.589	-1.772874e+001	1.244111e+002	-1.175231e+001	-1.130042e+002	-1.171748e+001	-1.126220e+002	-1.828040e+001	-1.518427e+002
5270017.331	-1.797566e+001	1.231428e+002	-1.178500e+001	-1.190983e+002	-1.175341e+001	-1.187294e+002	-1.810707e+001	-1.529782e+002
5294454.073	-1.826421e+001	1.219708e+002	-1.183251e+001	-1.251507e+002	-1.180077e+001	-1.247948e+002	-1.792231e+001	-1.545518e+002
5318890.815	-1.859715e+001	1.209259e+002	-1.188695e+001	-1.311536e+002	-1.185654e+001	-1.308290e+002	-1.773526e+001	-1.564948e+002
5343327.556	-1.895834e+001	1.200511e+002	-1.194386e+001	-1.371374e+002	-1.191628e+001	-1.368333e+002	-1.755258e+001	-1.587451e+002
5367764.298	-1.935055e+001	1.193152e+002	-1.200761e+001	-1.431296e+002	-1.198067e+001	-1.428512e+002	-1.736429e+001	-1.612828e+002
5392201.040	-1.978097e+001	1.187176e+002	-1.207606e+001	-1.491283e+002	-1.205499e+001	-1.488878e+002	-1.717282e+001	-1.641586e+002
5416637.782	-2.026429e+001	1.182976e+002	-1.215348e+001	-1.551474e+002	-1.213831e+001	-1.549401e+002	-1.698501e+001	-1.673430e+002
5441074.523	-2.080410e+001	1.181241e+002	-1.224058e+001	-1.611714e+002	-1.223010e+001	-1.609772e+002	-1.681371e+001	-1.708347e+002
