!Agilent Technologies,E5061B,MY49101568,A.02.00
!Date: Wed Mar 01 15:54:52 2023
!Data & Calibration Information:
!Freq	S11:SOLT2(OFF)	S21:SOLT2(OFF)	S12:SOLT2(OFF)	S22:SOLT2(OFF)
# Hz S dB R 50
1800000.000	-9.680600e+000	-1.786698e+001	-2.392110e+001	-1.449486e+002	-2.392713e+001	-1.449573e+002	-1.009770e+001	1.835605e+001
1824436.742	-9.786642e+000	-2.205234e+001	-2.358551e+001	-1.488799e+002	-2.358038e+001	-1.488976e+002	-1.022907e+001	1.468226e+001
1848873.484	-9.899313e+000	-2.632052e+001	-2.324147e+001	-1.528695e+002	-2.324836e+001	-1.528195e+002	-1.035756e+001	1.096368e+001
1873310.225	-1.001888e+001	-3.063757e+001	-2.288722e+001	-1.568919e+002	-2.290594e+001	-1.569753e+002	-1.048842e+001	7.251215e+000
1897746.967	-1.014055e+001	-3.501060e+001	-2.252688e+001	-1.610601e+002	-2.254359e+001	-1.610722e+002	-1.061487e+001	3.452258e+000
1922183.709	-1.026976e+001	-3.949208e+001	-2.215109e+001	-1.653545e+002	-2.217999e+001	-1.653498e+002	-1.074226e+001	-4.254581e-001
1946620.451	-1.039423e+001	-4.405654e+001	-2.180574e+001	-1.696788e+002	-2.181066e+001	-1.696436e+002	-1.086543e+001	-4.377187e+000
1971057.192	-1.053711e+001	-4.876939e+001	-2.140232e+001	-1.741058e+002	-2.144268e+001	-1.740686e+002	-1.098848e+001	-8.406390e+000
1995493.934	-1.068483e+001	-5.354899e+001	-2.101950e+001	-1.787381e+002	-2.106752e+001	-1.785904e+002	-1.111365e+001	-1.250114e+001
2019930.676	-1.083184e+001	-5.844376e+001	-2.065718e+001	1.766674e+002	-2.068915e+001	1.766964e+002	-1.123588e+001	-1.661850e+001
2044367.418	-1.099468e+001	-6.343867e+001	-2.027236e+001	1.718868e+002	-2.030919e+001	1.719848e+002	-1.135115e+001	-2.089315e+001
2068804.159	-1.116210e+001	-6.861340e+001	-1.988991e+001	1.671732e+002	-1.992479e+001	1.673008e+002	-1.145855e+001	-2.524786e+001
2093240.901	-1.134591e+001	-7.393993e+001	-1.947875e+001	1.623510e+002	-1.951936e+001	1.624417e+002	-1.157081e+001	-2.971224e+001
2117677.643	-1.155341e+001	-7.942263e+001	-1.906429e+001	1.572548e+002	-1.910434e+001	1.574636e+002	-1.168410e+001	-3.427404e+001
2142114.385	-1.178167e+001	-8.501197e+001	-1.864722e+001	1.519350e+002	-1.869135e+001	1.522511e+002	-1.179312e+001	-3.892892e+001
2166551.127	-1.202452e+001	-9.077581e+001	-1.824113e+001	1.464793e+002	-1.828737e+001	1.467629e+002	-1.190358e+001	-4.362461e+001
2190987.868	-1.228495e+001	-9.668323e+001	-1.784153e+001	1.408502e+002	-1.789386e+001	1.411116e+002	-1.200817e+001	-4.840230e+001
2215424.610	-1.256432e+001	-1.026957e+002	-1.746536e+001	1.349268e+002	-1.751439e+001	1.353723e+002	-1.210324e+001	-5.329680e+001
2239861.352	-1.285107e+001	-1.088879e+002	-1.710979e+001	1.290220e+002	-1.715383e+001	1.294849e+002	-1.218724e+001	-5.829205e+001
2264298.094	-1.315614e+001	-1.153794e+002	-1.676764e+001	1.230519e+002	-1.680709e+001	1.235116e+002	-1.225772e+001	-6.340124e+001
2288734.835	-1.348623e+001	-1.221042e+002	-1.642567e+001	1.169492e+002	-1.646891e+001	1.175071e+002	-1.231929e+001	-6.867233e+001
2313171.577	-1.383666e+001	-1.290183e+002	-1.610254e+001	1.107251e+002	-1.614590e+001	1.112764e+002	-1.237459e+001	-7.402622e+001
2337608.319	-1.420971e+001	-1.361076e+002	-1.579829e+001	1.042615e+002	-1.583045e+001	1.048773e+002	-1.242399e+001	-7.951508e+001
2362045.061	-1.459078e+001	-1.434765e+002	-1.551344e+001	9.775631e+001	-1.554391e+001	9.833873e+001	-1.246072e+001	-8.506832e+001
2386481.802	-1.497866e+001	-1.510851e+002	-1.525490e+001	9.110170e+001	-1.526650e+001	9.164639e+001	-1.249080e+001	-9.078314e+001
2410918.544	-1.534856e+001	-1.588501e+002	-1.504431e+001	8.429433e+001	-1.505709e+001	8.495165e+001	-1.247881e+001	-9.656447e+001
2435355.286	-1.568960e+001	-1.670713e+002	-1.486210e+001	7.755997e+001	-1.486235e+001	7.822612e+001	-1.245550e+001	-1.025347e+002
2459792.028	-1.600087e+001	-1.757776e+002	-1.470799e+001	7.093020e+001	-1.469927e+001	7.157966e+001	-1.240401e+001	-1.087255e+002
2484228.769	-1.629659e+001	1.748390e+002	-1.455331e+001	6.437732e+001	-1.454586e+001	6.502674e+001	-1.233974e+001	-1.152194e+002
2508665.511	-1.658960e+001	1.650643e+002	-1.439756e+001	5.774132e+001	-1.436913e+001	5.844437e+001	-1.229004e+001	-1.220025e+002
2533102.253	-1.687975e+001	1.551293e+002	-1.424939e+001	5.091694e+001	-1.422407e+001	5.154301e+001	-1.225189e+001	-1.287720e+002
2557538.995	-1.709776e+001	1.451181e+002	-1.414946e+001	4.394632e+001	-1.411166e+001	4.456309e+001	-1.221329e+001	-1.356221e+002
2581975.737	-1.724556e+001	1.350212e+002	-1.408484e+001	3.698027e+001	-1.404097e+001	3.751735e+001	-1.217093e+001	-1.425063e+002
2606412.478	-1.730193e+001	1.248991e+002	-1.406213e+001	3.005318e+001	-1.400911e+001	3.054441e+001	-1.211902e+001	-1.494679e+002
2630849.220	-1.727838e+001	1.147774e+002	-1.406937e+001	2.321873e+001	-1.401561e+001	2.365883e+001	-1.206036e+001	-1.565159e+002
2655285.962	-1.719493e+001	1.048181e+002	-1.409815e+001	1.641863e+001	-1.403695e+001	1.680552e+001	-1.201366e+001	-1.636165e+002
2679722.704	-1.704868e+001	9.513209e+001	-1.416467e+001	9.651998e+000	-1.410078e+001	1.002993e+001	-1.196836e+001	-1.706868e+002
2704159.445	-1.683306e+001	8.592537e+001	-1.427398e+001	2.991505e+000	-1.419059e+001	3.303809e+000	-1.192888e+001	-1.776848e+002
2728596.187	-1.657349e+001	7.682502e+001	-1.439602e+001	-3.384679e+000	-1.432542e+001	-3.212690e+000	-1.187640e+001	1.753592e+002
2753032.929	-1.628639e+001	6.813744e+001	-1.454178e+001	-9.613887e+000	-1.447270e+001	-9.428422e+000	-1.182505e+001	1.683825e+002
2777469.671	-1.598916e+001	5.969187e+001	-1.468492e+001	-1.564393e+001	-1.461474e+001	-1.548971e+001	-1.178587e+001	1.613720e+002
2801906.412	-1.570062e+001	5.164965e+001	-1.483511e+001	-2.158761e+001	-1.475925e+001	-2.150547e+001	-1.177767e+001	1.544592e+002
2826343.154	-1.542369e+001	4.405287e+001	-1.499622e+001	-2.750409e+001	-1.492681e+001	-2.745124e+001	-1.178118e+001	1.477446e+002
2850779.896	-1.515900e+001	3.685583e+001	-1.517193e+001	-3.331449e+001	-1.510614e+001	-3.333058e+001	-1.179714e+001	1.412548e+002
2875216.638	-1.489241e+001	3.004701e+001	-1.536610e+001	-3.896086e+001	-1.530537e+001	-3.904178e+001	-1.181950e+001	1.349194e+002
2899653.380	-1.463539e+001	2.360409e+001	-1.557346e+001	-4.448328e+001	-1.551326e+001	-4.456499e+001	-1.184284e+001	1.287945e+002
2924090.121	-1.438236e+001	1.746970e+001	-1.579010e+001	-4.980818e+001	-1.573930e+001	-4.991270e+001	-1.186307e+001	1.228576e+002
2948526.863	-1.413837e+001	1.160314e+001	-1.601236e+001	-5.493292e+001	-1.597198e+001	-5.508670e+001	-1.188471e+001	1.170954e+002
2972963.605	-1.390238e+001	5.962120e+000	-1.623670e+001	-5.992222e+001	-1.619778e+001	-6.007235e+001	-1.190895e+001	1.114772e+002
2997400.347	-1.367774e+001	5.475973e-001	-1.645546e+001	-6.469121e+001	-1.642773e+001	-6.486034e+001	-1.193129e+001	1.060080e+002
3021837.088	-1.346382e+001	-4.683428e+000	-1.666978e+001	-6.935032e+001	-1.665065e+001	-6.952465e+001	-1.195710e+001	1.006750e+002
3046273.830	-1.326009e+001	-9.748095e+000	-1.687105e+001	-7.382440e+001	-1.686360e+001	-7.403910e+001	-1.198693e+001	9.547469e+001
3070710.572	-1.306595e+001	-1.462699e+001	-1.706814e+001	-7.819310e+001	-1.706428e+001	-7.844170e+001	-1.201860e+001	9.041959e+001
3095147.314	-1.288665e+001	-1.936362e+001	-1.724826e+001	-8.248041e+001	-1.725524e+001	-8.268397e+001	-1.205335e+001	8.549674e+001
3119584.055	-1.271166e+001	-2.395038e+001	-1.742517e+001	-8.663683e+001	-1.743614e+001	-8.684510e+001	-1.208590e+001	8.071414e+001
3144020.797	-1.254836e+001	-2.840396e+001	-1.758755e+001	-9.070580e+001	-1.760214e+001	-9.094235e+001	-1.212515e+001	7.606507e+001
3168457.539	-1.239716e+001	-3.273554e+001	-1.774254e+001	-9.474279e+001	-1.776140e+001	-9.497901e+001	-1.216786e+001	7.153293e+001
3192894.281	-1.225237e+001	-3.694302e+001	-1.788408e+001	-9.871765e+001	-1.791466e+001	-9.895885e+001	-1.220918e+001	6.712746e+001
3217331.023	-1.211616e+001	-4.103420e+001	-1.801983e+001	-1.026761e+002	-1.805582e+001	-1.028998e+002	-1.225314e+001	6.286413e+001
3241767.764	-1.198558e+001	-4.502072e+001	-1.815438e+001	-1.065661e+002	-1.819644e+001	-1.067690e+002	-1.229605e+001	5.870248e+001
3266204.506	-1.185924e+001	-4.890532e+001	-1.828231e+001	-1.103692e+002	-1.832847e+001	-1.105413e+002	-1.233443e+001	5.466524e+001
3290641.248	-1.173577e+001	-5.271586e+001	-1.840036e+001	-1.140645e+002	-1.845389e+001	-1.142163e+002	-1.236902e+001	5.071952e+001
3315077.990	-1.161623e+001	-5.647274e+001	-1.850073e+001	-1.176784e+002	-1.855894e+001	-1.178133e+002	-1.240090e+001	4.681502e+001
3339514.731	-1.150471e+001	-6.016760e+001	-1.858476e+001	-1.212959e+002	-1.864594e+001	-1.213739e+002	-1.243911e+001	4.297856e+001
3363951.473	-1.140204e+001	-6.379632e+001	-1.865397e+001	-1.248898e+002	-1.872423e+001	-1.249693e+002	-1.247752e+001	3.923928e+001
3388388.215	-1.130484e+001	-6.737763e+001	-1.871893e+001	-1.284892e+002	-1.879066e+001	-1.285556e+002	-1.251872e+001	3.559686e+001
3412824.957	-1.121253e+001	-7.087463e+001	-1.877568e+001	-1.320676e+002	-1.884957e+001	-1.320881e+002	-1.255925e+001	3.204815e+001
3437261.698	-1.112748e+001	-7.432878e+001	-1.882228e+001	-1.356261e+002	-1.889981e+001	-1.356394e+002	-1.260107e+001	2.855761e+001
3461698.440	-1.104728e+001	-7.771323e+001	-1.885987e+001	-1.391924e+002	-1.894180e+001	-1.391638e+002	-1.264399e+001	2.517177e+001
3486135.182	-1.097188e+001	-8.103983e+001	-1.889148e+001	-1.427428e+002	-1.897414e+001	-1.426752e+002	-1.268492e+001	2.184636e+001
3510571.924	-1.090258e+001	-8.431664e+001	-1.891416e+001	-1.462713e+002	-1.899938e+001	-1.461791e+002	-1.272504e+001	1.863870e+001
3535008.666	-1.083537e+001	-8.752954e+001	-1.893250e+001	-1.497963e+002	-1.901653e+001	-1.496649e+002	-1.276120e+001	1.547648e+001
3559445.407	-1.077184e+001	-9.068781e+001	-1.893448e+001	-1.532959e+002	-1.902307e+001	-1.530955e+002	-1.279193e+001	1.240652e+001
3583882.149	-1.071003e+001	-9.379179e+001	-1.893085e+001	-1.567830e+002	-1.902244e+001	-1.565517e+002	-1.282120e+001	9.397377e+000
3608318.891	-1.064843e+001	-9.685706e+001	-1.891231e+001	-1.602500e+002	-1.900110e+001	-1.599918e+002	-1.284319e+001	6.424730e+000
3632755.633	-1.058923e+001	-9.990695e+001	-1.887674e+001	-1.637875e+002	-1.897325e+001	-1.634587e+002	-1.286351e+001	3.482812e+000
3657192.374	-1.053038e+001	-1.029134e+002	-1.883499e+001	-1.672968e+002	-1.892316e+001	-1.669637e+002	-1.288036e+001	5.584796e-001
3681629.116	-1.047625e+001	-1.059179e+002	-1.877267e+001	-1.709169e+002	-1.886344e+001	-1.705193e+002	-1.289702e+001	-2.335851e+000
3706065.858	-1.042534e+001	-1.088965e+002	-1.870248e+001	-1.746157e+002	-1.879535e+001	-1.741942e+002	-1.291822e+001	-5.186177e+000
3730502.600	-1.038254e+001	-1.118373e+002	-1.863272e+001	-1.784571e+002	-1.872036e+001	-1.779770e+002	-1.294067e+001	-7.978813e+000
3754939.341	-1.034493e+001	-1.147567e+002	-1.855816e+001	1.776095e+002	-1.865096e+001	1.781013e+002	-1.296417e+001	-1.071545e+001
3779376.083	-1.030978e+001	-1.176123e+002	-1.850168e+001	1.735772e+002	-1.858997e+001	1.741097e+002	-1.298592e+001	-1.336492e+001
3803812.825	-1.027793e+001	-1.204080e+002	-1.845458e+001	1.694840e+002	-1.854601e+001	1.700378e+002	-1.300483e+001	-1.593186e+001
3828249.567	-1.024499e+001	-1.231598e+002	-1.842313e+001	1.653630e+002	-1.851337e+001	1.659949e+002	-1.301204e+001	-1.844281e+001
3852686.308	-1.021192e+001	-1.258663e+002	-1.840509e+001	1.612727e+002	-1.849278e+001	1.619174e+002	-1.301590e+001	-2.090007e+001
3877123.050	-1.017685e+001	-1.285223e+002	-1.840046e+001	1.571307e+002	-1.848643e+001	1.578267e+002	-1.300945e+001	-2.327080e+001
3901559.792	-1.013512e+001	-1.311203e+002	-1.842198e+001	1.530712e+002	-1.850097e+001	1.537667e+002	-1.299103e+001	-2.561126e+001
3925996.534	-1.008193e+001	-1.336899e+002	-1.846790e+001	1.491404e+002	-1.854744e+001	1.498881e+002	-1.294733e+001	-2.789694e+001
3950433.276	-1.001737e+001	-1.363057e+002	-1.852054e+001	1.454345e+002	-1.859621e+001	1.462006e+002	-1.288566e+001	-3.025964e+001
3974870.017	-9.944034e+000	-1.389986e+002	-1.856677e+001	1.419745e+002	-1.864755e+001	1.427436e+002	-1.281077e+001	-3.266387e+001
3999306.759	-9.864654e+000	-1.417474e+002	-1.861094e+001	1.387269e+002	-1.868899e+001	1.395751e+002	-1.271937e+001	-3.520179e+001
4023743.501	-9.780312e+000	-1.446437e+002	-1.862671e+001	1.358002e+002	-1.869961e+001	1.366595e+002	-1.262226e+001	-3.789172e+001
4048180.243	-9.704916e+000	-1.476771e+002	-1.859764e+001	1.330148e+002	-1.866803e+001	1.339061e+002	-1.252766e+001	-4.071691e+001
4072616.984	-9.645333e+000	-1.508291e+002	-1.851641e+001	1.302730e+002	-1.858330e+001	1.312266e+002	-1.244407e+001	-4.369940e+001
4097053.726	-9.603257e+000	-1.540657e+002	-1.838504e+001	1.274916e+002	-1.843997e+001	1.284698e+002	-1.237791e+001	-4.678712e+001
4121490.468	-9.585699e+000	-1.573761e+002	-1.820666e+001	1.245383e+002	-1.826506e+001	1.255064e+002	-1.233075e+001	-4.989440e+001
4145927.210	-9.589685e+000	-1.606705e+002	-1.800933e+001	1.213110e+002	-1.805910e+001	1.223468e+002	-1.230033e+001	-5.302542e+001
4170363.951	-9.614146e+000	-1.639625e+002	-1.779293e+001	1.179986e+002	-1.784039e+001	1.189743e+002	-1.228461e+001	-5.611753e+001
4194800.693	-9.654518e+000	-1.672303e+002	-1.757488e+001	1.144119e+002	-1.761662e+001	1.154237e+002	-1.227738e+001	-5.923113e+001
4219237.435	-9.713106e+000	-1.705070e+002	-1.734766e+001	1.107227e+002	-1.738057e+001	1.117200e+002	-1.228500e+001	-6.233397e+001
4243674.177	-9.791263e+000	-1.737429e+002	-1.711614e+001	1.068318e+002	-1.714451e+001	1.078488e+002	-1.230143e+001	-6.539736e+001
4268110.919	-9.889684e+000	-1.769164e+002	-1.688344e+001	1.027450e+002	-1.690184e+001	1.037451e+002	-1.233529e+001	-6.843738e+001
4292547.660	-1.000452e+001	1.799551e+002	-1.665608e+001	9.851003e+001	-1.666400e+001	9.953608e+001	-1.237522e+001	-7.144745e+001
4316984.402	-1.013516e+001	1.769091e+002	-1.643716e+001	9.412581e+001	-1.644330e+001	9.515276e+001	-1.242111e+001	-7.436332e+001
4341421.144	-1.027827e+001	1.739514e+002	-1.623201e+001	8.964322e+001	-1.623410e+001	9.066029e+001	-1.246951e+001	-7.723254e+001
4365857.886	-1.043331e+001	1.710803e+002	-1.603830e+001	8.504127e+001	-1.603096e+001	8.604816e+001	-1.252390e+001	-8.004661e+001
4390294.627	-1.059576e+001	1.682883e+002	-1.585841e+001	8.039711e+001	-1.584751e+001	8.138176e+001	-1.257701e+001	-8.280622e+001
4414731.369	-1.076368e+001	1.655908e+002	-1.569661e+001	7.566564e+001	-1.567408e+001	7.662618e+001	-1.262925e+001	-8.551588e+001
4439168.111	-1.093680e+001	1.629411e+002	-1.554434e+001	7.088708e+001	-1.552099e+001	7.181677e+001	-1.267801e+001	-8.819508e+001
4463604.853	-1.111755e+001	1.604186e+002	-1.540406e+001	6.605012e+001	-1.537650e+001	6.701514e+001	-1.272037e+001	-9.085884e+001
4488041.594	-1.129659e+001	1.579099e+002	-1.527629e+001	6.124946e+001	-1.524427e+001	6.218761e+001	-1.276089e+001	-9.352091e+001
4512478.336	-1.147847e+001	1.554719e+002	-1.516263e+001	5.640741e+001	-1.512734e+001	5.735755e+001	-1.279042e+001	-9.617470e+001
4536915.078	-1.166098e+001	1.530569e+002	-1.505955e+001	5.158878e+001	-1.501348e+001	5.252689e+001	-1.282060e+001	-9.887203e+001
4561351.820	-1.184783e+001	1.506951e+002	-1.496326e+001	4.672301e+001	-1.491788e+001	4.762866e+001	-1.284586e+001	-1.015369e+002
4585788.562	-1.203421e+001	1.483557e+002	-1.487857e+001	4.185952e+001	-1.483113e+001	4.270692e+001	-1.286706e+001	-1.042047e+002
4610225.303	-1.220997e+001	1.460018e+002	-1.482020e+001	3.701801e+001	-1.476815e+001	3.784351e+001	-1.287285e+001	-1.069020e+002
4634662.045	-1.238418e+001	1.435405e+002	-1.477417e+001	3.229152e+001	-1.471948e+001	3.308334e+001	-1.286489e+001	-1.097297e+002
4659098.787	-1.256201e+001	1.409232e+002	-1.474148e+001	2.772716e+001	-1.468512e+001	2.851131e+001	-1.284037e+001	-1.127025e+002
4683535.529	-1.276636e+001	1.381727e+002	-1.469833e+001	2.328155e+001	-1.463819e+001	2.402502e+001	-1.282240e+001	-1.158686e+002
4707972.270	-1.300625e+001	1.353122e+002	-1.463847e+001	1.899342e+001	-1.457558e+001	1.964635e+001	-1.281291e+001	-1.192259e+002
4732409.012	-1.328941e+001	1.324464e+002	-1.455682e+001	1.462725e+001	-1.449420e+001	1.534587e+001	-1.282127e+001	-1.228253e+002
4756845.754	-1.361062e+001	1.295092e+002	-1.446752e+001	1.033756e+001	-1.439764e+001	1.096300e+001	-1.285451e+001	-1.264870e+002
4781282.496	-1.398761e+001	1.267009e+002	-1.434919e+001	5.932694e+000	-1.428338e+001	6.504094e+000	-1.291401e+001	-1.302709e+002
4805719.237	-1.440504e+001	1.240170e+002	-1.422522e+001	1.450994e+000	-1.415582e+001	1.968515e+000	-1.300373e+001	-1.341431e+002
4830155.979	-1.486563e+001	1.215271e+002	-1.409409e+001	-3.175231e+000	-1.402901e+001	-2.712048e+000	-1.311527e+001	-1.380200e+002
4854592.721	-1.535907e+001	1.192474e+002	-1.396505e+001	-7.936181e+000	-1.390370e+001	-7.520826e+000	-1.325149e+001	-1.419063e+002
4879029.463	-1.588192e+001	1.171884e+002	-1.384640e+001	-1.281692e+001	-1.378178e+001	-1.239338e+001	-1.340800e+001	-1.458333e+002
4903466.205	-1.643845e+001	1.153255e+002	-1.373598e+001	-1.777053e+001	-1.367620e+001	-1.739850e+001	-1.358376e+001	-1.497086e+002
4927902.946	-1.702354e+001	1.136622e+002	-1.364188e+001	-2.279419e+001	-1.358503e+001	-2.244953e+001	-1.376985e+001	-1.536038e+002
4952339.688	-1.764261e+001	1.122132e+002	-1.355892e+001	-2.790073e+001	-1.350607e+001	-2.755525e+001	-1.397298e+001	-1.575174e+002
4976776.430	-1.830274e+001	1.109977e+002	-1.349074e+001	-3.299819e+001	-1.343939e+001	-3.266262e+001	-1.418576e+001	-1.614504e+002
5001213.172	-1.901629e+001	1.100349e+002	-1.343220e+001	-3.809527e+001	-1.338435e+001	-3.778746e+001	-1.441765e+001	-1.654207e+002
5025649.913	-1.979030e+001	1.094120e+002	-1.338648e+001	-4.322643e+001	-1.334383e+001	-4.292873e+001	-1.466028e+001	-1.694181e+002
5050086.655	-2.062868e+001	1.092061e+002	-1.335112e+001	-4.832917e+001	-1.331072e+001	-4.804061e+001	-1.491927e+001	-1.734745e+002
5074523.397	-2.154715e+001	1.096801e+002	-1.332308e+001	-5.346002e+001	-1.328991e+001	-5.318499e+001	-1.519532e+001	-1.775429e+002
5098960.139	-2.254768e+001	1.108382e+002	-1.331243e+001	-5.855886e+001	-1.328169e+001	-5.827963e+001	-1.548113e+001	1.783108e+002
5123396.880	-2.364068e+001	1.131337e+002	-1.330866e+001	-6.364039e+001	-1.328353e+001	-6.336814e+001	-1.578090e+001	1.741348e+002
5147833.622	-2.480873e+001	1.169140e+002	-1.331865e+001	-6.868358e+001	-1.329409e+001	-6.843082e+001	-1.609540e+001	1.699046e+002
5172270.364	-2.602361e+001	1.229151e+002	-1.333626e+001	-7.367396e+001	-1.331666e+001	-7.341760e+001	-1.641704e+001	1.655306e+002
5196707.106	-2.713442e+001	1.319267e+002	-1.335787e+001	-7.862756e+001	-1.334565e+001	-7.837724e+001	-1.674916e+001	1.610763e+002
5221143.847	-2.788203e+001	1.441523e+002	-1.338418e+001	-8.348526e+001	-1.337724e+001	-8.328565e+001	-1.710777e+001	1.564905e+002
5245580.589	-2.797211e+001	1.580951e+002	-1.341690e+001	-8.836642e+001	-1.341251e+001	-8.813058e+001	-1.747762e+001	1.517448e+002
5270017.331	-2.730771e+001	1.711529e+002	-1.344734e+001	-9.319926e+001	-1.344821e+001	-9.296292e+001	-1.787393e+001	1.468820e+002
5294454.073	-2.618295e+001	-1.787603e+002	-1.348617e+001	-9.799674e+001	-1.349072e+001	-9.775310e+001	-1.827638e+001	1.418824e+002
5318890.815	-2.486575e+001	-1.719754e+002	-1.352660e+001	-1.027865e+002	-1.353408e+001	-1.025035e+002	-1.870204e+001	1.367138e+002
5343327.556	-2.355860e+001	-1.677830e+002	-1.356832e+001	-1.075208e+002	-1.357986e+001	-1.072333e+002	-1.914025e+001	1.314126e+002
5367764.298	-2.233468e+001	-1.654396e+002	-1.361336e+001	-1.122393e+002	-1.362975e+001	-1.119191e+002	-1.958466e+001	1.259083e+002
5392201.040	-2.122220e+001	-1.644063e+002	-1.366088e+001	-1.169256e+002	-1.367817e+001	-1.165785e+002	-2.004475e+001	1.201951e+002
5416637.782	-2.020957e+001	-1.642646e+002	-1.371090e+001	-1.215683e+002	-1.373033e+001	-1.212067e+002	-2.050579e+001	1.142829e+002
5441074.523	-1.929694e+001	-1.648098e+002	-1.376183e+001	-1.262107e+002	-1.378485e+001	-1.258009e+002	-2.095572e+001	1.081610e+002
