!Agilent Technologies,E5061B,MY49101568,A.02.00
!Date: Wed Mar 01 15:52:31 2023
!Data & Calibration Information:
!Freq	S11:SOLT2(OFF)	S21:SOLT2(OFF)	S12:SOLT2(OFF)	S22:SOLT2(OFF)
# Hz S dB R 50
1800000.000	-9.111352e+000	-1.727361e+001	-2.740072e+001	-1.286394e+002	-2.741267e+001	-1.286887e+002	-9.426829e+000	1.900267e+001
1824436.742	-9.183652e+000	-2.148591e+001	-2.702051e+001	-1.323970e+002	-2.706169e+001	-1.323554e+002	-9.521892e+000	1.534303e+001
1848873.484	-9.257201e+000	-2.576882e+001	-2.663998e+001	-1.361175e+002	-2.668571e+001	-1.361486e+002	-9.617387e+000	1.162616e+001
1873310.225	-9.335728e+000	-3.011810e+001	-2.623439e+001	-1.400746e+002	-2.628005e+001	-1.399387e+002	-9.712669e+000	7.863578e+000
1897746.967	-9.412585e+000	-3.454123e+001	-2.582303e+001	-1.439442e+002	-2.589788e+001	-1.438145e+002	-9.797663e+000	4.053702e+000
1922183.709	-9.487989e+000	-3.907863e+001	-2.541376e+001	-1.478733e+002	-2.549588e+001	-1.477507e+002	-9.881539e+000	1.362848e-001
1946620.451	-9.563794e+000	-4.373085e+001	-2.498119e+001	-1.519484e+002	-2.505949e+001	-1.518013e+002	-9.964374e+000	-3.876022e+000
1971057.192	-9.642067e+000	-4.851365e+001	-2.454835e+001	-1.560745e+002	-2.463821e+001	-1.559386e+002	-1.004330e+001	-7.945665e+000
1995493.934	-9.730143e+000	-5.342165e+001	-2.409267e+001	-1.604668e+002	-2.417451e+001	-1.601965e+002	-1.012361e+001	-1.212975e+001
2019930.676	-9.820045e+000	-5.847032e+001	-2.362782e+001	-1.648970e+002	-2.373150e+001	-1.645231e+002	-1.019593e+001	-1.636639e+001
2044367.418	-9.914398e+000	-6.364973e+001	-2.315421e+001	-1.694512e+002	-2.324818e+001	-1.690780e+002	-1.026384e+001	-2.076089e+001
2068804.159	-1.001491e+001	-6.897397e+001	-2.267979e+001	-1.741528e+002	-2.277660e+001	-1.737408e+002	-1.033293e+001	-2.521498e+001
2093240.901	-1.012295e+001	-7.444730e+001	-2.219574e+001	-1.790296e+002	-2.229875e+001	-1.786033e+002	-1.039639e+001	-2.972520e+001
2117677.643	-1.023963e+001	-8.012191e+001	-2.171003e+001	1.759405e+002	-2.181547e+001	1.763605e+002	-1.045616e+001	-3.436101e+001
2142114.385	-1.036953e+001	-8.598400e+001	-2.122205e+001	1.706946e+002	-2.133157e+001	1.712151e+002	-1.050973e+001	-3.910665e+001
2166551.127	-1.050887e+001	-9.203921e+001	-2.073847e+001	1.653450e+002	-2.084569e+001	1.659018e+002	-1.056049e+001	-4.397536e+001
2190987.868	-1.066141e+001	-9.830330e+001	-2.025687e+001	1.597230e+002	-2.036102e+001	1.603433e+002	-1.060850e+001	-4.895506e+001
2215424.610	-1.083214e+001	-1.047848e+002	-1.977849e+001	1.538730e+002	-1.987199e+001	1.544687e+002	-1.066167e+001	-5.405570e+001
2239861.352	-1.101628e+001	-1.114797e+002	-1.932716e+001	1.479092e+002	-1.940598e+001	1.484967e+002	-1.070329e+001	-5.925151e+001
2264298.094	-1.121939e+001	-1.184235e+002	-1.888078e+001	1.417424e+002	-1.895928e+001	1.424278e+002	-1.073706e+001	-6.457402e+001
2288734.835	-1.143768e+001	-1.256075e+002	-1.844889e+001	1.354313e+002	-1.851963e+001	1.361547e+002	-1.076653e+001	-6.999582e+001
2313171.577	-1.167311e+001	-1.330328e+002	-1.803673e+001	1.289743e+002	-1.809589e+001	1.296732e+002	-1.079366e+001	-7.553159e+001
2337608.319	-1.192836e+001	-1.406977e+002	-1.764593e+001	1.223149e+002	-1.769024e+001	1.230046e+002	-1.081540e+001	-8.118129e+001
2362045.061	-1.219410e+001	-1.485873e+002	-1.728468e+001	1.155869e+002	-1.732156e+001	1.162648e+002	-1.082359e+001	-8.691506e+001
2386481.802	-1.247396e+001	-1.567255e+002	-1.694568e+001	1.086140e+002	-1.697409e+001	1.093077e+002	-1.082923e+001	-9.276017e+001
2410918.544	-1.275955e+001	-1.650992e+002	-1.663918e+001	1.015384e+002	-1.665116e+001	1.022275e+002	-1.082527e+001	-9.872212e+001
2435355.286	-1.305066e+001	-1.737290e+002	-1.635366e+001	9.437441e+001	-1.635570e+001	9.503061e+001	-1.081587e+001	-1.048144e+002
2459792.028	-1.334005e+001	1.774213e+002	-1.610389e+001	8.713195e+001	-1.608895e+001	8.773519e+001	-1.079991e+001	-1.110115e+002
2484228.769	-1.361481e+001	1.684032e+002	-1.588945e+001	7.975142e+001	-1.585768e+001	8.037751e+001	-1.077704e+001	-1.173390e+002
2508665.511	-1.387541e+001	1.592342e+002	-1.570659e+001	7.238032e+001	-1.566331e+001	7.297387e+001	-1.074461e+001	-1.237663e+002
2533102.253	-1.410340e+001	1.499274e+002	-1.556403e+001	6.504847e+001	-1.550756e+001	6.555364e+001	-1.070751e+001	-1.302716e+002
2557538.995	-1.430485e+001	1.405325e+002	-1.544926e+001	5.760214e+001	-1.538710e+001	5.812154e+001	-1.066761e+001	-1.369010e+002
2581975.737	-1.446471e+001	1.311427e+002	-1.537256e+001	5.025467e+001	-1.529757e+001	5.070424e+001	-1.062941e+001	-1.436010e+002
2606412.478	-1.457399e+001	1.217570e+002	-1.533289e+001	4.294108e+001	-1.524323e+001	4.330939e+001	-1.059120e+001	-1.503842e+002
2630849.220	-1.464136e+001	1.124739e+002	-1.532070e+001	3.570294e+001	-1.522220e+001	3.599405e+001	-1.055623e+001	-1.572222e+002
2655285.962	-1.466593e+001	1.033205e+002	-1.534333e+001	2.852202e+001	-1.523446e+001	2.870373e+001	-1.052922e+001	-1.641062e+002
2679722.704	-1.465678e+001	9.438133e+001	-1.539499e+001	2.146990e+001	-1.528172e+001	2.157599e+001	-1.050461e+001	-1.709929e+002
2704159.445	-1.460607e+001	8.565543e+001	-1.547179e+001	1.448391e+001	-1.535902e+001	1.457152e+001	-1.048732e+001	-1.778506e+002
2728596.187	-1.452728e+001	7.720897e+001	-1.557701e+001	7.648817e+000	-1.546037e+001	7.656542e+000	-1.048015e+001	1.753184e+002
2753032.929	-1.442081e+001	6.905454e+001	-1.570149e+001	9.599700e-001	-1.558470e+001	9.042188e-001	-1.048108e+001	1.685450e+002
2777469.671	-1.429702e+001	6.118632e+001	-1.584567e+001	-5.592397e+000	-1.573550e+001	-5.658202e+000	-1.048862e+001	1.618539e+002
2801906.412	-1.415637e+001	5.362562e+001	-1.600689e+001	-1.197372e+001	-1.589975e+001	-1.209052e+001	-1.051061e+001	1.552667e+002
2826343.154	-1.400534e+001	4.636480e+001	-1.618638e+001	-1.817954e+001	-1.608283e+001	-1.837702e+001	-1.054154e+001	1.488020e+002
2850779.896	-1.384968e+001	3.941877e+001	-1.637572e+001	-2.421373e+001	-1.627938e+001	-2.445312e+001	-1.057875e+001	1.424744e+002
2875216.638	-1.369410e+001	3.274138e+001	-1.657118e+001	-3.015751e+001	-1.648928e+001	-3.031704e+001	-1.062009e+001	1.362948e+002
2899653.380	-1.353579e+001	2.634985e+001	-1.677663e+001	-3.588986e+001	-1.670364e+001	-3.606532e+001	-1.067158e+001	1.302683e+002
2924090.121	-1.337395e+001	2.022748e+001	-1.698926e+001	-4.140803e+001	-1.692506e+001	-4.161552e+001	-1.072754e+001	1.244075e+002
2948526.863	-1.321497e+001	1.434535e+001	-1.720258e+001	-4.677449e+001	-1.714846e+001	-4.699814e+001	-1.078711e+001	1.186915e+002
2972963.605	-1.305821e+001	8.683554e+000	-1.741511e+001	-5.198080e+001	-1.736947e+001	-5.222685e+001	-1.085289e+001	1.131467e+002
2997400.347	-1.290448e+001	3.237383e+000	-1.762874e+001	-5.702880e+001	-1.759050e+001	-5.729190e+001	-1.091901e+001	1.077401e+002
3021837.088	-1.275348e+001	-2.003614e+000	-1.784067e+001	-6.193352e+001	-1.780721e+001	-6.223323e+001	-1.098821e+001	1.024972e+002
3046273.830	-1.260802e+001	-7.072898e+000	-1.804407e+001	-6.669733e+001	-1.802111e+001	-6.702416e+001	-1.105607e+001	9.739528e+001
3070710.572	-1.246807e+001	-1.196847e+001	-1.824029e+001	-7.133627e+001	-1.822600e+001	-7.163811e+001	-1.112292e+001	9.243777e+001
3095147.314	-1.232886e+001	-1.671344e+001	-1.842914e+001	-7.582410e+001	-1.842599e+001	-7.615403e+001	-1.118960e+001	8.760393e+001
3119584.055	-1.219372e+001	-2.132405e+001	-1.860629e+001	-8.021557e+001	-1.860962e+001	-8.052938e+001	-1.125575e+001	8.289025e+001
3144020.797	-1.206647e+001	-2.581002e+001	-1.877255e+001	-8.450116e+001	-1.878599e+001	-8.483735e+001	-1.132618e+001	7.833146e+001
3168457.539	-1.194104e+001	-3.016785e+001	-1.892974e+001	-8.871324e+001	-1.894893e+001	-8.902537e+001	-1.139074e+001	7.385963e+001
3192894.281	-1.182219e+001	-3.441014e+001	-1.907533e+001	-9.282061e+001	-1.910636e+001	-9.313774e+001	-1.145588e+001	6.950477e+001
3217331.023	-1.170815e+001	-3.854955e+001	-1.921293e+001	-9.691407e+001	-1.925561e+001	-9.713383e+001	-1.151525e+001	6.526743e+001
3241767.764	-1.159844e+001	-4.258837e+001	-1.933999e+001	-1.009562e+002	-1.939494e+001	-1.010779e+002	-1.157507e+001	6.112665e+001
3266204.506	-1.148899e+001	-4.653091e+001	-1.946423e+001	-1.048564e+002	-1.952529e+001	-1.049578e+002	-1.163361e+001	5.709318e+001
3290641.248	-1.137845e+001	-5.038780e+001	-1.957723e+001	-1.086065e+002	-1.964419e+001	-1.087040e+002	-1.168573e+001	5.313369e+001
3315077.990	-1.127239e+001	-5.419833e+001	-1.966720e+001	-1.122843e+002	-1.973767e+001	-1.123515e+002	-1.173624e+001	4.921847e+001
3339514.731	-1.117128e+001	-5.796963e+001	-1.973452e+001	-1.159478e+002	-1.981054e+001	-1.160021e+002	-1.178999e+001	4.536307e+001
3363951.473	-1.107909e+001	-6.167291e+001	-1.978849e+001	-1.196185e+002	-1.986706e+001	-1.196499e+002	-1.184549e+001	4.157455e+001
3388388.215	-1.099300e+001	-6.532000e+001	-1.982429e+001	-1.233179e+002	-1.991075e+001	-1.233051e+002	-1.190311e+001	3.787710e+001
3412824.957	-1.090971e+001	-6.890806e+001	-1.985207e+001	-1.269669e+002	-1.994039e+001	-1.269340e+002	-1.196058e+001	3.424542e+001
3437261.698	-1.083322e+001	-7.243525e+001	-1.986779e+001	-1.306182e+002	-1.995767e+001	-1.305560e+002	-1.201872e+001	3.068748e+001
3461698.440	-1.076280e+001	-7.590521e+001	-1.987133e+001	-1.342606e+002	-1.996221e+001	-1.341660e+002	-1.207845e+001	2.719961e+001
3486135.182	-1.069567e+001	-7.933350e+001	-1.985786e+001	-1.379212e+002	-1.995452e+001	-1.377792e+002	-1.213697e+001	2.378128e+001
3510571.924	-1.063613e+001	-8.269326e+001	-1.983710e+001	-1.415995e+002	-1.993463e+001	-1.414607e+002	-1.219869e+001	2.043507e+001
3535008.666	-1.058033e+001	-8.599972e+001	-1.980178e+001	-1.452854e+002	-1.990174e+001	-1.451046e+002	-1.225885e+001	1.716976e+001
3559445.407	-1.052946e+001	-8.925534e+001	-1.975273e+001	-1.489660e+002	-1.985568e+001	-1.487284e+002	-1.231310e+001	1.396197e+001
3583882.149	-1.048022e+001	-9.246991e+001	-1.968172e+001	-1.526917e+002	-1.979054e+001	-1.523482e+002	-1.236679e+001	1.078911e+001
3608318.891	-1.043523e+001	-9.565221e+001	-1.959355e+001	-1.564685e+002	-1.970534e+001	-1.560492e+002	-1.242149e+001	7.655194e+000
3632755.633	-1.039347e+001	-9.882209e+001	-1.948283e+001	-1.603745e+002	-1.960361e+001	-1.597730e+002	-1.247658e+001	4.536574e+000
3657192.374	-1.035281e+001	-1.019530e+002	-1.936379e+001	-1.642607e+002	-1.947948e+001	-1.636260e+002	-1.253574e+001	1.451617e+000
3681629.116	-1.031611e+001	-1.050619e+002	-1.923222e+001	-1.682286e+002	-1.934721e+001	-1.676425e+002	-1.260236e+001	-1.570932e+000
3706065.858	-1.028623e+001	-1.081453e+002	-1.909600e+001	-1.723283e+002	-1.920706e+001	-1.717382e+002	-1.266953e+001	-4.555297e+000
3730502.600	-1.026328e+001	-1.112101e+002	-1.895196e+001	-1.765981e+002	-1.906075e+001	-1.759728e+002	-1.274383e+001	-7.464827e+000
3754939.341	-1.025107e+001	-1.142314e+002	-1.880481e+001	1.789845e+002	-1.891220e+001	1.796670e+002	-1.282357e+001	-1.032396e+001
3779376.083	-1.024808e+001	-1.172143e+002	-1.866086e+001	1.744597e+002	-1.876291e+001	1.751682e+002	-1.290752e+001	-1.309416e+001
3803812.825	-1.025494e+001	-1.201544e+002	-1.851817e+001	1.697821e+002	-1.861633e+001	1.705461e+002	-1.299897e+001	-1.577587e+001
3828249.567	-1.027477e+001	-1.230398e+002	-1.837504e+001	1.649573e+002	-1.847575e+001	1.657826e+002	-1.309652e+001	-1.835664e+001
3852686.308	-1.030273e+001	-1.258543e+002	-1.823864e+001	1.600451e+002	-1.833763e+001	1.608934e+002	-1.319673e+001	-2.083457e+001
3877123.050	-1.034170e+001	-1.285845e+002	-1.810428e+001	1.549849e+002	-1.819779e+001	1.559554e+002	-1.329793e+001	-2.323751e+001
3901559.792	-1.038945e+001	-1.312348e+002	-1.797606e+001	1.498466e+002	-1.806108e+001	1.508506e+002	-1.340568e+001	-2.549845e+001
3925996.534	-1.044397e+001	-1.337807e+002	-1.784733e+001	1.446190e+002	-1.793259e+001	1.455401e+002	-1.351848e+001	-2.758640e+001
3950433.276	-1.050860e+001	-1.361528e+002	-1.773594e+001	1.391393e+002	-1.781813e+001	1.400511e+002	-1.363056e+001	-2.946463e+001
3974870.017	-1.057622e+001	-1.383319e+002	-1.764874e+001	1.334600e+002	-1.772440e+001	1.342911e+002	-1.374058e+001	-3.109103e+001
3999306.759	-1.064167e+001	-1.403163e+002	-1.757687e+001	1.275872e+002	-1.765611e+001	1.284638e+002	-1.382658e+001	-3.251329e+001
4023743.501	-1.069357e+001	-1.420789e+002	-1.753852e+001	1.215039e+002	-1.761066e+001	1.224666e+002	-1.389130e+001	-3.372008e+001
4048180.243	-1.072176e+001	-1.436203e+002	-1.754277e+001	1.152685e+002	-1.761113e+001	1.162666e+002	-1.391593e+001	-3.467659e+001
4072616.984	-1.071214e+001	-1.449826e+002	-1.760347e+001	1.088621e+002	-1.766875e+001	1.099029e+002	-1.388761e+001	-3.542467e+001
4097053.726	-1.065399e+001	-1.462436e+002	-1.772613e+001	1.023828e+002	-1.779197e+001	1.033865e+002	-1.379008e+001	-3.604044e+001
4121490.468	-1.054019e+001	-1.475122e+002	-1.791754e+001	9.590453e+001	-1.798906e+001	9.693613e+001	-1.362086e+001	-3.677364e+001
4145927.210	-1.036841e+001	-1.489210e+002	-1.819491e+001	8.952809e+001	-1.826167e+001	9.059087e+001	-1.338367e+001	-3.773712e+001
4170363.951	-1.014663e+001	-1.505598e+002	-1.856784e+001	8.335703e+001	-1.863543e+001	8.444075e+001	-1.308458e+001	-3.900901e+001
4194800.693	-9.884190e+000	-1.526101e+002	-1.904191e+001	7.761035e+001	-1.910849e+001	7.876472e+001	-1.274476e+001	-4.079026e+001
4219237.435	-9.617460e+000	-1.551770e+002	-1.958222e+001	7.273406e+001	-1.964656e+001	7.387951e+001	-1.240177e+001	-4.313022e+001
4243674.177	-9.369137e+000	-1.581707e+002	-2.015070e+001	6.878756e+001	-2.019500e+001	6.986590e+001	-1.208562e+001	-4.592847e+001
4268110.919	-9.157841e+000	-1.614406e+002	-2.068345e+001	6.559884e+001	-2.072076e+001	6.669988e+001	-1.180636e+001	-4.904860e+001
4292547.660	-8.982049e+000	-1.648962e+002	-2.117188e+001	6.302949e+001	-2.121718e+001	6.408876e+001	-1.155668e+001	-5.231794e+001
4316984.402	-8.833092e+000	-1.685176e+002	-2.162891e+001	6.113413e+001	-2.167893e+001	6.225331e+001	-1.133412e+001	-5.576247e+001
4341421.144	-8.723535e+000	-1.722961e+002	-2.199121e+001	6.001428e+001	-2.203546e+001	6.119523e+001	-1.114803e+001	-5.936294e+001
4365857.886	-8.655093e+000	-1.761143e+002	-2.220951e+001	5.918116e+001	-2.223200e+001	6.039967e+001	-1.100592e+001	-6.298712e+001
4390294.627	-8.622449e+000	-1.798629e+002	-2.229767e+001	5.798975e+001	-2.229686e+001	5.920503e+001	-1.089317e+001	-6.651200e+001
4414731.369	-8.601739e+000	1.764895e+002	-2.235411e+001	5.621439e+001	-2.234056e+001	5.732794e+001	-1.078753e+001	-6.986954e+001
4439168.111	-8.573040e+000	1.728467e+002	-2.249205e+001	5.416292e+001	-2.247847e+001	5.516917e+001	-1.065825e+001	-7.317416e+001
4463604.853	-8.529616e+000	1.690365e+002	-2.274135e+001	5.277107e+001	-2.273074e+001	5.375992e+001	-1.049880e+001	-7.660485e+001
4488041.594	-8.496536e+000	1.648479e+002	-2.298001e+001	5.306639e+001	-2.296593e+001	5.416300e+001	-1.032827e+001	-8.040439e+001
4512478.336	-8.520317e+000	1.602634e+002	-2.293152e+001	5.509299e+001	-2.290987e+001	5.620048e+001	-1.018713e+001	-8.464132e+001
4536915.078	-8.635853e+000	1.555326e+002	-2.243484e+001	5.676315e+001	-2.238718e+001	5.780610e+001	-1.011941e+001	-8.913920e+001
4561351.820	-8.835102e+000	1.510259e+002	-2.168666e+001	5.602001e+001	-2.162517e+001	5.705830e+001	-1.012899e+001	-9.352746e+001
4585788.562	-9.070140e+000	1.468459e+002	-2.100408e+001	5.333852e+001	-2.093536e+001	5.429533e+001	-1.016774e+001	-9.762917e+001
4610225.303	-9.314971e+000	1.428634e+002	-2.044040e+001	4.976494e+001	-2.036504e+001	5.066425e+001	-1.021056e+001	-1.015461e+002
4634662.045	-9.571674e+000	1.389738e+002	-1.996598e+001	4.585871e+001	-1.988574e+001	4.663517e+001	-1.025190e+001	-1.053719e+002
4659098.787	-9.837979e+000	1.351145e+002	-1.956077e+001	4.177678e+001	-1.947064e+001	4.248095e+001	-1.028925e+001	-1.091944e+002
4683535.529	-1.011897e+001	1.312419e+002	-1.919740e+001	3.769099e+001	-1.911348e+001	3.838648e+001	-1.031814e+001	-1.130421e+002
4707972.270	-1.041237e+001	1.272683e+002	-1.887753e+001	3.383544e+001	-1.878243e+001	3.445542e+001	-1.033917e+001	-1.169782e+002
4732409.012	-1.074326e+001	1.230677e+002	-1.852685e+001	3.026403e+001	-1.843431e+001	3.080530e+001	-1.036120e+001	-1.211584e+002
4756845.754	-1.114728e+001	1.186810e+002	-1.809216e+001	2.672509e+001	-1.799397e+001	2.718528e+001	-1.041340e+001	-1.256416e+002
4781282.496	-1.164277e+001	1.144065e+002	-1.758868e+001	2.256781e+001	-1.749064e+001	2.292865e+001	-1.052188e+001	-1.302312e+002
4805719.237	-1.221316e+001	1.104118e+002	-1.709352e+001	1.774311e+001	-1.699770e+001	1.802044e+001	-1.067632e+001	-1.347881e+002
4830155.979	-1.283210e+001	1.067383e+002	-1.664555e+001	1.242811e+001	-1.655360e+001	1.266487e+001	-1.086021e+001	-1.392471e+002
4854592.721	-1.350214e+001	1.033453e+002	-1.624215e+001	6.849145e+000	-1.615724e+001	7.050548e+000	-1.106809e+001	-1.436393e+002
4879029.463	-1.421775e+001	1.002102e+002	-1.588336e+001	1.116562e+000	-1.579733e+001	1.293321e+000	-1.130056e+001	-1.480044e+002
4903466.205	-1.498967e+001	9.734940e+001	-1.555527e+001	-4.713438e+000	-1.547071e+001	-4.583139e+000	-1.155446e+001	-1.523374e+002
4927902.946	-1.582326e+001	9.487586e+001	-1.525249e+001	-1.069431e+001	-1.517437e+001	-1.057547e+001	-1.183578e+001	-1.566180e+002
4952339.688	-1.671480e+001	9.283784e+001	-1.498133e+001	-1.681417e+001	-1.491051e+001	-1.664155e+001	-1.213719e+001	-1.608728e+002
4976776.430	-1.765980e+001	9.130371e+001	-1.474236e+001	-2.298015e+001	-1.467825e+001	-2.279680e+001	-1.246573e+001	-1.650187e+002
5001213.172	-1.866266e+001	9.032612e+001	-1.453467e+001	-2.918003e+001	-1.447743e+001	-2.900267e+001	-1.281612e+001	-1.690602e+002
5025649.913	-1.971200e+001	8.999724e+001	-1.435559e+001	-3.541677e+001	-1.430622e+001	-3.523211e+001	-1.318463e+001	-1.730123e+002
5050086.655	-2.081558e+001	9.036108e+001	-1.420414e+001	-4.163461e+001	-1.416167e+001	-4.145845e+001	-1.357012e+001	-1.768691e+002
5074523.397	-2.198321e+001	9.160663e+001	-1.407623e+001	-4.783268e+001	-1.403867e+001	-4.762592e+001	-1.397093e+001	1.793272e+002
5098960.139	-2.320211e+001	9.394455e+001	-1.396939e+001	-5.398839e+001	-1.393745e+001	-5.378132e+001	-1.439012e+001	1.756012e+002
5123396.880	-2.446220e+001	9.772174e+001	-1.387975e+001	-6.012797e+001	-1.385398e+001	-5.989507e+001	-1.482492e+001	1.719755e+002
5147833.622	-2.572701e+001	1.034229e+002	-1.380610e+001	-6.619785e+001	-1.378467e+001	-6.598938e+001	-1.528044e+001	1.684085e+002
5172270.364	-2.687908e+001	1.114458e+002	-1.374569e+001	-7.225691e+001	-1.372811e+001	-7.203921e+001	-1.575411e+001	1.649533e+002
5196707.106	-2.775033e+001	1.218379e+002	-1.369694e+001	-7.830041e+001	-1.368501e+001	-7.807618e+001	-1.624507e+001	1.616180e+002
5221143.847	-2.814614e+001	1.338872e+002	-1.366195e+001	-8.427490e+001	-1.365081e+001	-8.406700e+001	-1.675566e+001	1.584195e+002
5245580.589	-2.797504e+001	1.457293e+002	-1.363937e+001	-9.027986e+001	-1.363043e+001	-9.004162e+001	-1.727693e+001	1.553628e+002
5270017.331	-2.736922e+001	1.558837e+002	-1.362752e+001	-9.626126e+001	-1.362155e+001	-9.600551e+001	-1.780781e+001	1.524830e+002
5294454.073	-2.650901e+001	1.639489e+002	-1.362474e+001	-1.021698e+002	-1.362283e+001	-1.019242e+002	-1.834651e+001	1.497462e+002
5318890.815	-2.555341e+001	1.698047e+002	-1.363330e+001	-1.080330e+002	-1.363306e+001	-1.077852e+002	-1.888729e+001	1.471194e+002
5343327.556	-2.457484e+001	1.738563e+002	-1.364170e+001	-1.138698e+002	-1.364581e+001	-1.135849e+002	-1.943891e+001	1.445924e+002
5367764.298	-2.364419e+001	1.763745e+002	-1.365530e+001	-1.197096e+002	-1.365958e+001	-1.193515e+002	-2.000280e+001	1.422040e+002
5392201.040	-2.280052e+001	1.777697e+002	-1.367597e+001	-1.255620e+002	-1.367700e+001	-1.251405e+002	-2.056472e+001	1.401015e+002
5416637.782	-2.202492e+001	1.784758e+002	-1.369629e+001	-1.313855e+002	-1.370006e+001	-1.309451e+002	-2.111586e+001	1.383086e+002
5441074.523	-2.133166e+001	1.786237e+002	-1.372571e+001	-1.371970e+002	-1.373033e+001	-1.367475e+002	-2.163827e+001	1.367645e+002
