!Agilent Technologies,E5061B,MY49101568,A.02.00
!Date: Wed Mar 01 15:35:58 2023
!Data & Calibration Information:
!Freq	S11:SOLT2(OFF)	S21:SOLT2(OFF)	S12:SOLT2(OFF)	S22:SOLT2(OFF)
# Hz S dB R 50
1800000.000	-9.521696e+000	-1.765863e+001	-2.443242e+001	-1.343919e+002	-2.442852e+001	-1.344380e+002	-9.889959e+000	1.874319e+001
1824436.742	-9.627106e+000	-2.195675e+001	-2.405844e+001	-1.383804e+002	-2.405608e+001	-1.383645e+002	-1.001654e+001	1.498261e+001
1848873.484	-9.734293e+000	-2.634656e+001	-2.366900e+001	-1.423521e+002	-2.367377e+001	-1.423886e+002	-1.014562e+001	1.117605e+001
1873310.225	-9.848731e+000	-3.078432e+001	-2.327874e+001	-1.464995e+002	-2.328591e+001	-1.464904e+002	-1.027484e+001	7.347437e+000
1897746.967	-9.965188e+000	-3.530736e+001	-2.287858e+001	-1.507120e+002	-2.288479e+001	-1.507394e+002	-1.040113e+001	3.447236e+000
1922183.709	-1.008631e+001	-3.997531e+001	-2.246135e+001	-1.550140e+002	-2.247070e+001	-1.550440e+002	-1.052767e+001	-5.669405e-001
1946620.451	-1.021248e+001	-4.472949e+001	-2.204202e+001	-1.594229e+002	-2.205501e+001	-1.594136e+002	-1.065196e+001	-4.660037e+000
1971057.192	-1.034675e+001	-4.964358e+001	-2.160406e+001	-1.639061e+002	-2.162441e+001	-1.639414e+002	-1.077947e+001	-8.855410e+000
1995493.934	-1.049127e+001	-5.467899e+001	-2.116629e+001	-1.685974e+002	-2.118739e+001	-1.685424e+002	-1.090861e+001	-1.312694e+001
2019930.676	-1.064858e+001	-5.984049e+001	-2.072148e+001	-1.733627e+002	-2.074737e+001	-1.732887e+002	-1.103775e+001	-1.746362e+001
2044367.418	-1.081526e+001	-6.514464e+001	-2.025966e+001	-1.783823e+002	-2.029068e+001	-1.782394e+002	-1.116456e+001	-2.197012e+001
2068804.159	-1.099686e+001	-7.057283e+001	-1.980736e+001	1.765229e+002	-1.983792e+001	1.766695e+002	-1.129113e+001	-2.650379e+001
2093240.901	-1.119080e+001	-7.613023e+001	-1.935313e+001	1.713073e+002	-1.939532e+001	1.714078e+002	-1.141725e+001	-3.110192e+001
2117677.643	-1.140403e+001	-8.187610e+001	-1.890425e+001	1.658323e+002	-1.895027e+001	1.660010e+002	-1.154495e+001	-3.580170e+001
2142114.385	-1.163278e+001	-8.777185e+001	-1.846527e+001	1.602414e+002	-1.850761e+001	1.604854e+002	-1.166540e+001	-4.061719e+001
2166551.127	-1.188204e+001	-9.387425e+001	-1.802225e+001	1.544719e+002	-1.806726e+001	1.547736e+002	-1.178486e+001	-4.554383e+001
2190987.868	-1.215497e+001	-1.001375e+002	-1.759308e+001	1.485310e+002	-1.763738e+001	1.488729e+002	-1.190339e+001	-5.055798e+001
2215424.610	-1.245024e+001	-1.065795e+002	-1.717669e+001	1.423601e+002	-1.722408e+001	1.428135e+002	-1.201827e+001	-5.565827e+001
2239861.352	-1.276355e+001	-1.131895e+002	-1.678479e+001	1.360995e+002	-1.683048e+001	1.365774e+002	-1.212074e+001	-6.084657e+001
2264298.094	-1.309422e+001	-1.200535e+002	-1.640597e+001	1.297457e+002	-1.644758e+001	1.302641e+002	-1.221525e+001	-6.615294e+001
2288734.835	-1.345043e+001	-1.271228e+002	-1.604483e+001	1.232760e+002	-1.608195e+001	1.238338e+002	-1.230060e+001	-7.156911e+001
2313171.577	-1.383131e+001	-1.344238e+002	-1.569810e+001	1.166545e+002	-1.573080e+001	1.172341e+002	-1.237699e+001	-7.709206e+001
2337608.319	-1.422919e+001	-1.419534e+002	-1.537786e+001	1.099020e+002	-1.540368e+001	1.105195e+002	-1.244262e+001	-8.271117e+001
2362045.061	-1.463440e+001	-1.496925e+002	-1.507984e+001	1.030787e+002	-1.510271e+001	1.036703e+002	-1.249329e+001	-8.840278e+001
2386481.802	-1.504150e+001	-1.576978e+002	-1.481273e+001	9.613561e+001	-1.482717e+001	9.676726e+001	-1.252599e+001	-9.424216e+001
2410918.544	-1.544067e+001	-1.659894e+002	-1.456974e+001	8.918540e+001	-1.458097e+001	8.983501e+001	-1.253931e+001	-1.002441e+002
2435355.286	-1.583751e+001	-1.746249e+002	-1.435012e+001	8.215994e+001	-1.435111e+001	8.281531e+001	-1.253748e+001	-1.064089e+002
2459792.028	-1.621064e+001	1.764759e+002	-1.415168e+001	7.507597e+001	-1.414643e+001	7.572545e+001	-1.252672e+001	-1.126914e+002
2484228.769	-1.655132e+001	1.672756e+002	-1.398594e+001	6.792755e+001	-1.396909e+001	6.858824e+001	-1.249883e+001	-1.191265e+002
2508665.511	-1.684447e+001	1.578472e+002	-1.384887e+001	6.078129e+001	-1.382339e+001	6.143339e+001	-1.245955e+001	-1.256850e+002
2533102.253	-1.707962e+001	1.481890e+002	-1.373749e+001	5.369387e+001	-1.370592e+001	5.425732e+001	-1.241188e+001	-1.323554e+002
2557538.995	-1.724714e+001	1.383708e+002	-1.365629e+001	4.656918e+001	-1.361534e+001	4.710395e+001	-1.235673e+001	-1.391692e+002
2581975.737	-1.734119e+001	1.284763e+002	-1.360143e+001	3.946472e+001	-1.355435e+001	3.997535e+001	-1.229704e+001	-1.460901e+002
2606412.478	-1.736811e+001	1.186136e+002	-1.357585e+001	3.241950e+001	-1.352122e+001	3.288110e+001	-1.223804e+001	-1.531019e+002
2630849.220	-1.732037e+001	1.088488e+002	-1.357520e+001	2.541387e+001	-1.351551e+001	2.582839e+001	-1.218200e+001	-1.601650e+002
2655285.962	-1.720583e+001	9.927576e+001	-1.359871e+001	1.847911e+001	-1.353948e+001	1.884175e+001	-1.212711e+001	-1.672802e+002
2679722.704	-1.704408e+001	8.997075e+001	-1.365174e+001	1.164944e+001	-1.358459e+001	1.194955e+001	-1.208103e+001	-1.743784e+002
2704159.445	-1.683702e+001	8.095292e+001	-1.372606e+001	4.918238e+000	-1.365779e+001	5.164050e+000	-1.204030e+001	1.785673e+002
2728596.187	-1.659442e+001	7.232458e+001	-1.382128e+001	-1.682213e+000	-1.375346e+001	-1.515808e+000	-1.200695e+001	1.715270e+002
2753032.929	-1.633318e+001	6.398793e+001	-1.393656e+001	-8.155593e+000	-1.386699e+001	-8.041415e+000	-1.198470e+001	1.645903e+002
2777469.671	-1.606363e+001	5.604186e+001	-1.406826e+001	-1.451205e+001	-1.399811e+001	-1.443657e+001	-1.197167e+001	1.577206e+002
2801906.412	-1.579135e+001	4.845860e+001	-1.421100e+001	-2.070558e+001	-1.414840e+001	-2.069959e+001	-1.197163e+001	1.509941e+002
2826343.154	-1.551605e+001	4.120202e+001	-1.436666e+001	-2.677086e+001	-1.430794e+001	-2.682474e+001	-1.198037e+001	1.444052e+002
2850779.896	-1.525201e+001	3.429608e+001	-1.453264e+001	-3.269059e+001	-1.447760e+001	-3.276596e+001	-1.199892e+001	1.379852e+002
2875216.638	-1.499396e+001	2.766800e+001	-1.470874e+001	-3.846437e+001	-1.465751e+001	-3.855537e+001	-1.202517e+001	1.317010e+002
2899653.380	-1.474818e+001	2.134472e+001	-1.488869e+001	-4.407307e+001	-1.484380e+001	-4.419631e+001	-1.205935e+001	1.256120e+002
2924090.121	-1.451112e+001	1.530260e+001	-1.507171e+001	-4.951715e+001	-1.503252e+001	-4.968158e+001	-1.210046e+001	1.196897e+002
2948526.863	-1.428904e+001	9.482753e+000	-1.525223e+001	-5.484419e+001	-1.522296e+001	-5.501942e+001	-1.214596e+001	1.139379e+002
2972963.605	-1.407645e+001	3.910449e+000	-1.543684e+001	-6.001668e+001	-1.541011e+001	-6.021654e+001	-1.219826e+001	1.083586e+002
2997400.347	-1.387577e+001	-1.469364e+000	-1.561407e+001	-6.507097e+001	-1.559591e+001	-6.528399e+001	-1.225576e+001	1.029428e+002
3021837.088	-1.368541e+001	-6.645989e+000	-1.578859e+001	-6.998368e+001	-1.577901e+001	-7.022637e+001	-1.231571e+001	9.768960e+001
3046273.830	-1.350450e+001	-1.163521e+001	-1.595959e+001	-7.479915e+001	-1.595537e+001	-7.502884e+001	-1.237458e+001	9.259167e+001
3070710.572	-1.333321e+001	-1.647250e+001	-1.612299e+001	-7.947794e+001	-1.612376e+001	-7.970699e+001	-1.243712e+001	8.762588e+001
3095147.314	-1.317189e+001	-2.116702e+001	-1.627545e+001	-8.404359e+001	-1.628280e+001	-8.427040e+001	-1.250095e+001	8.279550e+001
3119584.055	-1.301838e+001	-2.574200e+001	-1.641558e+001	-8.852012e+001	-1.643035e+001	-8.875944e+001	-1.256945e+001	7.808866e+001
3144020.797	-1.287707e+001	-3.018044e+001	-1.654726e+001	-9.290889e+001	-1.656271e+001	-9.316331e+001	-1.263933e+001	7.350719e+001
3168457.539	-1.274450e+001	-3.451398e+001	-1.666629e+001	-9.727497e+001	-1.668965e+001	-9.751723e+001	-1.271478e+001	6.905877e+001
3192894.281	-1.262242e+001	-3.873801e+001	-1.677598e+001	-1.015894e+002	-1.680546e+001	-1.018100e+002	-1.279194e+001	6.473407e+001
3217331.023	-1.250654e+001	-4.284604e+001	-1.687879e+001	-1.058661e+002	-1.691333e+001	-1.060741e+002	-1.287281e+001	6.052159e+001
3241767.764	-1.239899e+001	-4.685254e+001	-1.697556e+001	-1.100881e+002	-1.701399e+001	-1.102799e+002	-1.295135e+001	5.644388e+001
3266204.506	-1.229591e+001	-5.076175e+001	-1.706551e+001	-1.142587e+002	-1.710913e+001	-1.144100e+002	-1.302594e+001	5.246957e+001
3290641.248	-1.219437e+001	-5.461686e+001	-1.714364e+001	-1.182993e+002	-1.719244e+001	-1.184237e+002	-1.309499e+001	4.854709e+001
3315077.990	-1.209937e+001	-5.844464e+001	-1.719486e+001	-1.222594e+002	-1.724957e+001	-1.223695e+002	-1.316979e+001	4.463825e+001
3339514.731	-1.201813e+001	-6.222004e+001	-1.722498e+001	-1.262656e+002	-1.728400e+001	-1.263555e+002	-1.325585e+001	4.079504e+001
3363951.473	-1.194843e+001	-6.593024e+001	-1.724307e+001	-1.303273e+002	-1.730407e+001	-1.303798e+002	-1.335267e+001	3.704338e+001
3388388.215	-1.189151e+001	-6.956821e+001	-1.724959e+001	-1.344282e+002	-1.731266e+001	-1.344428e+002	-1.345640e+001	3.340425e+001
3412824.957	-1.184325e+001	-7.313529e+001	-1.724962e+001	-1.385549e+002	-1.731551e+001	-1.385301e+002	-1.356548e+001	2.985943e+001
3437261.698	-1.180490e+001	-7.662538e+001	-1.723990e+001	-1.427282e+002	-1.730857e+001	-1.426468e+002	-1.368226e+001	2.642962e+001
3461698.440	-1.177778e+001	-8.003768e+001	-1.722315e+001	-1.469364e+002	-1.729515e+001	-1.468240e+002	-1.380497e+001	2.311066e+001
3486135.182	-1.175726e+001	-8.337059e+001	-1.720134e+001	-1.511528e+002	-1.727759e+001	-1.510121e+002	-1.393086e+001	1.992835e+001
3510571.924	-1.174730e+001	-8.660871e+001	-1.717798e+001	-1.554235e+002	-1.725407e+001	-1.552366e+002	-1.406203e+001	1.685508e+001
3535008.666	-1.174449e+001	-8.975539e+001	-1.714773e+001	-1.597012e+002	-1.722489e+001	-1.594670e+002	-1.419222e+001	1.391749e+001
3559445.407	-1.174385e+001	-9.281253e+001	-1.711000e+001	-1.639716e+002	-1.718851e+001	-1.637022e+002	-1.431858e+001	1.109404e+001
3583882.149	-1.175152e+001	-9.582066e+001	-1.705917e+001	-1.682619e+002	-1.713829e+001	-1.679508e+002	-1.444878e+001	8.336483e+000
3608318.891	-1.176526e+001	-9.873362e+001	-1.699544e+001	-1.726140e+002	-1.707212e+001	-1.722644e+002	-1.458375e+001	5.671507e+000
3632755.633	-1.178866e+001	-1.015809e+002	-1.691962e+001	-1.771155e+002	-1.699735e+001	-1.766594e+002	-1.472442e+001	3.116632e+000
3657192.374	-1.181565e+001	-1.043164e+002	-1.684088e+001	1.783118e+002	-1.691194e+001	1.788106e+002	-1.487299e+001	7.164429e-001
3681629.116	-1.184966e+001	-1.069737e+002	-1.674795e+001	1.736578e+002	-1.682189e+001	1.741866e+002	-1.502448e+001	-1.556461e+000
3706065.858	-1.189356e+001	-1.095218e+002	-1.665488e+001	1.688185e+002	-1.672612e+001	1.694000e+002	-1.518222e+001	-3.603106e+000
3730502.600	-1.194244e+001	-1.119422e+002	-1.656660e+001	1.638396e+002	-1.663693e+001	1.644648e+002	-1.533869e+001	-5.432150e+000
3754939.341	-1.199678e+001	-1.141983e+002	-1.648692e+001	1.587050e+002	-1.655290e+001	1.593577e+002	-1.549254e+001	-7.005544e+000
3779376.083	-1.205029e+001	-1.162854e+002	-1.642114e+001	1.534163e+002	-1.648468e+001	1.541150e+002	-1.562378e+001	-8.300909e+000
3803812.825	-1.209906e+001	-1.181795e+002	-1.637384e+001	1.480205e+002	-1.643263e+001	1.487492e+002	-1.573257e+001	-9.342323e+000
3828249.567	-1.213409e+001	-1.199106e+002	-1.634638e+001	1.425298e+002	-1.640538e+001	1.433002e+002	-1.579715e+001	-1.015011e+001
3852686.308	-1.215311e+001	-1.214947e+002	-1.633499e+001	1.370280e+002	-1.639165e+001	1.378136e+002	-1.582188e+001	-1.084543e+001
3877123.050	-1.215463e+001	-1.229445e+002	-1.634030e+001	1.314374e+002	-1.639437e+001	1.322345e+002	-1.580498e+001	-1.142389e+001
3901559.792	-1.213259e+001	-1.242320e+002	-1.636300e+001	1.257597e+002	-1.641338e+001	1.265555e+002	-1.574190e+001	-1.191238e+001
3925996.534	-1.208063e+001	-1.253910e+002	-1.640506e+001	1.199489e+002	-1.645568e+001	1.208027e+002	-1.562832e+001	-1.236883e+001
3950433.276	-1.198853e+001	-1.264717e+002	-1.648064e+001	1.140595e+002	-1.652441e+001	1.149277e+002	-1.545834e+001	-1.284512e+001
3974870.017	-1.184889e+001	-1.275358e+002	-1.659861e+001	1.081108e+002	-1.663664e+001	1.089942e+002	-1.522711e+001	-1.344784e+001
3999306.759	-1.166599e+001	-1.286992e+002	-1.675033e+001	1.021773e+002	-1.679006e+001	1.030580e+002	-1.494017e+001	-1.431005e+001
4023743.501	-1.143874e+001	-1.300003e+002	-1.694678e+001	9.622596e+001	-1.697781e+001	9.712963e+001	-1.461861e+001	-1.544578e+001
4048180.243	-1.117858e+001	-1.315294e+002	-1.718420e+001	9.034691e+001	-1.721658e+001	9.128490e+001	-1.426608e+001	-1.695895e+001
4072616.984	-1.089159e+001	-1.333400e+002	-1.747333e+001	8.457987e+001	-1.750257e+001	8.552879e+001	-1.389427e+001	-1.882647e+001
4097053.726	-1.058862e+001	-1.354605e+002	-1.781127e+001	7.896873e+001	-1.783575e+001	7.993590e+001	-1.352046e+001	-2.104970e+001
4121490.468	-1.028248e+001	-1.379002e+002	-1.819952e+001	7.360794e+001	-1.822611e+001	7.455798e+001	-1.314711e+001	-2.363317e+001
4145927.210	-9.981140e+000	-1.406559e+002	-1.863655e+001	6.853856e+001	-1.865634e+001	6.953579e+001	-1.279707e+001	-2.654085e+001
4170363.951	-9.695668e+000	-1.436839e+002	-1.912584e+001	6.390792e+001	-1.914832e+001	6.484024e+001	-1.246142e+001	-2.969078e+001
4194800.693	-9.429373e+000	-1.469827e+002	-1.964909e+001	5.969237e+001	-1.967642e+001	6.059909e+001	-1.215238e+001	-3.310540e+001
4219237.435	-9.191517e+000	-1.505111e+002	-2.020790e+001	5.608000e+001	-2.023831e+001	5.705362e+001	-1.187528e+001	-3.673053e+001
4243674.177	-8.989607e+000	-1.542599e+002	-2.077871e+001	5.333532e+001	-2.080716e+001	5.426864e+001	-1.163291e+001	-4.052350e+001
4268110.919	-8.828588e+000	-1.581265e+002	-2.130481e+001	5.137048e+001	-2.133243e+001	5.238916e+001	-1.143270e+001	-4.441989e+001
4292547.660	-8.705654e+000	-1.620468e+002	-2.175890e+001	5.005983e+001	-2.178210e+001	5.108018e+001	-1.126704e+001	-4.831443e+001
4316984.402	-8.616246e+000	-1.659950e+002	-2.212371e+001	4.924640e+001	-2.213893e+001	5.032273e+001	-1.113164e+001	-5.220247e+001
4341421.144	-8.558940e+000	-1.699555e+002	-2.237904e+001	4.884509e+001	-2.238882e+001	4.990488e+001	-1.102055e+001	-5.606945e+001
4365857.886	-8.534720e+000	-1.738493e+002	-2.249370e+001	4.843507e+001	-2.250239e+001	4.944487e+001	-1.093342e+001	-5.984943e+001
4390294.627	-8.528391e+000	-1.776245e+002	-2.251476e+001	4.742217e+001	-2.252908e+001	4.851363e+001	-1.085769e+001	-6.349283e+001
4414731.369	-8.516159e+000	1.786545e+002	-2.257470e+001	4.590334e+001	-2.258155e+001	4.711779e+001	-1.077013e+001	-6.704001e+001
4439168.111	-8.494620e+000	1.748343e+002	-2.271856e+001	4.445083e+001	-2.271860e+001	4.578143e+001	-1.065881e+001	-7.064163e+001
4463604.853	-8.476998e+000	1.707462e+002	-2.292971e+001	4.419350e+001	-2.289450e+001	4.554144e+001	-1.053268e+001	-7.447489e+001
4488041.594	-8.494586e+000	1.663263e+002	-2.301952e+001	4.558454e+001	-2.296158e+001	4.677919e+001	-1.041740e+001	-7.862976e+001
4512478.336	-8.584075e+000	1.616446e+002	-2.276503e+001	4.803726e+001	-2.270683e+001	4.908346e+001	-1.034556e+001	-8.311669e+001
4536915.078	-8.769409e+000	1.569674e+002	-2.207055e+001	4.950133e+001	-2.203614e+001	5.038087e+001	-1.034980e+001	-8.772166e+001
4561351.820	-9.034473e+000	1.526969e+002	-2.119051e+001	4.816928e+001	-2.117161e+001	4.921254e+001	-1.042730e+001	-9.212907e+001
4585788.562	-9.314346e+000	1.488869e+002	-2.044551e+001	4.471106e+001	-2.041984e+001	4.588047e+001	-1.052805e+001	-9.611986e+001
4610225.303	-9.575878e+000	1.452882e+002	-1.990274e+001	4.060471e+001	-1.985543e+001	4.178158e+001	-1.060993e+001	-9.986678e+001
4634662.045	-9.828528e+000	1.416551e+002	-1.947565e+001	3.663982e+001	-1.941827e+001	3.772366e+001	-1.066574e+001	-1.035885e+002
4659098.787	-1.009774e+001	1.379332e+002	-1.908662e+001	3.285371e+001	-1.901667e+001	3.388272e+001	-1.071368e+001	-1.074438e+002
4683535.529	-1.039727e+001	1.341201e+002	-1.869459e+001	2.920740e+001	-1.863119e+001	3.017025e+001	-1.076263e+001	-1.114239e+002
4707972.270	-1.073082e+001	1.302125e+002	-1.830123e+001	2.571711e+001	-1.823141e+001	2.665464e+001	-1.081566e+001	-1.155921e+002
4732409.012	-1.113240e+001	1.261447e+002	-1.784549e+001	2.231117e+001	-1.776808e+001	2.322352e+001	-1.089618e+001	-1.200641e+002
4756845.754	-1.163425e+001	1.221421e+002	-1.729591e+001	1.856731e+001	-1.720749e+001	1.950743e+001	-1.103474e+001	-1.247981e+002
4781282.496	-1.223587e+001	1.185692e+002	-1.670156e+001	1.401489e+001	-1.659120e+001	1.487437e+001	-1.125672e+001	-1.295071e+002
4805719.237	-1.289534e+001	1.156207e+002	-1.614468e+001	8.682604e+000	-1.602361e+001	9.322445e+000	-1.154038e+001	-1.339248e+002
4830155.979	-1.357788e+001	1.132843e+002	-1.565969e+001	2.845998e+000	-1.553924e+001	3.298757e+000	-1.185328e+001	-1.380578e+002
4854592.721	-1.427465e+001	1.114609e+002	-1.523777e+001	-3.193310e+000	-1.513260e+001	-2.891166e+000	-1.218009e+001	-1.419789e+002
4879029.463	-1.497773e+001	1.101483e+002	-1.486787e+001	-9.363876e+000	-1.477823e+001	-9.137578e+000	-1.252183e+001	-1.457685e+002
4903466.205	-1.568466e+001	1.093899e+002	-1.453918e+001	-1.561887e+001	-1.446486e+001	-1.540622e+001	-1.287992e+001	-1.494218e+002
4927902.946	-1.638303e+001	1.091726e+002	-1.424221e+001	-2.191744e+001	-1.417998e+001	-2.172479e+001	-1.326472e+001	-1.529528e+002
4952339.688	-1.704796e+001	1.095239e+002	-1.398225e+001	-2.833309e+001	-1.392403e+001	-2.806894e+001	-1.367312e+001	-1.563337e+002
4976776.430	-1.766099e+001	1.103970e+002	-1.375479e+001	-3.476846e+001	-1.370152e+001	-3.452666e+001	-1.409883e+001	-1.594238e+002
5001213.172	-1.821118e+001	1.116755e+002	-1.355766e+001	-4.123800e+001	-1.351259e+001	-4.100825e+001	-1.454140e+001	-1.622514e+002
5025649.913	-1.868316e+001	1.131703e+002	-1.339603e+001	-4.771460e+001	-1.335221e+001	-4.749032e+001	-1.498668e+001	-1.648287e+002
5050086.655	-1.908455e+001	1.147408e+002	-1.326336e+001	-5.417616e+001	-1.322262e+001	-5.396297e+001	-1.542636e+001	-1.671343e+002
5074523.397	-1.943062e+001	1.162818e+002	-1.315427e+001	-6.060905e+001	-1.311982e+001	-6.040158e+001	-1.586042e+001	-1.691822e+002
5098960.139	-1.973799e+001	1.177264e+002	-1.306988e+001	-6.698686e+001	-1.303748e+001	-6.679141e+001	-1.628041e+001	-1.710200e+002
5123396.880	-2.001469e+001	1.190873e+002	-1.300501e+001	-7.332000e+001	-1.297415e+001	-7.313061e+001	-1.668409e+001	-1.726487e+002
5147833.622	-2.028089e+001	1.203663e+002	-1.295565e+001	-7.959951e+001	-1.292850e+001	-7.941158e+001	-1.706626e+001	-1.740974e+002
5172270.364	-2.053325e+001	1.216277e+002	-1.292194e+001	-8.583866e+001	-1.289664e+001	-8.566105e+001	-1.742413e+001	-1.753547e+002
5196707.106	-2.077894e+001	1.228646e+002	-1.290013e+001	-9.202524e+001	-1.287751e+001	-9.184759e+001	-1.775304e+001	-1.764913e+002
5221143.847	-2.102367e+001	1.241661e+002	-1.289061e+001	-9.816350e+001	-1.286772e+001	-9.797858e+001	-1.805331e+001	-1.775154e+002
5245580.589	-2.126264e+001	1.255327e+002	-1.289170e+001	-1.042893e+002	-1.287017e+001	-1.040970e+002	-1.831101e+001	-1.784435e+002
5270017.331	-2.150082e+001	1.270169e+002	-1.290069e+001	-1.103731e+002	-1.288099e+001	-1.101868e+002	-1.852872e+001	-1.793337e+002
5294454.073	-2.172470e+001	1.285958e+002	-1.291895e+001	-1.164485e+002	-1.289986e+001	-1.162506e+002	-1.870594e+001	1.797537e+002
5318890.815	-2.192992e+001	1.303385e+002	-1.294289e+001	-1.224826e+002	-1.292576e+001	-1.222855e+002	-1.883935e+001	1.788082e+002
5343327.556	-2.212415e+001	1.321367e+002	-1.297576e+001	-1.285349e+002	-1.295793e+001	-1.283208e+002	-1.893129e+001	1.777893e+002
5367764.298	-2.229680e+001	1.340028e+002	-1.301202e+001	-1.345772e+002	-1.299706e+001	-1.343640e+002	-1.897599e+001	1.766382e+002
5392201.040	-2.246798e+001	1.359180e+002	-1.306161e+001	-1.406339e+002	-1.304551e+001	-1.404100e+002	-1.897560e+001	1.752523e+002
5416637.782	-2.263583e+001	1.378926e+002	-1.312033e+001	-1.466985e+002	-1.310550e+001	-1.464681e+002	-1.893378e+001	1.735847e+002
5441074.523	-2.281171e+001	1.400651e+002	-1.318951e+001	-1.527687e+002	-1.317429e+001	-1.525163e+002	-1.886219e+001	1.715997e+002
