!Agilent Technologies,E5061B,MY49101568,A.02.00
!Date: Wed Mar 01 15:26:58 2023
!Data & Calibration Information:
!Freq	S11:SOLT2(OFF)	S21:SOLT2(OFF)	S12:SOLT2(OFF)	S22:SOLT2(OFF)
# Hz S dB R 50
1800000.000	-1.536483e+001	-1.136508e+000	-1.262129e+001	1.776532e+002	-1.260711e+001	1.778267e+002	-1.688335e+001	4.227250e+001
1824436.742	-1.546352e+001	-1.348675e+000	-1.253765e+001	1.715281e+002	-1.252620e+001	1.716869e+002	-1.680452e+001	4.286577e+001
1848873.484	-1.550244e+001	-1.864891e+000	-1.246867e+001	1.655724e+002	-1.245268e+001	1.657541e+002	-1.669220e+001	4.285302e+001
1873310.225	-1.546586e+001	-2.684595e+000	-1.243207e+001	1.597308e+002	-1.242037e+001	1.598663e+002	-1.648458e+001	4.218609e+001
1897746.967	-1.538888e+001	-3.549991e+000	-1.238399e+001	1.538785e+002	-1.237834e+001	1.540271e+002	-1.627815e+001	4.114931e+001
1922183.709	-1.528329e+001	-4.833902e+000	-1.234268e+001	1.481374e+002	-1.233489e+001	1.483743e+002	-1.609079e+001	3.952027e+001
1946620.451	-1.513738e+001	-6.785590e+000	-1.234090e+001	1.425649e+002	-1.231478e+001	1.425895e+002	-1.585113e+001	3.751722e+001
1971057.192	-1.498275e+001	-8.911689e+000	-1.232709e+001	1.369595e+002	-1.232350e+001	1.370788e+002	-1.564466e+001	3.473164e+001
1995493.934	-1.485621e+001	-1.152359e+001	-1.231786e+001	1.316012e+002	-1.233422e+001	1.317352e+002	-1.547697e+001	3.154929e+001
2019930.676	-1.474376e+001	-1.481430e+001	-1.234969e+001	1.265193e+002	-1.232832e+001	1.267254e+002	-1.538260e+001	2.805235e+001
2044367.418	-1.471473e+001	-1.791693e+001	-1.230368e+001	1.216778e+002	-1.229136e+001	1.218747e+002	-1.535431e+001	2.436927e+001
2068804.159	-1.469623e+001	-2.080369e+001	-1.221621e+001	1.167576e+002	-1.221774e+001	1.168866e+002	-1.532727e+001	2.095295e+001
2093240.901	-1.461740e+001	-2.384535e+001	-1.214792e+001	1.116208e+002	-1.214755e+001	1.117233e+002	-1.527868e+001	1.738999e+001
2117677.643	-1.455342e+001	-2.730238e+001	-1.209127e+001	1.065152e+002	-1.209751e+001	1.065993e+002	-1.522830e+001	1.344647e+001
2142114.385	-1.450949e+001	-3.098490e+001	-1.203265e+001	1.014759e+002	-1.203681e+001	1.016235e+002	-1.521769e+001	9.230836e+000
2166551.127	-1.449341e+001	-3.492053e+001	-1.197330e+001	9.649675e+001	-1.198090e+001	9.662095e+001	-1.522052e+001	4.733834e+000
2190987.868	-1.449946e+001	-3.923836e+001	-1.192632e+001	9.159219e+001	-1.192743e+001	9.168310e+001	-1.524626e+001	-6.544521e-002
2215424.610	-1.458027e+001	-4.362761e+001	-1.185535e+001	8.682856e+001	-1.187169e+001	8.692451e+001	-1.531592e+001	-5.192207e+000
2239861.352	-1.468822e+001	-4.798011e+001	-1.175874e+001	8.204596e+001	-1.177958e+001	8.220380e+001	-1.544453e+001	-1.035201e+001
2264298.094	-1.482870e+001	-5.232653e+001	-1.164154e+001	7.722198e+001	-1.166466e+001	7.744442e+001	-1.559906e+001	-1.560645e+001
2288734.835	-1.498165e+001	-5.672222e+001	-1.151355e+001	7.226882e+001	-1.153900e+001	7.255659e+001	-1.576149e+001	-2.097148e+001
2313171.577	-1.515770e+001	-6.133317e+001	-1.139015e+001	6.725744e+001	-1.140593e+001	6.754675e+001	-1.594424e+001	-2.650271e+001
2337608.319	-1.537497e+001	-6.610641e+001	-1.126330e+001	6.218867e+001	-1.128298e+001	6.246928e+001	-1.613016e+001	-3.239077e+001
2362045.061	-1.563340e+001	-7.102763e+001	-1.113694e+001	5.709110e+001	-1.115624e+001	5.738622e+001	-1.636306e+001	-3.854018e+001
2386481.802	-1.597777e+001	-7.603213e+001	-1.099939e+001	5.200300e+001	-1.102704e+001	5.230000e+001	-1.662731e+001	-4.512562e+001
2410918.544	-1.634682e+001	-8.115658e+001	-1.086246e+001	4.673202e+001	-1.088284e+001	4.708723e+001	-1.692539e+001	-5.186609e+001
2435355.286	-1.680033e+001	-8.628022e+001	-1.071981e+001	4.143577e+001	-1.073555e+001	4.179156e+001	-1.726247e+001	-5.892745e+001
2459792.028	-1.730827e+001	-9.152122e+001	-1.058006e+001	3.599347e+001	-1.059015e+001	3.636455e+001	-1.762389e+001	-6.627456e+001
2484228.769	-1.789353e+001	-9.683712e+001	-1.044853e+001	3.041528e+001	-1.045956e+001	3.084448e+001	-1.801155e+001	-7.414044e+001
2508665.511	-1.857376e+001	-1.022790e+002	-1.032597e+001	2.477232e+001	-1.033238e+001	2.517944e+001	-1.842317e+001	-8.227696e+001
2533102.253	-1.935399e+001	-1.078946e+002	-1.021860e+001	1.905930e+001	-1.022140e+001	1.942573e+001	-1.885960e+001	-9.091430e+001
2557538.995	-2.028183e+001	-1.137497e+002	-1.012908e+001	1.323570e+001	-1.012971e+001	1.361319e+001	-1.930314e+001	-1.000780e+002
2581975.737	-2.137158e+001	-1.197674e+002	-1.005596e+001	7.353232e+000	-1.006159e+001	7.732218e+000	-1.973384e+001	-1.097462e+002
2606412.478	-2.273242e+001	-1.260988e+002	-1.000532e+001	1.490934e+000	-1.000577e+001	1.838334e+000	-2.018228e+001	-1.200427e+002
2630849.220	-2.441320e+001	-1.327719e+002	-9.973919e+000	-4.409004e+000	-9.968069e+000	-4.055366e+000	-2.061681e+001	-1.308966e+002
2655285.962	-2.655645e+001	-1.395840e+002	-9.954465e+000	-1.029674e+001	-9.952505e+000	-9.948317e+000	-2.099832e+001	-1.422096e+002
2679722.704	-2.942337e+001	-1.476871e+002	-9.963292e+000	-1.620956e+001	-9.950991e+000	-1.585777e+001	-2.135179e+001	-1.538965e+002
2704159.445	-3.376858e+001	-1.591676e+002	-9.990716e+000	-2.206465e+001	-9.977314e+000	-2.174873e+001	-2.159319e+001	-1.656158e+002
2728596.187	-4.214387e+001	1.694361e+002	-1.004330e+001	-2.780247e+001	-1.002262e+001	-2.750541e+001	-2.174071e+001	-1.777847e+002
2753032.929	-4.076382e+001	5.496254e+001	-1.010472e+001	-3.344451e+001	-1.008217e+001	-3.314887e+001	-2.178095e+001	1.701464e+002
2777469.671	-3.325398e+001	2.895209e+001	-1.017013e+001	-3.894610e+001	-1.015102e+001	-3.872010e+001	-2.175649e+001	1.582144e+002
2801906.412	-2.927047e+001	1.788746e+001	-1.023835e+001	-4.440398e+001	-1.022148e+001	-4.421629e+001	-2.169529e+001	1.466662e+002
2826343.154	-2.672688e+001	1.005922e+001	-1.031070e+001	-4.989165e+001	-1.029315e+001	-4.970391e+001	-2.164262e+001	1.357784e+002
2850779.896	-2.483420e+001	3.387753e+000	-1.039401e+001	-5.526932e+001	-1.038412e+001	-5.509828e+001	-2.152678e+001	1.256309e+002
2875216.638	-2.337138e+001	-2.318672e+000	-1.049542e+001	-6.063037e+001	-1.048077e+001	-6.041447e+001	-2.140592e+001	1.161910e+002
2899653.380	-2.218113e+001	-7.760289e+000	-1.060008e+001	-6.585484e+001	-1.058754e+001	-6.564827e+001	-2.127229e+001	1.074795e+002
2924090.121	-2.119343e+001	-1.293451e+001	-1.071102e+001	-7.096111e+001	-1.070102e+001	-7.078109e+001	-2.113728e+001	9.939289e+001
2948526.863	-2.034657e+001	-1.788197e+001	-1.082800e+001	-7.595630e+001	-1.082074e+001	-7.579959e+001	-2.099704e+001	9.182244e+001
2972963.605	-1.961939e+001	-2.267981e+001	-1.094455e+001	-8.083555e+001	-1.093977e+001	-8.068728e+001	-2.084711e+001	8.471642e+001
2997400.347	-1.899360e+001	-2.737337e+001	-1.105655e+001	-8.560714e+001	-1.105392e+001	-8.547517e+001	-2.072469e+001	7.788431e+001
3021837.088	-1.844764e+001	-3.200615e+001	-1.116050e+001	-9.026183e+001	-1.116244e+001	-9.013880e+001	-2.060847e+001	7.133384e+001
3046273.830	-1.797404e+001	-3.655073e+001	-1.125818e+001	-9.484891e+001	-1.126350e+001	-9.472542e+001	-2.051821e+001	6.506140e+001
3070710.572	-1.756261e+001	-4.108422e+001	-1.133758e+001	-9.934000e+001	-1.134878e+001	-9.922519e+001	-2.045733e+001	5.889073e+001
3095147.314	-1.720878e+001	-4.547340e+001	-1.141269e+001	-1.038073e+002	-1.142577e+001	-1.036935e+002	-2.043705e+001	5.289185e+001
3119584.055	-1.691464e+001	-4.988368e+001	-1.146687e+001	-1.082539e+002	-1.148773e+001	-1.081132e+002	-2.045799e+001	4.700158e+001
3144020.797	-1.666752e+001	-5.418307e+001	-1.151215e+001	-1.126644e+002	-1.153455e+001	-1.125602e+002	-2.054076e+001	4.131315e+001
3168457.539	-1.647455e+001	-5.838225e+001	-1.154684e+001	-1.171572e+002	-1.157129e+001	-1.170427e+002	-2.069535e+001	3.578880e+001
3192894.281	-1.633235e+001	-6.249667e+001	-1.157263e+001	-1.216863e+002	-1.160077e+001	-1.215519e+002	-2.092035e+001	3.053729e+001
3217331.023	-1.622589e+001	-6.638731e+001	-1.160331e+001	-1.262798e+002	-1.163236e+001	-1.261088e+002	-2.118460e+001	2.566487e+001
3241767.764	-1.615526e+001	-7.009152e+001	-1.163533e+001	-1.308839e+002	-1.166484e+001	-1.307294e+002	-2.150947e+001	2.125833e+001
3266204.506	-1.610703e+001	-7.361365e+001	-1.167169e+001	-1.354926e+002	-1.170505e+001	-1.352963e+002	-2.185636e+001	1.734885e+001
3290641.248	-1.607219e+001	-7.705023e+001	-1.170589e+001	-1.400177e+002	-1.174038e+001	-1.398131e+002	-2.221742e+001	1.361915e+001
3315077.990	-1.606540e+001	-8.047209e+001	-1.172160e+001	-1.445346e+002	-1.175485e+001	-1.443191e+002	-2.263105e+001	9.737764e+000
3339514.731	-1.610622e+001	-8.378533e+001	-1.172829e+001	-1.491755e+002	-1.176239e+001	-1.489385e+002	-2.317641e+001	6.190302e+000
3363951.473	-1.618949e+001	-8.688640e+001	-1.173703e+001	-1.539339e+002	-1.176846e+001	-1.536819e+002	-2.385604e+001	3.327087e+000
3388388.215	-1.630966e+001	-8.967319e+001	-1.175333e+001	-1.587737e+002	-1.178488e+001	-1.584993e+002	-2.463331e+001	1.524947e+000
3412824.957	-1.645153e+001	-9.214749e+001	-1.178104e+001	-1.636507e+002	-1.181327e+001	-1.633712e+002	-2.550086e+001	1.098213e+000
3437261.698	-1.661027e+001	-9.425265e+001	-1.182077e+001	-1.685713e+002	-1.185295e+001	-1.682826e+002	-2.640601e+001	2.398726e+000
3461698.440	-1.677819e+001	-9.599636e+001	-1.187370e+001	-1.735320e+002	-1.190527e+001	-1.732433e+002	-2.726460e+001	5.978043e+000
3486135.182	-1.693946e+001	-9.727187e+001	-1.194641e+001	-1.784943e+002	-1.197455e+001	-1.782070e+002	-2.793447e+001	1.206798e+001
3510571.924	-1.707221e+001	-9.817607e+001	-1.203423e+001	1.765716e+002	-1.206244e+001	1.768626e+002	-2.815665e+001	1.994157e+001
3535008.666	-1.716828e+001	-9.873584e+001	-1.213714e+001	1.717127e+002	-1.216756e+001	1.720040e+002	-2.783033e+001	2.791751e+001
3559445.407	-1.721150e+001	-9.902123e+001	-1.225388e+001	1.669510e+002	-1.228430e+001	1.672284e+002	-2.709943e+001	3.413352e+001
3583882.149	-1.720497e+001	-9.919184e+001	-1.237188e+001	1.622690e+002	-1.240384e+001	1.625686e+002	-2.617076e+001	3.806962e+001
3608318.891	-1.715004e+001	-9.931215e+001	-1.249120e+001	1.576825e+002	-1.252348e+001	1.579818e+002	-2.520940e+001	4.023565e+001
3632755.633	-1.704997e+001	-9.941091e+001	-1.260908e+001	1.530974e+002	-1.264105e+001	1.534470e+002	-2.427083e+001	4.099367e+001
3657192.374	-1.690948e+001	-9.948653e+001	-1.272449e+001	1.485560e+002	-1.275553e+001	1.489108e+002	-2.338855e+001	4.096327e+001
3681629.116	-1.672621e+001	-9.955252e+001	-1.284278e+001	1.439892e+002	-1.287614e+001	1.443465e+002	-2.252480e+001	4.021388e+001
3706065.858	-1.648753e+001	-9.962909e+001	-1.297517e+001	1.393952e+002	-1.300735e+001	1.397563e+002	-2.168424e+001	3.879706e+001
3730502.600	-1.618832e+001	-9.986637e+001	-1.312669e+001	1.348184e+002	-1.316649e+001	1.351568e+002	-2.085004e+001	3.671791e+001
3754939.341	-1.582571e+001	-1.003812e+002	-1.330935e+001	1.303154e+002	-1.334604e+001	1.306468e+002	-2.007161e+001	3.397768e+001
3779376.083	-1.542156e+001	-1.013238e+002	-1.351679e+001	1.259547e+002	-1.355267e+001	1.262899e+002	-1.934476e+001	3.060012e+001
3803812.825	-1.500835e+001	-1.027528e+002	-1.373592e+001	1.218236e+002	-1.377965e+001	1.221863e+002	-1.870661e+001	2.669233e+001
3828249.567	-1.459152e+001	-1.046332e+002	-1.396788e+001	1.179522e+002	-1.401119e+001	1.183252e+002	-1.815229e+001	2.251993e+001
3852686.308	-1.420243e+001	-1.068497e+002	-1.419575e+001	1.142820e+002	-1.424291e+001	1.146704e+002	-1.766861e+001	1.823411e+001
3877123.050	-1.382010e+001	-1.093960e+002	-1.443766e+001	1.108556e+002	-1.448195e+001	1.112446e+002	-1.723288e+001	1.379775e+001
3901559.792	-1.345428e+001	-1.122926e+002	-1.468963e+001	1.077721e+002	-1.473253e+001	1.082156e+002	-1.685086e+001	9.045589e+000
3925996.534	-1.313685e+001	-1.156453e+002	-1.491820e+001	1.052624e+002	-1.496842e+001	1.056708e+002	-1.654427e+001	4.050765e+000
3950433.276	-1.289064e+001	-1.193276e+002	-1.508491e+001	1.033030e+002	-1.514049e+001	1.037011e+002	-1.634724e+001	-1.095579e+000
3974870.017	-1.272665e+001	-1.231076e+002	-1.514981e+001	1.016022e+002	-1.521791e+001	1.019879e+002	-1.625472e+001	-6.109268e+000
3999306.759	-1.264929e+001	-1.268126e+002	-1.510225e+001	9.987108e+001	-1.517357e+001	1.003687e+002	-1.627309e+001	-1.082036e+001
4023743.501	-1.263702e+001	-1.303279e+002	-1.496875e+001	9.792225e+001	-1.503711e+001	9.843517e+001	-1.636018e+001	-1.504718e+001
4048180.243	-1.268606e+001	-1.334629e+002	-1.475880e+001	9.547397e+001	-1.482722e+001	9.605662e+001	-1.650474e+001	-1.867430e+001
4072616.984	-1.277077e+001	-1.361821e+002	-1.451265e+001	9.251017e+001	-1.457938e+001	9.314791e+001	-1.667450e+001	-2.168803e+001
4097053.726	-1.286099e+001	-1.384747e+002	-1.426760e+001	8.908567e+001	-1.433095e+001	8.972678e+001	-1.682775e+001	-2.404650e+001
4121490.468	-1.293954e+001	-1.403052e+002	-1.403765e+001	8.519220e+001	-1.409425e+001	8.588488e+001	-1.694978e+001	-2.586457e+001
4145927.210	-1.299035e+001	-1.418512e+002	-1.383154e+001	8.106953e+001	-1.388708e+001	8.177061e+001	-1.701880e+001	-2.735464e+001
4170363.951	-1.300169e+001	-1.431694e+002	-1.365579e+001	7.676726e+001	-1.370596e+001	7.744421e+001	-1.703036e+001	-2.858773e+001
4194800.693	-1.297747e+001	-1.443712e+002	-1.350334e+001	7.231263e+001	-1.355073e+001	7.298640e+001	-1.698531e+001	-2.975945e+001
4219237.435	-1.290381e+001	-1.455321e+002	-1.338224e+001	6.774445e+001	-1.342648e+001	6.840809e+001	-1.687730e+001	-3.090494e+001
4243674.177	-1.279127e+001	-1.467776e+002	-1.328688e+001	6.318335e+001	-1.332947e+001	6.386732e+001	-1.672597e+001	-3.228899e+001
4268110.919	-1.265015e+001	-1.481515e+002	-1.321202e+001	5.861863e+001	-1.325996e+001	5.931953e+001	-1.653431e+001	-3.385542e+001
4292547.660	-1.249235e+001	-1.496889e+002	-1.315182e+001	5.411621e+001	-1.319901e+001	5.481570e+001	-1.633842e+001	-3.564190e+001
4316984.402	-1.232102e+001	-1.513735e+002	-1.310261e+001	4.960225e+001	-1.314959e+001	5.034075e+001	-1.612957e+001	-3.761441e+001
4341421.144	-1.214406e+001	-1.532334e+002	-1.306161e+001	4.515626e+001	-1.310720e+001	4.590710e+001	-1.592360e+001	-3.975402e+001
4365857.886	-1.196267e+001	-1.552457e+002	-1.303050e+001	4.071735e+001	-1.307545e+001	4.149758e+001	-1.571219e+001	-4.207117e+001
4390294.627	-1.178656e+001	-1.574433e+002	-1.300657e+001	3.635262e+001	-1.305147e+001	3.716433e+001	-1.551049e+001	-4.458498e+001
4414731.369	-1.161635e+001	-1.597689e+002	-1.298863e+001	3.200751e+001	-1.302893e+001	3.285800e+001	-1.531519e+001	-4.721896e+001
4439168.111	-1.146342e+001	-1.622488e+002	-1.297039e+001	2.770644e+001	-1.300509e+001	2.862166e+001	-1.514011e+001	-4.999509e+001
4463604.853	-1.132338e+001	-1.648577e+002	-1.295364e+001	2.350606e+001	-1.298814e+001	2.441805e+001	-1.497351e+001	-5.287833e+001
4488041.594	-1.119916e+001	-1.675334e+002	-1.293434e+001	1.932187e+001	-1.296403e+001	2.027081e+001	-1.482830e+001	-5.582458e+001
4512478.336	-1.109748e+001	-1.702803e+002	-1.291022e+001	1.518223e+001	-1.293451e+001	1.615814e+001	-1.470231e+001	-5.885075e+001
4536915.078	-1.101057e+001	-1.730632e+002	-1.287885e+001	1.105830e+001	-1.289533e+001	1.203521e+001	-1.459233e+001	-6.186347e+001
4561351.820	-1.094294e+001	-1.758860e+002	-1.284025e+001	6.955233e+000	-1.285975e+001	7.951557e+000	-1.449698e+001	-6.497282e+001
4585788.562	-1.089366e+001	-1.788185e+002	-1.281227e+001	2.886044e+000	-1.281996e+001	3.888829e+000	-1.441623e+001	-6.814074e+001
4610225.303	-1.087020e+001	1.782724e+002	-1.276694e+001	-1.140402e+000	-1.276944e+001	-1.106893e-001	-1.436463e+001	-7.135216e+001
4634662.045	-1.087171e+001	1.754138e+002	-1.270406e+001	-5.149398e+000	-1.270382e+001	-4.135733e+000	-1.433650e+001	-7.450893e+001
4659098.787	-1.088976e+001	1.725767e+002	-1.263229e+001	-9.182459e+000	-1.262051e+001	-8.201003e+000	-1.433374e+001	-7.759054e+001
4683535.529	-1.091428e+001	1.698385e+002	-1.254540e+001	-1.334159e+001	-1.253174e+001	-1.234669e+001	-1.433786e+001	-8.061991e+001
4707972.270	-1.094978e+001	1.671250e+002	-1.245347e+001	-1.753947e+001	-1.243799e+001	-1.660676e+001	-1.434931e+001	-8.352487e+001
4732409.012	-1.099416e+001	1.643813e+002	-1.236615e+001	-2.183154e+001	-1.234344e+001	-2.091462e+001	-1.437110e+001	-8.643191e+001
4756845.754	-1.104520e+001	1.616624e+002	-1.227622e+001	-2.623031e+001	-1.225553e+001	-2.530699e+001	-1.439246e+001	-8.932767e+001
4781282.496	-1.111095e+001	1.588945e+002	-1.219572e+001	-3.067925e+001	-1.216618e+001	-2.976671e+001	-1.442250e+001	-9.217138e+001
4805719.237	-1.119315e+001	1.561334e+002	-1.211663e+001	-3.515956e+001	-1.208296e+001	-3.427746e+001	-1.445818e+001	-9.500382e+001
4830155.979	-1.128911e+001	1.533695e+002	-1.204036e+001	-3.969235e+001	-1.200204e+001	-3.884027e+001	-1.449873e+001	-9.782106e+001
4854592.721	-1.140258e+001	1.505888e+002	-1.197381e+001	-4.426815e+001	-1.193180e+001	-4.342733e+001	-1.454699e+001	-1.006835e+002
4879029.463	-1.153711e+001	1.478234e+002	-1.190883e+001	-4.886584e+001	-1.186286e+001	-4.804092e+001	-1.460411e+001	-1.035057e+002
4903466.205	-1.169435e+001	1.450768e+002	-1.184909e+001	-5.347503e+001	-1.180081e+001	-5.267703e+001	-1.467279e+001	-1.063622e+002
4927902.946	-1.187451e+001	1.423646e+002	-1.179446e+001	-5.811395e+001	-1.174415e+001	-5.734276e+001	-1.474877e+001	-1.091966e+002
4952339.688	-1.207881e+001	1.396865e+002	-1.174511e+001	-6.279403e+001	-1.169130e+001	-6.201614e+001	-1.483576e+001	-1.120389e+002
4976776.430	-1.230255e+001	1.370974e+002	-1.169907e+001	-6.748037e+001	-1.164455e+001	-6.672017e+001	-1.493157e+001	-1.148421e+002
5001213.172	-1.255532e+001	1.345910e+002	-1.165823e+001	-7.214784e+001	-1.160007e+001	-7.141538e+001	-1.504424e+001	-1.176380e+002
5025649.913	-1.283331e+001	1.321922e+002	-1.161788e+001	-7.683452e+001	-1.156084e+001	-7.613733e+001	-1.516521e+001	-1.203649e+002
5050086.655	-1.313604e+001	1.299036e+002	-1.158455e+001	-8.153828e+001	-1.152637e+001	-8.088023e+001	-1.529301e+001	-1.230704e+002
5074523.397	-1.345838e+001	1.277668e+002	-1.155436e+001	-8.626950e+001	-1.149628e+001	-8.562080e+001	-1.543272e+001	-1.257294e+002
5098960.139	-1.380552e+001	1.257982e+002	-1.152805e+001	-9.100185e+001	-1.146997e+001	-9.037929e+001	-1.557905e+001	-1.283415e+002
5123396.880	-1.417455e+001	1.239812e+002	-1.150670e+001	-9.574758e+001	-1.144903e+001	-9.516851e+001	-1.572788e+001	-1.309033e+002
5147833.622	-1.456454e+001	1.223637e+002	-1.149213e+001	-1.005177e+002	-1.143580e+001	-9.994876e+001	-1.588270e+001	-1.334479e+002
5172270.364	-1.497751e+001	1.209636e+002	-1.148522e+001	-1.052737e+002	-1.142944e+001	-1.047322e+002	-1.604339e+001	-1.360015e+002
5196707.106	-1.541305e+001	1.198307e+002	-1.148264e+001	-1.100114e+002	-1.142887e+001	-1.094925e+002	-1.621332e+001	-1.385348e+002
5221143.847	-1.586439e+001	1.190221e+002	-1.148342e+001	-1.147062e+002	-1.143062e+001	-1.142465e+002	-1.639229e+001	-1.409841e+002
5245580.589	-1.632776e+001	1.185470e+002	-1.148733e+001	-1.194109e+002	-1.143576e+001	-1.189702e+002	-1.657988e+001	-1.434304e+002
5270017.331	-1.678949e+001	1.184528e+002	-1.149194e+001	-1.241160e+002	-1.144130e+001	-1.236929e+002	-1.677549e+001	-1.458107e+002
5294454.073	-1.724098e+001	1.187456e+002	-1.149743e+001	-1.288260e+002	-1.145267e+001	-1.283992e+002	-1.697335e+001	-1.481744e+002
5318890.815	-1.767916e+001	1.194399e+002	-1.150723e+001	-1.335146e+002	-1.146379e+001	-1.331158e+002	-1.717272e+001	-1.504466e+002
5343327.556	-1.808610e+001	1.204668e+002	-1.151715e+001	-1.382221e+002	-1.147707e+001	-1.378286e+002	-1.737132e+001	-1.526951e+002
5367764.298	-1.846021e+001	1.218990e+002	-1.153165e+001	-1.429099e+002	-1.149341e+001	-1.425277e+002	-1.757178e+001	-1.549049e+002
5392201.040	-1.878348e+001	1.235856e+002	-1.154763e+001	-1.476245e+002	-1.151048e+001	-1.472408e+002	-1.776991e+001	-1.571007e+002
5416637.782	-1.905321e+001	1.255130e+002	-1.156502e+001	-1.523249e+002	-1.153027e+001	-1.519322e+002	-1.796580e+001	-1.592776e+002
5441074.523	-1.926143e+001	1.276234e+002	-1.158582e+001	-1.570192e+002	-1.155277e+001	-1.566383e+002	-1.815498e+001	-1.614615e+002
