!Agilent Technologies,E5061B,MY49101568,A.02.00
!Date: Wed Mar 01 15:29:31 2023
!Data & Calibration Information:
!Freq	S11:SOLT2(OFF)	S21:SOLT2(OFF)	S12:SOLT2(OFF)	S22:SOLT2(OFF)
# Hz S dB R 50
1800000.000	-9.927054e+000	-1.684984e+001	-2.226559e+001	-1.495751e+002	-2.226801e+001	-1.496016e+002	-1.034893e+001	1.967064e+001
1824436.742	-1.006660e+001	-2.100964e+001	-2.194226e+001	-1.537152e+002	-2.193358e+001	-1.537267e+002	-1.051000e+001	1.605185e+001
1848873.484	-1.022016e+001	-2.525967e+001	-2.158403e+001	-1.579231e+002	-2.159853e+001	-1.577449e+002	-1.067264e+001	1.234704e+001
1873310.225	-1.036927e+001	-2.956277e+001	-2.125121e+001	-1.620569e+002	-2.126565e+001	-1.621180e+002	-1.083545e+001	8.693918e+000
1897746.967	-1.053127e+001	-3.390202e+001	-2.089851e+001	-1.664170e+002	-2.091172e+001	-1.664370e+002	-1.100065e+001	4.963135e+000
1922183.709	-1.070189e+001	-3.833028e+001	-2.054196e+001	-1.709293e+002	-2.056370e+001	-1.709304e+002	-1.116416e+001	1.150820e+000
1946620.451	-1.087493e+001	-4.287270e+001	-2.018244e+001	-1.753822e+002	-2.020748e+001	-1.753855e+002	-1.132786e+001	-2.745219e+000
1971057.192	-1.106439e+001	-4.746462e+001	-1.981909e+001	1.798797e+002	-1.984395e+001	1.799081e+002	-1.149758e+001	-6.689250e+000
1995493.934	-1.126373e+001	-5.211802e+001	-1.945674e+001	1.750125e+002	-1.948420e+001	1.751657e+002	-1.166959e+001	-1.069668e+001
2019930.676	-1.147104e+001	-5.693262e+001	-1.909958e+001	1.701976e+002	-1.913292e+001	1.702599e+002	-1.183459e+001	-1.469882e+001
2044367.418	-1.168281e+001	-6.176610e+001	-1.875047e+001	1.651988e+002	-1.878685e+001	1.653821e+002	-1.198665e+001	-1.887776e+001
2068804.159	-1.190338e+001	-6.676927e+001	-1.840708e+001	1.602625e+002	-1.844259e+001	1.605254e+002	-1.213479e+001	-2.315216e+001
2093240.901	-1.215078e+001	-7.202188e+001	-1.802277e+001	1.554420e+002	-1.804952e+001	1.555751e+002	-1.229844e+001	-2.756390e+001
2117677.643	-1.243040e+001	-7.730391e+001	-1.763404e+001	1.501604e+002	-1.767497e+001	1.503177e+002	-1.246071e+001	-3.197465e+001
2142114.385	-1.272542e+001	-8.271478e+001	-1.725518e+001	1.448089e+002	-1.729978e+001	1.450258e+002	-1.261601e+001	-3.653012e+001
2166551.127	-1.304738e+001	-8.815847e+001	-1.688381e+001	1.391822e+002	-1.692389e+001	1.394694e+002	-1.277339e+001	-4.114173e+001
2190987.868	-1.338704e+001	-9.370958e+001	-1.652390e+001	1.333872e+002	-1.656980e+001	1.337319e+002	-1.292237e+001	-4.579883e+001
2215424.610	-1.373104e+001	-9.932557e+001	-1.619729e+001	1.274183e+002	-1.623839e+001	1.278722e+002	-1.305814e+001	-5.052842e+001
2239861.352	-1.408645e+001	-1.052132e+002	-1.589262e+001	1.215323e+002	-1.592912e+001	1.219394e+002	-1.317267e+001	-5.540683e+001
2264298.094	-1.446674e+001	-1.113492e+002	-1.558568e+001	1.155767e+002	-1.562318e+001	1.160292e+002	-1.327845e+001	-6.047238e+001
2288734.835	-1.487372e+001	-1.177288e+002	-1.528726e+001	1.095415e+002	-1.531742e+001	1.100035e+002	-1.337205e+001	-6.569815e+001
2313171.577	-1.529624e+001	-1.242746e+002	-1.500665e+001	1.033572e+002	-1.503680e+001	1.038508e+002	-1.345082e+001	-7.105306e+001
2337608.319	-1.575159e+001	-1.310133e+002	-1.473243e+001	9.702358e+001	-1.475484e+001	9.756882e+001	-1.352776e+001	-7.658979e+001
2362045.061	-1.622085e+001	-1.380073e+002	-1.447662e+001	9.060886e+001	-1.450520e+001	9.116579e+001	-1.358219e+001	-8.219274e+001
2386481.802	-1.667337e+001	-1.452350e+002	-1.425752e+001	8.404178e+001	-1.428297e+001	8.458289e+001	-1.361450e+001	-8.790216e+001
2410918.544	-1.709816e+001	-1.529071e+002	-1.407462e+001	7.747510e+001	-1.408944e+001	7.805062e+001	-1.361666e+001	-9.388264e+001
2435355.286	-1.749589e+001	-1.610799e+002	-1.391838e+001	7.092006e+001	-1.393051e+001	7.150345e+001	-1.358917e+001	-1.000392e+002
2459792.028	-1.785602e+001	-1.700882e+002	-1.378660e+001	6.450327e+001	-1.379046e+001	6.507520e+001	-1.352832e+001	-1.065143e+002
2484228.769	-1.821344e+001	-1.798515e+002	-1.365225e+001	5.810950e+001	-1.363817e+001	5.880909e+001	-1.346783e+001	-1.134534e+002
2508665.511	-1.857631e+001	1.697196e+002	-1.350255e+001	5.170280e+001	-1.347248e+001	5.233600e+001	-1.343651e+001	-1.205675e+002
2533102.253	-1.894074e+001	1.590848e+002	-1.335780e+001	4.506097e+001	-1.333189e+001	4.566617e+001	-1.340535e+001	-1.277356e+002
2557538.995	-1.918573e+001	1.483285e+002	-1.326261e+001	3.826726e+001	-1.322618e+001	3.883228e+001	-1.336765e+001	-1.349010e+002
2581975.737	-1.931765e+001	1.373750e+002	-1.320293e+001	3.146793e+001	-1.316276e+001	3.199021e+001	-1.331877e+001	-1.421321e+002
2606412.478	-1.930768e+001	1.263112e+002	-1.318355e+001	2.472840e+001	-1.314241e+001	2.519460e+001	-1.325025e+001	-1.493992e+002
2630849.220	-1.919791e+001	1.153147e+002	-1.318961e+001	1.802852e+001	-1.313802e+001	1.847366e+001	-1.318717e+001	-1.568176e+002
2655285.962	-1.899943e+001	1.044285e+002	-1.321555e+001	1.140722e+001	-1.315228e+001	1.177300e+001	-1.313129e+001	-1.642710e+002
2679722.704	-1.871593e+001	9.408703e+001	-1.327217e+001	4.819198e+000	-1.321062e+001	5.109585e+000	-1.307267e+001	-1.716174e+002
2704159.445	-1.836171e+001	8.413202e+001	-1.336264e+001	-1.598691e+000	-1.330739e+001	-1.398924e+000	-1.299618e+001	-1.788756e+002
2728596.187	-1.796635e+001	7.476736e+001	-1.348383e+001	-7.961649e+000	-1.342142e+001	-7.747721e+000	-1.292507e+001	1.738466e+002
2753032.929	-1.753959e+001	6.574180e+001	-1.361565e+001	-1.407320e+001	-1.355737e+001	-1.387777e+001	-1.284585e+001	1.666096e+002
2777469.671	-1.711155e+001	5.702041e+001	-1.375094e+001	-1.993463e+001	-1.369200e+001	-1.978400e+001	-1.277521e+001	1.593299e+002
2801906.412	-1.670914e+001	4.876799e+001	-1.388227e+001	-2.576406e+001	-1.381849e+001	-2.564977e+001	-1.274254e+001	1.521482e+002
2826343.154	-1.634670e+001	4.100908e+001	-1.401870e+001	-3.155465e+001	-1.396127e+001	-3.148244e+001	-1.272586e+001	1.451922e+002
2850779.896	-1.599177e+001	3.377304e+001	-1.417700e+001	-3.727343e+001	-1.412124e+001	-3.725532e+001	-1.272117e+001	1.385320e+002
2875216.638	-1.565525e+001	2.699374e+001	-1.435552e+001	-4.288586e+001	-1.430355e+001	-4.289418e+001	-1.272196e+001	1.320785e+002
2899653.380	-1.533747e+001	2.057561e+001	-1.454135e+001	-4.834548e+001	-1.449463e+001	-4.836104e+001	-1.272334e+001	1.258453e+002
2924090.121	-1.502848e+001	1.447821e+001	-1.474168e+001	-5.361304e+001	-1.469881e+001	-5.369723e+001	-1.272718e+001	1.198449e+002
2948526.863	-1.473497e+001	8.635992e+000	-1.494391e+001	-5.869875e+001	-1.490765e+001	-5.878610e+001	-1.272425e+001	1.139923e+002
2972963.605	-1.445781e+001	3.050234e+000	-1.514531e+001	-6.360804e+001	-1.511495e+001	-6.374211e+001	-1.272866e+001	1.083155e+002
2997400.347	-1.419636e+001	-2.329803e+000	-1.534311e+001	-6.836975e+001	-1.531847e+001	-6.848855e+001	-1.273113e+001	1.027868e+002
3021837.088	-1.395013e+001	-7.543221e+000	-1.553099e+001	-7.298325e+001	-1.551619e+001	-7.311871e+001	-1.273728e+001	9.740547e+001
3046273.830	-1.371806e+001	-1.256038e+001	-1.571696e+001	-7.744573e+001	-1.570369e+001	-7.761133e+001	-1.274812e+001	9.217033e+001
3070710.572	-1.350283e+001	-1.741970e+001	-1.588783e+001	-8.181429e+001	-1.588255e+001	-8.198194e+001	-1.276557e+001	8.707315e+001
3095147.314	-1.330217e+001	-2.213143e+001	-1.605002e+001	-8.608017e+001	-1.605017e+001	-8.626117e+001	-1.278574e+001	8.210896e+001
3119584.055	-1.311475e+001	-2.673327e+001	-1.619429e+001	-9.025421e+001	-1.620280e+001	-9.045161e+001	-1.281347e+001	7.727028e+001
3144020.797	-1.294184e+001	-3.118375e+001	-1.633113e+001	-9.434956e+001	-1.634231e+001	-9.457642e+001	-1.284610e+001	7.257714e+001
3168457.539	-1.278231e+001	-3.552252e+001	-1.645291e+001	-9.845677e+001	-1.647533e+001	-9.863515e+001	-1.288400e+001	6.802040e+001
3192894.281	-1.263421e+001	-3.972536e+001	-1.657382e+001	-1.024722e+002	-1.659774e+001	-1.027028e+002	-1.292906e+001	6.359106e+001
3217331.023	-1.249596e+001	-4.382334e+001	-1.668354e+001	-1.065008e+002	-1.671357e+001	-1.066953e+002	-1.297319e+001	5.931119e+001
3241767.764	-1.236584e+001	-4.780587e+001	-1.678857e+001	-1.104754e+002	-1.682557e+001	-1.106294e+002	-1.302050e+001	5.517503e+001
3266204.506	-1.224001e+001	-5.168472e+001	-1.688917e+001	-1.143802e+002	-1.693182e+001	-1.145459e+002	-1.306508e+001	5.113510e+001
3290641.248	-1.211927e+001	-5.549403e+001	-1.698402e+001	-1.181751e+002	-1.703308e+001	-1.183136e+002	-1.310099e+001	4.719323e+001
3315077.990	-1.200482e+001	-5.925702e+001	-1.705856e+001	-1.219203e+002	-1.711016e+001	-1.220375e+002	-1.314289e+001	4.327217e+001
3339514.731	-1.190031e+001	-6.296637e+001	-1.711506e+001	-1.256669e+002	-1.717208e+001	-1.257466e+002	-1.319044e+001	3.943733e+001
3363951.473	-1.180661e+001	-6.663151e+001	-1.715926e+001	-1.294478e+002	-1.722237e+001	-1.294826e+002	-1.324790e+001	3.569630e+001
3388388.215	-1.172225e+001	-7.021076e+001	-1.720060e+001	-1.332178e+002	-1.726451e+001	-1.332425e+002	-1.330843e+001	3.206254e+001
3412824.957	-1.164532e+001	-7.372084e+001	-1.722657e+001	-1.370116e+002	-1.730016e+001	-1.370049e+002	-1.337052e+001	2.853716e+001
3437261.698	-1.157577e+001	-7.718243e+001	-1.725438e+001	-1.407962e+002	-1.732848e+001	-1.407612e+002	-1.343691e+001	2.509646e+001
3461698.440	-1.151526e+001	-8.054686e+001	-1.727398e+001	-1.446066e+002	-1.735177e+001	-1.445242e+002	-1.350452e+001	2.176440e+001
3486135.182	-1.146029e+001	-8.385806e+001	-1.728974e+001	-1.483940e+002	-1.736890e+001	-1.483005e+002	-1.357559e+001	1.854410e+001
3510571.924	-1.141263e+001	-8.709277e+001	-1.730020e+001	-1.522109e+002	-1.738234e+001	-1.520645e+002	-1.364352e+001	1.542473e+001
3535008.666	-1.136862e+001	-9.025147e+001	-1.731197e+001	-1.559877e+002	-1.739295e+001	-1.558142e+002	-1.370876e+001	1.241541e+001
3559445.407	-1.132780e+001	-9.334748e+001	-1.731388e+001	-1.597681e+002	-1.739464e+001	-1.595578e+002	-1.377075e+001	9.494621e+000
3583882.149	-1.128940e+001	-9.637567e+001	-1.730915e+001	-1.635013e+002	-1.739032e+001	-1.632702e+002	-1.382022e+001	6.639330e+000
3608318.891	-1.125208e+001	-9.936196e+001	-1.729277e+001	-1.672431e+002	-1.737514e+001	-1.669727e+002	-1.386928e+001	3.852856e+000
3632755.633	-1.121575e+001	-1.023043e+002	-1.726825e+001	-1.710304e+002	-1.734934e+001	-1.706842e+002	-1.391170e+001	1.071985e+000
3657192.374	-1.118173e+001	-1.052192e+002	-1.722622e+001	-1.748069e+002	-1.730768e+001	-1.744166e+002	-1.395525e+001	-1.679093e+000
3681629.116	-1.115453e+001	-1.081149e+002	-1.717166e+001	-1.786606e+002	-1.725442e+001	-1.782429e+002	-1.400179e+001	-4.386188e+000
3706065.858	-1.113327e+001	-1.109708e+002	-1.710734e+001	1.773524e+002	-1.719046e+001	1.778160e+002	-1.405683e+001	-7.021020e+000
3730502.600	-1.112281e+001	-1.137520e+002	-1.704499e+001	1.732120e+002	-1.712855e+001	1.737211e+002	-1.411323e+001	-9.545535e+000
3754939.341	-1.111321e+001	-1.164363e+002	-1.699748e+001	1.689854e+002	-1.707810e+001	1.695041e+002	-1.416789e+001	-1.192961e+001
3779376.083	-1.110728e+001	-1.190267e+002	-1.696546e+001	1.646589e+002	-1.704405e+001	1.652123e+002	-1.421321e+001	-1.418527e+001
3803812.825	-1.109447e+001	-1.215328e+002	-1.695059e+001	1.603257e+002	-1.703021e+001	1.609067e+002	-1.424273e+001	-1.633261e+001
3828249.567	-1.107698e+001	-1.239652e+002	-1.695487e+001	1.559942e+002	-1.703129e+001	1.566362e+002	-1.425330e+001	-1.842604e+001
3852686.308	-1.105099e+001	-1.263442e+002	-1.697663e+001	1.517109e+002	-1.704522e+001	1.523448e+002	-1.425300e+001	-2.044947e+001
3877123.050	-1.101705e+001	-1.286532e+002	-1.701549e+001	1.474030e+002	-1.708485e+001	1.480612e+002	-1.422941e+001	-2.238853e+001
3901559.792	-1.096455e+001	-1.308948e+002	-1.709159e+001	1.432056e+002	-1.715502e+001	1.438724e+002	-1.417619e+001	-2.428210e+001
3925996.534	-1.088873e+001	-1.331773e+002	-1.718759e+001	1.392437e+002	-1.725071e+001	1.399252e+002	-1.408563e+001	-2.624745e+001
3950433.276	-1.079261e+001	-1.355761e+002	-1.729365e+001	1.356345e+002	-1.735633e+001	1.363316e+002	-1.396581e+001	-2.841498e+001
3974870.017	-1.068638e+001	-1.381252e+002	-1.738810e+001	1.323329e+002	-1.744360e+001	1.330423e+002	-1.383745e+001	-3.080177e+001
3999306.759	-1.057940e+001	-1.408526e+002	-1.745282e+001	1.293389e+002	-1.751209e+001	1.300178e+002	-1.370132e+001	-3.336207e+001
4023743.501	-1.048035e+001	-1.437713e+002	-1.747633e+001	1.265601e+002	-1.753565e+001	1.272914e+002	-1.357121e+001	-3.618993e+001
4048180.243	-1.039924e+001	-1.468502e+002	-1.744352e+001	1.239757e+002	-1.750212e+001	1.246944e+002	-1.346176e+001	-3.920813e+001
4072616.984	-1.034409e+001	-1.500602e+002	-1.734767e+001	1.213431e+002	-1.740787e+001	1.220982e+002	-1.337774e+001	-4.237208e+001
4097053.726	-1.032324e+001	-1.533331e+002	-1.719540e+001	1.185414e+002	-1.725354e+001	1.193735e+002	-1.332594e+001	-4.563084e+001
4121490.468	-1.033026e+001	-1.566107e+002	-1.700527e+001	1.155342e+002	-1.706226e+001	1.163715e+002	-1.330078e+001	-4.885516e+001
4145927.210	-1.036452e+001	-1.598381e+002	-1.679708e+001	1.122426e+002	-1.685052e+001	1.131244e+002	-1.330095e+001	-5.203579e+001
4170363.951	-1.042134e+001	-1.630028e+002	-1.657962e+001	1.087837e+002	-1.662847e+001	1.096674e+002	-1.331699e+001	-5.515691e+001
4194800.693	-1.049588e+001	-1.661152e+002	-1.635616e+001	1.050916e+002	-1.639496e+001	1.060048e+002	-1.335150e+001	-5.824247e+001
4219237.435	-1.059388e+001	-1.691719e+002	-1.612960e+001	1.012385e+002	-1.616477e+001	1.021739e+002	-1.339594e+001	-6.127204e+001
4243674.177	-1.071352e+001	-1.721294e+002	-1.589579e+001	9.718955e+001	-1.592527e+001	9.816013e+001	-1.345794e+001	-6.425837e+001
4268110.919	-1.085056e+001	-1.749912e+002	-1.566687e+001	9.297250e+001	-1.568803e+001	9.388968e+001	-1.353762e+001	-6.708980e+001
4292547.660	-1.100342e+001	-1.776736e+002	-1.545032e+001	8.853741e+001	-1.546389e+001	8.945261e+001	-1.362204e+001	-6.983312e+001
4316984.402	-1.116417e+001	1.797900e+002	-1.524673e+001	8.396703e+001	-1.525616e+001	8.489072e+001	-1.371136e+001	-7.244346e+001
4341421.144	-1.133001e+001	1.774101e+002	-1.506258e+001	7.928782e+001	-1.507043e+001	8.020468e+001	-1.379379e+001	-7.490359e+001
4365857.886	-1.149948e+001	1.751833e+002	-1.488829e+001	7.450571e+001	-1.489310e+001	7.544457e+001	-1.387631e+001	-7.731095e+001
4390294.627	-1.165735e+001	1.730890e+002	-1.474170e+001	6.969114e+001	-1.473644e+001	7.059012e+001	-1.395127e+001	-7.958884e+001
4414731.369	-1.180961e+001	1.710890e+002	-1.460750e+001	6.485610e+001	-1.460040e+001	6.572628e+001	-1.400904e+001	-8.181867e+001
4439168.111	-1.195033e+001	1.691717e+002	-1.449152e+001	5.993389e+001	-1.447998e+001	6.083266e+001	-1.405382e+001	-8.401170e+001
4463604.853	-1.207430e+001	1.673054e+002	-1.439370e+001	5.507816e+001	-1.437686e+001	5.596687e+001	-1.408094e+001	-8.621413e+001
4488041.594	-1.219042e+001	1.654441e+002	-1.430657e+001	5.024405e+001	-1.429039e+001	5.113751e+001	-1.409066e+001	-8.843347e+001
4512478.336	-1.229603e+001	1.635627e+002	-1.422936e+001	4.544818e+001	-1.420806e+001	4.631337e+001	-1.409338e+001	-9.071308e+001
4536915.078	-1.239989e+001	1.616523e+002	-1.415749e+001	4.066651e+001	-1.413305e+001	4.152034e+001	-1.409006e+001	-9.305677e+001
4561351.820	-1.249980e+001	1.597622e+002	-1.408990e+001	3.583865e+001	-1.406341e+001	3.670407e+001	-1.408298e+001	-9.543047e+001
4585788.562	-1.258201e+001	1.577951e+002	-1.404580e+001	3.103299e+001	-1.401698e+001	3.187269e+001	-1.405780e+001	-9.783266e+001
4610225.303	-1.265307e+001	1.557084e+002	-1.402304e+001	2.628699e+001	-1.398968e+001	2.715574e+001	-1.400919e+001	-1.003748e+002
4634662.045	-1.273628e+001	1.533466e+002	-1.400829e+001	2.175782e+001	-1.398246e+001	2.261740e+001	-1.394212e+001	-1.031519e+002
4659098.787	-1.284416e+001	1.507754e+002	-1.399249e+001	1.742318e+001	-1.395275e+001	1.823213e+001	-1.389395e+001	-1.061950e+002
4683535.529	-1.299152e+001	1.480811e+002	-1.396111e+001	1.321697e+001	-1.391789e+001	1.402672e+001	-1.385085e+001	-1.095246e+002
4707972.270	-1.318373e+001	1.453813e+002	-1.390599e+001	9.108405e+000	-1.385532e+001	9.844349e+000	-1.384586e+001	-1.129767e+002
4732409.012	-1.342244e+001	1.426657e+002	-1.382952e+001	5.003067e+000	-1.377146e+001	5.680400e+000	-1.386823e+001	-1.166193e+002
4756845.754	-1.370117e+001	1.401688e+002	-1.372437e+001	7.680080e-001	-1.366507e+001	1.446370e+000	-1.392736e+001	-1.203393e+002
4781282.496	-1.403274e+001	1.378163e+002	-1.359509e+001	-3.481687e+000	-1.353834e+001	-2.842197e+000	-1.402298e+001	-1.241559e+002
4805719.237	-1.439260e+001	1.357415e+002	-1.345414e+001	-7.904826e+000	-1.340003e+001	-7.307306e+000	-1.415548e+001	-1.279266e+002
4830155.979	-1.476590e+001	1.338929e+002	-1.331384e+001	-1.248121e+001	-1.325875e+001	-1.193196e+001	-1.431957e+001	-1.316356e+002
4854592.721	-1.516225e+001	1.323963e+002	-1.316283e+001	-1.719962e+001	-1.311875e+001	-1.673545e+001	-1.451316e+001	-1.352752e+002
4879029.463	-1.553470e+001	1.310606e+002	-1.304055e+001	-2.212314e+001	-1.299127e+001	-2.161142e+001	-1.472217e+001	-1.388580e+002
4903466.205	-1.591443e+001	1.298538e+002	-1.293171e+001	-2.709669e+001	-1.287933e+001	-2.661164e+001	-1.494355e+001	-1.423382e+002
4927902.946	-1.630287e+001	1.288209e+002	-1.283389e+001	-3.212332e+001	-1.278145e+001	-3.167700e+001	-1.518030e+001	-1.457769e+002
4952339.688	-1.670020e+001	1.278975e+002	-1.274691e+001	-3.722418e+001	-1.269897e+001	-3.676456e+001	-1.542578e+001	-1.492261e+002
4976776.430	-1.710960e+001	1.270829e+002	-1.268015e+001	-4.230811e+001	-1.263238e+001	-4.188198e+001	-1.567977e+001	-1.526250e+002
5001213.172	-1.754306e+001	1.264757e+002	-1.261795e+001	-4.739846e+001	-1.257645e+001	-4.698697e+001	-1.595167e+001	-1.560661e+002
5025649.913	-1.799301e+001	1.260948e+002	-1.256703e+001	-5.250291e+001	-1.253016e+001	-5.208619e+001	-1.623791e+001	-1.595257e+002
5050086.655	-1.847087e+001	1.259233e+002	-1.252950e+001	-5.759497e+001	-1.249160e+001	-5.720626e+001	-1.654619e+001	-1.629479e+002
5074523.397	-1.896041e+001	1.260858e+002	-1.250122e+001	-6.272727e+001	-1.246690e+001	-6.232551e+001	-1.686706e+001	-1.663707e+002
5098960.139	-1.948006e+001	1.266358e+002	-1.248305e+001	-6.780504e+001	-1.245123e+001	-6.742524e+001	-1.720392e+001	-1.697871e+002
5123396.880	-2.001399e+001	1.276173e+002	-1.247591e+001	-7.289158e+001	-1.244704e+001	-7.252310e+001	-1.755507e+001	-1.732144e+002
5147833.622	-2.056147e+001	1.291964e+002	-1.247712e+001	-7.793682e+001	-1.245248e+001	-7.755964e+001	-1.791929e+001	-1.767179e+002
5172270.364	-2.111812e+001	1.314906e+002	-1.248807e+001	-8.290336e+001	-1.247068e+001	-8.255290e+001	-1.829420e+001	1.797229e+002
5196707.106	-2.163975e+001	1.345589e+002	-1.250723e+001	-8.785903e+001	-1.248485e+001	-8.750410e+001	-1.871320e+001	1.760682e+002
5221143.847	-2.208257e+001	1.386543e+002	-1.252269e+001	-9.272331e+001	-1.250609e+001	-9.239685e+001	-1.915482e+001	1.723359e+002
5245580.589	-2.238834e+001	1.435200e+002	-1.254154e+001	-9.760411e+001	-1.253005e+001	-9.727577e+001	-1.963168e+001	1.685689e+002
5270017.331	-2.253156e+001	1.489169e+002	-1.256532e+001	-1.024587e+002	-1.255584e+001	-1.021130e+002	-2.014058e+001	1.647313e+002
5294454.073	-2.246911e+001	1.544672e+002	-1.258909e+001	-1.072801e+002	-1.258248e+001	-1.069367e+002	-2.068910e+001	1.608976e+002
5318890.815	-2.221926e+001	1.597206e+002	-1.261747e+001	-1.120837e+002	-1.261371e+001	-1.117376e+002	-2.127570e+001	1.569893e+002
5343327.556	-2.180683e+001	1.643590e+002	-1.264561e+001	-1.168737e+002	-1.264548e+001	-1.165011e+002	-2.189981e+001	1.530258e+002
5367764.298	-2.127474e+001	1.681721e+002	-1.267772e+001	-1.216276e+002	-1.267817e+001	-1.212449e+002	-2.257425e+001	1.490023e+002
5392201.040	-2.067793e+001	1.710586e+002	-1.270958e+001	-1.263816e+002	-1.271208e+001	-1.259747e+002	-2.328915e+001	1.449009e+002
5416637.782	-2.005395e+001	1.731142e+002	-1.274480e+001	-1.311038e+002	-1.274972e+001	-1.306851e+002	-2.405377e+001	1.406931e+002
5441074.523	-1.942510e+001	1.744169e+002	-1.277996e+001	-1.358115e+002	-1.278773e+001	-1.353806e+002	-2.485838e+001	1.363718e+002
