!Agilent Technologies,E5061B,MY49101568,A.02.00
!Date: Wed Mar 01 15:26:33 2023
!Data & Calibration Information:
!Freq	S11:SOLT2(OFF)	S21:SOLT2(OFF)	S12:SOLT2(OFF)	S22:SOLT2(OFF)
# Hz S dB R 50
1800000.000	-1.129149e+001	3.279738e+001	-1.085620e+001	1.403628e+002	-1.081334e+001	1.404752e+002	-1.106545e+001	7.732057e+001
1824436.742	-1.113020e+001	2.814367e+001	-1.108631e+001	1.353406e+002	-1.104575e+001	1.354402e+002	-1.098743e+001	7.229029e+001
1848873.484	-1.101080e+001	2.364116e+001	-1.128023e+001	1.305389e+002	-1.124938e+001	1.306688e+002	-1.095380e+001	6.749904e+001
1873310.225	-1.095198e+001	1.916580e+001	-1.146340e+001	1.261428e+002	-1.143395e+001	1.261734e+002	-1.096094e+001	6.287345e+001
1897746.967	-1.087754e+001	1.475842e+001	-1.162254e+001	1.216520e+002	-1.158392e+001	1.216149e+002	-1.096033e+001	5.839062e+001
1922183.709	-1.083109e+001	1.034763e+001	-1.176534e+001	1.172818e+002	-1.174005e+001	1.172777e+002	-1.099949e+001	5.381988e+001
1946620.451	-1.080043e+001	6.008602e+000	-1.187922e+001	1.130188e+002	-1.185444e+001	1.130537e+002	-1.105170e+001	4.944094e+001
1971057.192	-1.080320e+001	1.529823e+000	-1.199687e+001	1.089337e+002	-1.198783e+001	1.088680e+002	-1.111747e+001	4.487699e+001
1995493.934	-1.082947e+001	-2.865790e+000	-1.208791e+001	1.049942e+002	-1.208804e+001	1.049206e+002	-1.121707e+001	4.044192e+001
2019930.676	-1.088090e+001	-7.279014e+000	-1.216546e+001	1.012076e+002	-1.214802e+001	1.011807e+002	-1.134395e+001	3.615453e+001
2044367.418	-1.095465e+001	-1.131939e+001	-1.215273e+001	9.760240e+001	-1.214244e+001	9.751787e+001	-1.148856e+001	3.208667e+001
2068804.159	-1.098643e+001	-1.527333e+001	-1.210883e+001	9.362554e+001	-1.210513e+001	9.360403e+001	-1.160285e+001	2.810357e+001
2093240.901	-1.100822e+001	-1.941962e+001	-1.207105e+001	8.956697e+001	-1.207271e+001	8.955862e+001	-1.171222e+001	2.399315e+001
2117677.643	-1.104278e+001	-2.378684e+001	-1.204662e+001	8.545538e+001	-1.204689e+001	8.549470e+001	-1.182532e+001	1.970099e+001
2142114.385	-1.110271e+001	-2.816228e+001	-1.200141e+001	8.143597e+001	-1.200971e+001	8.140195e+001	-1.194233e+001	1.529519e+001
2166551.127	-1.117212e+001	-3.262295e+001	-1.194765e+001	7.738385e+001	-1.196204e+001	7.736939e+001	-1.208100e+001	1.078782e+001
2190987.868	-1.126463e+001	-3.727046e+001	-1.189727e+001	7.336724e+001	-1.191251e+001	7.339156e+001	-1.224633e+001	6.129207e+000
2215424.610	-1.139372e+001	-4.186107e+001	-1.181372e+001	6.941751e+001	-1.183132e+001	6.952099e+001	-1.244452e+001	1.449953e+000
2239861.352	-1.154982e+001	-4.639241e+001	-1.169894e+001	6.549326e+001	-1.171847e+001	6.559754e+001	-1.266441e+001	-3.190619e+000
2264298.094	-1.171239e+001	-5.090668e+001	-1.155948e+001	6.145853e+001	-1.157868e+001	6.156919e+001	-1.289533e+001	-7.838716e+000
2288734.835	-1.187868e+001	-5.545799e+001	-1.140463e+001	5.722992e+001	-1.142663e+001	5.736336e+001	-1.312837e+001	-1.259240e+001
2313171.577	-1.206237e+001	-6.015851e+001	-1.125134e+001	5.287242e+001	-1.127567e+001	5.299700e+001	-1.337247e+001	-1.750126e+001
2337608.319	-1.226659e+001	-6.498126e+001	-1.109491e+001	4.842501e+001	-1.112265e+001	4.856632e+001	-1.364091e+001	-2.260332e+001
2362045.061	-1.251208e+001	-6.988418e+001	-1.093338e+001	4.395754e+001	-1.096477e+001	4.411692e+001	-1.395060e+001	-2.786332e+001
2386481.802	-1.281336e+001	-7.484824e+001	-1.076312e+001	3.944981e+001	-1.079889e+001	3.967764e+001	-1.431194e+001	-3.333527e+001
2410918.544	-1.315076e+001	-7.961490e+001	-1.056689e+001	3.483450e+001	-1.060375e+001	3.505171e+001	-1.470853e+001	-3.871580e+001
2435355.286	-1.350917e+001	-8.440840e+001	-1.036651e+001	3.002225e+001	-1.039678e+001	3.028558e+001	-1.514775e+001	-4.414583e+001
2459792.028	-1.388904e+001	-8.926229e+001	-1.016909e+001	2.498162e+001	-1.019254e+001	2.523326e+001	-1.560846e+001	-4.964623e+001
2484228.769	-1.429815e+001	-9.419486e+001	-9.976398e+000	1.971325e+001	-1.000122e+001	2.002886e+001	-1.609942e+001	-5.531793e+001
2508665.511	-1.476675e+001	-9.935482e+001	-9.810189e+000	1.434783e+001	-9.832355e+000	1.466068e+001	-1.663696e+001	-6.126219e+001
2533102.253	-1.529490e+001	-1.045383e+002	-9.654982e+000	8.897531e+000	-9.678502e+000	9.204455e+000	-1.724029e+001	-6.734801e+001
2557538.995	-1.591542e+001	-1.098564e+002	-9.524279e+000	3.341640e+000	-9.547151e+000	3.683875e+000	-1.790441e+001	-7.374093e+001
2581975.737	-1.664902e+001	-1.151350e+002	-9.409789e+000	-2.219363e+000	-9.429665e+000	-1.905269e+000	-1.865351e+001	-8.034951e+001
2606412.478	-1.748401e+001	-1.203214e+002	-9.312331e+000	-7.859777e+000	-9.326681e+000	-7.503219e+000	-1.951378e+001	-8.715367e+001
2630849.220	-1.845726e+001	-1.252357e+002	-9.230829e+000	-1.351019e+001	-9.243267e+000	-1.316039e+001	-2.047712e+001	-9.421573e+001
2655285.962	-1.956533e+001	-1.298803e+002	-9.165256e+000	-1.920026e+001	-9.173773e+000	-1.886218e+001	-2.156430e+001	-1.014200e+002
2679722.704	-2.086017e+001	-1.342705e+002	-9.124503e+000	-2.490991e+001	-9.130440e+000	-2.455807e+001	-2.277284e+001	-1.090247e+002
2704159.445	-2.238644e+001	-1.380466e+002	-9.101662e+000	-3.060641e+001	-9.105073e+000	-3.024601e+001	-2.415066e+001	-1.169543e+002
2728596.187	-2.425139e+001	-1.407187e+002	-9.101133e+000	-3.620729e+001	-9.102150e+000	-3.585437e+001	-2.573247e+001	-1.259705e+002
2753032.929	-2.655868e+001	-1.410276e+002	-9.109286e+000	-4.171519e+001	-9.110396e+000	-4.138515e+001	-2.760133e+001	-1.363229e+002
2777469.671	-2.941833e+001	-1.367167e+002	-9.130540e+000	-4.713026e+001	-9.124473e+000	-4.683771e+001	-2.987503e+001	-1.485383e+002
2801906.412	-3.241569e+001	-1.227653e+002	-9.144559e+000	-5.254103e+001	-9.144486e+000	-5.226757e+001	-3.265714e+001	-1.640333e+002
2826343.154	-3.424520e+001	-9.571135e+001	-9.171549e+000	-5.795327e+001	-9.171280e+000	-5.766534e+001	-3.590536e+001	1.736360e+002
2850779.896	-3.309838e+001	-6.783818e+001	-9.211137e+000	-6.331558e+001	-9.208593e+000	-6.302161e+001	-3.866944e+001	1.384481e+002
2875216.638	-3.068558e+001	-5.306022e+001	-9.262067e+000	-6.864163e+001	-9.259950e+000	-6.830217e+001	-3.848912e+001	9.715496e+001
2899653.380	-2.840310e+001	-4.738024e+001	-9.318191e+000	-7.382156e+001	-9.314492e+000	-7.351904e+001	-3.638992e+001	6.690840e+001
2924090.121	-2.661385e+001	-4.585424e+001	-9.384774e+000	-7.895866e+001	-9.381345e+000	-7.867915e+001	-3.436964e+001	4.911174e+001
2948526.863	-2.515514e+001	-4.662408e+001	-9.448406e+000	-8.399094e+001	-9.447507e+000	-8.372204e+001	-3.262133e+001	3.631824e+001
2972963.605	-2.397159e+001	-4.862691e+001	-9.513501e+000	-8.893702e+001	-9.512544e+000	-8.864594e+001	-3.123661e+001	2.619854e+001
2997400.347	-2.299332e+001	-5.132141e+001	-9.577700e+000	-9.378725e+001	-9.577754e+000	-9.349917e+001	-3.016013e+001	1.762972e+001
3021837.088	-2.218106e+001	-5.459662e+001	-9.630473e+000	-9.855026e+001	-9.634838e+000	-9.827080e+001	-2.928159e+001	9.496350e+000
3046273.830	-2.149552e+001	-5.816914e+001	-9.676488e+000	-1.032453e+002	-9.679404e+000	-1.029913e+002	-2.854389e+001	1.466231e+000
3070710.572	-2.094469e+001	-6.200725e+001	-9.709186e+000	-1.079154e+002	-9.714468e+000	-1.076530e+002	-2.792846e+001	-6.487133e+000
3095147.314	-2.050668e+001	-6.609139e+001	-9.729401e+000	-1.125737e+002	-9.734682e+000	-1.122911e+002	-2.740055e+001	-1.476398e+001
3119584.055	-2.017091e+001	-7.029782e+001	-9.734642e+000	-1.172568e+002	-9.739842e+000	-1.170067e+002	-2.703997e+001	-2.390512e+001
3144020.797	-1.993535e+001	-7.458314e+001	-9.730018e+000	-1.219542e+002	-9.735794e+000	-1.217226e+002	-2.673669e+001	-3.311805e+001
3168457.539	-1.982283e+001	-7.886092e+001	-9.716266e+000	-1.268008e+002	-9.721406e+000	-1.265619e+002	-2.654952e+001	-4.352905e+001
3192894.281	-1.979748e+001	-8.302925e+001	-9.703813e+000	-1.317213e+002	-9.711299e+000	-1.314734e+002	-2.649310e+001	-5.437590e+001
3217331.023	-1.987265e+001	-8.691246e+001	-9.695103e+000	-1.367370e+002	-9.703836e+000	-1.364920e+002	-2.651891e+001	-6.602019e+001
3241767.764	-2.003970e+001	-9.046972e+001	-9.698557e+000	-1.418361e+002	-9.705618e+000	-1.415665e+002	-2.662442e+001	-7.817801e+001
3266204.506	-2.026440e+001	-9.351140e+001	-9.717001e+000	-1.469286e+002	-9.723325e+000	-1.466519e+002	-2.676902e+001	-9.068631e+001
3290641.248	-2.052031e+001	-9.641858e+001	-9.732460e+000	-1.519611e+002	-9.739278e+000	-1.516970e+002	-2.678570e+001	-1.031292e+002
3315077.990	-2.086753e+001	-9.919286e+001	-9.736302e+000	-1.570345e+002	-9.740134e+000	-1.567647e+002	-2.657143e+001	-1.161302e+002
3339514.731	-2.136588e+001	-1.015042e+002	-9.741710e+000	-1.622968e+002	-9.741776e+000	-1.620352e+002	-2.616675e+001	-1.304868e+002
3363951.473	-2.200526e+001	-1.028144e+002	-9.760439e+000	-1.677063e+002	-9.759846e+000	-1.674376e+002	-2.564162e+001	-1.453038e+002
3388388.215	-2.271588e+001	-1.026670e+002	-9.804669e+000	-1.731718e+002	-9.804219e+000	-1.729358e+002	-2.502894e+001	-1.600886e+002
3412824.957	-2.346014e+001	-1.006299e+002	-9.874973e+000	-1.786951e+002	-9.873037e+000	-1.784598e+002	-2.433884e+001	-1.743631e+002
3437261.698	-2.412450e+001	-9.637610e+001	-9.971224e+000	1.757670e+002	-9.965949e+000	1.759968e+002	-2.358049e+001	1.721360e+002
3461698.440	-2.452053e+001	-9.008631e+001	-1.009252e+001	1.702530e+002	-1.008819e+001	1.704585e+002	-2.279404e+001	1.593758e+002
3486135.182	-2.447576e+001	-8.256029e+001	-1.024328e+001	1.648035e+002	-1.024077e+001	1.649791e+002	-2.202981e+001	1.473731e+002
3510571.924	-2.396474e+001	-7.545729e+001	-1.042171e+001	1.594442e+002	-1.042165e+001	1.596006e+002	-2.131304e+001	1.361982e+002
3535008.666	-2.310899e+001	-7.016467e+001	-1.062374e+001	1.542522e+002	-1.062419e+001	1.543871e+002	-2.064417e+001	1.258187e+002
3559445.407	-2.212174e+001	-6.705957e+001	-1.083848e+001	1.492424e+002	-1.084270e+001	1.493713e+002	-2.005272e+001	1.162510e+002
3583882.149	-2.113356e+001	-6.572857e+001	-1.105500e+001	1.444248e+002	-1.106452e+001	1.445409e+002	-1.951466e+001	1.074858e+002
3608318.891	-2.019509e+001	-6.557735e+001	-1.127142e+001	1.397330e+002	-1.128647e+001	1.398404e+002	-1.900987e+001	9.940581e+001
3632755.633	-1.931099e+001	-6.631969e+001	-1.148953e+001	1.350906e+002	-1.150301e+001	1.352586e+002	-1.853409e+001	9.193417e+001
3657192.374	-1.849819e+001	-6.760177e+001	-1.170091e+001	1.305549e+002	-1.172052e+001	1.307134e+002	-1.807178e+001	8.488282e+001
3681629.116	-1.772130e+001	-6.937428e+001	-1.192091e+001	1.260421e+002	-1.194059e+001	1.262047e+002	-1.761851e+001	7.820617e+001
3706065.858	-1.697832e+001	-7.159172e+001	-1.215531e+001	1.215770e+002	-1.217718e+001	1.217380e+002	-1.718465e+001	7.163483e+001
3730502.600	-1.627726e+001	-7.427223e+001	-1.241257e+001	1.172309e+002	-1.243674e+001	1.173610e+002	-1.677649e+001	6.512705e+001
3754939.341	-1.562877e+001	-7.735730e+001	-1.268696e+001	1.130288e+002	-1.271782e+001	1.131679e+002	-1.641260e+001	5.866456e+001
3779376.083	-1.503705e+001	-8.081648e+001	-1.297674e+001	1.090807e+002	-1.301299e+001	1.092304e+002	-1.610450e+001	5.231756e+001
3803812.825	-1.451213e+001	-8.460053e+001	-1.327743e+001	1.054481e+002	-1.331305e+001	1.055778e+002	-1.585081e+001	4.610591e+001
3828249.567	-1.406010e+001	-8.840165e+001	-1.355699e+001	1.020445e+002	-1.360807e+001	1.022187e+002	-1.564322e+001	4.011638e+001
3852686.308	-1.365668e+001	-9.235940e+001	-1.384093e+001	9.889688e+001	-1.388866e+001	9.909395e+001	-1.547231e+001	3.435466e+001
3877123.050	-1.329889e+001	-9.636701e+001	-1.411676e+001	9.600560e+001	-1.416964e+001	9.620232e+001	-1.532582e+001	2.868085e+001
3901559.792	-1.298724e+001	-1.005707e+002	-1.439139e+001	9.353944e+001	-1.444814e+001	9.372485e+001	-1.521926e+001	2.299112e+001
3925996.534	-1.274877e+001	-1.049071e+002	-1.462682e+001	9.160197e+001	-1.469141e+001	9.180764e+001	-1.519074e+001	1.733609e+001
3950433.276	-1.259402e+001	-1.092286e+002	-1.477799e+001	9.012880e+001	-1.484563e+001	9.035359e+001	-1.524666e+001	1.197201e+001
3974870.017	-1.252386e+001	-1.133322e+002	-1.480875e+001	8.882365e+001	-1.488756e+001	8.911794e+001	-1.537878e+001	7.041385e+000
3999306.759	-1.252147e+001	-1.171290e+002	-1.473061e+001	8.743675e+001	-1.480887e+001	8.777552e+001	-1.556838e+001	2.714825e+000
4023743.501	-1.257318e+001	-1.204226e+002	-1.454748e+001	8.563591e+001	-1.462850e+001	8.603102e+001	-1.579075e+001	-9.179492e-001
4048180.243	-1.265302e+001	-1.231788e+002	-1.429881e+001	8.326716e+001	-1.438667e+001	8.371725e+001	-1.600507e+001	-3.785808e+000
4072616.984	-1.272362e+001	-1.253532e+002	-1.402878e+001	8.024557e+001	-1.411489e+001	8.076506e+001	-1.618128e+001	-5.933763e+000
4097053.726	-1.275590e+001	-1.270781e+002	-1.377011e+001	7.669276e+001	-1.385185e+001	7.727203e+001	-1.628508e+001	-7.588508e+000
4121490.468	-1.273551e+001	-1.285429e+002	-1.354589e+001	7.275530e+001	-1.362147e+001	7.334240e+001	-1.629474e+001	-8.946397e+000
4145927.210	-1.265763e+001	-1.298493e+002	-1.335521e+001	6.854217e+001	-1.342943e+001	6.916249e+001	-1.622484e+001	-1.028515e+001
4170363.951	-1.252376e+001	-1.311228e+002	-1.319865e+001	6.415974e+001	-1.326482e+001	6.474965e+001	-1.608638e+001	-1.162075e+001
4194800.693	-1.234816e+001	-1.325589e+002	-1.307639e+001	5.969409e+001	-1.314386e+001	6.029259e+001	-1.589433e+001	-1.328730e+001
4219237.435	-1.213401e+001	-1.341504e+002	-1.298759e+001	5.515962e+001	-1.305660e+001	5.578873e+001	-1.566787e+001	-1.522688e+001
4243674.177	-1.190100e+001	-1.360201e+002	-1.292928e+001	5.066852e+001	-1.299473e+001	5.129575e+001	-1.542308e+001	-1.743350e+001
4268110.919	-1.166325e+001	-1.381116e+002	-1.288809e+001	4.621746e+001	-1.295263e+001	4.692035e+001	-1.518932e+001	-1.993483e+001
4292547.660	-1.143031e+001	-1.404207e+002	-1.286265e+001	4.186368e+001	-1.292471e+001	4.255440e+001	-1.495509e+001	-2.259555e+001
4316984.402	-1.120586e+001	-1.428642e+002	-1.284036e+001	3.755142e+001	-1.290641e+001	3.826543e+001	-1.473410e+001	-2.543726e+001
4341421.144	-1.099121e+001	-1.454816e+002	-1.282909e+001	3.329614e+001	-1.289399e+001	3.402998e+001	-1.452660e+001	-2.839569e+001
4365857.886	-1.078999e+001	-1.481960e+002	-1.282037e+001	2.909140e+001	-1.288537e+001	2.987050e+001	-1.433665e+001	-3.145482e+001
4390294.627	-1.060177e+001	-1.510589e+002	-1.281967e+001	2.491678e+001	-1.288066e+001	2.575109e+001	-1.416069e+001	-3.459690e+001
4414731.369	-1.043666e+001	-1.540152e+002	-1.281771e+001	2.085211e+001	-1.287619e+001	2.170986e+001	-1.400196e+001	-3.781141e+001
4439168.111	-1.028785e+001	-1.570403e+002	-1.281497e+001	1.679180e+001	-1.287162e+001	1.775012e+001	-1.386345e+001	-4.112738e+001
4463604.853	-1.016390e+001	-1.601324e+002	-1.281015e+001	1.284836e+001	-1.286031e+001	1.379258e+001	-1.373594e+001	-4.440806e+001
4488041.594	-1.005910e+001	-1.632512e+002	-1.279825e+001	8.953965e+000	-1.283800e+001	9.945785e+000	-1.363871e+001	-4.771620e+001
4512478.336	-9.974495e+000	-1.663895e+002	-1.277862e+001	5.083780e+000	-1.281382e+001	6.105661e+000	-1.355504e+001	-5.103963e+001
4536915.078	-9.905510e+000	-1.695093e+002	-1.274829e+001	1.212265e+000	-1.277512e+001	2.258238e+000	-1.348426e+001	-5.430108e+001
4561351.820	-9.856235e+000	-1.726765e+002	-1.271748e+001	-2.619180e+000	-1.274022e+001	-1.587100e+000	-1.342224e+001	-5.762012e+001
4585788.562	-9.828415e+000	-1.758553e+002	-1.268065e+001	-6.412006e+000	-1.269806e+001	-5.327319e+000	-1.338493e+001	-6.099158e+001
4610225.303	-9.828049e+000	-1.789848e+002	-1.262862e+001	-1.012827e+001	-1.263884e+001	-9.048636e+000	-1.337365e+001	-6.431412e+001
4634662.045	-9.849520e+000	1.779856e+002	-1.254969e+001	-1.383560e+001	-1.255309e+001	-1.278529e+001	-1.338871e+001	-6.749154e+001
4659098.787	-9.875873e+000	1.750414e+002	-1.245494e+001	-1.766540e+001	-1.245358e+001	-1.659919e+001	-1.341206e+001	-7.058596e+001
4683535.529	-9.909456e+000	1.721920e+002	-1.234186e+001	-2.158372e+001	-1.233249e+001	-2.055142e+001	-1.344478e+001	-7.348283e+001
4707972.270	-9.944853e+000	1.693743e+002	-1.222601e+001	-2.561353e+001	-1.221076e+001	-2.463163e+001	-1.347407e+001	-7.627899e+001
4732409.012	-9.980852e+000	1.665619e+002	-1.210650e+001	-2.981329e+001	-1.209014e+001	-2.882477e+001	-1.350070e+001	-7.905500e+001
4756845.754	-1.002468e+001	1.637359e+002	-1.199164e+001	-3.409038e+001	-1.197413e+001	-3.311641e+001	-1.352341e+001	-8.179549e+001
4781282.496	-1.007660e+001	1.608712e+002	-1.188544e+001	-3.846482e+001	-1.186021e+001	-3.748140e+001	-1.354914e+001	-8.449049e+001
4805719.237	-1.013971e+001	1.579740e+002	-1.178467e+001	-4.290016e+001	-1.175576e+001	-4.194653e+001	-1.356649e+001	-8.719089e+001
4830155.979	-1.021791e+001	1.550436e+002	-1.169427e+001	-4.739747e+001	-1.165737e+001	-4.644550e+001	-1.359006e+001	-8.988497e+001
4854592.721	-1.031101e+001	1.521151e+002	-1.160750e+001	-5.193411e+001	-1.156876e+001	-5.099678e+001	-1.361129e+001	-9.262218e+001
4879029.463	-1.042490e+001	1.491744e+002	-1.152963e+001	-5.648252e+001	-1.148254e+001	-5.557621e+001	-1.364268e+001	-9.532849e+001
4903466.205	-1.055737e+001	1.462500e+002	-1.145383e+001	-6.107419e+001	-1.140485e+001	-6.018185e+001	-1.367781e+001	-9.805465e+001
4927902.946	-1.071348e+001	1.433232e+002	-1.138853e+001	-6.567232e+001	-1.133366e+001	-6.480995e+001	-1.371803e+001	-1.007722e+002
4952339.688	-1.088657e+001	1.404543e+002	-1.132358e+001	-7.033336e+001	-1.126679e+001	-6.945756e+001	-1.376424e+001	-1.035170e+002
4976776.430	-1.108522e+001	1.376428e+002	-1.126416e+001	-7.495482e+001	-1.120327e+001	-7.411610e+001	-1.382063e+001	-1.061989e+002
5001213.172	-1.130459e+001	1.348817e+002	-1.121088e+001	-7.961718e+001	-1.114799e+001	-7.880749e+001	-1.387967e+001	-1.089004e+002
5025649.913	-1.154563e+001	1.322034e+002	-1.116029e+001	-8.428632e+001	-1.109502e+001	-8.350961e+001	-1.394752e+001	-1.115484e+002
5050086.655	-1.180483e+001	1.296199e+002	-1.111358e+001	-8.898372e+001	-1.104579e+001	-8.823043e+001	-1.401731e+001	-1.141766e+002
5074523.397	-1.208794e+001	1.271298e+002	-1.107126e+001	-9.369113e+001	-1.100384e+001	-9.297210e+001	-1.409000e+001	-1.167888e+002
5098960.139	-1.238910e+001	1.247475e+002	-1.103435e+001	-9.842201e+001	-1.096657e+001	-9.773170e+001	-1.416410e+001	-1.193874e+002
5123396.880	-1.271356e+001	1.224904e+002	-1.100451e+001	-1.031571e+002	-1.093593e+001	-1.025086e+002	-1.424159e+001	-1.219692e+002
5147833.622	-1.305714e+001	1.203524e+002	-1.098052e+001	-1.079100e+002	-1.091123e+001	-1.072836e+002	-1.432187e+001	-1.245802e+002
5172270.364	-1.342219e+001	1.183850e+002	-1.096108e+001	-1.126494e+002	-1.089355e+001	-1.120407e+002	-1.440803e+001	-1.271684e+002
5196707.106	-1.380914e+001	1.166201e+002	-1.094525e+001	-1.173627e+002	-1.087717e+001	-1.168036e+002	-1.449675e+001	-1.297417e+002
5221143.847	-1.421061e+001	1.150582e+002	-1.093292e+001	-1.220580e+002	-1.086562e+001	-1.215619e+002	-1.459154e+001	-1.322820e+002
5245580.589	-1.462315e+001	1.137239e+002	-1.092132e+001	-1.267804e+002	-1.085608e+001	-1.263218e+002	-1.468633e+001	-1.348278e+002
5270017.331	-1.504432e+001	1.125833e+002	-1.091496e+001	-1.315293e+002	-1.085000e+001	-1.310860e+002	-1.478127e+001	-1.373656e+002
5294454.073	-1.547017e+001	1.117035e+002	-1.090834e+001	-1.362673e+002	-1.084560e+001	-1.358378e+002	-1.487623e+001	-1.398984e+002
5318890.815	-1.590161e+001	1.110523e+002	-1.090743e+001	-1.410051e+002	-1.084635e+001	-1.406126e+002	-1.496789e+001	-1.424573e+002
5343327.556	-1.633321e+001	1.106279e+002	-1.090931e+001	-1.457627e+002	-1.084980e+001	-1.453764e+002	-1.506046e+001	-1.450441e+002
5367764.298	-1.675919e+001	1.104564e+002	-1.091364e+001	-1.505121e+002	-1.085841e+001	-1.501561e+002	-1.515065e+001	-1.476565e+002
5392201.040	-1.717907e+001	1.105017e+002	-1.092162e+001	-1.552720e+002	-1.086719e+001	-1.549316e+002	-1.524183e+001	-1.502957e+002
5416637.782	-1.758906e+001	1.107567e+002	-1.093260e+001	-1.600432e+002	-1.088071e+001	-1.597072e+002	-1.533215e+001	-1.529847e+002
5441074.523	-1.798945e+001	1.112546e+002	-1.094598e+001	-1.648200e+002	-1.089945e+001	-1.644932e+002	-1.542242e+001	-1.557756e+002
