!Agilent Technologies,E5061B,MY49101568,A.02.00
!Date: Wed Mar 01 15:27:40 2023
!Data & Calibration Information:
!Freq	S11:SOLT2(OFF)	S21:SOLT2(OFF)	S12:SOLT2(OFF)	S22:SOLT2(OFF)
# Hz S dB R 50
1800000.000	-1.489109e+001	3.769366e+000	-1.273947e+001	1.730279e+002	-1.272111e+001	1.730954e+002	-1.610882e+001	4.815160e+001
1824436.742	-1.488198e+001	2.987013e+000	-1.268903e+001	1.670479e+002	-1.267910e+001	1.670907e+002	-1.593581e+001	4.770597e+001
1848873.484	-1.481825e+001	1.927104e+000	-1.265950e+001	1.611240e+002	-1.263706e+001	1.611754e+002	-1.574477e+001	4.685627e+001
1873310.225	-1.473721e+001	6.162012e-001	-1.262570e+001	1.553741e+002	-1.261575e+001	1.554869e+002	-1.554573e+001	4.535851e+001
1897746.967	-1.461804e+001	-1.100147e+000	-1.261331e+001	1.497407e+002	-1.259770e+001	1.497704e+002	-1.533409e+001	4.351726e+001
1922183.709	-1.449964e+001	-3.131854e+000	-1.259583e+001	1.442080e+002	-1.257089e+001	1.441846e+002	-1.514943e+001	4.129460e+001
1946620.451	-1.434223e+001	-5.395621e+000	-1.258776e+001	1.386076e+002	-1.257946e+001	1.385913e+002	-1.494098e+001	3.856561e+001
1971057.192	-1.421658e+001	-8.140080e+000	-1.258718e+001	1.332755e+002	-1.258621e+001	1.333138e+002	-1.479891e+001	3.541460e+001
1995493.934	-1.410720e+001	-1.139101e+001	-1.261174e+001	1.281696e+002	-1.259996e+001	1.281624e+002	-1.467892e+001	3.194721e+001
2019930.676	-1.402074e+001	-1.463827e+001	-1.260776e+001	1.231027e+002	-1.260682e+001	1.232050e+002	-1.459875e+001	2.822356e+001
2044367.418	-1.401514e+001	-1.800697e+001	-1.256163e+001	1.184378e+002	-1.256590e+001	1.185143e+002	-1.460345e+001	2.444063e+001
2068804.159	-1.398878e+001	-2.123886e+001	-1.249096e+001	1.135758e+002	-1.249884e+001	1.136191e+002	-1.459004e+001	2.082835e+001
2093240.901	-1.392324e+001	-2.460605e+001	-1.242728e+001	1.085318e+002	-1.243370e+001	1.085898e+002	-1.456514e+001	1.709652e+001
2117677.643	-1.389106e+001	-2.833182e+001	-1.237184e+001	1.036166e+002	-1.237624e+001	1.036371e+002	-1.455208e+001	1.308997e+001
2142114.385	-1.386063e+001	-3.220455e+001	-1.231252e+001	9.864068e+001	-1.232269e+001	9.867984e+001	-1.454291e+001	8.812853e+000
2166551.127	-1.385886e+001	-3.630451e+001	-1.225168e+001	9.376880e+001	-1.226284e+001	9.383471e+001	-1.457037e+001	4.270204e+000
2190987.868	-1.389158e+001	-4.066925e+001	-1.219024e+001	8.899131e+001	-1.220572e+001	8.898253e+001	-1.460905e+001	-4.886774e-001
2215424.610	-1.395787e+001	-4.514335e+001	-1.211793e+001	8.421111e+001	-1.212889e+001	8.436322e+001	-1.470952e+001	-5.471895e+000
2239861.352	-1.408189e+001	-4.956113e+001	-1.200643e+001	7.954622e+001	-1.202525e+001	7.974149e+001	-1.484655e+001	-1.051275e+001
2264298.094	-1.423081e+001	-5.404194e+001	-1.188295e+001	7.485688e+001	-1.189988e+001	7.501357e+001	-1.499864e+001	-1.562644e+001
2288734.835	-1.438669e+001	-5.851611e+001	-1.174451e+001	6.996063e+001	-1.176474e+001	7.014452e+001	-1.515921e+001	-2.084662e+001
2313171.577	-1.456188e+001	-6.313486e+001	-1.160578e+001	6.499736e+001	-1.162357e+001	6.520110e+001	-1.533956e+001	-2.622156e+001
2337608.319	-1.476839e+001	-6.796614e+001	-1.146648e+001	5.996180e+001	-1.148709e+001	6.017756e+001	-1.552889e+001	-3.191706e+001
2362045.061	-1.502366e+001	-7.292837e+001	-1.132357e+001	5.492768e+001	-1.134764e+001	5.515041e+001	-1.575527e+001	-3.784160e+001
2386481.802	-1.533984e+001	-7.806203e+001	-1.118077e+001	4.983750e+001	-1.120419e+001	5.002611e+001	-1.600706e+001	-4.405027e+001
2410918.544	-1.568723e+001	-8.316551e+001	-1.102445e+001	4.458847e+001	-1.104597e+001	4.485923e+001	-1.630431e+001	-5.047729e+001
2435355.286	-1.609862e+001	-8.842544e+001	-1.087413e+001	3.926433e+001	-1.089211e+001	3.954095e+001	-1.662020e+001	-5.716087e+001
2459792.028	-1.656519e+001	-9.374907e+001	-1.072354e+001	3.382779e+001	-1.074040e+001	3.413920e+001	-1.697520e+001	-6.416696e+001
2484228.769	-1.710877e+001	-9.926545e+001	-1.058289e+001	2.826949e+001	-1.059513e+001	2.862066e+001	-1.735422e+001	-7.148850e+001
2508665.511	-1.772478e+001	-1.048711e+002	-1.045147e+001	2.261012e+001	-1.046082e+001	2.295661e+001	-1.775941e+001	-7.911633e+001
2533102.253	-1.842204e+001	-1.106808e+002	-1.033166e+001	1.686460e+001	-1.033940e+001	1.719591e+001	-1.820213e+001	-8.710672e+001
2557538.995	-1.925250e+001	-1.166953e+002	-1.023172e+001	1.105085e+001	-1.023731e+001	1.136810e+001	-1.866191e+001	-9.550267e+001
2581975.737	-2.021821e+001	-1.230236e+002	-1.015043e+001	5.136379e+000	-1.015254e+001	5.478560e+000	-1.914351e+001	-1.044147e+002
2606412.478	-2.138765e+001	-1.296106e+002	-1.008776e+001	-7.582221e-001	-1.008814e+001	-4.146336e-001	-1.964553e+001	-1.138468e+002
2630849.220	-2.280083e+001	-1.364841e+002	-1.004435e+001	-6.666759e+000	-1.003929e+001	-6.330923e+000	-2.015940e+001	-1.237305e+002
2655285.962	-2.452961e+001	-1.437517e+002	-1.001635e+001	-1.259517e+001	-1.000682e+001	-1.227903e+001	-2.068337e+001	-1.340578e+002
2679722.704	-2.673645e+001	-1.519534e+002	-1.000905e+001	-1.851066e+001	-9.998765e+000	-1.822853e+001	-2.116818e+001	-1.447983e+002
2704159.445	-2.965874e+001	-1.623402e+002	-1.002503e+001	-2.441239e+001	-1.001563e+001	-2.413776e+001	-2.159364e+001	-1.559031e+002
2728596.187	-3.401810e+001	-1.789024e+002	-1.006482e+001	-3.020427e+001	-1.005282e+001	-2.992948e+001	-2.194236e+001	-1.675463e+002
2753032.929	-4.030628e+001	1.371173e+002	-1.011551e+001	-3.589632e+001	-1.010365e+001	-3.563771e+001	-2.222785e+001	-1.794744e+002
2777469.671	-3.810165e+001	5.782260e+001	-1.017299e+001	-4.147734e+001	-1.015760e+001	-4.122940e+001	-2.245538e+001	1.683543e+002
2801906.412	-3.265171e+001	2.923732e+001	-1.022967e+001	-4.700315e+001	-1.020929e+001	-4.674969e+001	-2.265102e+001	1.561984e+002
2826343.154	-2.925007e+001	1.632232e+001	-1.028866e+001	-5.253262e+001	-1.027232e+001	-5.228223e+001	-2.279808e+001	1.447241e+002
2850779.896	-2.683582e+001	7.380193e+000	-1.036366e+001	-5.795610e+001	-1.034625e+001	-5.778155e+001	-2.288608e+001	1.340022e+002
2875216.638	-2.506797e+001	4.679913e-001	-1.045419e+001	-6.338963e+001	-1.043584e+001	-6.319342e+001	-2.291542e+001	1.239062e+002
2899653.380	-2.366489e+001	-5.740954e+000	-1.054650e+001	-6.867793e+001	-1.053149e+001	-6.850554e+001	-2.290437e+001	1.144573e+002
2924090.121	-2.253342e+001	-1.135212e+001	-1.064807e+001	-7.389838e+001	-1.063478e+001	-7.370938e+001	-2.285821e+001	1.056459e+002
2948526.863	-2.158397e+001	-1.659798e+001	-1.075478e+001	-7.900217e+001	-1.074194e+001	-7.882120e+001	-2.280589e+001	9.747076e+001
2972963.605	-2.077250e+001	-2.168469e+001	-1.086132e+001	-8.396653e+001	-1.085026e+001	-8.380529e+001	-2.273166e+001	8.973443e+001
2997400.347	-2.008801e+001	-2.654310e+001	-1.096436e+001	-8.885250e+001	-1.095414e+001	-8.868914e+001	-2.266037e+001	8.237437e+001
3021837.088	-1.949829e+001	-3.135698e+001	-1.105685e+001	-9.362342e+001	-1.105350e+001	-9.347786e+001	-2.261046e+001	7.537082e+001
3046273.830	-1.898742e+001	-3.601048e+001	-1.114768e+001	-9.831332e+001	-1.114339e+001	-9.817233e+001	-2.258190e+001	6.860340e+001
3070710.572	-1.855651e+001	-4.059709e+001	-1.122324e+001	-1.029491e+002	-1.121882e+001	-1.028255e+002	-2.261227e+001	6.204526e+001
3095147.314	-1.819508e+001	-4.508435e+001	-1.128768e+001	-1.075369e+002	-1.128305e+001	-1.074162e+002	-2.267468e+001	5.558930e+001
3119584.055	-1.789241e+001	-4.953367e+001	-1.133524e+001	-1.121111e+002	-1.133851e+001	-1.120143e+002	-2.281118e+001	4.952384e+001
3144020.797	-1.765941e+001	-5.382269e+001	-1.137703e+001	-1.166951e+002	-1.137734e+001	-1.166321e+002	-2.303317e+001	4.359717e+001
3168457.539	-1.748513e+001	-5.801127e+001	-1.140496e+001	-1.213603e+002	-1.141002e+001	-1.212908e+002	-2.334801e+001	3.805637e+001
3192894.281	-1.736510e+001	-6.201631e+001	-1.143188e+001	-1.260708e+002	-1.143806e+001	-1.260230e+002	-2.377220e+001	3.298708e+001
3217331.023	-1.728834e+001	-6.573049e+001	-1.146105e+001	-1.308415e+002	-1.147035e+001	-1.307833e+002	-2.428014e+001	2.865311e+001
3241767.764	-1.724978e+001	-6.920149e+001	-1.149683e+001	-1.356459e+002	-1.150825e+001	-1.355825e+002	-2.484883e+001	2.509345e+001
3266204.506	-1.722971e+001	-7.245210e+001	-1.154176e+001	-1.404245e+002	-1.155278e+001	-1.403613e+002	-2.545333e+001	2.244263e+001
3290641.248	-1.722492e+001	-7.555335e+001	-1.158072e+001	-1.451399e+002	-1.159362e+001	-1.450708e+002	-2.607684e+001	2.023571e+001
3315077.990	-1.725479e+001	-7.863133e+001	-1.160265e+001	-1.498664e+002	-1.161722e+001	-1.498031e+002	-2.683533e+001	1.827850e+001
3339514.731	-1.734124e+001	-8.150450e+001	-1.161869e+001	-1.547220e+002	-1.163555e+001	-1.546436e+002	-2.778877e+001	1.777421e+001
3363951.473	-1.746467e+001	-8.394054e+001	-1.164427e+001	-1.596854e+002	-1.166069e+001	-1.596084e+002	-2.888117e+001	1.984579e+001
3388388.215	-1.761335e+001	-8.598439e+001	-1.168331e+001	-1.647236e+002	-1.170014e+001	-1.646387e+002	-2.993395e+001	2.539090e+001
3412824.957	-1.776916e+001	-8.758880e+001	-1.173285e+001	-1.697841e+002	-1.175382e+001	-1.696979e+002	-3.059705e+001	3.446634e+001
3437261.698	-1.792041e+001	-8.870376e+001	-1.179814e+001	-1.748970e+002	-1.182030e+001	-1.747926e+002	-3.058352e+001	4.577748e+001
3461698.440	-1.804676e+001	-8.933683e+001	-1.188152e+001	-1.799928e+002	-1.190640e+001	-1.799144e+002	-2.976020e+001	5.625672e+001
3486135.182	-1.812270e+001	-8.950464e+001	-1.198701e+001	1.749192e+002	-1.200936e+001	1.749936e+002	-2.844060e+001	6.334350e+001
3510571.924	-1.813656e+001	-8.936066e+001	-1.211024e+001	1.698818e+002	-1.213463e+001	1.699675e+002	-2.696270e+001	6.668030e+001
3535008.666	-1.807008e+001	-8.903972e+001	-1.225148e+001	1.649337e+002	-1.227597e+001	1.650324e+002	-2.556248e+001	6.734399e+001
3559445.407	-1.792951e+001	-8.872304e+001	-1.240078e+001	1.601237e+002	-1.242965e+001	1.602078e+002	-2.431483e+001	6.621501e+001
3583882.149	-1.772499e+001	-8.856836e+001	-1.255622e+001	1.554319e+002	-1.258809e+001	1.555180e+002	-2.322200e+001	6.395136e+001
3608318.891	-1.746825e+001	-8.859535e+001	-1.271388e+001	1.508598e+002	-1.274736e+001	1.509326e+002	-2.227667e+001	6.111527e+001
3632755.633	-1.717908e+001	-8.884166e+001	-1.286615e+001	1.463127e+002	-1.290268e+001	1.464530e+002	-2.145347e+001	5.793072e+001
3657192.374	-1.686729e+001	-8.929160e+001	-1.301141e+001	1.418615e+002	-1.305042e+001	1.420060e+002	-2.072031e+001	5.464887e+001
3681629.116	-1.652610e+001	-8.987566e+001	-1.315811e+001	1.373842e+002	-1.319866e+001	1.375317e+002	-2.003834e+001	5.135647e+001
3706065.858	-1.615106e+001	-9.061724e+001	-1.331509e+001	1.328766e+002	-1.336000e+001	1.330357e+002	-1.937709e+001	4.788137e+001
3730502.600	-1.574048e+001	-9.162588e+001	-1.349515e+001	1.284051e+002	-1.354403e+001	1.285572e+002	-1.874325e+001	4.412852e+001
3754939.341	-1.530280e+001	-9.299159e+001	-1.369879e+001	1.240211e+002	-1.374761e+001	1.241872e+002	-1.815535e+001	4.007774e+001
3779376.083	-1.485904e+001	-9.478088e+001	-1.392131e+001	1.198099e+002	-1.397661e+001	1.200023e+002	-1.762126e+001	3.569658e+001
3803812.825	-1.442403e+001	-9.700669e+001	-1.415848e+001	1.158534e+002	-1.422006e+001	1.160249e+002	-1.714784e+001	3.114373e+001
3828249.567	-1.401717e+001	-9.955306e+001	-1.439936e+001	1.121380e+002	-1.446784e+001	1.123562e+002	-1.675025e+001	2.645911e+001
3852686.308	-1.364264e+001	-1.023649e+002	-1.463318e+001	1.086609e+002	-1.471154e+001	1.089073e+002	-1.640129e+001	2.177218e+001
3877123.050	-1.328881e+001	-1.054341e+002	-1.487847e+001	1.054477e+002	-1.495261e+001	1.057713e+002	-1.610598e+001	1.701444e+001
3901559.792	-1.297309e+001	-1.087863e+002	-1.511375e+001	1.026508e+002	-1.518865e+001	1.030187e+002	-1.586579e+001	1.211586e+001
3925996.534	-1.271803e+001	-1.123660e+002	-1.530631e+001	1.003186e+002	-1.538067e+001	1.007306e+002	-1.570280e+001	7.220597e+000
3950433.276	-1.252470e+001	-1.160402e+002	-1.542728e+001	9.830838e+001	-1.549519e+001	9.874113e+001	-1.562120e+001	2.484612e+000
3974870.017	-1.240090e+001	-1.196946e+002	-1.545906e+001	9.645415e+001	-1.552487e+001	9.688032e+001	-1.560767e+001	-2.008490e+000
3999306.759	-1.233778e+001	-1.232028e+002	-1.540345e+001	9.455788e+001	-1.546667e+001	9.500340e+001	-1.565384e+001	-6.187389e+000
4023743.501	-1.233127e+001	-1.264774e+002	-1.525921e+001	9.241734e+001	-1.532937e+001	9.288778e+001	-1.575020e+001	-9.916997e+000
4048180.243	-1.236502e+001	-1.293728e+002	-1.505108e+001	8.983414e+001	-1.512298e+001	9.030878e+001	-1.587854e+001	-1.307396e+001
4072616.984	-1.241345e+001	-1.318331e+002	-1.481692e+001	8.669465e+001	-1.489608e+001	8.722976e+001	-1.599495e+001	-1.567369e+001
4097053.726	-1.244995e+001	-1.338998e+002	-1.458709e+001	8.308568e+001	-1.466303e+001	8.366486e+001	-1.608823e+001	-1.775762e+001
4121490.468	-1.245435e+001	-1.356660e+002	-1.438351e+001	7.908340e+001	-1.445312e+001	7.973466e+001	-1.611941e+001	-1.948090e+001
4145927.210	-1.242420e+001	-1.372966e+002	-1.420931e+001	7.492755e+001	-1.428036e+001	7.554823e+001	-1.608846e+001	-2.110369e+001
4170363.951	-1.235518e+001	-1.388151e+002	-1.406548e+001	7.060323e+001	-1.412951e+001	7.126408e+001	-1.601921e+001	-2.266707e+001
4194800.693	-1.226246e+001	-1.404192e+002	-1.394305e+001	6.628960e+001	-1.400414e+001	6.692484e+001	-1.591058e+001	-2.433560e+001
4219237.435	-1.214437e+001	-1.419936e+002	-1.383259e+001	6.182896e+001	-1.389362e+001	6.250603e+001	-1.577697e+001	-2.608201e+001
4243674.177	-1.200041e+001	-1.436595e+002	-1.374378e+001	5.734120e+001	-1.380269e+001	5.804270e+001	-1.561061e+001	-2.790062e+001
4268110.919	-1.183704e+001	-1.454509e+002	-1.367301e+001	5.285034e+001	-1.373169e+001	5.356151e+001	-1.542445e+001	-2.990159e+001
4292547.660	-1.166151e+001	-1.473994e+002	-1.362261e+001	4.836739e+001	-1.367906e+001	4.910101e+001	-1.522470e+001	-3.206321e+001
4316984.402	-1.148204e+001	-1.494948e+002	-1.358053e+001	4.392701e+001	-1.363344e+001	4.468220e+001	-1.503051e+001	-3.440536e+001
4341421.144	-1.130311e+001	-1.517415e+002	-1.354640e+001	3.954451e+001	-1.360273e+001	4.028903e+001	-1.482964e+001	-3.689097e+001
4365857.886	-1.112727e+001	-1.541306e+002	-1.352549e+001	3.518261e+001	-1.357857e+001	3.597116e+001	-1.463863e+001	-3.953377e+001
4390294.627	-1.096096e+001	-1.566678e+002	-1.350713e+001	3.089024e+001	-1.355286e+001	3.170410e+001	-1.446022e+001	-4.227533e+001
4414731.369	-1.080722e+001	-1.593275e+002	-1.349254e+001	2.664788e+001	-1.353232e+001	2.749551e+001	-1.429450e+001	-4.512672e+001
4439168.111	-1.067058e+001	-1.620566e+002	-1.347193e+001	2.242516e+001	-1.351006e+001	2.333719e+001	-1.414091e+001	-4.809132e+001
4463604.853	-1.055235e+001	-1.648637e+002	-1.344768e+001	1.831207e+001	-1.348621e+001	1.923714e+001	-1.400355e+001	-5.110637e+001
4488041.594	-1.044590e+001	-1.677458e+002	-1.342294e+001	1.420396e+001	-1.345285e+001	1.516441e+001	-1.388627e+001	-5.414413e+001
4512478.336	-1.036014e+001	-1.706471e+002	-1.338984e+001	1.011659e+001	-1.341613e+001	1.110008e+001	-1.377964e+001	-5.721677e+001
4536915.078	-1.028823e+001	-1.735588e+002	-1.334618e+001	6.036137e+000	-1.336717e+001	7.032955e+000	-1.368703e+001	-6.025880e+001
4561351.820	-1.023231e+001	-1.765337e+002	-1.330521e+001	1.965753e+000	-1.331953e+001	2.957786e+000	-1.360502e+001	-6.335102e+001
4585788.562	-1.019009e+001	-1.795385e+002	-1.325991e+001	-2.114105e+000	-1.326970e+001	-1.109828e+000	-1.353466e+001	-6.648251e+001
4610225.303	-1.017098e+001	1.774393e+002	-1.320751e+001	-6.144475e+000	-1.320978e+001	-5.137408e+000	-1.348410e+001	-6.963328e+001
4634662.045	-1.017036e+001	1.744641e+002	-1.313779e+001	-1.019083e+001	-1.313740e+001	-9.159721e+000	-1.345603e+001	-7.275997e+001
4659098.787	-1.018643e+001	1.715252e+002	-1.305446e+001	-1.426167e+001	-1.304815e+001	-1.326014e+001	-1.344052e+001	-7.579057e+001
4683535.529	-1.020548e+001	1.686151e+002	-1.296678e+001	-1.846993e+001	-1.295233e+001	-1.745618e+001	-1.343418e+001	-7.876029e+001
4707972.270	-1.023690e+001	1.657189e+002	-1.287449e+001	-2.270626e+001	-1.285493e+001	-2.174446e+001	-1.342703e+001	-8.165921e+001
4732409.012	-1.027778e+001	1.628070e+002	-1.278301e+001	-2.705304e+001	-1.276185e+001	-2.609091e+001	-1.342431e+001	-8.457559e+001
4756845.754	-1.033349e+001	1.598479e+002	-1.269843e+001	-3.142914e+001	-1.266718e+001	-3.052148e+001	-1.342607e+001	-8.746899e+001
4781282.496	-1.039609e+001	1.568998e+002	-1.261313e+001	-3.592742e+001	-1.257842e+001	-3.498866e+001	-1.343361e+001	-9.036805e+001
4805719.237	-1.047821e+001	1.539281e+002	-1.253312e+001	-4.044075e+001	-1.249208e+001	-3.952471e+001	-1.344410e+001	-9.325633e+001
4830155.979	-1.057685e+001	1.509458e+002	-1.245767e+001	-4.499375e+001	-1.241365e+001	-4.407950e+001	-1.346244e+001	-9.617960e+001
4854592.721	-1.069554e+001	1.479605e+002	-1.238573e+001	-4.956842e+001	-1.233955e+001	-4.871332e+001	-1.348023e+001	-9.908432e+001
4879029.463	-1.083387e+001	1.449621e+002	-1.232115e+001	-5.418096e+001	-1.226777e+001	-5.333410e+001	-1.351346e+001	-1.020017e+002
4903466.205	-1.099283e+001	1.419944e+002	-1.225771e+001	-5.882916e+001	-1.220180e+001	-5.801746e+001	-1.354830e+001	-1.049149e+002
4927902.946	-1.117662e+001	1.390438e+002	-1.220131e+001	-6.347547e+001	-1.214326e+001	-6.270140e+001	-1.359386e+001	-1.078504e+002
4952339.688	-1.138270e+001	1.361046e+002	-1.215191e+001	-6.818246e+001	-1.208758e+001	-6.739201e+001	-1.364897e+001	-1.108112e+002
4976776.430	-1.161232e+001	1.332728e+002	-1.209859e+001	-7.287547e+001	-1.203531e+001	-7.211702e+001	-1.371414e+001	-1.137299e+002
5001213.172	-1.186686e+001	1.304696e+002	-1.205602e+001	-7.759538e+001	-1.198641e+001	-7.686628e+001	-1.378603e+001	-1.166329e+002
5025649.913	-1.214630e+001	1.277646e+002	-1.201327e+001	-8.231310e+001	-1.194357e+001	-8.161759e+001	-1.386758e+001	-1.195150e+002
5050086.655	-1.245309e+001	1.251569e+002	-1.197510e+001	-8.704867e+001	-1.190372e+001	-8.640406e+001	-1.395569e+001	-1.223864e+002
5074523.397	-1.278223e+001	1.226500e+002	-1.194012e+001	-9.181358e+001	-1.186952e+001	-9.118284e+001	-1.405384e+001	-1.252382e+002
5098960.139	-1.313637e+001	1.202729e+002	-1.191031e+001	-9.657935e+001	-1.183885e+001	-9.599802e+001	-1.415412e+001	-1.280640e+002
5123396.880	-1.351445e+001	1.180320e+002	-1.188431e+001	-1.013706e+002	-1.181412e+001	-1.008240e+002	-1.426005e+001	-1.308802e+002
5147833.622	-1.391602e+001	1.159331e+002	-1.186517e+001	-1.061903e+002	-1.179555e+001	-1.056689e+002	-1.436986e+001	-1.336776e+002
5172270.364	-1.434608e+001	1.140140e+002	-1.185114e+001	-1.109918e+002	-1.178343e+001	-1.105081e+002	-1.448340e+001	-1.364984e+002
5196707.106	-1.480475e+001	1.122807e+002	-1.184306e+001	-1.158048e+002	-1.177648e+001	-1.153430e+002	-1.460507e+001	-1.393136e+002
5221143.847	-1.528729e+001	1.108103e+002	-1.183849e+001	-1.205649e+002	-1.177401e+001	-1.201646e+002	-1.473468e+001	-1.421034e+002
5245580.589	-1.579143e+001	1.096101e+002	-1.183630e+001	-1.253620e+002	-1.177650e+001	-1.249888e+002	-1.486809e+001	-1.449134e+002
5270017.331	-1.631357e+001	1.086891e+002	-1.183898e+001	-1.301549e+002	-1.177941e+001	-1.297972e+002	-1.501024e+001	-1.476866e+002
5294454.073	-1.684991e+001	1.081204e+002	-1.184090e+001	-1.349395e+002	-1.178520e+001	-1.346160e+002	-1.515426e+001	-1.504652e+002
5318890.815	-1.739861e+001	1.078804e+002	-1.184752e+001	-1.397425e+002	-1.179434e+001	-1.394279e+002	-1.529998e+001	-1.532231e+002
5343327.556	-1.795346e+001	1.080248e+002	-1.185677e+001	-1.445478e+002	-1.180726e+001	-1.442465e+002	-1.544730e+001	-1.559928e+002
5367764.298	-1.850486e+001	1.085654e+002	-1.186987e+001	-1.493517e+002	-1.182213e+001	-1.490675e+002	-1.559430e+001	-1.587632e+002
5392201.040	-1.905106e+001	1.094983e+002	-1.188621e+001	-1.541751e+002	-1.184188e+001	-1.538970e+002	-1.574370e+001	-1.615758e+002
5416637.782	-1.957992e+001	1.108478e+002	-1.190595e+001	-1.589970e+002	-1.186434e+001	-1.587250e+002	-1.589031e+001	-1.644070e+002
5441074.523	-2.008483e+001	1.126357e+002	-1.192827e+001	-1.638186e+002	-1.188915e+001	-1.635535e+002	-1.603876e+001	-1.672737e+002
