!Agilent Technologies,E5061B,MY49101568,A.02.00
!Date: Wed Mar 01 15:27:24 2023
!Data & Calibration Information:
!Freq	S11:SOLT2(OFF)	S21:SOLT2(OFF)	S12:SOLT2(OFF)	S22:SOLT2(OFF)
# Hz S dB R 50
1800000.000	-1.085753e+001	2.930998e+001	-1.143672e+001	1.372743e+002	-1.139876e+001	1.373902e+002	-1.068482e+001	7.301860e+001
1824436.742	-1.075404e+001	2.478775e+001	-1.165930e+001	1.325372e+002	-1.161971e+001	1.326336e+002	-1.065626e+001	6.828524e+001
1848873.484	-1.068018e+001	2.037996e+001	-1.184602e+001	1.279741e+002	-1.182316e+001	1.280669e+002	-1.065768e+001	6.366399e+001
1873310.225	-1.063617e+001	1.604323e+001	-1.201353e+001	1.236300e+002	-1.197968e+001	1.236418e+002	-1.067333e+001	5.930545e+001
1897746.967	-1.059526e+001	1.177466e+001	-1.215372e+001	1.193378e+002	-1.212010e+001	1.193929e+002	-1.071442e+001	5.501989e+001
1922183.709	-1.056879e+001	7.509467e+000	-1.227309e+001	1.150734e+002	-1.224865e+001	1.151197e+002	-1.075797e+001	5.068857e+001
1946620.451	-1.056134e+001	3.136758e+000	-1.239540e+001	1.109639e+002	-1.236772e+001	1.108668e+002	-1.080572e+001	4.634498e+001
1971057.192	-1.057337e+001	-1.218382e+000	-1.249404e+001	1.069595e+002	-1.246584e+001	1.069173e+002	-1.089524e+001	4.205383e+001
1995493.934	-1.060538e+001	-5.511778e+000	-1.256313e+001	1.030671e+002	-1.254642e+001	1.031215e+002	-1.100622e+001	3.778376e+001
2019930.676	-1.066897e+001	-9.770954e+000	-1.260758e+001	9.941433e+001	-1.260836e+001	9.945087e+001	-1.113496e+001	3.350956e+001
2044367.418	-1.073893e+001	-1.384472e+001	-1.259344e+001	9.578469e+001	-1.259136e+001	9.584342e+001	-1.127571e+001	2.950165e+001
2068804.159	-1.078514e+001	-1.776719e+001	-1.253197e+001	9.194657e+001	-1.254113e+001	9.195418e+001	-1.138721e+001	2.557968e+001
2093240.901	-1.080927e+001	-2.194831e+001	-1.249311e+001	8.790148e+001	-1.249523e+001	8.781725e+001	-1.147609e+001	2.154974e+001
2117677.643	-1.085329e+001	-2.623103e+001	-1.244606e+001	8.387031e+001	-1.245882e+001	8.381451e+001	-1.158833e+001	1.731123e+001
2142114.385	-1.091109e+001	-3.065515e+001	-1.240045e+001	7.984295e+001	-1.240461e+001	7.982695e+001	-1.171137e+001	1.301623e+001
2166551.127	-1.097762e+001	-3.513989e+001	-1.233840e+001	7.579790e+001	-1.234504e+001	7.581822e+001	-1.184498e+001	8.574156e+000
2190987.868	-1.107999e+001	-3.972000e+001	-1.226658e+001	7.188499e+001	-1.227649e+001	7.187747e+001	-1.200157e+001	4.028512e+000
2215424.610	-1.120813e+001	-4.422286e+001	-1.215698e+001	6.797854e+001	-1.219154e+001	6.801425e+001	-1.218667e+001	-6.144901e-001
2239861.352	-1.135802e+001	-4.875233e+001	-1.202659e+001	6.405914e+001	-1.205921e+001	6.412468e+001	-1.239400e+001	-5.165694e+000
2264298.094	-1.150796e+001	-5.325409e+001	-1.187016e+001	5.998035e+001	-1.190124e+001	6.007338e+001	-1.260735e+001	-9.741151e+000
2288734.835	-1.165550e+001	-5.786717e+001	-1.170497e+001	5.568114e+001	-1.173894e+001	5.584308e+001	-1.281997e+001	-1.442340e+001
2313171.577	-1.182682e+001	-6.259553e+001	-1.153747e+001	5.130152e+001	-1.156848e+001	5.146171e+001	-1.304327e+001	-1.922538e+001
2337608.319	-1.201790e+001	-6.744826e+001	-1.136639e+001	4.682411e+001	-1.140503e+001	4.704845e+001	-1.329368e+001	-2.425114e+001
2362045.061	-1.225552e+001	-7.244217e+001	-1.119750e+001	4.236012e+001	-1.123486e+001	4.253316e+001	-1.356987e+001	-2.939535e+001
2386481.802	-1.253957e+001	-7.742011e+001	-1.101099e+001	3.783144e+001	-1.104447e+001	3.806510e+001	-1.390322e+001	-3.463049e+001
2410918.544	-1.285173e+001	-8.237192e+001	-1.080868e+001	3.315815e+001	-1.084819e+001	3.341362e+001	-1.426023e+001	-3.999919e+001
2435355.286	-1.318512e+001	-8.727581e+001	-1.059647e+001	2.827903e+001	-1.062751e+001	2.856157e+001	-1.464949e+001	-4.525836e+001
2459792.028	-1.354051e+001	-9.225256e+001	-1.038590e+001	2.319438e+001	-1.041370e+001	2.348961e+001	-1.506104e+001	-5.063340e+001
2484228.769	-1.393346e+001	-9.734128e+001	-1.018561e+001	1.791428e+001	-1.021776e+001	1.820017e+001	-1.549016e+001	-5.619815e+001
2508665.511	-1.436563e+001	-1.026275e+002	-1.000639e+001	1.248140e+001	-1.003749e+001	1.282343e+001	-1.597467e+001	-6.191836e+001
2533102.253	-1.486789e+001	-1.080969e+002	-9.846579e+000	6.991593e+000	-9.875919e+000	7.330815e+000	-1.650661e+001	-6.779860e+001
2557538.995	-1.545222e+001	-1.136090e+002	-9.701283e+000	1.416367e+000	-9.729735e+000	1.783240e+000	-1.710007e+001	-7.389015e+001
2581975.737	-1.612471e+001	-1.191915e+002	-9.577353e+000	-4.233516e+000	-9.602845e+000	-3.853354e+000	-1.774960e+001	-8.009442e+001
2606412.478	-1.690418e+001	-1.246891e+002	-9.469547e+000	-9.910511e+000	-9.491335e+000	-9.521752e+000	-1.848132e+001	-8.643901e+001
2630849.220	-1.779884e+001	-1.300770e+002	-9.376993e+000	-1.561623e+001	-9.395108e+000	-1.524318e+001	-1.930758e+001	-9.278311e+001
2655285.962	-1.881208e+001	-1.354154e+002	-9.302686e+000	-2.138014e+001	-9.318192e+000	-2.098668e+001	-2.021835e+001	-9.919842e+001
2679722.704	-1.997852e+001	-1.405223e+002	-9.253114e+000	-2.714595e+001	-9.262623e+000	-2.675628e+001	-2.122718e+001	-1.056523e+002
2704159.445	-2.134180e+001	-1.455463e+002	-9.222733e+000	-3.291661e+001	-9.228927e+000	-3.251578e+001	-2.231907e+001	-1.121866e+002
2728596.187	-2.298489e+001	-1.498878e+002	-9.210917e+000	-3.858536e+001	-9.217262e+000	-3.821735e+001	-2.356732e+001	-1.190280e+002
2753032.929	-2.499712e+001	-1.532281e+002	-9.211100e+000	-4.416923e+001	-9.214975e+000	-4.381210e+001	-2.501140e+001	-1.260342e+002
2777469.671	-2.746390e+001	-1.545929e+002	-9.219343e+000	-4.970056e+001	-9.222715e+000	-4.932722e+001	-2.671960e+001	-1.331491e+002
2801906.412	-3.054703e+001	-1.518188e+002	-9.228831e+000	-5.517082e+001	-9.228413e+000	-5.480819e+001	-2.879076e+001	-1.396503e+002
2826343.154	-3.421382e+001	-1.401248e+002	-9.241302e+000	-6.067665e+001	-9.239335e+000	-6.032102e+001	-3.124535e+001	-1.447237e+002
2850779.896	-3.750107e+001	-1.090085e+002	-9.274269e+000	-6.614716e+001	-9.268021e+000	-6.581043e+001	-3.413234e+001	-1.486382e+002
2875216.638	-3.615299e+001	-7.058547e+001	-9.313036e+000	-7.157413e+001	-9.309202e+000	-7.122438e+001	-3.775763e+001	-1.498033e+002
2899653.380	-3.289931e+001	-5.326589e+001	-9.361571e+000	-7.691240e+001	-9.358591e+000	-7.655823e+001	-4.300978e+001	-1.441659e+002
2924090.121	-3.019862e+001	-4.773738e+001	-9.416101e+000	-8.214737e+001	-9.411217e+000	-8.181811e+001	-4.933099e+001	-1.013715e+002
2948526.863	-2.820105e+001	-4.681144e+001	-9.477515e+000	-8.732456e+001	-9.470809e+000	-8.699197e+001	-4.580204e+001	-4.473273e+001
2972963.605	-2.663274e+001	-4.816366e+001	-9.535701e+000	-9.239573e+001	-9.530367e+000	-9.207499e+001	-4.118691e+001	-3.248158e+001
2997400.347	-2.540517e+001	-5.061248e+001	-9.591004e+000	-9.738234e+001	-9.587178e+000	-9.707859e+001	-3.814068e+001	-3.283418e+001
3021837.088	-2.441605e+001	-5.375615e+001	-9.639962e+000	-1.022958e+002	-9.636728e+000	-1.020023e+002	-3.599733e+001	-3.636959e+001
3046273.830	-2.364812e+001	-5.728168e+001	-9.680052e+000	-1.071789e+002	-9.678935e+000	-1.068847e+002	-3.436028e+001	-4.211636e+001
3070710.572	-2.304048e+001	-6.110009e+001	-9.709799e+000	-1.120304e+002	-9.706411e+000	-1.117307e+002	-3.296026e+001	-4.935030e+001
3095147.314	-2.259065e+001	-6.512031e+001	-9.725944e+000	-1.168968e+002	-9.726251e+000	-1.165740e+002	-3.180619e+001	-5.756462e+001
3119584.055	-2.224800e+001	-6.921868e+001	-9.733477e+000	-1.217422e+002	-9.729832e+000	-1.214780e+002	-3.073362e+001	-6.724399e+001
3144020.797	-2.207465e+001	-7.341472e+001	-9.726821e+000	-1.266830e+002	-9.725410e+000	-1.264490e+002	-2.978468e+001	-7.785644e+001
3168457.539	-2.203955e+001	-7.736707e+001	-9.722100e+000	-1.317341e+002	-9.718696e+000	-1.315036e+002	-2.891635e+001	-8.938973e+001
3192894.281	-2.214958e+001	-8.097667e+001	-9.716570e+000	-1.369220e+002	-9.717756e+000	-1.366688e+002	-2.810401e+001	-1.016245e+002
3217331.023	-2.236321e+001	-8.403243e+001	-9.725144e+000	-1.421767e+002	-9.723904e+000	-1.419343e+002	-2.736213e+001	-1.142963e+002
3241767.764	-2.267397e+001	-8.633498e+001	-9.748431e+000	-1.474863e+002	-9.745976e+000	-1.472480e+002	-2.665641e+001	-1.269579e+002
3266204.506	-2.304675e+001	-8.780616e+001	-9.787020e+000	-1.527860e+002	-9.782390e+000	-1.525521e+002	-2.598259e+001	-1.391463e+002
3290641.248	-2.345084e+001	-8.867084e+001	-9.829020e+000	-1.580416e+002	-9.823421e+000	-1.578049e+002	-2.530846e+001	-1.505057e+002
3315077.990	-2.394379e+001	-8.906295e+001	-9.858014e+000	-1.633196e+002	-9.853892e+000	-1.631134e+002	-2.448870e+001	-1.610025e+002
3339514.731	-2.457951e+001	-8.787895e+001	-9.893068e+000	-1.687697e+002	-9.889443e+000	-1.685843e+002	-2.357483e+001	-1.716437e+002
3363951.473	-2.520036e+001	-8.435696e+001	-9.952656e+000	-1.743534e+002	-9.947640e+000	-1.741716e+002	-2.267955e+001	1.777086e+002
3388388.215	-2.561049e+001	-7.843133e+001	-1.004162e+001	-1.799658e+002	-1.003487e+001	-1.798089e+002	-2.183515e+001	1.672316e+002
3412824.957	-2.563210e+001	-7.083972e+001	-1.015496e+001	1.744050e+002	-1.015084e+001	1.745495e+002	-2.103831e+001	1.570728e+002
3437261.698	-2.515188e+001	-6.316562e+001	-1.029693e+001	1.688203e+002	-1.029498e+001	1.689334e+002	-2.029836e+001	1.472609e+002
3461698.440	-2.425219e+001	-5.699943e+001	-1.046598e+001	1.632968e+002	-1.046373e+001	1.633972e+002	-1.962033e+001	1.379113e+002
3486135.182	-2.313096e+001	-5.309064e+001	-1.066306e+001	1.578583e+002	-1.066328e+001	1.579344e+002	-1.900144e+001	1.288576e+002
3510571.924	-2.195332e+001	-5.139412e+001	-1.088325e+001	1.525707e+002	-1.088964e+001	1.526359e+002	-1.845282e+001	1.201546e+002
3535008.666	-2.083236e+001	-5.143694e+001	-1.112422e+001	1.474681e+002	-1.113221e+001	1.475212e+002	-1.796743e+001	1.119090e+002
3559445.407	-1.981514e+001	-5.271362e+001	-1.137237e+001	1.425896e+002	-1.138817e+001	1.426191e+002	-1.754182e+001	1.040720e+002
3583882.149	-1.890977e+001	-5.471413e+001	-1.162179e+001	1.378926e+002	-1.164006e+001	1.379102e+002	-1.716501e+001	9.678443e+001
3608318.891	-1.810025e+001	-5.714399e+001	-1.186796e+001	1.333384e+002	-1.189170e+001	1.333546e+002	-1.682148e+001	8.989444e+001
3632755.633	-1.737120e+001	-5.986024e+001	-1.210965e+001	1.288781e+002	-1.213475e+001	1.289242e+002	-1.649835e+001	8.339727e+001
3657192.374	-1.670296e+001	-6.272533e+001	-1.234444e+001	1.245168e+002	-1.237618e+001	1.245706e+002	-1.618794e+001	7.718389e+001
3681629.116	-1.607436e+001	-6.570706e+001	-1.257967e+001	1.201848e+002	-1.261554e+001	1.202295e+002	-1.587725e+001	7.125364e+001
3706065.858	-1.547763e+001	-6.887919e+001	-1.282672e+001	1.158817e+002	-1.287161e+001	1.159534e+002	-1.557888e+001	6.535757e+001
3730502.600	-1.491741e+001	-7.230890e+001	-1.309356e+001	1.117149e+002	-1.314180e+001	1.118073e+002	-1.530420e+001	5.951411e+001
3754939.341	-1.439869e+001	-7.595792e+001	-1.337510e+001	1.077463e+002	-1.343153e+001	1.078393e+002	-1.505873e+001	5.370132e+001
3779376.083	-1.393001e+001	-7.978208e+001	-1.366872e+001	1.039950e+002	-1.372829e+001	1.040906e+002	-1.484992e+001	4.798136e+001
3803812.825	-1.351774e+001	-8.369397e+001	-1.395325e+001	1.005119e+002	-1.402344e+001	1.006645e+002	-1.468632e+001	4.236781e+001
3828249.567	-1.315018e+001	-8.771009e+001	-1.423825e+001	9.729753e+001	-1.430890e+001	9.744631e+001	-1.455112e+001	3.695972e+001
3852686.308	-1.282672e+001	-9.169716e+001	-1.450694e+001	9.429336e+001	-1.457982e+001	9.451988e+001	-1.444905e+001	3.169377e+001
3877123.050	-1.254150e+001	-9.574550e+001	-1.476867e+001	9.156408e+001	-1.484176e+001	9.179718e+001	-1.436654e+001	2.653294e+001
3901559.792	-1.229693e+001	-9.987181e+001	-1.502000e+001	8.921957e+001	-1.509364e+001	8.951507e+001	-1.432639e+001	2.135898e+001
3925996.534	-1.211787e+001	-1.040781e+002	-1.522148e+001	8.741577e+001	-1.529624e+001	8.771670e+001	-1.434865e+001	1.631878e+001
3950433.276	-1.200411e+001	-1.081538e+002	-1.533588e+001	8.590846e+001	-1.541567e+001	8.622141e+001	-1.442300e+001	1.156446e+001
3974870.017	-1.195217e+001	-1.119887e+002	-1.534171e+001	8.448714e+001	-1.542880e+001	8.486124e+001	-1.455111e+001	7.224796e+000
3999306.759	-1.195046e+001	-1.154841e+002	-1.524190e+001	8.291735e+001	-1.532797e+001	8.334415e+001	-1.471667e+001	3.428485e+000
4023743.501	-1.198203e+001	-1.185968e+002	-1.505690e+001	8.098833e+001	-1.514254e+001	8.141058e+001	-1.489137e+001	2.278514e-001
4048180.243	-1.202379e+001	-1.211687e+002	-1.480978e+001	7.841850e+001	-1.489804e+001	7.892000e+001	-1.504994e+001	-2.355909e+000
4072616.984	-1.203871e+001	-1.233067e+002	-1.455198e+001	7.522505e+001	-1.463712e+001	7.582768e+001	-1.515634e+001	-4.428965e+000
4097053.726	-1.201640e+001	-1.251059e+002	-1.430979e+001	7.154014e+001	-1.439874e+001	7.214039e+001	-1.517638e+001	-6.168948e+000
4121490.468	-1.194042e+001	-1.268059e+002	-1.410764e+001	6.752475e+001	-1.418599e+001	6.817084e+001	-1.513861e+001	-7.834457e+000
4145927.210	-1.181911e+001	-1.284605e+002	-1.393951e+001	6.327698e+001	-1.401460e+001	6.395848e+001	-1.503450e+001	-9.558015e+000
4170363.951	-1.165921e+001	-1.302055e+002	-1.380813e+001	5.895980e+001	-1.388471e+001	5.958059e+001	-1.487737e+001	-1.141825e+001
4194800.693	-1.147345e+001	-1.320870e+002	-1.370468e+001	5.453593e+001	-1.377761e+001	5.519495e+001	-1.470060e+001	-1.349230e+001
4219237.435	-1.126737e+001	-1.341362e+002	-1.363014e+001	5.009603e+001	-1.370031e+001	5.076607e+001	-1.450092e+001	-1.578503e+001
4243674.177	-1.105402e+001	-1.363731e+002	-1.357579e+001	4.568159e+001	-1.364949e+001	4.637171e+001	-1.429466e+001	-1.830941e+001
4268110.919	-1.084088e+001	-1.387716e+002	-1.353753e+001	4.131396e+001	-1.361029e+001	4.203362e+001	-1.409491e+001	-2.098136e+001
4292547.660	-1.063347e+001	-1.413304e+002	-1.351181e+001	3.699739e+001	-1.358790e+001	3.778984e+001	-1.390279e+001	-2.384190e+001
4316984.402	-1.043593e+001	-1.440377e+002	-1.349677e+001	3.276127e+001	-1.356871e+001	3.357162e+001	-1.371870e+001	-2.675900e+001
4341421.144	-1.024790e+001	-1.468692e+002	-1.349273e+001	2.858646e+001	-1.355745e+001	2.941081e+001	-1.354830e+001	-2.978544e+001
4365857.886	-1.007802e+001	-1.497670e+002	-1.348255e+001	2.444843e+001	-1.354883e+001	2.531207e+001	-1.338742e+001	-3.289802e+001
4390294.627	-9.919346e+000	-1.527718e+002	-1.347868e+001	2.037789e+001	-1.353606e+001	2.128201e+001	-1.324577e+001	-3.603376e+001
4414731.369	-9.781640e+000	-1.558385e+002	-1.347374e+001	1.637358e+001	-1.352832e+001	1.730971e+001	-1.311392e+001	-3.924449e+001
4439168.111	-9.657843e+000	-1.589498e+002	-1.346326e+001	1.236589e+001	-1.351373e+001	1.338665e+001	-1.299788e+001	-4.249441e+001
4463604.853	-9.557346e+000	-1.620948e+002	-1.344657e+001	8.488390e+000	-1.349470e+001	9.543990e+000	-1.290029e+001	-4.576515e+001
4488041.594	-9.471578e+000	-1.652749e+002	-1.342627e+001	4.633195e+000	-1.346916e+001	5.707836e+000	-1.281332e+001	-4.902965e+001
4512478.336	-9.405744e+000	-1.684535e+002	-1.339587e+001	8.190061e-001	-1.342794e+001	1.898106e+000	-1.274369e+001	-5.224591e+001
4536915.078	-9.348439e+000	-1.716341e+002	-1.335883e+001	-3.047751e+000	-1.338653e+001	-1.931843e+000	-1.267813e+001	-5.548628e+001
4561351.820	-9.311004e+000	-1.748035e+002	-1.330895e+001	-6.886348e+000	-1.333446e+001	-5.770622e+000	-1.262464e+001	-5.870089e+001
4585788.562	-9.292075e+000	-1.780250e+002	-1.326375e+001	-1.067963e+001	-1.327950e+001	-9.543562e+000	-1.258879e+001	-6.195819e+001
4610225.303	-9.295091e+000	1.788098e+002	-1.319818e+001	-1.442963e+001	-1.320668e+001	-1.329334e+001	-1.257385e+001	-6.516963e+001
4634662.045	-9.313692e+000	1.757273e+002	-1.310866e+001	-1.819590e+001	-1.311129e+001	-1.705077e+001	-1.257803e+001	-6.829448e+001
4659098.787	-9.338845e+000	1.726997e+002	-1.300509e+001	-2.208489e+001	-1.299958e+001	-2.095337e+001	-1.258398e+001	-7.128328e+001
4683535.529	-9.369758e+000	1.697235e+002	-1.289009e+001	-2.607607e+001	-1.287654e+001	-2.494736e+001	-1.259559e+001	-7.419473e+001
4707972.270	-9.404042e+000	1.667719e+002	-1.277029e+001	-3.015618e+001	-1.275373e+001	-2.908000e+001	-1.260390e+001	-7.703497e+001
4732409.012	-9.444498e+000	1.637963e+002	-1.265097e+001	-3.438037e+001	-1.263334e+001	-3.332481e+001	-1.260788e+001	-7.984899e+001
4756845.754	-9.490651e+000	1.607649e+002	-1.254326e+001	-3.871374e+001	-1.251218e+001	-3.765785e+001	-1.261051e+001	-8.264388e+001
4781282.496	-9.549528e+000	1.577552e+002	-1.242981e+001	-4.311115e+001	-1.239550e+001	-4.207658e+001	-1.261533e+001	-8.541912e+001
4805719.237	-9.620149e+000	1.547007e+002	-1.232760e+001	-4.757180e+001	-1.228746e+001	-4.655263e+001	-1.261719e+001	-8.821791e+001
4830155.979	-9.705788e+000	1.516238e+002	-1.223043e+001	-5.209564e+001	-1.218728e+001	-5.107317e+001	-1.262100e+001	-9.104223e+001
4854592.721	-9.809404e+000	1.485403e+002	-1.213936e+001	-5.664762e+001	-1.209226e+001	-5.566709e+001	-1.262592e+001	-9.385610e+001
4879029.463	-9.929363e+000	1.454095e+002	-1.206025e+001	-6.125313e+001	-1.200352e+001	-6.028387e+001	-1.263696e+001	-9.669340e+001
4903466.205	-1.007174e+001	1.423203e+002	-1.198060e+001	-6.586116e+001	-1.192169e+001	-6.492724e+001	-1.265234e+001	-9.954092e+001
4927902.946	-1.023483e+001	1.392348e+002	-1.190873e+001	-7.049722e+001	-1.184394e+001	-6.960324e+001	-1.267250e+001	-1.023920e+002
4952339.688	-1.041800e+001	1.361604e+002	-1.184165e+001	-7.519990e+001	-1.177302e+001	-7.428617e+001	-1.269989e+001	-1.052868e+002
4976776.430	-1.062232e+001	1.331365e+002	-1.177904e+001	-7.988449e+001	-1.170740e+001	-7.900429e+001	-1.273205e+001	-1.081571e+002
5001213.172	-1.084810e+001	1.301702e+002	-1.171756e+001	-8.459049e+001	-1.164429e+001	-8.376269e+001	-1.276775e+001	-1.110015e+002
5025649.913	-1.109552e+001	1.272531e+002	-1.166283e+001	-8.932885e+001	-1.158703e+001	-8.853333e+001	-1.280857e+001	-1.138518e+002
5050086.655	-1.136547e+001	1.243948e+002	-1.161350e+001	-9.407145e+001	-1.153448e+001	-9.332895e+001	-1.285370e+001	-1.166879e+002
5074523.397	-1.165815e+001	1.216250e+002	-1.156598e+001	-9.885532e+001	-1.148817e+001	-9.814137e+001	-1.290246e+001	-1.195326e+002
5098960.139	-1.197153e+001	1.189270e+002	-1.152610e+001	-1.036478e+002	-1.144551e+001	-1.029803e+002	-1.295205e+001	-1.223762e+002
5123396.880	-1.230694e+001	1.163084e+002	-1.149220e+001	-1.084709e+002	-1.141065e+001	-1.078285e+002	-1.300722e+001	-1.252325e+002
5147833.622	-1.266762e+001	1.137897e+002	-1.146425e+001	-1.132913e+002	-1.138397e+001	-1.126914e+002	-1.306372e+001	-1.281139e+002
5172270.364	-1.305303e+001	1.113884e+002	-1.144260e+001	-1.181245e+002	-1.136277e+001	-1.175664e+002	-1.312218e+001	-1.310263e+002
5196707.106	-1.346344e+001	1.091339e+002	-1.142452e+001	-1.229427e+002	-1.134653e+001	-1.224127e+002	-1.319244e+001	-1.339367e+002
5221143.847	-1.389698e+001	1.070528e+002	-1.140971e+001	-1.277283e+002	-1.133321e+001	-1.272865e+002	-1.326164e+001	-1.368323e+002
5245580.589	-1.434940e+001	1.051151e+002	-1.139705e+001	-1.325650e+002	-1.132290e+001	-1.321416e+002	-1.333661e+001	-1.397591e+002
5270017.331	-1.482641e+001	1.033543e+002	-1.138999e+001	-1.374079e+002	-1.131832e+001	-1.370232e+002	-1.341103e+001	-1.427210e+002
5294454.073	-1.532141e+001	1.017769e+002	-1.138623e+001	-1.422585e+002	-1.131611e+001	-1.418957e+002	-1.348896e+001	-1.456776e+002
5318890.815	-1.583701e+001	1.004029e+002	-1.138588e+001	-1.471114e+002	-1.131858e+001	-1.467859e+002	-1.356811e+001	-1.486889e+002
5343327.556	-1.637666e+001	9.920066e+001	-1.139131e+001	-1.519792e+002	-1.132630e+001	-1.516703e+002	-1.365052e+001	-1.517260e+002
5367764.298	-1.693395e+001	9.822777e+001	-1.139910e+001	-1.568620e+002	-1.133906e+001	-1.565648e+002	-1.373314e+001	-1.548318e+002
5392201.040	-1.751685e+001	9.750091e+001	-1.141210e+001	-1.617331e+002	-1.135456e+001	-1.614749e+002	-1.381839e+001	-1.579775e+002
5416637.782	-1.812133e+001	9.700970e+001	-1.143059e+001	-1.666308e+002	-1.137593e+001	-1.663848e+002	-1.390602e+001	-1.611770e+002
5441074.523	-1.875443e+001	9.679698e+001	-1.145159e+001	-1.715318e+002	-1.140078e+001	-1.712946e+002	-1.399745e+001	-1.644438e+002
