!Agilent Technologies,E5061B,MY49101568,A.02.00
!Date: Wed Mar 01 15:35:16 2023
!Data & Calibration Information:
!Freq	S11:SOLT2(OFF)	S21:SOLT2(OFF)	S12:SOLT2(OFF)	S22:SOLT2(OFF)
# Hz S dB R 50
1800000.000	-9.127253e+000	-1.707496e+001	-2.761234e+001	-1.274473e+002	-2.762131e+001	-1.275900e+002	-9.450190e+000	1.945206e+001
1824436.742	-9.196982e+000	-2.128914e+001	-2.723023e+001	-1.311284e+002	-2.726542e+001	-1.311937e+002	-9.545891e+000	1.577712e+001
1848873.484	-9.267052e+000	-2.558765e+001	-2.685181e+001	-1.348248e+002	-2.689414e+001	-1.348581e+002	-9.641290e+000	1.204499e+001
1873310.225	-9.341429e+000	-2.993508e+001	-2.645773e+001	-1.386164e+002	-2.651235e+001	-1.386053e+002	-9.732331e+000	8.287406e+000
1897746.967	-9.415278e+000	-3.437311e+001	-2.603867e+001	-1.425480e+002	-2.611273e+001	-1.424790e+002	-9.820146e+000	4.473473e+000
1922183.709	-9.489160e+000	-3.892588e+001	-2.562478e+001	-1.464786e+002	-2.570870e+001	-1.463785e+002	-9.903518e+000	5.413665e-001
1946620.451	-9.562187e+000	-4.359670e+001	-2.519045e+001	-1.505403e+002	-2.528339e+001	-1.504278e+002	-9.982506e+000	-3.455953e+000
1971057.192	-9.637105e+000	-4.839570e+001	-2.474632e+001	-1.547302e+002	-2.485808e+001	-1.545211e+002	-1.005947e+001	-7.557841e+000
1995493.934	-9.724033e+000	-5.332523e+001	-2.426899e+001	-1.591412e+002	-2.440672e+001	-1.586183e+002	-1.013418e+001	-1.174038e+001
2019930.676	-9.806887e+000	-5.839139e+001	-2.380805e+001	-1.634656e+002	-2.394955e+001	-1.629647e+002	-1.020629e+001	-1.599903e+001
2044367.418	-9.895484e+000	-6.359280e+001	-2.332980e+001	-1.680117e+002	-2.346907e+001	-1.674698e+002	-1.026862e+001	-2.040730e+001
2068804.159	-9.989981e+000	-6.893741e+001	-2.285939e+001	-1.726954e+002	-2.298681e+001	-1.720722e+002	-1.033069e+001	-2.486476e+001
2093240.901	-1.008414e+001	-7.443301e+001	-2.239132e+001	-1.773761e+002	-2.249843e+001	-1.769322e+002	-1.039275e+001	-2.939631e+001
2117677.643	-1.019314e+001	-8.014415e+001	-2.190097e+001	1.776123e+002	-2.200803e+001	1.780808e+002	-1.044831e+001	-3.405963e+001
2142114.385	-1.031128e+001	-8.602483e+001	-2.141625e+001	1.724719e+002	-2.151548e+001	1.729366e+002	-1.049607e+001	-3.883210e+001
2166551.127	-1.043970e+001	-9.211172e+001	-2.092700e+001	1.671241e+002	-2.102546e+001	1.676376e+002	-1.054150e+001	-4.374186e+001
2190987.868	-1.058234e+001	-9.841596e+001	-2.043852e+001	1.615851e+002	-2.053523e+001	1.621028e+002	-1.058419e+001	-4.874654e+001
2215424.610	-1.073627e+001	-1.049323e+002	-1.997042e+001	1.557955e+002	-2.004522e+001	1.563414e+002	-1.062595e+001	-5.386909e+001
2239861.352	-1.091014e+001	-1.116704e+002	-1.950592e+001	1.498209e+002	-1.957708e+001	1.503955e+002	-1.065804e+001	-5.910906e+001
2264298.094	-1.109702e+001	-1.186628e+002	-1.905346e+001	1.437109e+002	-1.912420e+001	1.443109e+002	-1.068661e+001	-6.445794e+001
2288734.835	-1.130086e+001	-1.258922e+002	-1.861559e+001	1.374125e+002	-1.867891e+001	1.380415e+002	-1.071041e+001	-6.993495e+001
2313171.577	-1.152394e+001	-1.333592e+002	-1.819550e+001	1.309351e+002	-1.824197e+001	1.315546e+002	-1.072771e+001	-7.551815e+001
2337608.319	-1.176599e+001	-1.410750e+002	-1.779392e+001	1.242555e+002	-1.783515e+001	1.249066e+002	-1.074239e+001	-8.120349e+001
2362045.061	-1.202129e+001	-1.490138e+002	-1.742480e+001	1.174593e+002	-1.743174e+001	1.178682e+002	-1.076632e+001	-8.696635e+001
2386481.802	-1.228740e+001	-1.571838e+002	-1.707908e+001	1.104584e+002	-1.707813e+001	1.108624e+002	-1.076786e+001	-9.284889e+001
2410918.544	-1.255927e+001	-1.656011e+002	-1.676593e+001	1.033544e+002	-1.675297e+001	1.037752e+002	-1.075702e+001	-9.884279e+001
2435355.286	-1.283755e+001	-1.742473e+002	-1.647753e+001	9.615797e+001	-1.645552e+001	9.660334e+001	-1.073753e+001	-1.049581e+002
2459792.028	-1.311339e+001	1.769050e+002	-1.622105e+001	8.886459e+001	-1.619121e+001	8.933479e+001	-1.071051e+001	-1.111901e+002
2484228.769	-1.337300e+001	1.678839e+002	-1.600818e+001	8.152586e+001	-1.596193e+001	8.209456e+001	-1.067134e+001	-1.175463e+002
2508665.511	-1.361815e+001	1.587317e+002	-1.582608e+001	7.413677e+001	-1.577037e+001	7.463642e+001	-1.063278e+001	-1.239785e+002
2533102.253	-1.383599e+001	1.494516e+002	-1.568230e+001	6.677798e+001	-1.562112e+001	6.729994e+001	-1.058273e+001	-1.304934e+002
2557538.995	-1.402671e+001	1.401220e+002	-1.556857e+001	5.935669e+001	-1.550220e+001	5.985245e+001	-1.053666e+001	-1.371147e+002
2581975.737	-1.418065e+001	1.307862e+002	-1.549432e+001	5.196853e+001	-1.541503e+001	5.242680e+001	-1.048903e+001	-1.438246e+002
2606412.478	-1.429674e+001	1.215045e+002	-1.545131e+001	4.460892e+001	-1.536487e+001	4.503132e+001	-1.044371e+001	-1.506017e+002
2630849.220	-1.437273e+001	1.122816e+002	-1.544380e+001	3.732197e+001	-1.534782e+001	3.769656e+001	-1.040407e+001	-1.574372e+002
2655285.962	-1.440707e+001	1.032276e+002	-1.546551e+001	3.012219e+001	-1.536320e+001	3.043351e+001	-1.036778e+001	-1.642826e+002
2679722.704	-1.440080e+001	9.436676e+001	-1.551925e+001	2.300509e+001	-1.541382e+001	2.325334e+001	-1.034244e+001	-1.711404e+002
2704159.445	-1.435926e+001	8.574825e+001	-1.559794e+001	1.602741e+001	-1.549335e+001	1.618259e+001	-1.032276e+001	-1.779820e+002
2728596.187	-1.429035e+001	7.736667e+001	-1.570607e+001	9.177838e+000	-1.559658e+001	9.315325e+000	-1.031400e+001	1.752128e+002
2753032.929	-1.419435e+001	6.927969e+001	-1.583524e+001	2.495132e+000	-1.572633e+001	2.550865e+000	-1.031055e+001	1.684655e+002
2777469.671	-1.408452e+001	6.146733e+001	-1.598727e+001	-4.055812e+000	-1.587750e+001	-4.052542e+000	-1.031857e+001	1.618072e+002
2801906.412	-1.395584e+001	5.396124e+001	-1.615123e+001	-1.043725e+001	-1.605054e+001	-1.050648e+001	-1.033787e+001	1.552514e+002
2826343.154	-1.381994e+001	4.675179e+001	-1.633298e+001	-1.664706e+001	-1.623802e+001	-1.676035e+001	-1.036773e+001	1.488081e+002
2850779.896	-1.367447e+001	3.982873e+001	-1.653059e+001	-2.267798e+001	-1.643737e+001	-2.284276e+001	-1.040491e+001	1.425228e+002
2875216.638	-1.352545e+001	3.319286e+001	-1.673629e+001	-2.858100e+001	-1.664736e+001	-2.877864e+001	-1.044994e+001	1.363616e+002
2899653.380	-1.337544e+001	2.683266e+001	-1.695010e+001	-3.428273e+001	-1.686924e+001	-3.452365e+001	-1.050239e+001	1.303723e+002
2924090.121	-1.322315e+001	2.072182e+001	-1.716604e+001	-3.980328e+001	-1.709435e+001	-4.007676e+001	-1.055902e+001	1.245411e+002
2948526.863	-1.307346e+001	1.484125e+001	-1.738463e+001	-4.515224e+001	-1.732215e+001	-4.546414e+001	-1.062080e+001	1.188622e+002
2972963.605	-1.292593e+001	9.197972e+000	-1.760430e+001	-5.033862e+001	-1.754918e+001	-5.067041e+001	-1.068493e+001	1.133319e+002
2997400.347	-1.278059e+001	3.750962e+000	-1.782209e+001	-5.539150e+001	-1.777623e+001	-5.571629e+001	-1.075065e+001	1.079606e+002
3021837.088	-1.263621e+001	-1.482753e+000	-1.803620e+001	-6.027371e+001	-1.800144e+001	-6.061030e+001	-1.081820e+001	1.027468e+002
3046273.830	-1.249756e+001	-6.552139e+000	-1.824862e+001	-6.502324e+001	-1.822342e+001	-6.537711e+001	-1.088642e+001	9.767540e+001
3070710.572	-1.235978e+001	-1.144048e+001	-1.845513e+001	-6.962087e+001	-1.843479e+001	-6.996895e+001	-1.095352e+001	9.273519e+001
3095147.314	-1.222366e+001	-1.615750e+001	-1.865232e+001	-7.406076e+001	-1.864284e+001	-7.445861e+001	-1.102052e+001	8.792487e+001
3119584.055	-1.209332e+001	-2.077333e+001	-1.883730e+001	-7.843146e+001	-1.883684e+001	-7.878086e+001	-1.108532e+001	8.324122e+001
3144020.797	-1.196477e+001	-2.526166e+001	-1.901135e+001	-8.264699e+001	-1.901783e+001	-8.299686e+001	-1.115131e+001	7.869217e+001
3168457.539	-1.184280e+001	-2.962337e+001	-1.917303e+001	-8.680900e+001	-1.918962e+001	-8.714208e+001	-1.121739e+001	7.423893e+001
3192894.281	-1.172321e+001	-3.386848e+001	-1.932479e+001	-9.087218e+001	-1.935290e+001	-9.122106e+001	-1.128147e+001	6.990184e+001
3217331.023	-1.160860e+001	-3.800865e+001	-1.947170e+001	-9.487357e+001	-1.950411e+001	-9.521281e+001	-1.134608e+001	6.566433e+001
3241767.764	-1.149705e+001	-4.205433e+001	-1.960509e+001	-9.882593e+001	-1.964264e+001	-9.913506e+001	-1.140558e+001	6.153662e+001
3266204.506	-1.138773e+001	-4.600101e+001	-1.973681e+001	-1.026964e+002	-1.977804e+001	-1.029526e+002	-1.146365e+001	5.750463e+001
3290641.248	-1.127871e+001	-4.986490e+001	-1.985168e+001	-1.064235e+002	-1.990250e+001	-1.066757e+002	-1.151498e+001	5.355284e+001
3315077.990	-1.117199e+001	-5.370333e+001	-1.994326e+001	-1.100514e+002	-2.000224e+001	-1.102617e+002	-1.156494e+001	4.964852e+001
3339514.731	-1.107006e+001	-5.747068e+001	-2.001483e+001	-1.136658e+002	-2.008325e+001	-1.138444e+002	-1.161533e+001	4.580095e+001
3363951.473	-1.097457e+001	-6.116959e+001	-2.007548e+001	-1.172786e+002	-2.014374e+001	-1.174005e+002	-1.166915e+001	4.201877e+001
3388388.215	-1.088475e+001	-6.483229e+001	-2.011721e+001	-1.208904e+002	-2.019349e+001	-1.209739e+002	-1.172227e+001	3.831556e+001
3412824.957	-1.080010e+001	-6.842617e+001	-2.014862e+001	-1.245047e+002	-2.022863e+001	-1.245226e+002	-1.177523e+001	3.467441e+001
3437261.698	-1.071996e+001	-7.196966e+001	-2.016432e+001	-1.280717e+002	-2.025335e+001	-1.280634e+002	-1.182946e+001	3.111412e+001
3461698.440	-1.064377e+001	-7.545063e+001	-2.016692e+001	-1.316363e+002	-2.026078e+001	-1.315957e+002	-1.188349e+001	2.762037e+001
3486135.182	-1.057203e+001	-7.888613e+001	-2.016082e+001	-1.351880e+002	-2.025164e+001	-1.351307e+002	-1.193979e+001	2.417846e+001
3510571.924	-1.050575e+001	-8.226454e+001	-2.013919e+001	-1.387673e+002	-2.023288e+001	-1.386840e+002	-1.199303e+001	2.081978e+001
3535008.666	-1.044378e+001	-8.559052e+001	-2.010778e+001	-1.423509e+002	-2.020489e+001	-1.422108e+002	-1.204552e+001	1.752513e+001
3559445.407	-1.038310e+001	-8.886672e+001	-2.006132e+001	-1.459179e+002	-2.016012e+001	-1.457206e+002	-1.209499e+001	1.429202e+001
3583882.149	-1.032565e+001	-9.209955e+001	-1.999261e+001	-1.494771e+002	-2.009519e+001	-1.492330e+002	-1.213918e+001	1.109107e+001
3608318.891	-1.026946e+001	-9.531015e+001	-1.990604e+001	-1.530688e+002	-2.001214e+001	-1.528032e+002	-1.218420e+001	7.921970e+000
3632755.633	-1.022054e+001	-9.851353e+001	-1.979191e+001	-1.568979e+002	-1.990647e+001	-1.564393e+002	-1.223163e+001	4.743937e+000
3657192.374	-1.017395e+001	-1.016745e+002	-1.966916e+001	-1.607232e+002	-1.978036e+001	-1.601822e+002	-1.228021e+001	1.621982e+000
3681629.116	-1.013112e+001	-1.048282e+002	-1.953112e+001	-1.646569e+002	-1.964575e+001	-1.640380e+002	-1.233431e+001	-1.466721e+000
3706065.858	-1.009503e+001	-1.079603e+002	-1.938509e+001	-1.687320e+002	-1.950086e+001	-1.680398e+002	-1.239240e+001	-4.510474e+000
3730502.600	-1.006675e+001	-1.110813e+002	-1.923053e+001	-1.729274e+002	-1.934927e+001	-1.721595e+002	-1.245412e+001	-7.521530e+000
3754939.341	-1.004662e+001	-1.141768e+002	-1.907429e+001	-1.772795e+002	-1.919365e+001	-1.763972e+002	-1.251998e+001	-1.046568e+001
3779376.083	-1.003601e+001	-1.172349e+002	-1.891923e+001	1.782543e+002	-1.903885e+001	1.792513e+002	-1.259241e+001	-1.336683e+001
3803812.825	-1.003227e+001	-1.202717e+002	-1.876329e+001	1.736986e+002	-1.888085e+001	1.747444e+002	-1.267047e+001	-1.620320e+001
3828249.567	-1.004041e+001	-1.232615e+002	-1.861576e+001	1.690465e+002	-1.872564e+001	1.701880e+002	-1.275276e+001	-1.895930e+001
3852686.308	-1.005385e+001	-1.262177e+002	-1.846358e+001	1.643350e+002	-1.857137e+001	1.654915e+002	-1.284169e+001	-2.165547e+001
3877123.050	-1.008028e+001	-1.291282e+002	-1.831020e+001	1.595231e+002	-1.841299e+001	1.606578e+002	-1.293744e+001	-2.427039e+001
3901559.792	-1.012181e+001	-1.319514e+002	-1.816178e+001	1.545192e+002	-1.825452e+001	1.556662e+002	-1.304403e+001	-2.678545e+001
3925996.534	-1.017497e+001	-1.346860e+002	-1.801125e+001	1.493928e+002	-1.810798e+001	1.505125e+002	-1.315436e+001	-2.914450e+001
3950433.276	-1.023891e+001	-1.372982e+002	-1.787485e+001	1.440381e+002	-1.795889e+001	1.451741e+002	-1.327613e+001	-3.138158e+001
3974870.017	-1.031369e+001	-1.397440e+002	-1.775034e+001	1.385301e+002	-1.783049e+001	1.396250e+002	-1.339877e+001	-3.339027e+001
3999306.759	-1.039425e+001	-1.419919e+002	-1.764529e+001	1.327812e+002	-1.772386e+001	1.338489e+002	-1.351838e+001	-3.514646e+001
4023743.501	-1.047278e+001	-1.440236e+002	-1.757073e+001	1.267907e+002	-1.764902e+001	1.278667e+002	-1.362570e+001	-3.662573e+001
4048180.243	-1.053718e+001	-1.458145e+002	-1.753391e+001	1.206169e+002	-1.760627e+001	1.216504e+002	-1.370951e+001	-3.782820e+001
4072616.984	-1.057870e+001	-1.473656e+002	-1.754409e+001	1.142425e+002	-1.761960e+001	1.152875e+002	-1.374876e+001	-3.874608e+001
4097053.726	-1.058042e+001	-1.487309e+002	-1.760835e+001	1.077649e+002	-1.768001e+001	1.087535e+002	-1.373823e+001	-3.946469e+001
4121490.468	-1.053071e+001	-1.499367e+002	-1.775062e+001	1.011026e+002	-1.782683e+001	1.020988e+002	-1.364916e+001	-4.004097e+001
4145927.210	-1.041642e+001	-1.511591e+002	-1.797871e+001	9.448050e+001	-1.806123e+001	9.548878e+001	-1.347728e+001	-4.069071e+001
4170363.951	-1.023846e+001	-1.525366e+002	-1.830553e+001	8.804439e+001	-1.837654e+001	8.901966e+001	-1.323423e+001	-4.156019e+001
4194800.693	-1.000192e+001	-1.542554e+002	-1.875186e+001	8.194755e+001	-1.882094e+001	8.298627e+001	-1.291682e+001	-4.290431e+001
4219237.435	-9.735427e+000	-1.564918e+002	-1.929033e+001	7.663152e+001	-1.935165e+001	7.768278e+001	-1.257086e+001	-4.484093e+001
4243674.177	-9.474595e+000	-1.592232e+002	-1.987337e+001	7.222686e+001	-1.991942e+001	7.333293e+001	-1.223452e+001	-4.733479e+001
4268110.919	-9.245536e+000	-1.623399e+002	-2.043910e+001	6.878333e+001	-2.048099e+001	6.984051e+001	-1.192772e+001	-5.024500e+001
4292547.660	-9.052960e+000	-1.657097e+002	-2.096244e+001	6.608652e+001	-2.100272e+001	6.718093e+001	-1.165770e+001	-5.341892e+001
4316984.402	-8.893901e+000	-1.692799e+002	-2.142979e+001	6.414976e+001	-2.145844e+001	6.525732e+001	-1.142380e+001	-5.679414e+001
4341421.144	-8.777097e+000	-1.729979e+002	-2.179136e+001	6.282082e+001	-2.180964e+001	6.393613e+001	-1.122695e+001	-6.029915e+001
4365857.886	-8.700566e+000	-1.767294e+002	-2.201749e+001	6.166853e+001	-2.201840e+001	6.283525e+001	-1.107293e+001	-6.383519e+001
4390294.627	-8.654834e+000	1.795812e+002	-2.214772e+001	6.020256e+001	-2.213399e+001	6.124549e+001	-1.094177e+001	-6.725058e+001
4414731.369	-8.617566e+000	1.759684e+002	-2.227001e+001	5.827203e+001	-2.225110e+001	5.931679e+001	-1.081304e+001	-7.058064e+001
4439168.111	-8.572456e+000	1.723008e+002	-2.246843e+001	5.634410e+001	-2.245210e+001	5.728826e+001	-1.066482e+001	-7.388166e+001
4463604.853	-8.524652e+000	1.684363e+002	-2.272791e+001	5.529682e+001	-2.271073e+001	5.627471e+001	-1.049665e+001	-7.738063e+001
4488041.594	-8.493872e+000	1.642166e+002	-2.292529e+001	5.583363e+001	-2.290422e+001	5.677114e+001	-1.032390e+001	-8.118626e+001
4512478.336	-8.513591e+000	1.596732e+002	-2.285981e+001	5.757130e+001	-2.281097e+001	5.859539e+001	-1.018130e+001	-8.539121e+001
4536915.078	-8.623977e+000	1.549938e+002	-2.236309e+001	5.885235e+001	-2.230572e+001	5.991347e+001	-1.010522e+001	-8.983335e+001
4561351.820	-8.809786e+000	1.504824e+002	-2.166325e+001	5.801161e+001	-2.157921e+001	5.898639e+001	-1.010032e+001	-9.419643e+001
4585788.562	-9.034252e+000	1.463108e+002	-2.101156e+001	5.516087e+001	-2.091870e+001	5.606470e+001	-1.013019e+001	-9.825822e+001
4610225.303	-9.264912e+000	1.423367e+002	-2.050127e+001	5.153353e+001	-2.040243e+001	5.230874e+001	-1.015941e+001	-1.021142e+002
4634662.045	-9.499729e+000	1.384257e+002	-2.008624e+001	4.765953e+001	-1.999060e+001	4.837426e+001	-1.017734e+001	-1.058960e+002
4659098.787	-9.742420e+000	1.344759e+002	-1.973197e+001	4.384328e+001	-1.962359e+001	4.445462e+001	-1.018858e+001	-1.097105e+002
4683535.529	-1.000162e+001	1.304731e+002	-1.940198e+001	4.006410e+001	-1.930301e+001	4.067113e+001	-1.019049e+001	-1.135946e+002
4707972.270	-1.027943e+001	1.263300e+002	-1.909418e+001	3.656078e+001	-1.899105e+001	3.711644e+001	-1.018616e+001	-1.175992e+002
4732409.012	-1.059659e+001	1.219345e+002	-1.873788e+001	3.331820e+001	-1.863390e+001	3.375550e+001	-1.018892e+001	-1.218605e+002
4756845.754	-1.099228e+001	1.173599e+002	-1.828323e+001	2.990634e+001	-1.818036e+001	3.033227e+001	-1.022047e+001	-1.264147e+002
4781282.496	-1.148132e+001	1.128774e+002	-1.775948e+001	2.583669e+001	-1.766371e+001	2.621416e+001	-1.030642e+001	-1.310920e+002
4805719.237	-1.204580e+001	1.086789e+002	-1.725157e+001	2.098312e+001	-1.716234e+001	2.134350e+001	-1.044160e+001	-1.357152e+002
4830155.979	-1.265991e+001	1.047764e+002	-1.680471e+001	1.564276e+001	-1.671191e+001	1.598301e+001	-1.060811e+001	-1.402493e+002
4854592.721	-1.331570e+001	1.010883e+002	-1.641158e+001	1.007299e+001	-1.632237e+001	1.037528e+001	-1.079375e+001	-1.447025e+002
4879029.463	-1.401773e+001	9.758670e+001	-1.606550e+001	4.409201e+000	-1.597759e+001	4.678461e+000	-1.099415e+001	-1.491258e+002
4903466.205	-1.477761e+001	9.426298e+001	-1.575344e+001	-1.344746e+000	-1.566736e+001	-1.105773e+000	-1.121403e+001	-1.535413e+002
4927902.946	-1.560828e+001	9.114122e+001	-1.546261e+001	-7.166550e+000	-1.538273e+001	-6.981875e+000	-1.145656e+001	-1.579657e+002
4952339.688	-1.651131e+001	8.832065e+001	-1.519826e+001	-1.311684e+001	-1.512274e+001	-1.290924e+001	-1.172298e+001	-1.623956e+002
4976776.430	-1.749938e+001	8.581095e+001	-1.495771e+001	-1.907117e+001	-1.489156e+001	-1.893284e+001	-1.201213e+001	-1.667629e+002
5001213.172	-1.857603e+001	8.373391e+001	-1.474653e+001	-2.511592e+001	-1.468802e+001	-2.499840e+001	-1.232596e+001	-1.710883e+002
5025649.913	-1.975439e+001	8.216896e+001	-1.456065e+001	-3.120206e+001	-1.451129e+001	-3.109315e+001	-1.265893e+001	-1.753570e+002
5050086.655	-2.104850e+001	8.122884e+001	-1.440135e+001	-3.729741e+001	-1.435650e+001	-3.720111e+001	-1.301536e+001	-1.795850e+002
5074523.397	-2.248890e+001	8.111867e+001	-1.426543e+001	-4.339314e+001	-1.422814e+001	-4.330226e+001	-1.338777e+001	1.762451e+002
5098960.139	-2.411159e+001	8.216101e+001	-1.414749e+001	-4.947035e+001	-1.411767e+001	-4.938041e+001	-1.378066e+001	1.721249e+002
5123396.880	-2.594486e+001	8.502233e+001	-1.405110e+001	-5.552423e+001	-1.402802e+001	-5.541555e+001	-1.418993e+001	1.680247e+002
5147833.622	-2.800835e+001	9.091502e+001	-1.397248e+001	-6.154403e+001	-1.395318e+001	-6.140296e+001	-1.461820e+001	1.639637e+002
5172270.364	-3.022254e+001	1.019856e+002	-1.390714e+001	-6.753299e+001	-1.389328e+001	-6.736805e+001	-1.506831e+001	1.599642e+002
5196707.106	-3.203481e+001	1.208968e+002	-1.385388e+001	-7.348188e+001	-1.384626e+001	-7.330704e+001	-1.553831e+001	1.560067e+002
5221143.847	-3.234741e+001	1.452841e+002	-1.381277e+001	-7.936851e+001	-1.380817e+001	-7.920451e+001	-1.602781e+001	1.521245e+002
5245580.589	-3.098211e+001	1.657904e+002	-1.378321e+001	-8.525711e+001	-1.378119e+001	-8.508029e+001	-1.653960e+001	1.483089e+002
5270017.331	-2.905132e+001	1.782308e+002	-1.376653e+001	-9.111281e+001	-1.376628e+001	-9.092471e+001	-1.706800e+001	1.445739e+002
5294454.073	-2.720425e+001	-1.748670e+002	-1.375822e+001	-9.692835e+001	-1.376202e+001	-9.672854e+001	-1.761151e+001	1.409016e+002
5318890.815	-2.559068e+001	-1.712493e+002	-1.375884e+001	-1.026814e+002	-1.376441e+001	-1.024804e+002	-1.817562e+001	1.372839e+002
5343327.556	-2.419258e+001	-1.695417e+002	-1.376034e+001	-1.084026e+002	-1.376922e+001	-1.081893e+002	-1.875993e+001	1.337104e+002
5367764.298	-2.298154e+001	-1.691099e+002	-1.376469e+001	-1.141148e+002	-1.377514e+001	-1.138713e+002	-1.936892e+001	1.302273e+002
5392201.040	-2.194076e+001	-1.695139e+002	-1.377266e+001	-1.198194e+002	-1.378623e+001	-1.195662e+002	-2.000245e+001	1.268933e+002
5416637.782	-2.103824e+001	-1.704423e+002	-1.378624e+001	-1.255116e+002	-1.379863e+001	-1.252581e+002	-2.065736e+001	1.237651e+002
5441074.523	-2.025277e+001	-1.717334e+002	-1.380289e+001	-1.312330e+002	-1.381781e+001	-1.309528e+002	-2.132696e+001	1.208231e+002
