!Agilent Technologies,E5061B,MY49101568,A.02.00
!Date: Wed Mar 01 15:28:24 2023
!Data & Calibration Information:
!Freq	S11:SOLT2(OFF)	S21:SOLT2(OFF)	S12:SOLT2(OFF)	S22:SOLT2(OFF)
# Hz S dB R 50
1800000.000	-9.598140e+000	-1.656062e+001	-2.377942e+001	-1.449554e+002	-2.378822e+001	-1.449548e+002	-9.962377e+000	1.995844e+001
1824436.742	-9.714641e+000	-2.075715e+001	-2.344743e+001	-1.488307e+002	-2.345985e+001	-1.488716e+002	-1.009959e+001	1.631207e+001
1848873.484	-9.835174e+000	-2.503235e+001	-2.310762e+001	-1.528671e+002	-2.311958e+001	-1.529069e+002	-1.024194e+001	1.262474e+001
1873310.225	-9.964458e+000	-2.935508e+001	-2.275724e+001	-1.569708e+002	-2.277462e+001	-1.569628e+002	-1.038037e+001	8.907669e+000
1897746.967	-1.009427e+001	-3.373282e+001	-2.239942e+001	-1.611236e+002	-2.242397e+001	-1.611578e+002	-1.051601e+001	5.146473e+000
1922183.709	-1.022975e+001	-3.822821e+001	-2.203854e+001	-1.654203e+002	-2.206310e+001	-1.655048e+002	-1.065364e+001	1.293556e+000
1946620.451	-1.036972e+001	-4.281018e+001	-2.167154e+001	-1.697898e+002	-2.170375e+001	-1.697670e+002	-1.078684e+001	-2.648921e+000
1971057.192	-1.051794e+001	-4.750525e+001	-2.129570e+001	-1.743028e+002	-2.132136e+001	-1.741887e+002	-1.092420e+001	-6.688352e+000
1995493.934	-1.067347e+001	-5.231508e+001	-2.091311e+001	-1.788690e+002	-2.095226e+001	-1.787943e+002	-1.106111e+001	-1.075933e+001
2019930.676	-1.083728e+001	-5.722721e+001	-2.054347e+001	1.764730e+002	-2.058262e+001	1.765364e+002	-1.119480e+001	-1.487236e+001
2044367.418	-1.100338e+001	-6.225543e+001	-2.016795e+001	1.717312e+002	-2.021160e+001	1.717835e+002	-1.131827e+001	-1.914573e+001
2068804.159	-1.118249e+001	-6.742612e+001	-1.979382e+001	1.669215e+002	-1.983727e+001	1.670823e+002	-1.143624e+001	-2.352208e+001
2093240.901	-1.137339e+001	-7.279849e+001	-1.938753e+001	1.621374e+002	-1.943586e+001	1.622964e+002	-1.155809e+001	-2.801283e+001
2117677.643	-1.159217e+001	-7.830156e+001	-1.897222e+001	1.570230e+002	-1.901265e+001	1.572426e+002	-1.169032e+001	-3.259200e+001
2142114.385	-1.182745e+001	-8.394177e+001	-1.855900e+001	1.517156e+002	-1.860520e+001	1.519985e+002	-1.181129e+001	-3.724742e+001
2166551.127	-1.208260e+001	-8.973738e+001	-1.815125e+001	1.462431e+002	-1.820468e+001	1.465184e+002	-1.193241e+001	-4.198472e+001
2190987.868	-1.235278e+001	-9.564479e+001	-1.776106e+001	1.405567e+002	-1.781016e+001	1.408465e+002	-1.205137e+001	-4.680353e+001
2215424.610	-1.263527e+001	-1.016828e+002	-1.739752e+001	1.346630e+002	-1.744443e+001	1.351123e+002	-1.215455e+001	-5.173987e+001
2239861.352	-1.292687e+001	-1.079654e+002	-1.704956e+001	1.287779e+002	-1.708629e+001	1.291738e+002	-1.225365e+001	-5.677529e+001
2264298.094	-1.323838e+001	-1.144820e+002	-1.670931e+001	1.228082e+002	-1.674432e+001	1.232243e+002	-1.233615e+001	-6.193733e+001
2288734.835	-1.357035e+001	-1.212842e+002	-1.637705e+001	1.167646e+002	-1.641067e+001	1.171776e+002	-1.240717e+001	-6.723847e+001
2313171.577	-1.393521e+001	-1.282729e+002	-1.604207e+001	1.104796e+002	-1.608581e+001	1.109770e+002	-1.247033e+001	-7.271248e+001
2337608.319	-1.431120e+001	-1.354777e+002	-1.573697e+001	1.040877e+002	-1.577313e+001	1.046395e+002	-1.252640e+001	-7.827548e+001
2362045.061	-1.470036e+001	-1.428678e+002	-1.545753e+001	9.752435e+001	-1.548387e+001	9.809285e+001	-1.257523e+001	-8.393079e+001
2386481.802	-1.508760e+001	-1.505844e+002	-1.520220e+001	9.089601e+001	-1.523072e+001	9.147356e+001	-1.259606e+001	-8.972710e+001
2410918.544	-1.545578e+001	-1.584766e+002	-1.499048e+001	8.411384e+001	-1.500932e+001	8.474347e+001	-1.260000e+001	-9.563278e+001
2435355.286	-1.580065e+001	-1.667922e+002	-1.480688e+001	7.735216e+001	-1.481394e+001	7.800499e+001	-1.258234e+001	-1.017108e+002
2459792.028	-1.609215e+001	-1.756021e+002	-1.466344e+001	7.073962e+001	-1.465371e+001	7.133783e+001	-1.253527e+001	-1.079996e+002
2484228.769	-1.637003e+001	1.749867e+002	-1.451758e+001	6.415487e+001	-1.449617e+001	6.483042e+001	-1.246954e+001	-1.146419e+002
2508665.511	-1.666213e+001	1.650936e+002	-1.435595e+001	5.751777e+001	-1.433479e+001	5.821116e+001	-1.241823e+001	-1.214870e+002
2533102.253	-1.692313e+001	1.549951e+002	-1.421345e+001	5.076574e+001	-1.418884e+001	5.136391e+001	-1.237671e+001	-1.283727e+002
2557538.995	-1.712556e+001	1.448983e+002	-1.411236e+001	4.383248e+001	-1.408199e+001	4.436473e+001	-1.233270e+001	-1.353107e+002
2581975.737	-1.724993e+001	1.347950e+002	-1.405143e+001	3.684426e+001	-1.400343e+001	3.737454e+001	-1.228617e+001	-1.423536e+002
2606412.478	-1.728838e+001	1.246947e+002	-1.402975e+001	2.989151e+001	-1.398417e+001	3.043455e+001	-1.221929e+001	-1.493993e+002
2630849.220	-1.723410e+001	1.145362e+002	-1.403899e+001	2.310650e+001	-1.398199e+001	2.356182e+001	-1.215594e+001	-1.565496e+002
2655285.962	-1.713798e+001	1.046318e+002	-1.406810e+001	1.627811e+001	-1.401029e+001	1.672224e+001	-1.210001e+001	-1.637065e+002
2679722.704	-1.697661e+001	9.504900e+001	-1.413503e+001	9.517514e+000	-1.406665e+001	9.917699e+000	-1.205145e+001	-1.708474e+002
2704159.445	-1.675159e+001	8.581447e+001	-1.423681e+001	2.868853e+000	-1.416085e+001	3.223744e+000	-1.199933e+001	-1.778925e+002
2728596.187	-1.648225e+001	7.691439e+001	-1.437174e+001	-3.551534e+000	-1.429017e+001	-3.272932e+000	-1.193818e+001	1.750911e+002
2753032.929	-1.617889e+001	6.829319e+001	-1.452159e+001	-9.719812e+000	-1.443867e+001	-9.530947e+000	-1.187618e+001	1.680959e+002
2777469.671	-1.587634e+001	5.988612e+001	-1.466411e+001	-1.571823e+001	-1.458432e+001	-1.558946e+001	-1.183164e+001	1.610802e+002
2801906.412	-1.558958e+001	5.187019e+001	-1.480747e+001	-2.163832e+001	-1.473043e+001	-2.157396e+001	-1.180328e+001	1.541519e+002
2826343.154	-1.532464e+001	4.428284e+001	-1.495284e+001	-2.756638e+001	-1.489183e+001	-2.753342e+001	-1.179910e+001	1.474517e+002
2850779.896	-1.505603e+001	3.716841e+001	-1.513326e+001	-3.337522e+001	-1.507136e+001	-3.337995e+001	-1.180485e+001	1.409469e+002
2875216.638	-1.479316e+001	3.043283e+001	-1.533023e+001	-3.906886e+001	-1.526944e+001	-3.908995e+001	-1.181465e+001	1.346203e+002
2899653.380	-1.453946e+001	2.402778e+001	-1.553499e+001	-4.455945e+001	-1.548354e+001	-4.463555e+001	-1.182607e+001	1.285305e+002
2924090.121	-1.429113e+001	1.789804e+001	-1.574959e+001	-4.986252e+001	-1.570665e+001	-4.998391e+001	-1.183745e+001	1.226098e+002
2948526.863	-1.405292e+001	1.205688e+001	-1.597466e+001	-5.500644e+001	-1.593202e+001	-5.515064e+001	-1.185201e+001	1.168675e+002
2972963.605	-1.382028e+001	6.446870e+000	-1.619612e+001	-5.998003e+001	-1.616181e+001	-6.014962e+001	-1.186915e+001	1.112872e+002
2997400.347	-1.360123e+001	1.033748e+000	-1.641410e+001	-6.475616e+001	-1.638740e+001	-6.495856e+001	-1.188805e+001	1.058487e+002
3021837.088	-1.339113e+001	-4.189906e+000	-1.662810e+001	-6.940076e+001	-1.660779e+001	-6.959640e+001	-1.190579e+001	1.005507e+002
3046273.830	-1.319404e+001	-9.229621e+000	-1.683209e+001	-7.389397e+001	-1.682001e+001	-7.411516e+001	-1.192855e+001	9.540150e+001
3070710.572	-1.300763e+001	-1.411213e+001	-1.702317e+001	-7.829263e+001	-1.702350e+001	-7.848901e+001	-1.195303e+001	9.038705e+001
3095147.314	-1.282802e+001	-1.883267e+001	-1.720750e+001	-8.255183e+001	-1.721567e+001	-8.278158e+001	-1.198354e+001	8.551554e+001
3119584.055	-1.266032e+001	-2.341973e+001	-1.738377e+001	-8.673368e+001	-1.739559e+001	-8.694793e+001	-1.201493e+001	8.073876e+001
3144020.797	-1.250186e+001	-2.788265e+001	-1.754337e+001	-9.080941e+001	-1.756530e+001	-9.105468e+001	-1.205151e+001	7.614692e+001
3168457.539	-1.235389e+001	-3.221550e+001	-1.769613e+001	-9.484095e+001	-1.772584e+001	-9.508730e+001	-1.209030e+001	7.165538e+001
3192894.281	-1.221400e+001	-3.641837e+001	-1.784022e+001	-9.882836e+001	-1.787349e+001	-9.908550e+001	-1.213360e+001	6.728124e+001
3217331.023	-1.208093e+001	-4.051445e+001	-1.797692e+001	-1.027708e+002	-1.801550e+001	-1.030203e+002	-1.217376e+001	6.304964e+001
3241767.764	-1.195449e+001	-4.450629e+001	-1.811050e+001	-1.066803e+002	-1.815455e+001	-1.068751e+002	-1.221429e+001	5.892957e+001
3266204.506	-1.183126e+001	-4.840264e+001	-1.823974e+001	-1.105006e+002	-1.829210e+001	-1.106627e+002	-1.225271e+001	5.493378e+001
3290641.248	-1.170877e+001	-5.221515e+001	-1.835997e+001	-1.142163e+002	-1.841235e+001	-1.143482e+002	-1.228703e+001	5.100944e+001
3315077.990	-1.159364e+001	-5.597976e+001	-1.846087e+001	-1.178267e+002	-1.851798e+001	-1.179383e+002	-1.231952e+001	4.713576e+001
3339514.731	-1.148443e+001	-5.969197e+001	-1.854042e+001	-1.214250e+002	-1.860525e+001	-1.215301e+002	-1.235832e+001	4.333876e+001
3363951.473	-1.138190e+001	-6.333938e+001	-1.861250e+001	-1.250342e+002	-1.868286e+001	-1.251008e+002	-1.239744e+001	3.963496e+001
3388388.215	-1.128826e+001	-6.691167e+001	-1.867624e+001	-1.286660e+002	-1.875086e+001	-1.286912e+002	-1.244052e+001	3.600805e+001
3412824.957	-1.119925e+001	-7.042631e+001	-1.873427e+001	-1.322381e+002	-1.881056e+001	-1.322516e+002	-1.248492e+001	3.246543e+001
3437261.698	-1.111665e+001	-7.388685e+001	-1.877812e+001	-1.358479e+002	-1.885830e+001	-1.357872e+002	-1.252728e+001	2.901496e+001
3461698.440	-1.103863e+001	-7.727564e+001	-1.881828e+001	-1.393927e+002	-1.890125e+001	-1.393379e+002	-1.257309e+001	2.564137e+001
3486135.182	-1.096562e+001	-8.061606e+001	-1.884987e+001	-1.429418e+002	-1.893601e+001	-1.428457e+002	-1.261537e+001	2.235263e+001
3510571.924	-1.089686e+001	-8.389785e+001	-1.886957e+001	-1.465016e+002	-1.895850e+001	-1.463441e+002	-1.265856e+001	1.916575e+001
3535008.666	-1.083070e+001	-8.711534e+001	-1.889105e+001	-1.499996e+002	-1.897898e+001	-1.498347e+002	-1.269667e+001	1.605022e+001
3559445.407	-1.077060e+001	-9.027902e+001	-1.889623e+001	-1.535142e+002	-1.898546e+001	-1.532964e+002	-1.272991e+001	1.299480e+001
3583882.149	-1.071027e+001	-9.338945e+001	-1.888936e+001	-1.569952e+002	-1.898175e+001	-1.567383e+002	-1.276015e+001	1.000221e+001
3608318.891	-1.064963e+001	-9.645344e+001	-1.887319e+001	-1.604783e+002	-1.896780e+001	-1.601963e+002	-1.278299e+001	7.062627e+000
3632755.633	-1.059021e+001	-9.950326e+001	-1.884092e+001	-1.640226e+002	-1.893716e+001	-1.636698e+002	-1.280412e+001	4.124986e+000
3657192.374	-1.053113e+001	-1.025315e+002	-1.879495e+001	-1.675395e+002	-1.889184e+001	-1.671586e+002	-1.282403e+001	1.219675e+000
3681629.116	-1.047817e+001	-1.055354e+002	-1.873526e+001	-1.711710e+002	-1.882881e+001	-1.707258e+002	-1.284360e+001	-1.669535e+000
3706065.858	-1.042720e+001	-1.085225e+002	-1.866440e+001	-1.748599e+002	-1.875933e+001	-1.744176e+002	-1.286501e+001	-4.512953e+000
3730502.600	-1.038303e+001	-1.114677e+002	-1.859522e+001	-1.787177e+002	-1.868667e+001	-1.782315e+002	-1.289226e+001	-7.299164e+000
3754939.341	-1.034579e+001	-1.143768e+002	-1.852736e+001	1.773209e+002	-1.862170e+001	1.778736e+002	-1.291491e+001	-1.001091e+001
3779376.083	-1.030915e+001	-1.172350e+002	-1.847216e+001	1.733029e+002	-1.856336e+001	1.738694e+002	-1.293817e+001	-1.265568e+001
3803812.825	-1.027621e+001	-1.200382e+002	-1.842946e+001	1.692115e+002	-1.852108e+001	1.698034e+002	-1.295720e+001	-1.520767e+001
3828249.567	-1.024327e+001	-1.227974e+002	-1.839885e+001	1.651040e+002	-1.848672e+001	1.657695e+002	-1.296458e+001	-1.772809e+001
3852686.308	-1.020911e+001	-1.255131e+002	-1.837885e+001	1.609881e+002	-1.846312e+001	1.616975e+002	-1.296938e+001	-2.020149e+001
3877123.050	-1.017243e+001	-1.281772e+002	-1.838022e+001	1.568894e+002	-1.845506e+001	1.576055e+002	-1.296699e+001	-2.259184e+001
3901559.792	-1.012991e+001	-1.307755e+002	-1.840473e+001	1.527915e+002	-1.847438e+001	1.535609e+002	-1.294651e+001	-2.491306e+001
3925996.534	-1.007269e+001	-1.333698e+002	-1.845131e+001	1.489177e+002	-1.852023e+001	1.496154e+002	-1.290629e+001	-2.720586e+001
3950433.276	-1.000289e+001	-1.360048e+002	-1.850711e+001	1.452980e+002	-1.857955e+001	1.459969e+002	-1.284115e+001	-2.956192e+001
3974870.017	-9.929348e+000	-1.387058e+002	-1.855672e+001	1.418159e+002	-1.863235e+001	1.425852e+002	-1.276274e+001	-3.201096e+001
3999306.759	-9.846810e+000	-1.415108e+002	-1.859295e+001	1.386896e+002	-1.866655e+001	1.394881e+002	-1.267168e+001	-3.461004e+001
4023743.501	-9.769397e+000	-1.444293e+002	-1.859536e+001	1.356874e+002	-1.866934e+001	1.365502e+002	-1.258102e+001	-3.732434e+001
4048180.243	-9.697782e+000	-1.474840e+002	-1.855731e+001	1.328920e+002	-1.862860e+001	1.337613e+002	-1.249271e+001	-4.019024e+001
4072616.984	-9.640379e+000	-1.506499e+002	-1.846681e+001	1.301241e+002	-1.853331e+001	1.310917e+002	-1.241371e+001	-4.321345e+001
4097053.726	-9.604978e+000	-1.538914e+002	-1.832776e+001	1.272556e+002	-1.840064e+001	1.282504e+002	-1.235344e+001	-4.627103e+001
4121490.468	-9.585867e+000	-1.571700e+002	-1.816234e+001	1.242303e+002	-1.821053e+001	1.252195e+002	-1.231680e+001	-4.941153e+001
4145927.210	-9.590738e+000	-1.604533e+002	-1.796740e+001	1.210130e+002	-1.801055e+001	1.220233e+002	-1.229039e+001	-5.253683e+001
4170363.951	-9.614861e+000	-1.637209e+002	-1.776153e+001	1.176091e+002	-1.780169e+001	1.185936e+002	-1.227805e+001	-5.561647e+001
4194800.693	-9.654699e+000	-1.669999e+002	-1.754368e+001	1.140563e+002	-1.758012e+001	1.150545e+002	-1.227460e+001	-5.872727e+001
4219237.435	-9.712150e+000	-1.702542e+002	-1.732237e+001	1.103382e+002	-1.734981e+001	1.113637e+002	-1.228123e+001	-6.183752e+001
4243674.177	-9.789094e+000	-1.734922e+002	-1.709232e+001	1.064642e+002	-1.711445e+001	1.074806e+002	-1.230096e+001	-6.491437e+001
4268110.919	-9.884958e+000	-1.766899e+002	-1.685821e+001	1.024162e+002	-1.687589e+001	1.034297e+002	-1.233413e+001	-6.797401e+001
4292547.660	-9.998201e+000	-1.798138e+002	-1.663472e+001	9.819003e+001	-1.664243e+001	9.918515e+001	-1.237494e+001	-7.096231e+001
4316984.402	-1.012961e+001	1.771343e+002	-1.641485e+001	9.382567e+001	-1.641996e+001	9.481412e+001	-1.242435e+001	-7.390248e+001
4341421.144	-1.027130e+001	1.741797e+002	-1.621027e+001	8.932521e+001	-1.620566e+001	9.031304e+001	-1.247633e+001	-7.679456e+001
4365857.886	-1.042806e+001	1.713074e+002	-1.601257e+001	8.471654e+001	-1.600826e+001	8.571852e+001	-1.253162e+001	-7.960714e+001
4390294.627	-1.059119e+001	1.685255e+002	-1.583335e+001	8.006137e+001	-1.582565e+001	8.102134e+001	-1.258677e+001	-8.235865e+001
4414731.369	-1.076103e+001	1.658467e+002	-1.566871e+001	7.529965e+001	-1.565456e+001	7.627355e+001	-1.264193e+001	-8.508391e+001
4439168.111	-1.092827e+001	1.632372e+002	-1.552600e+001	7.048281e+001	-1.550056e+001	7.146092e+001	-1.268974e+001	-8.777043e+001
4463604.853	-1.110397e+001	1.606915e+002	-1.538911e+001	6.568674e+001	-1.536457e+001	6.663655e+001	-1.273126e+001	-9.041516e+001
4488041.594	-1.128004e+001	1.582032e+002	-1.526723e+001	6.086512e+001	-1.523609e+001	6.180605e+001	-1.276905e+001	-9.307247e+001
4512478.336	-1.145611e+001	1.557548e+002	-1.515599e+001	5.606169e+001	-1.511911e+001	5.698701e+001	-1.280092e+001	-9.574491e+001
4536915.078	-1.163635e+001	1.533172e+002	-1.505215e+001	5.126332e+001	-1.501047e+001	5.215842e+001	-1.282726e+001	-9.843174e+001
4561351.820	-1.182219e+001	1.509480e+002	-1.495429e+001	4.639936e+001	-1.491249e+001	4.727098e+001	-1.285418e+001	-1.011214e+002
4585788.562	-1.200527e+001	1.486124e+002	-1.487214e+001	4.152650e+001	-1.482930e+001	4.238897e+001	-1.287149e+001	-1.038246e+002
4610225.303	-1.217308e+001	1.462629e+002	-1.482045e+001	3.667786e+001	-1.476925e+001	3.752328e+001	-1.287653e+001	-1.065430e+002
4634662.045	-1.234404e+001	1.437737e+002	-1.477889e+001	3.197736e+001	-1.473165e+001	3.280262e+001	-1.285797e+001	-1.093733e+002
4659098.787	-1.252451e+001	1.411633e+002	-1.474134e+001	2.739892e+001	-1.468915e+001	2.822848e+001	-1.283663e+001	-1.124069e+002
4683535.529	-1.272774e+001	1.383395e+002	-1.469921e+001	2.303028e+001	-1.464262e+001	2.380117e+001	-1.281615e+001	-1.156312e+002
4707972.270	-1.296730e+001	1.354507e+002	-1.463934e+001	1.875631e+001	-1.457676e+001	1.941397e+001	-1.281179e+001	-1.190065e+002
4732409.012	-1.325029e+001	1.325491e+002	-1.455907e+001	1.444231e+001	-1.449305e+001	1.508970e+001	-1.282353e+001	-1.225935e+002
4756845.754	-1.357867e+001	1.296486e+002	-1.445897e+001	1.012161e+001	-1.439753e+001	1.077123e+001	-1.285155e+001	-1.263241e+002
4781282.496	-1.395331e+001	1.268065e+002	-1.434501e+001	5.766396e+000	-1.428382e+001	6.308766e+000	-1.291191e+001	-1.301155e+002
4805719.237	-1.437029e+001	1.241269e+002	-1.422062e+001	1.254588e+000	-1.415085e+001	1.799321e+000	-1.300324e+001	-1.340420e+002
4830155.979	-1.482998e+001	1.216317e+002	-1.408966e+001	-3.365120e+000	-1.402045e+001	-2.847200e+000	-1.311639e+001	-1.379668e+002
4854592.721	-1.532981e+001	1.193741e+002	-1.395467e+001	-8.114699e+000	-1.388391e+001	-7.687990e+000	-1.326346e+001	-1.418741e+002
4879029.463	-1.585489e+001	1.173107e+002	-1.383356e+001	-1.299549e+001	-1.376973e+001	-1.261255e+001	-1.341877e+001	-1.457575e+002
4903466.205	-1.640475e+001	1.154836e+002	-1.372676e+001	-1.797958e+001	-1.366552e+001	-1.760927e+001	-1.358783e+001	-1.496541e+002
4927902.946	-1.698449e+001	1.138354e+002	-1.363291e+001	-2.300748e+001	-1.357240e+001	-2.265585e+001	-1.377617e+001	-1.535525e+002
4952339.688	-1.760128e+001	1.123861e+002	-1.354842e+001	-2.811591e+001	-1.349341e+001	-2.774828e+001	-1.397933e+001	-1.574851e+002
4976776.430	-1.826561e+001	1.111658e+002	-1.347989e+001	-3.320382e+001	-1.343224e+001	-3.286454e+001	-1.418780e+001	-1.614194e+002
5001213.172	-1.897250e+001	1.102282e+002	-1.342250e+001	-3.831672e+001	-1.337679e+001	-3.799258e+001	-1.441649e+001	-1.653835e+002
5025649.913	-1.973835e+001	1.096051e+002	-1.337546e+001	-4.343526e+001	-1.333353e+001	-4.311996e+001	-1.465739e+001	-1.693947e+002
5050086.655	-2.058016e+001	1.094507e+002	-1.333880e+001	-4.852759e+001	-1.330209e+001	-4.824222e+001	-1.491345e+001	-1.734553e+002
5074523.397	-2.148987e+001	1.098201e+002	-1.331765e+001	-5.363719e+001	-1.328111e+001	-5.336836e+001	-1.518488e+001	-1.775465e+002
5098960.139	-2.248440e+001	1.110935e+002	-1.330054e+001	-5.874885e+001	-1.327203e+001	-5.846920e+001	-1.546768e+001	1.783164e+002
5123396.880	-2.356675e+001	1.133698e+002	-1.329758e+001	-6.381858e+001	-1.327243e+001	-6.356567e+001	-1.576736e+001	1.741356e+002
5147833.622	-2.472410e+001	1.171457e+002	-1.330713e+001	-6.886238e+001	-1.328488e+001	-6.861950e+001	-1.607382e+001	1.698897e+002
5172270.364	-2.591450e+001	1.231366e+002	-1.332312e+001	-7.388086e+001	-1.330599e+001	-7.362263e+001	-1.639403e+001	1.655393e+002
5196707.106	-2.700594e+001	1.319908e+002	-1.334708e+001	-7.883123e+001	-1.333268e+001	-7.856537e+001	-1.672532e+001	1.610572e+002
5221143.847	-2.774986e+001	1.439497e+002	-1.337353e+001	-8.369259e+001	-1.336468e+001	-8.347309e+001	-1.707450e+001	1.564937e+002
5245580.589	-2.783868e+001	1.576565e+002	-1.340275e+001	-8.856536e+001	-1.339873e+001	-8.833363e+001	-1.744013e+001	1.517635e+002
5270017.331	-2.721709e+001	1.705402e+002	-1.343779e+001	-9.340424e+001	-1.343911e+001	-9.316372e+001	-1.782320e+001	1.469279e+002
5294454.073	-2.611232e+001	-1.794243e+002	-1.347440e+001	-9.820505e+001	-1.347832e+001	-9.794198e+001	-1.822374e+001	1.419033e+002
5318890.815	-2.482875e+001	-1.725518e+002	-1.351451e+001	-1.029687e+002	-1.352382e+001	-1.027001e+002	-1.863789e+001	1.367832e+002
5343327.556	-2.353518e+001	-1.683031e+002	-1.355677e+001	-1.077297e+002	-1.356965e+001	-1.074201e+002	-1.906921e+001	1.314995e+002
5367764.298	-2.232348e+001	-1.658756e+002	-1.360261e+001	-1.124361e+002	-1.361711e+001	-1.121242e+002	-1.950806e+001	1.260528e+002
5392201.040	-2.120707e+001	-1.648004e+002	-1.364784e+001	-1.171124e+002	-1.366673e+001	-1.167764e+002	-1.995568e+001	1.203916e+002
5416637.782	-2.020169e+001	-1.646451e+002	-1.369729e+001	-1.217755e+002	-1.371994e+001	-1.214016e+002	-2.040598e+001	1.145426e+002
5441074.523	-1.929663e+001	-1.651331e+002	-1.375017e+001	-1.264107e+002	-1.377131e+001	-1.259954e+002	-2.085573e+001	1.084427e+002
