!Agilent Technologies,E5061B,MY49101568,A.02.00
!Date: Wed Mar 01 15:29:03 2023
!Data & Calibration Information:
!Freq	S11:SOLT2(OFF)	S21:SOLT2(OFF)	S12:SOLT2(OFF)	S22:SOLT2(OFF)
# Hz S dB R 50
1800000.000	-9.616907e+000	-1.645912e+001	-2.373286e+001	-1.458121e+002	-2.372877e+001	-1.458383e+002	-9.986082e+000	2.006644e+001
1824436.742	-9.735777e+000	-2.063475e+001	-2.340125e+001	-1.498021e+002	-2.339987e+001	-1.498650e+002	-1.012598e+001	1.644350e+001
1848873.484	-9.859413e+000	-2.489793e+001	-2.305842e+001	-1.538533e+002	-2.305616e+001	-1.538439e+002	-1.026976e+001	1.275595e+001
1873310.225	-9.990447e+000	-2.921172e+001	-2.270323e+001	-1.579689e+002	-2.272039e+001	-1.579956e+002	-1.040930e+001	9.067270e+000
1897746.967	-1.012282e+001	-3.357042e+001	-2.234954e+001	-1.621762e+002	-2.236618e+001	-1.621854e+002	-1.054745e+001	5.305775e+000
1922183.709	-1.026064e+001	-3.805142e+001	-2.198738e+001	-1.664910e+002	-2.202498e+001	-1.665361e+002	-1.068528e+001	1.485111e+000
1946620.451	-1.040226e+001	-4.260677e+001	-2.162760e+001	-1.709067e+002	-2.164150e+001	-1.708709e+002	-1.082449e+001	-2.462653e+000
1971057.192	-1.055185e+001	-4.729575e+001	-2.125133e+001	-1.753713e+002	-2.127459e+001	-1.753978e+002	-1.096259e+001	-6.440342e+000
1995493.934	-1.071141e+001	-5.206920e+001	-2.087143e+001	1.799807e+002	-2.091494e+001	-1.799772e+002	-1.109953e+001	-1.049803e+001
2019930.676	-1.087693e+001	-5.693714e+001	-2.050558e+001	1.752580e+002	-2.053562e+001	1.754066e+002	-1.123432e+001	-1.461988e+001
2044367.418	-1.104960e+001	-6.192819e+001	-2.012717e+001	1.704705e+002	-2.017168e+001	1.706031e+002	-1.136192e+001	-1.886559e+001
2068804.159	-1.123163e+001	-6.709918e+001	-1.974405e+001	1.657114e+002	-1.979632e+001	1.658615e+002	-1.148334e+001	-2.322019e+001
2093240.901	-1.142349e+001	-7.238068e+001	-1.935890e+001	1.608606e+002	-1.938073e+001	1.609347e+002	-1.161673e+001	-2.765865e+001
2117677.643	-1.164820e+001	-7.786098e+001	-1.893582e+001	1.557445e+002	-1.897489e+001	1.559531e+002	-1.174527e+001	-3.221980e+001
2142114.385	-1.188791e+001	-8.346276e+001	-1.852757e+001	1.504593e+002	-1.857503e+001	1.506457e+002	-1.186917e+001	-3.681517e+001
2166551.127	-1.214535e+001	-8.916579e+001	-1.812360e+001	1.449234e+002	-1.817469e+001	1.451166e+002	-1.199678e+001	-4.151571e+001
2190987.868	-1.242231e+001	-9.498756e+001	-1.773538e+001	1.391623e+002	-1.778861e+001	1.394584e+002	-1.211599e+001	-4.630020e+001
2215424.610	-1.270503e+001	-1.010082e+002	-1.737468e+001	1.333710e+002	-1.742692e+001	1.337310e+002	-1.221935e+001	-5.118270e+001
2239861.352	-1.300614e+001	-1.072071e+002	-1.702323e+001	1.274535e+002	-1.708028e+001	1.278748e+002	-1.231208e+001	-5.621431e+001
2264298.094	-1.331956e+001	-1.136362e+002	-1.668948e+001	1.214507e+002	-1.673293e+001	1.219202e+002	-1.240052e+001	-6.136307e+001
2288734.835	-1.366346e+001	-1.202747e+002	-1.635299e+001	1.153339e+002	-1.639881e+001	1.158775e+002	-1.247638e+001	-6.665896e+001
2313171.577	-1.401903e+001	-1.272155e+002	-1.603901e+001	1.091134e+002	-1.606876e+001	1.096131e+002	-1.255088e+001	-7.207248e+001
2337608.319	-1.440618e+001	-1.343341e+002	-1.572920e+001	1.027284e+002	-1.576378e+001	1.032823e+002	-1.260466e+001	-7.762951e+001
2362045.061	-1.479385e+001	-1.416631e+002	-1.544907e+001	9.620928e+001	-1.547711e+001	9.678617e+001	-1.265428e+001	-8.326708e+001
2386481.802	-1.518655e+001	-1.492239e+002	-1.519720e+001	8.952152e+001	-1.522649e+001	9.012654e+001	-1.267788e+001	-8.900288e+001
2410918.544	-1.555460e+001	-1.570760e+002	-1.498637e+001	8.281063e+001	-1.500134e+001	8.341705e+001	-1.268573e+001	-9.491793e+001
2435355.286	-1.590816e+001	-1.653323e+002	-1.480069e+001	7.607471e+001	-1.481091e+001	7.669872e+001	-1.266709e+001	-1.009906e+002
2459792.028	-1.622427e+001	-1.740769e+002	-1.464678e+001	6.941408e+001	-1.465819e+001	7.012058e+001	-1.261385e+001	-1.072919e+002
2484228.769	-1.650062e+001	1.763880e+002	-1.450460e+001	6.295534e+001	-1.449189e+001	6.362022e+001	-1.255657e+001	-1.139666e+002
2508665.511	-1.680584e+001	1.664535e+002	-1.433679e+001	5.636921e+001	-1.432021e+001	5.697763e+001	-1.251691e+001	-1.208307e+002
2533102.253	-1.709111e+001	1.565182e+002	-1.419771e+001	4.952730e+001	-1.417235e+001	5.011516e+001	-1.248331e+001	-1.277189e+002
2557538.995	-1.730693e+001	1.463721e+002	-1.409268e+001	4.258721e+001	-1.406151e+001	4.313827e+001	-1.244395e+001	-1.346754e+002
2581975.737	-1.744350e+001	1.361769e+002	-1.402642e+001	3.563256e+001	-1.398540e+001	3.614236e+001	-1.239862e+001	-1.417096e+002
2606412.478	-1.748538e+001	1.260057e+002	-1.400690e+001	2.870217e+001	-1.395566e+001	2.913550e+001	-1.234744e+001	-1.487612e+002
2630849.220	-1.745169e+001	1.157312e+002	-1.400801e+001	2.188372e+001	-1.395336e+001	2.230756e+001	-1.228448e+001	-1.559523e+002
2655285.962	-1.735273e+001	1.057060e+002	-1.403550e+001	1.506208e+001	-1.397148e+001	1.549940e+001	-1.223198e+001	-1.631623e+002
2679722.704	-1.719451e+001	9.598817e+001	-1.409533e+001	8.296354e+000	-1.403205e+001	8.704526e+000	-1.218201e+001	-1.703053e+002
2704159.445	-1.697182e+001	8.661919e+001	-1.419082e+001	1.659486e+000	-1.411885e+001	1.992693e+000	-1.213707e+001	-1.773784e+002
2728596.187	-1.669133e+001	7.756534e+001	-1.432042e+001	-4.752365e+000	-1.425092e+001	-4.487158e+000	-1.207557e+001	1.755846e+002
2753032.929	-1.637709e+001	6.883246e+001	-1.446795e+001	-1.093795e+001	-1.438766e+001	-1.074978e+001	-1.201910e+001	1.685290e+002
2777469.671	-1.607089e+001	6.030472e+001	-1.460189e+001	-1.693418e+001	-1.453278e+001	-1.682952e+001	-1.197531e+001	1.614989e+002
2801906.412	-1.578037e+001	5.222579e+001	-1.474097e+001	-2.290559e+001	-1.467400e+001	-2.279368e+001	-1.195010e+001	1.545200e+002
2826343.154	-1.550329e+001	4.455646e+001	-1.488781e+001	-2.884258e+001	-1.482264e+001	-2.879447e+001	-1.195547e+001	1.477653e+002
2850779.896	-1.522636e+001	3.737082e+001	-1.506301e+001	-3.459596e+001	-1.500136e+001	-3.463166e+001	-1.196018e+001	1.412353e+002
2875216.638	-1.496006e+001	3.057769e+001	-1.525289e+001	-4.034014e+001	-1.519550e+001	-4.037088e+001	-1.197303e+001	1.349114e+002
2899653.380	-1.469896e+001	2.411434e+001	-1.545516e+001	-4.583092e+001	-1.540343e+001	-4.590948e+001	-1.198614e+001	1.287816e+002
2924090.121	-1.444692e+001	1.795727e+001	-1.566345e+001	-5.119783e+001	-1.561723e+001	-5.127197e+001	-1.200194e+001	1.228359e+002
2948526.863	-1.419858e+001	1.206818e+001	-1.587965e+001	-5.633798e+001	-1.583899e+001	-5.649428e+001	-1.201898e+001	1.170829e+002
2972963.605	-1.396509e+001	6.417945e+000	-1.609489e+001	-6.132602e+001	-1.606297e+001	-6.148626e+001	-1.203595e+001	1.114742e+002
2997400.347	-1.374001e+001	9.846898e-001	-1.631085e+001	-6.613207e+001	-1.628248e+001	-6.633140e+001	-1.205508e+001	1.060198e+002
3021837.088	-1.352568e+001	-4.266058e+000	-1.651621e+001	-7.080019e+001	-1.649558e+001	-7.099881e+001	-1.207621e+001	1.006857e+002
3046273.830	-1.332504e+001	-9.339895e+000	-1.671076e+001	-7.534429e+001	-1.670607e+001	-7.553881e+001	-1.209893e+001	9.552678e+001
3070710.572	-1.313481e+001	-1.424306e+001	-1.690127e+001	-7.974726e+001	-1.689746e+001	-7.997039e+001	-1.212975e+001	9.048644e+001
3095147.314	-1.295349e+001	-1.898435e+001	-1.708112e+001	-8.403646e+001	-1.708448e+001	-8.426750e+001	-1.215913e+001	8.557818e+001
3119584.055	-1.278527e+001	-2.359151e+001	-1.724705e+001	-8.825426e+001	-1.725933e+001	-8.846257e+001	-1.219236e+001	8.079953e+001
3144020.797	-1.262609e+001	-2.805696e+001	-1.740479e+001	-9.235369e+001	-1.741982e+001	-9.260617e+001	-1.223203e+001	7.617633e+001
3168457.539	-1.247726e+001	-3.241606e+001	-1.754614e+001	-9.646849e+001	-1.757231e+001	-9.670000e+001	-1.227297e+001	7.167016e+001
3192894.281	-1.233676e+001	-3.664205e+001	-1.768229e+001	-1.005002e+002	-1.771623e+001	-1.007279e+002	-1.232020e+001	6.731207e+001
3217331.023	-1.220517e+001	-4.073888e+001	-1.781735e+001	-1.044870e+002	-1.785529e+001	-1.047015e+002	-1.236276e+001	6.305350e+001
3241767.764	-1.207710e+001	-4.473984e+001	-1.794335e+001	-1.084294e+002	-1.798488e+001	-1.086083e+002	-1.240594e+001	5.892854e+001
3266204.506	-1.195398e+001	-4.863304e+001	-1.806880e+001	-1.123099e+002	-1.811341e+001	-1.124650e+002	-1.244920e+001	5.492426e+001
3290641.248	-1.183487e+001	-5.245797e+001	-1.817990e+001	-1.160639e+002	-1.823224e+001	-1.162060e+002	-1.248367e+001	5.099871e+001
3315077.990	-1.171897e+001	-5.622292e+001	-1.827649e+001	-1.197403e+002	-1.833489e+001	-1.198540e+002	-1.252089e+001	4.711849e+001
3339514.731	-1.161232e+001	-5.993251e+001	-1.835476e+001	-1.234050e+002	-1.841712e+001	-1.235019e+002	-1.256425e+001	4.332509e+001
3363951.473	-1.151323e+001	-6.358361e+001	-1.842120e+001	-1.270927e+002	-1.848785e+001	-1.271550e+002	-1.260907e+001	3.961138e+001
3388388.215	-1.142131e+001	-6.715515e+001	-1.847895e+001	-1.307709e+002	-1.855223e+001	-1.307960e+002	-1.265778e+001	3.598877e+001
3412824.957	-1.133602e+001	-7.066908e+001	-1.853155e+001	-1.344700e+002	-1.860691e+001	-1.344560e+002	-1.270545e+001	3.246162e+001
3437261.698	-1.125632e+001	-7.412155e+001	-1.857626e+001	-1.380813e+002	-1.865384e+001	-1.380559e+002	-1.275406e+001	2.902996e+001
3461698.440	-1.118111e+001	-7.751014e+001	-1.861558e+001	-1.417198e+002	-1.869395e+001	-1.416650e+002	-1.280233e+001	2.567488e+001
3486135.182	-1.111283e+001	-8.083552e+001	-1.864112e+001	-1.453554e+002	-1.872405e+001	-1.452552e+002	-1.285289e+001	2.242649e+001
3510571.924	-1.104868e+001	-8.409417e+001	-1.866565e+001	-1.489846e+002	-1.875145e+001	-1.488544e+002	-1.289847e+001	1.924446e+001
3535008.666	-1.098799e+001	-8.729078e+001	-1.868338e+001	-1.525677e+002	-1.876904e+001	-1.524180e+002	-1.294355e+001	1.616193e+001
3559445.407	-1.092941e+001	-9.043404e+001	-1.868595e+001	-1.561710e+002	-1.877579e+001	-1.559670e+002	-1.298197e+001	1.314404e+001
3583882.149	-1.087320e+001	-9.352189e+001	-1.868307e+001	-1.597086e+002	-1.877683e+001	-1.594920e+002	-1.301488e+001	1.019213e+001
3608318.891	-1.081684e+001	-9.656101e+001	-1.866949e+001	-1.632820e+002	-1.875668e+001	-1.630256e+002	-1.304245e+001	7.271927e+000
3632755.633	-1.076150e+001	-9.957597e+001	-1.864130e+001	-1.668810e+002	-1.873067e+001	-1.665557e+002	-1.306796e+001	4.368648e+000
3657192.374	-1.070757e+001	-1.025653e+002	-1.859495e+001	-1.704739e+002	-1.868849e+001	-1.701245e+002	-1.308909e+001	1.518547e+000
3681629.116	-1.065802e+001	-1.055384e+002	-1.853853e+001	-1.741613e+002	-1.863088e+001	-1.737705e+002	-1.311429e+001	-1.331872e+000
3706065.858	-1.061231e+001	-1.084885e+002	-1.847055e+001	-1.779286e+002	-1.856308e+001	-1.775454e+002	-1.314298e+001	-4.124001e+000
3730502.600	-1.057391e+001	-1.113826e+002	-1.840468e+001	1.781346e+002	-1.849792e+001	1.785846e+002	-1.317216e+001	-6.841267e+000
3754939.341	-1.054047e+001	-1.142390e+002	-1.834156e+001	1.741083e+002	-1.843402e+001	1.746051e+002	-1.320026e+001	-9.483696e+000
3779376.083	-1.050875e+001	-1.170307e+002	-1.829349e+001	1.699848e+002	-1.838687e+001	1.705378e+002	-1.322447e+001	-1.203115e+001
3803812.825	-1.047722e+001	-1.197616e+002	-1.825657e+001	1.658354e+002	-1.834994e+001	1.664202e+002	-1.324073e+001	-1.451208e+001
3828249.567	-1.044263e+001	-1.224587e+002	-1.823561e+001	1.617307e+002	-1.832808e+001	1.623039e+002	-1.324761e+001	-1.695223e+001
3852686.308	-1.040836e+001	-1.251044e+002	-1.822341e+001	1.575716e+002	-1.831255e+001	1.582099e+002	-1.324759e+001	-1.933444e+001
3877123.050	-1.036919e+001	-1.276847e+002	-1.823368e+001	1.534243e+002	-1.831989e+001	1.540666e+002	-1.323636e+001	-2.163561e+001
3901559.792	-1.032464e+001	-1.302241e+002	-1.826337e+001	1.492892e+002	-1.834701e+001	1.499701e+002	-1.321010e+001	-2.388319e+001
3925996.534	-1.026143e+001	-1.327643e+002	-1.832035e+001	1.454284e+002	-1.839764e+001	1.460982e+002	-1.315734e+001	-2.616309e+001
3950433.276	-1.018576e+001	-1.353585e+002	-1.838502e+001	1.417796e+002	-1.846286e+001	1.424692e+002	-1.308240e+001	-2.850776e+001
3974870.017	-1.010442e+001	-1.380520e+002	-1.843436e+001	1.383885e+002	-1.851970e+001	1.391045e+002	-1.299339e+001	-3.097157e+001
3999306.759	-1.002131e+001	-1.408362e+002	-1.846978e+001	1.352088e+002	-1.855724e+001	1.360087e+002	-1.289748e+001	-3.357656e+001
4023743.501	-9.938467e+000	-1.437521e+002	-1.847591e+001	1.322590e+002	-1.855771e+001	1.330885e+002	-1.280385e+001	-3.632738e+001
4048180.243	-9.867800e+000	-1.468075e+002	-1.843113e+001	1.294273e+002	-1.851566e+001	1.303537e+002	-1.271357e+001	-3.924160e+001
4072616.984	-9.811450e+000	-1.499554e+002	-1.834402e+001	1.266744e+002	-1.840833e+001	1.276145e+002	-1.264448e+001	-4.229165e+001
4097053.726	-9.781346e+000	-1.531828e+002	-1.820033e+001	1.237641e+002	-1.826688e+001	1.247162e+002	-1.259239e+001	-4.536672e+001
4121490.468	-9.772480e+000	-1.564364e+002	-1.802514e+001	1.206894e+002	-1.807944e+001	1.217068e+002	-1.255812e+001	-4.851078e+001
4145927.210	-9.784610e+000	-1.596836e+002	-1.782751e+001	1.174236e+002	-1.787699e+001	1.184335e+002	-1.254235e+001	-5.161450e+001
4170363.951	-9.814942e+000	-1.628926e+002	-1.761916e+001	1.139790e+002	-1.765990e+001	1.149591e+002	-1.254011e+001	-5.468124e+001
4194800.693	-9.863666e+000	-1.660961e+002	-1.740193e+001	1.103523e+002	-1.743861e+001	1.113046e+002	-1.254904e+001	-5.773553e+001
4219237.435	-9.928893e+000	-1.692733e+002	-1.717875e+001	1.065835e+002	-1.720904e+001	1.075506e+002	-1.256663e+001	-6.080123e+001
4243674.177	-1.001597e+001	-1.723883e+002	-1.695007e+001	1.025872e+002	-1.696973e+001	1.035906e+002	-1.260115e+001	-6.383220e+001
4268110.919	-1.012009e+001	-1.754670e+002	-1.671928e+001	9.846438e+001	-1.673723e+001	9.947200e+001	-1.264126e+001	-6.678603e+001
4292547.660	-1.023958e+001	-1.784381e+002	-1.649525e+001	9.417332e+001	-1.650949e+001	9.518220e+001	-1.269199e+001	-6.968438e+001
4316984.402	-1.037173e+001	1.786749e+002	-1.628526e+001	8.972238e+001	-1.629120e+001	9.071357e+001	-1.274976e+001	-7.250390e+001
4341421.144	-1.051493e+001	1.758943e+002	-1.608409e+001	8.515746e+001	-1.608712e+001	8.613337e+001	-1.280860e+001	-7.524975e+001
4365857.886	-1.066611e+001	1.732042e+002	-1.589860e+001	8.052444e+001	-1.589582e+001	8.148662e+001	-1.286801e+001	-7.793287e+001
4390294.627	-1.082231e+001	1.706275e+002	-1.572713e+001	7.577906e+001	-1.572296e+001	7.672550e+001	-1.292450e+001	-8.053125e+001
4414731.369	-1.097765e+001	1.681538e+002	-1.557705e+001	7.098898e+001	-1.556509e+001	7.195267e+001	-1.297393e+001	-8.310968e+001
4439168.111	-1.113088e+001	1.657364e+002	-1.543914e+001	6.614963e+001	-1.542386e+001	6.711857e+001	-1.301787e+001	-8.564442e+001
4463604.853	-1.128936e+001	1.633936e+002	-1.531051e+001	6.130853e+001	-1.529187e+001	6.228576e+001	-1.305423e+001	-8.817819e+001
4488041.594	-1.143631e+001	1.610647e+002	-1.520202e+001	5.650187e+001	-1.517350e+001	5.745746e+001	-1.308270e+001	-9.071359e+001
4512478.336	-1.158652e+001	1.587679e+002	-1.510019e+001	5.168954e+001	-1.506671e+001	5.261710e+001	-1.310466e+001	-9.325769e+001
4536915.078	-1.174246e+001	1.565044e+002	-1.499851e+001	4.686772e+001	-1.496591e+001	4.780397e+001	-1.312136e+001	-9.585927e+001
4561351.820	-1.189374e+001	1.542478e+002	-1.491294e+001	4.202026e+001	-1.487309e+001	4.294017e+001	-1.313726e+001	-9.844817e+001
4585788.562	-1.204044e+001	1.520124e+002	-1.484082e+001	3.715617e+001	-1.479822e+001	3.804847e+001	-1.314258e+001	-1.010514e+002
4610225.303	-1.217685e+001	1.496937e+002	-1.479290e+001	3.237022e+001	-1.474490e+001	3.322696e+001	-1.312994e+001	-1.037214e+002
4634662.045	-1.231456e+001	1.472290e+002	-1.475769e+001	2.773932e+001	-1.470534e+001	2.853478e+001	-1.310425e+001	-1.065275e+002
4659098.787	-1.246984e+001	1.446141e+002	-1.472044e+001	2.322716e+001	-1.467005e+001	2.402543e+001	-1.307175e+001	-1.095485e+002
4683535.529	-1.265543e+001	1.418512e+002	-1.467127e+001	1.887878e+001	-1.461797e+001	1.962997e+001	-1.305028e+001	-1.127870e+002
4707972.270	-1.287781e+001	1.390601e+002	-1.460548e+001	1.460362e+001	-1.455007e+001	1.528574e+001	-1.304673e+001	-1.161732e+002
4732409.012	-1.314585e+001	1.362689e+002	-1.451243e+001	1.031123e+001	-1.446568e+001	1.097974e+001	-1.306039e+001	-1.197230e+002
4756845.754	-1.344954e+001	1.335058e+002	-1.440963e+001	5.987316e+000	-1.435647e+001	6.571957e+000	-1.310967e+001	-1.233712e+002
4781282.496	-1.379028e+001	1.308501e+002	-1.429640e+001	1.580209e+000	-1.423836e+001	2.203716e+000	-1.317775e+001	-1.271774e+002
4805719.237	-1.417438e+001	1.283440e+002	-1.416720e+001	-2.915057e+000	-1.410131e+001	-2.352231e+000	-1.328337e+001	-1.309659e+002
4830155.979	-1.459641e+001	1.261106e+002	-1.402554e+001	-7.572999e+000	-1.396721e+001	-7.060097e+000	-1.341060e+001	-1.347393e+002
4854592.721	-1.502851e+001	1.240210e+002	-1.389859e+001	-1.235888e+001	-1.383537e+001	-1.188046e+001	-1.356151e+001	-1.385142e+002
4879029.463	-1.549071e+001	1.222276e+002	-1.376975e+001	-1.728188e+001	-1.370817e+001	-1.681985e+001	-1.373711e+001	-1.422575e+002
4903466.205	-1.596183e+001	1.205758e+002	-1.366233e+001	-2.230313e+001	-1.360146e+001	-2.186251e+001	-1.392170e+001	-1.459484e+002
4927902.946	-1.646060e+001	1.190632e+002	-1.356378e+001	-2.735021e+001	-1.350912e+001	-2.695029e+001	-1.411499e+001	-1.496252e+002
4952339.688	-1.697856e+001	1.177259e+002	-1.348103e+001	-3.247728e+001	-1.342993e+001	-3.205531e+001	-1.432210e+001	-1.533492e+002
4976776.430	-1.752623e+001	1.165513e+002	-1.341211e+001	-3.758248e+001	-1.335934e+001	-3.718699e+001	-1.454696e+001	-1.570680e+002
5001213.172	-1.811147e+001	1.156219e+002	-1.335208e+001	-4.271242e+001	-1.330207e+001	-4.233780e+001	-1.478452e+001	-1.608095e+002
5025649.913	-1.873701e+001	1.149574e+002	-1.330218e+001	-4.785301e+001	-1.325710e+001	-4.750380e+001	-1.503452e+001	-1.645499e+002
5050086.655	-1.941228e+001	1.145993e+002	-1.326448e+001	-5.296406e+001	-1.322435e+001	-5.264789e+001	-1.529724e+001	-1.683328e+002
5074523.397	-2.012879e+001	1.147138e+002	-1.323675e+001	-5.810915e+001	-1.319719e+001	-5.780189e+001	-1.558151e+001	-1.721376e+002
5098960.139	-2.089956e+001	1.153800e+002	-1.321790e+001	-6.324884e+001	-1.318493e+001	-6.293263e+001	-1.587597e+001	-1.759837e+002
5123396.880	-2.172590e+001	1.167726e+002	-1.321083e+001	-6.835560e+001	-1.318094e+001	-6.805319e+001	-1.618516e+001	-1.798513e+002
5147833.622	-2.260009e+001	1.190117e+002	-1.321656e+001	-7.343963e+001	-1.319093e+001	-7.313062e+001	-1.650233e+001	1.762275e+002
5172270.364	-2.350004e+001	1.226025e+002	-1.322687e+001	-7.846281e+001	-1.320492e+001	-7.817112e+001	-1.684104e+001	1.722362e+002
5196707.106	-2.438284e+001	1.278168e+002	-1.324567e+001	-8.344476e+001	-1.322838e+001	-8.316149e+001	-1.719207e+001	1.681198e+002
5221143.847	-2.513811e+001	1.349543e+002	-1.326723e+001	-8.834763e+001	-1.325324e+001	-8.810223e+001	-1.756551e+001	1.639401e+002
5245580.589	-2.561252e+001	1.438632e+002	-1.329116e+001	-9.325799e+001	-1.328231e+001	-9.300388e+001	-1.796261e+001	1.596234e+002
5270017.331	-2.569127e+001	1.536875e+002	-1.331791e+001	-9.814044e+001	-1.331354e+001	-9.787016e+001	-1.838525e+001	1.552222e+002
5294454.073	-2.533595e+001	1.632099e+002	-1.334921e+001	-1.029838e+002	-1.334784e+001	-1.027111e+002	-1.882696e+001	1.507179e+002
5318890.815	-2.463505e+001	1.712253e+002	-1.338343e+001	-1.078220e+002	-1.338557e+001	-1.075233e+002	-1.929180e+001	1.461253e+002
5343327.556	-2.373537e+001	1.773464e+002	-1.342101e+001	-1.126303e+002	-1.342662e+001	-1.123268e+002	-1.977543e+001	1.414307e+002
5367764.298	-2.276204e+001	-1.782967e+002	-1.346087e+001	-1.173826e+002	-1.346861e+001	-1.170640e+002	-2.028911e+001	1.365490e+002
5392201.040	-2.178474e+001	-1.755276e+002	-1.350037e+001	-1.221398e+002	-1.351150e+001	-1.217966e+002	-2.081873e+001	1.315474e+002
5416637.782	-2.085369e+001	-1.739836e+002	-1.354342e+001	-1.268603e+002	-1.355780e+001	-1.265034e+002	-2.136413e+001	1.263669e+002
5441074.523	-1.998676e+001	-1.733230e+002	-1.358791e+001	-1.315781e+002	-1.360387e+001	-1.311722e+002	-2.192981e+001	1.209351e+002
