!Agilent Technologies,E5061B,MY49101568,A.02.00
!Date: Wed Mar 01 15:34:40 2023
!Data & Calibration Information:
!Freq	S11:SOLT2(OFF)	S21:SOLT2(OFF)	S12:SOLT2(OFF)	S22:SOLT2(OFF)
# Hz S dB R 50
1800000.000	-9.479108e+000	-1.869421e+001	-2.467555e+001	-1.325323e+002	-2.467407e+001	-1.325783e+002	-9.865696e+000	1.766419e+001
1824436.742	-9.573064e+000	-2.298437e+001	-2.430219e+001	-1.364792e+002	-2.430324e+001	-1.364921e+002	-9.982884e+000	1.390235e+001
1848873.484	-9.671938e+000	-2.737172e+001	-2.390564e+001	-1.404766e+002	-2.392030e+001	-1.404429e+002	-1.010459e+001	1.007750e+001
1873310.225	-9.775497e+000	-3.182452e+001	-2.350724e+001	-1.444888e+002	-2.351969e+001	-1.445024e+002	-1.022284e+001	6.216907e+000
1897746.967	-9.879335e+000	-3.634842e+001	-2.310391e+001	-1.486287e+002	-2.311815e+001	-1.486407e+002	-1.033883e+001	2.297814e+000
1922183.709	-9.989295e+000	-4.101758e+001	-2.268702e+001	-1.528498e+002	-2.270136e+001	-1.528862e+002	-1.045414e+001	-1.747713e+000
1946620.451	-1.010282e+001	-4.579034e+001	-2.225822e+001	-1.572281e+002	-2.227502e+001	-1.572179e+002	-1.056922e+001	-5.858424e+000
1971057.192	-1.022144e+001	-5.071700e+001	-2.182143e+001	-1.616526e+002	-2.183819e+001	-1.616991e+002	-1.068309e+001	-1.006973e+001
1995493.934	-1.035243e+001	-5.575218e+001	-2.137956e+001	-1.662387e+002	-2.139752e+001	-1.662427e+002	-1.079995e+001	-1.436882e+001
2019930.676	-1.049315e+001	-6.094515e+001	-2.092366e+001	-1.709583e+002	-2.094938e+001	-1.709197e+002	-1.091586e+001	-1.871815e+001
2044367.418	-1.064518e+001	-6.626245e+001	-2.045627e+001	-1.758740e+002	-2.048798e+001	-1.757857e+002	-1.102522e+001	-2.325081e+001
2068804.159	-1.081118e+001	-7.171742e+001	-1.999718e+001	1.790257e+002	-2.003087e+001	1.791579e+002	-1.113737e+001	-2.782104e+001
2093240.901	-1.098704e+001	-7.732878e+001	-1.953231e+001	1.738216e+002	-1.957393e+001	1.739601e+002	-1.125130e+001	-3.243371e+001
2117677.643	-1.118052e+001	-8.311214e+001	-1.907204e+001	1.684389e+002	-1.911635e+001	1.686118e+002	-1.136228e+001	-3.717235e+001
2142114.385	-1.139259e+001	-8.907776e+001	-1.861431e+001	1.628744e+002	-1.866540e+001	1.631357e+002	-1.146738e+001	-4.201486e+001
2166551.127	-1.162428e+001	-9.522181e+001	-1.816292e+001	1.571520e+002	-1.821085e+001	1.574534e+002	-1.157266e+001	-4.697101e+001
2190987.868	-1.187601e+001	-1.015446e+002	-1.771801e+001	1.512249e+002	-1.776503e+001	1.515669e+002	-1.167759e+001	-5.202056e+001
2215424.610	-1.215229e+001	-1.080671e+002	-1.729197e+001	1.450897e+002	-1.734001e+001	1.455236e+002	-1.177697e+001	-5.714744e+001
2239861.352	-1.245181e+001	-1.147777e+002	-1.688544e+001	1.388238e+002	-1.693107e+001	1.393265e+002	-1.187032e+001	-6.236076e+001
2264298.094	-1.276475e+001	-1.217111e+002	-1.649836e+001	1.324386e+002	-1.653679e+001	1.329983e+002	-1.195389e+001	-6.768625e+001
2288734.835	-1.310387e+001	-1.288689e+002	-1.612181e+001	1.259618e+002	-1.616170e+001	1.265250e+002	-1.203231e+001	-7.312146e+001
2313171.577	-1.346848e+001	-1.362624e+002	-1.576343e+001	1.193167e+002	-1.579814e+001	1.199144e+002	-1.210054e+001	-7.866056e+001
2337608.319	-1.385280e+001	-1.438630e+002	-1.543356e+001	1.125254e+002	-1.546051e+001	1.131621e+002	-1.216075e+001	-8.426056e+001
2362045.061	-1.424712e+001	-1.516810e+002	-1.512588e+001	1.056624e+002	-1.515121e+001	1.062879e+002	-1.220872e+001	-8.995411e+001
2386481.802	-1.464582e+001	-1.597391e+002	-1.485265e+001	9.867036e+001	-1.486858e+001	9.933470e+001	-1.223666e+001	-9.575369e+001
2410918.544	-1.504037e+001	-1.680842e+002	-1.460600e+001	9.165839e+001	-1.461565e+001	9.233335e+001	-1.224804e+001	-1.017042e+002
2435355.286	-1.542660e+001	-1.767558e+002	-1.438022e+001	8.459544e+001	-1.438024e+001	8.528092e+001	-1.224601e+001	-1.078099e+002
2459792.028	-1.580130e+001	1.743512e+002	-1.418212e+001	7.746387e+001	-1.416969e+001	7.812571e+001	-1.223281e+001	-1.140227e+002
2484228.769	-1.614019e+001	1.652335e+002	-1.401348e+001	7.025955e+001	-1.399196e+001	7.091799e+001	-1.220785e+001	-1.203868e+002
2508665.511	-1.642927e+001	1.558458e+002	-1.387550e+001	6.309005e+001	-1.384907e+001	6.371948e+001	-1.217023e+001	-1.268525e+002
2533102.253	-1.667522e+001	1.462628e+002	-1.376352e+001	5.593660e+001	-1.372971e+001	5.650493e+001	-1.212204e+001	-1.334434e+002
2557538.995	-1.685056e+001	1.365268e+002	-1.368410e+001	4.876331e+001	-1.364141e+001	4.931868e+001	-1.206886e+001	-1.401748e+002
2581975.737	-1.696177e+001	1.267856e+002	-1.363237e+001	4.164424e+001	-1.358258e+001	4.215123e+001	-1.201235e+001	-1.470022e+002
2606412.478	-1.700211e+001	1.170637e+002	-1.360906e+001	3.455033e+001	-1.355115e+001	3.499589e+001	-1.195440e+001	-1.539195e+002
2630849.220	-1.697733e+001	1.074224e+002	-1.361262e+001	2.752219e+001	-1.355010e+001	2.793050e+001	-1.190152e+001	-1.609090e+002
2655285.962	-1.688428e+001	9.797954e+001	-1.364244e+001	2.056704e+001	-1.357540e+001	2.092164e+001	-1.185113e+001	-1.679291e+002
2679722.704	-1.674229e+001	8.876706e+001	-1.369956e+001	1.368706e+001	-1.362718e+001	1.399364e+001	-1.180715e+001	-1.749665e+002
2704159.445	-1.655529e+001	7.989023e+001	-1.377894e+001	6.966815e+000	-1.370789e+001	7.182504e+000	-1.177122e+001	1.780383e+002
2728596.187	-1.633588e+001	7.131634e+001	-1.388129e+001	3.485675e-001	-1.380782e+001	5.200603e-001	-1.174462e+001	1.710713e+002
2753032.929	-1.609242e+001	6.307559e+001	-1.399990e+001	-6.151222e+000	-1.393002e+001	-6.038716e+000	-1.172549e+001	1.641582e+002
2777469.671	-1.583860e+001	5.518080e+001	-1.413648e+001	-1.248984e+001	-1.406823e+001	-1.243740e+001	-1.171628e+001	1.573491e+002
2801906.412	-1.557842e+001	4.762297e+001	-1.428809e+001	-1.870749e+001	-1.422301e+001	-1.870877e+001	-1.172032e+001	1.506517e+002
2826343.154	-1.531873e+001	4.043197e+001	-1.445090e+001	-2.474928e+001	-1.438824e+001	-2.481322e+001	-1.173254e+001	1.440886e+002
2850779.896	-1.506221e+001	3.353815e+001	-1.462512e+001	-3.066714e+001	-1.456693e+001	-3.076932e+001	-1.175429e+001	1.376752e+002
2875216.638	-1.481334e+001	2.695628e+001	-1.480780e+001	-3.643323e+001	-1.475387e+001	-3.653890e+001	-1.178660e+001	1.314081e+002
2899653.380	-1.457212e+001	2.063618e+001	-1.499450e+001	-4.201890e+001	-1.494922e+001	-4.216238e+001	-1.182524e+001	1.253259e+002
2924090.121	-1.434261e+001	1.461518e+001	-1.518355e+001	-4.745285e+001	-1.514434e+001	-4.762363e+001	-1.186894e+001	1.193997e+002
2948526.863	-1.412024e+001	8.817147e+000	-1.537350e+001	-5.272306e+001	-1.534294e+001	-5.293138e+001	-1.191852e+001	1.136486e+002
2972963.605	-1.391186e+001	3.250541e+000	-1.556357e+001	-5.788601e+001	-1.553855e+001	-5.809653e+001	-1.197244e+001	1.080531e+002
2997400.347	-1.371033e+001	-2.104817e+000	-1.574784e+001	-6.289831e+001	-1.573225e+001	-6.313382e+001	-1.203127e+001	1.026217e+002
3021837.088	-1.352144e+001	-7.275984e+000	-1.593252e+001	-6.778511e+001	-1.592196e+001	-6.802744e+001	-1.209270e+001	9.735139e+001
3046273.830	-1.334025e+001	-1.224284e+001	-1.610947e+001	-7.253445e+001	-1.610649e+001	-7.279003e+001	-1.215387e+001	9.223736e+001
3070710.572	-1.316824e+001	-1.708106e+001	-1.627911e+001	-7.715660e+001	-1.628171e+001	-7.742610e+001	-1.221654e+001	8.724790e+001
3095147.314	-1.300615e+001	-2.175108e+001	-1.644062e+001	-8.168481e+001	-1.645145e+001	-8.194201e+001	-1.227943e+001	8.238572e+001
3119584.055	-1.284776e+001	-2.631582e+001	-1.658713e+001	-8.609063e+001	-1.660602e+001	-8.635307e+001	-1.234473e+001	7.765013e+001
3144020.797	-1.270266e+001	-3.073784e+001	-1.672437e+001	-9.042542e+001	-1.674442e+001	-9.069075e+001	-1.241316e+001	7.304870e+001
3168457.539	-1.256638e+001	-3.506470e+001	-1.684954e+001	-9.471233e+001	-1.687650e+001	-9.497111e+001	-1.248350e+001	6.853979e+001
3192894.281	-1.243803e+001	-3.927603e+001	-1.696478e+001	-9.895597e+001	-1.699568e+001	-9.919817e+001	-1.255663e+001	6.418573e+001
3217331.023	-1.231677e+001	-4.337385e+001	-1.707239e+001	-1.031392e+002	-1.710972e+001	-1.033652e+002	-1.263041e+001	5.992143e+001
3241767.764	-1.220274e+001	-4.738281e+001	-1.717241e+001	-1.072820e+002	-1.721456e+001	-1.074909e+002	-1.270305e+001	5.577498e+001
3266204.506	-1.209468e+001	-5.129021e+001	-1.726593e+001	-1.113624e+002	-1.731420e+001	-1.115361e+002	-1.277196e+001	5.175272e+001
3290641.248	-1.198608e+001	-5.513253e+001	-1.734985e+001	-1.153131e+002	-1.740413e+001	-1.154578e+002	-1.283543e+001	4.779238e+001
3315077.990	-1.188323e+001	-5.894955e+001	-1.740736e+001	-1.191743e+002	-1.746284e+001	-1.193220e+002	-1.290122e+001	4.383375e+001
3339514.731	-1.179297e+001	-6.273021e+001	-1.744025e+001	-1.230800e+002	-1.750100e+001	-1.231814e+002	-1.297547e+001	3.992257e+001
3363951.473	-1.171367e+001	-6.645093e+001	-1.745970e+001	-1.270174e+002	-1.752335e+001	-1.270805e+002	-1.305978e+001	3.609635e+001
3388388.215	-1.164438e+001	-7.010337e+001	-1.746921e+001	-1.309960e+002	-1.753805e+001	-1.310329e+002	-1.314823e+001	3.239064e+001
3412824.957	-1.158383e+001	-7.369487e+001	-1.746895e+001	-1.349972e+002	-1.754024e+001	-1.349944e+002	-1.324339e+001	2.875203e+001
3437261.698	-1.153433e+001	-7.721459e+001	-1.745651e+001	-1.390221e+002	-1.753075e+001	-1.389691e+002	-1.334373e+001	2.519541e+001
3461698.440	-1.149431e+001	-8.067770e+001	-1.743694e+001	-1.430947e+002	-1.751515e+001	-1.429946e+002	-1.344996e+001	2.174863e+001
3486135.182	-1.146195e+001	-8.406589e+001	-1.740787e+001	-1.471819e+002	-1.748803e+001	-1.470409e+002	-1.356241e+001	1.839549e+001
3510571.924	-1.143959e+001	-8.737588e+001	-1.737668e+001	-1.513195e+002	-1.746151e+001	-1.511347e+002	-1.367657e+001	1.517685e+001
3535008.666	-1.142405e+001	-9.060501e+001	-1.734069e+001	-1.554631e+002	-1.742376e+001	-1.552332e+002	-1.379211e+001	1.206189e+001
3559445.407	-1.141284e+001	-9.375208e+001	-1.729606e+001	-1.595980e+002	-1.737919e+001	-1.593268e+002	-1.390704e+001	9.028858e+000
3583882.149	-1.140488e+001	-9.685270e+001	-1.723715e+001	-1.637142e+002	-1.731917e+001	-1.633995e+002	-1.401895e+001	6.050353e+000
3608318.891	-1.140582e+001	-9.990389e+001	-1.715937e+001	-1.679058e+002	-1.724075e+001	-1.675379e+002	-1.413909e+001	3.130562e+000
3632755.633	-1.141826e+001	-1.029138e+002	-1.706219e+001	-1.722465e+002	-1.714522e+001	-1.717888e+002	-1.426983e+001	2.564020e-001
3657192.374	-1.143782e+001	-1.058467e+002	-1.695824e+001	-1.766504e+002	-1.703662e+001	-1.761432e+002	-1.441162e+001	-2.488889e+000
3681629.116	-1.146801e+001	-1.087170e+002	-1.684171e+001	1.787874e+002	-1.692161e+001	1.793450e+002	-1.456638e+001	-5.115645e+000
3706065.858	-1.151133e+001	-1.114789e+002	-1.672587e+001	1.740517e+002	-1.680261e+001	1.746553e+002	-1.473024e+001	-7.563275e+000
3730502.600	-1.156472e+001	-1.141263e+002	-1.661288e+001	1.691502e+002	-1.668663e+001	1.698018e+002	-1.490589e+001	-9.800172e+000
3754939.341	-1.162560e+001	-1.166528e+002	-1.650482e+001	1.641086e+002	-1.657917e+001	1.648031e+002	-1.508085e+001	-1.181824e+001
3779376.083	-1.169546e+001	-1.190244e+002	-1.640872e+001	1.589310e+002	-1.648189e+001	1.596511e+002	-1.525462e+001	-1.357686e+001
3803812.825	-1.176640e+001	-1.212185e+002	-1.633044e+001	1.536140e+002	-1.639346e+001	1.543893e+002	-1.541861e+001	-1.508776e+001
3828249.567	-1.183765e+001	-1.232617e+002	-1.626269e+001	1.482111e+002	-1.632786e+001	1.490028e+002	-1.556224e+001	-1.629003e+001
3852686.308	-1.190434e+001	-1.250879e+002	-1.621528e+001	1.426904e+002	-1.627424e+001	1.435126e+002	-1.568278e+001	-1.727099e+001
3877123.050	-1.196311e+001	-1.267237e+002	-1.617797e+001	1.370530e+002	-1.623425e+001	1.379142e+002	-1.577442e+001	-1.801742e+001
3901559.792	-1.200749e+001	-1.281529e+002	-1.615995e+001	1.313028e+002	-1.621675e+001	1.322031e+002	-1.582073e+001	-1.851197e+001
3925996.534	-1.202374e+001	-1.293683e+002	-1.617323e+001	1.254460e+002	-1.621882e+001	1.263844e+002	-1.581838e+001	-1.882826e+001
3950433.276	-1.200668e+001	-1.304047e+002	-1.620921e+001	1.194550e+002	-1.625390e+001	1.204250e+002	-1.575419e+001	-1.898734e+001
3974870.017	-1.194416e+001	-1.313167e+002	-1.628668e+001	1.133909e+002	-1.632373e+001	1.143676e+002	-1.561958e+001	-1.913102e+001
3999306.759	-1.182618e+001	-1.321902e+002	-1.640432e+001	1.072915e+002	-1.643983e+001	1.082800e+002	-1.540382e+001	-1.936284e+001
4023743.501	-1.165920e+001	-1.331335e+002	-1.656064e+001	1.011649e+002	-1.658939e+001	1.021669e+002	-1.513366e+001	-1.983167e+001
4048180.243	-1.143977e+001	-1.342374e+002	-1.676486e+001	9.504281e+001	-1.678976e+001	9.603593e+001	-1.480463e+001	-2.060806e+001
4072616.984	-1.117642e+001	-1.355669e+002	-1.702370e+001	8.898439e+001	-1.704818e+001	8.996921e+001	-1.442980e+001	-2.176208e+001
4097053.726	-1.087732e+001	-1.372184e+002	-1.734321e+001	8.302845e+001	-1.736448e+001	8.408869e+001	-1.403075e+001	-2.342328e+001
4121490.468	-1.055940e+001	-1.392114e+002	-1.771316e+001	7.722918e+001	-1.773104e+001	7.829749e+001	-1.362200e+001	-2.544129e+001
4145927.210	-1.023260e+001	-1.416065e+002	-1.815576e+001	7.174405e+001	-1.816964e+001	7.276893e+001	-1.321229e+001	-2.790420e+001
4170363.951	-9.908702e+000	-1.443620e+002	-1.866828e+001	6.665944e+001	-1.868694e+001	6.761802e+001	-1.281233e+001	-3.077293e+001
4194800.693	-9.604399e+000	-1.475167e+002	-1.924342e+001	6.215064e+001	-1.926028e+001	6.310876e+001	-1.244215e+001	-3.404734e+001
4219237.435	-9.335355e+000	-1.510117e+002	-1.985310e+001	5.846623e+001	-1.986894e+001	5.944047e+001	-1.211605e+001	-3.764647e+001
4243674.177	-9.113535e+000	-1.547335e+002	-2.044416e+001	5.570414e+001	-2.046523e+001	5.662190e+001	-1.183964e+001	-4.143837e+001
4268110.919	-8.934782e+000	-1.585630e+002	-2.098708e+001	5.361777e+001	-2.101111e+001	5.460671e+001	-1.160959e+001	-4.531792e+001
4292547.660	-8.794490e+000	-1.624613e+002	-2.146937e+001	5.216810e+001	-2.148483e+001	5.319654e+001	-1.141778e+001	-4.919770e+001
4316984.402	-8.689082e+000	-1.664059e+002	-2.186959e+001	5.128075e+001	-2.188253e+001	5.235654e+001	-1.125591e+001	-5.310553e+001
4341421.144	-8.621532e+000	-1.703670e+002	-2.214858e+001	5.086946e+001	-2.215817e+001	5.187354e+001	-1.112427e+001	-5.697481e+001
4365857.886	-8.587316e+000	-1.742692e+002	-2.228758e+001	5.039840e+001	-2.229643e+001	5.147347e+001	-1.102239e+001	-6.077698e+001
4390294.627	-8.570248e+000	-1.780587e+002	-2.234428e+001	4.942936e+001	-2.234677e+001	5.052253e+001	-1.093075e+001	-6.442282e+001
4414731.369	-8.554536e+000	1.782158e+002	-2.241731e+001	4.796169e+001	-2.242386e+001	4.916202e+001	-1.082923e+001	-6.797313e+001
4439168.111	-8.529639e+000	1.743959e+002	-2.256670e+001	4.657316e+001	-2.257019e+001	4.789897e+001	-1.070698e+001	-7.158130e+001
4463604.853	-8.503944e+000	1.703262e+002	-2.279003e+001	4.622413e+001	-2.276509e+001	4.756322e+001	-1.056669e+001	-7.536148e+001
4488041.594	-8.510295e+000	1.659135e+002	-2.291376e+001	4.754543e+001	-2.287103e+001	4.875495e+001	-1.043169e+001	-7.947781e+001
4512478.336	-8.584490e+000	1.612074e+002	-2.269596e+001	5.006960e+001	-2.264307e+001	5.109204e+001	-1.034000e+001	-8.395967e+001
4536915.078	-8.757897e+000	1.564719e+002	-2.202860e+001	5.164590e+001	-2.199455e+001	5.258721e+001	-1.032349e+001	-8.859127e+001
4561351.820	-9.009491e+000	1.521005e+002	-2.117965e+001	5.052394e+001	-2.115725e+001	5.154006e+001	-1.037862e+001	-9.302980e+001
4585788.562	-9.283511e+000	1.481719e+002	-2.045070e+001	4.728279e+001	-2.041705e+001	4.836841e+001	-1.046289e+001	-9.709339e+001
4610225.303	-9.548400e+000	1.444554e+002	-1.989623e+001	4.334261e+001	-1.985129e+001	4.447096e+001	-1.053350e+001	-1.009303e+002
4634662.045	-9.809451e+000	1.407522e+002	-1.944893e+001	3.940100e+001	-1.939364e+001	4.041757e+001	-1.058667e+001	-1.046970e+002
4659098.787	-1.008162e+001	1.370233e+002	-1.905675e+001	3.548478e+001	-1.900306e+001	3.655851e+001	-1.062598e+001	-1.085613e+002
4683535.529	-1.036989e+001	1.332001e+002	-1.869956e+001	3.169754e+001	-1.862931e+001	3.270629e+001	-1.066454e+001	-1.124854e+002
4707972.270	-1.068969e+001	1.292228e+002	-1.834074e+001	2.823194e+001	-1.827693e+001	2.918332e+001	-1.069410e+001	-1.165942e+002
4732409.012	-1.106785e+001	1.249955e+002	-1.792407e+001	2.499123e+001	-1.785369e+001	2.594123e+001	-1.074117e+001	-1.210626e+002
4756845.754	-1.154747e+001	1.207267e+002	-1.740418e+001	2.153093e+001	-1.731425e+001	2.244758e+001	-1.084282e+001	-1.258383e+002
4781282.496	-1.213445e+001	1.168140e+002	-1.682780e+001	1.721379e+001	-1.671448e+001	1.804358e+001	-1.102490e+001	-1.306504e+002
4805719.237	-1.279398e+001	1.134000e+002	-1.627349e+001	1.212485e+001	-1.614658e+001	1.277965e+001	-1.126925e+001	-1.352848e+002
4830155.979	-1.350211e+001	1.105018e+002	-1.578019e+001	6.569386e+000	-1.565681e+001	7.022043e+000	-1.154537e+001	-1.396851e+002
4854592.721	-1.423617e+001	1.080977e+002	-1.535508e+001	7.349666e-001	-1.523991e+001	9.924229e-001	-1.184433e+001	-1.438845e+002
4879029.463	-1.501187e+001	1.061657e+002	-1.497215e+001	-5.221629e+000	-1.487710e+001	-5.047238e+000	-1.215659e+001	-1.480266e+002
4903466.205	-1.582084e+001	1.047954e+002	-1.462610e+001	-1.129383e+001	-1.455042e+001	-1.117014e+001	-1.249410e+001	-1.520655e+002
4927902.946	-1.665246e+001	1.040809e+002	-1.431656e+001	-1.748065e+001	-1.425320e+001	-1.735925e+001	-1.286146e+001	-1.560292e+002
4952339.688	-1.748858e+001	1.040837e+002	-1.404016e+001	-2.378113e+001	-1.398539e+001	-2.360180e+001	-1.325756e+001	-1.598748e+002
4976776.430	-1.830903e+001	1.048364e+002	-1.379822e+001	-3.010926e+001	-1.375009e+001	-2.994540e+001	-1.368153e+001	-1.635149e+002
5001213.172	-1.908044e+001	1.063289e+002	-1.359044e+001	-3.649591e+001	-1.354674e+001	-3.633818e+001	-1.412989e+001	-1.669487e+002
5025649.913	-1.978508e+001	1.084490e+002	-1.341449e+001	-4.289187e+001	-1.337472e+001	-4.272787e+001	-1.459481e+001	-1.701698e+002
5050086.655	-2.040871e+001	1.110542e+002	-1.326826e+001	-4.927732e+001	-1.323143e+001	-4.911306e+001	-1.507486e+001	-1.731645e+002
5074523.397	-2.094493e+001	1.140274e+002	-1.314880e+001	-5.562231e+001	-1.311486e+001	-5.547096e+001	-1.556192e+001	-1.759233e+002
5098960.139	-2.139597e+001	1.172188e+002	-1.304975e+001	-6.192975e+001	-1.302243e+001	-6.178790e+001	-1.605520e+001	-1.784649e+002
5123396.880	-2.175793e+001	1.205779e+002	-1.296957e+001	-6.821091e+001	-1.294318e+001	-6.806517e+001	-1.655614e+001	1.792091e+002
5147833.622	-2.204969e+001	1.239763e+002	-1.290712e+001	-7.441335e+001	-1.288416e+001	-7.428985e+001	-1.705770e+001	1.771187e+002
5172270.364	-2.225723e+001	1.273758e+002	-1.285953e+001	-8.060319e+001	-1.283914e+001	-8.047863e+001	-1.755478e+001	1.752652e+002
5196707.106	-2.239535e+001	1.307303e+002	-1.282390e+001	-8.675433e+001	-1.280672e+001	-8.661753e+001	-1.804841e+001	1.736833e+002
5221143.847	-2.247033e+001	1.339555e+002	-1.280069e+001	-9.283995e+001	-1.278573e+001	-9.271110e+001	-1.852392e+001	1.723477e+002
5245580.589	-2.248749e+001	1.370043e+002	-1.278961e+001	-9.893989e+001	-1.277799e+001	-9.879993e+001	-1.897666e+001	1.712962e+002
5270017.331	-2.246384e+001	1.398379e+002	-1.279066e+001	-1.050076e+002	-1.278151e+001	-1.048476e+002	-1.939113e+001	1.704541e+002
5294454.073	-2.240208e+001	1.425119e+002	-1.280312e+001	-1.110209e+002	-1.279582e+001	-1.108514e+002	-1.976426e+001	1.697806e+002
5318890.815	-2.231208e+001	1.449966e+002	-1.282358e+001	-1.170044e+002	-1.281624e+001	-1.168055e+002	-2.009923e+001	1.691813e+002
5343327.556	-2.218177e+001	1.473992e+002	-1.284784e+001	-1.229309e+002	-1.284058e+001	-1.227221e+002	-2.039534e+001	1.687015e+002
5367764.298	-2.201163e+001	1.494367e+002	-1.287389e+001	-1.288792e+002	-1.286799e+001	-1.286462e+002	-2.064025e+001	1.683157e+002
5392201.040	-2.182780e+001	1.511881e+002	-1.290694e+001	-1.348298e+002	-1.290061e+001	-1.345875e+002	-2.081949e+001	1.679637e+002
5416637.782	-2.164336e+001	1.526430e+002	-1.294679e+001	-1.407958e+002	-1.294035e+001	-1.405335e+002	-2.092662e+001	1.675249e+002
5441074.523	-2.147543e+001	1.539101e+002	-1.299657e+001	-1.467570e+002	-1.298895e+001	-1.464738e+002	-2.097194e+001	1.668624e+002
