!Agilent Technologies,E5061B,MY49101568,A.02.00
!Date: Fri Mar 03 16:34:11 2023
!Data & Calibration Information:
!Freq	S11:SOLT2(ON)	S21:SOLT2(ON)	S12:SOLT2(ON)	S22:SOLT2(ON)
# Hz S dB R 50
1800000.000	-8.644000e+000	-1.137340e+000	-3.845385e+000	9.423600e+001	-3.839933e+000	9.401898e+001	-8.208077e+000	5.993716e+000
1824436.742	-8.486294e+000	-3.989850e+000	-3.910266e+000	9.075547e+001	-3.892279e+000	9.060113e+001	-8.120522e+000	3.289441e+000
1848873.484	-8.326091e+000	-6.940207e+000	-3.971985e+000	8.733594e+001	-3.948728e+000	8.733399e+001	-8.061911e+000	4.971969e-001
1873310.225	-8.293675e+000	-9.747428e+000	-4.019749e+000	8.418838e+001	-4.006242e+000	8.407366e+001	-7.999761e+000	-2.478214e+000
1897746.967	-8.206334e+000	-1.224347e+001	-4.044340e+000	8.076482e+001	-4.058464e+000	8.085646e+001	-7.988508e+000	-5.224677e+000
1922183.709	-8.173994e+000	-1.517855e+001	-4.079590e+000	7.747789e+001	-4.080253e+000	7.728768e+001	-7.924024e+000	-7.819862e+000
1946620.451	-8.154779e+000	-1.785089e+001	-4.102900e+000	7.429972e+001	-4.143101e+000	7.411122e+001	-7.971050e+000	-1.090214e+001
1971057.192	-8.213130e+000	-2.116081e+001	-4.183247e+000	7.122690e+001	-4.144125e+000	7.086756e+001	-7.979011e+000	-1.330904e+001
1995493.934	-8.299018e+000	-2.376853e+001	-4.192470e+000	6.819104e+001	-4.196171e+000	6.774385e+001	-8.090363e+000	-1.626809e+001
2019930.676	-8.294158e+000	-2.619932e+001	-4.189438e+000	6.473191e+001	-4.184020e+000	6.476985e+001	-8.220407e+000	-1.863773e+001
2044367.418	-8.431643e+000	-2.882860e+001	-4.177162e+000	6.166073e+001	-4.200002e+000	6.131479e+001	-8.278151e+000	-2.129914e+001
2068804.159	-8.453954e+000	-3.137837e+001	-4.161295e+000	5.825522e+001	-4.217549e+000	5.795154e+001	-8.369942e+000	-2.417758e+001
2093240.901	-8.531990e+000	-3.455532e+001	-4.206216e+000	5.477801e+001	-4.243103e+000	5.445060e+001	-8.465614e+000	-2.697661e+001
2117677.643	-8.679399e+000	-3.768222e+001	-4.254633e+000	5.156345e+001	-4.275882e+000	5.139456e+001	-8.660750e+000	-2.996796e+001
2142114.385	-8.871404e+000	-4.193653e+001	-4.387492e+000	4.841552e+001	-4.296123e+000	4.862659e+001	-8.998650e+000	-3.282336e+001
2166551.127	-9.201545e+000	-4.340971e+001	-4.268564e+000	4.559912e+001	-4.304693e+000	4.546356e+001	-9.260289e+000	-3.552165e+001
2190987.868	-9.554177e+000	-4.631764e+001	-4.273788e+000	4.274149e+001	-4.213457e+000	4.264165e+001	-9.619717e+000	-3.703033e+001
2215424.610	-9.806109e+000	-4.752870e+001	-4.144109e+000	3.950107e+001	-4.187828e+000	3.927562e+001	-9.855975e+000	-3.938324e+001
2239861.352	-9.937275e+000	-4.980776e+001	-4.105348e+000	3.570927e+001	-4.106938e+000	3.572986e+001	-1.009411e+001	-4.088769e+001
2264298.094	-1.019905e+001	-5.222725e+001	-4.076674e+000	3.205515e+001	-4.070761e+000	3.218498e+001	-1.031807e+001	-4.334579e+001
2288734.835	-1.054249e+001	-5.493148e+001	-4.071287e+000	2.874818e+001	-4.070371e+000	2.862569e+001	-1.067427e+001	-4.575730e+001
2313171.577	-1.086778e+001	-5.761741e+001	-4.067734e+000	2.529622e+001	-4.070607e+000	2.512298e+001	-1.104666e+001	-4.840419e+001
2337608.319	-1.125245e+001	-5.951608e+001	-4.004533e+000	2.175396e+001	-4.040162e+000	2.167742e+001	-1.141731e+001	-5.061956e+001
2362045.061	-1.167615e+001	-6.213120e+001	-4.010523e+000	1.824226e+001	-4.009287e+000	1.817275e+001	-1.187390e+001	-5.246421e+001
2386481.802	-1.216497e+001	-6.444922e+001	-3.990535e+000	1.476452e+001	-3.984971e+000	1.478777e+001	-1.234847e+001	-5.449427e+001
2410918.544	-1.260332e+001	-6.655963e+001	-3.960981e+000	1.110863e+001	-3.951199e+000	1.124002e+001	-1.290467e+001	-5.621425e+001
2435355.286	-1.317155e+001	-6.838676e+001	-3.938261e+000	7.618635e+000	-3.934462e+000	7.710258e+000	-1.345525e+001	-5.783812e+001
2459792.028	-1.380796e+001	-6.974537e+001	-3.895908e+000	4.152343e+000	-3.892565e+000	4.123700e+000	-1.404709e+001	-5.875455e+001
2484228.769	-1.438646e+001	-7.089764e+001	-3.853574e+000	4.792022e-001	-3.855238e+000	4.634652e-001	-1.461891e+001	-5.974969e+001
2508665.511	-1.500763e+001	-7.203970e+001	-3.826679e+000	-3.255472e+000	-3.816174e+000	-3.244915e+000	-1.519654e+001	-6.033887e+001
2533102.253	-1.558365e+001	-7.348480e+001	-3.817914e+000	-7.148248e+000	-3.790049e+000	-7.125337e+000	-1.580107e+001	-6.121287e+001
2557538.995	-1.630921e+001	-7.456566e+001	-3.797745e+000	-1.086302e+001	-3.801328e+000	-1.087514e+001	-1.656097e+001	-6.219034e+001
2581975.737	-1.708054e+001	-7.512303e+001	-3.791797e+000	-1.469659e+001	-3.801564e+000	-1.468253e+001	-1.730303e+001	-6.264973e+001
2606412.478	-1.795091e+001	-7.578246e+001	-3.804913e+000	-1.846914e+001	-3.817295e+000	-1.840736e+001	-1.822714e+001	-6.266298e+001
2630849.220	-1.882112e+001	-7.566035e+001	-3.797667e+000	-2.221323e+001	-3.810197e+000	-2.210078e+001	-1.910545e+001	-6.111312e+001
2655285.962	-1.979127e+001	-7.395955e+001	-3.793902e+000	-2.592672e+001	-3.795398e+000	-2.588690e+001	-1.991725e+001	-5.923532e+001
2679722.704	-2.068936e+001	-7.198814e+001	-3.790863e+000	-2.971824e+001	-3.802471e+000	-2.963413e+001	-2.087597e+001	-5.697349e+001
2704159.445	-2.149733e+001	-7.068684e+001	-3.798141e+000	-3.369753e+001	-3.805835e+000	-3.364644e+001	-2.163977e+001	-5.445638e+001
2728596.187	-2.275770e+001	-6.794270e+001	-3.833597e+000	-3.751482e+001	-3.829113e+000	-3.729789e+001	-2.261321e+001	-4.990401e+001
2753032.929	-2.364783e+001	-6.351794e+001	-3.845768e+000	-4.122769e+001	-3.844823e+000	-4.120785e+001	-2.355802e+001	-4.499691e+001
2777469.671	-2.471598e+001	-5.904139e+001	-3.876105e+000	-4.512505e+001	-3.875665e+000	-4.491272e+001	-2.420455e+001	-3.871940e+001
2801906.412	-2.563706e+001	-5.195417e+001	-3.910287e+000	-4.891598e+001	-3.904373e+000	-4.885514e+001	-2.492411e+001	-3.166620e+001
2826343.154	-2.624302e+001	-4.305468e+001	-3.929908e+000	-5.261161e+001	-3.933885e+000	-5.254849e+001	-2.533527e+001	-2.293980e+001
2850779.896	-2.682071e+001	-3.524289e+001	-3.958413e+000	-5.642169e+001	-3.971566e+000	-5.637571e+001	-2.546302e+001	-1.443701e+001
2875216.638	-2.712309e+001	-2.633372e+001	-4.004487e+000	-6.021358e+001	-4.015355e+000	-6.015019e+001	-2.545445e+001	-6.144945e+000
2899653.380	-2.699492e+001	-1.745092e+001	-4.041988e+000	-6.391050e+001	-4.033236e+000	-6.382350e+001	-2.500228e+001	6.166659e-001
2924090.121	-2.679545e+001	-1.012857e+001	-4.089954e+000	-6.769541e+001	-4.081186e+000	-6.760680e+001	-2.462809e+001	6.893890e+000
2948526.863	-2.657114e+001	-3.272256e+000	-4.123952e+000	-7.148802e+001	-4.121319e+000	-7.136777e+001	-2.433182e+001	1.241402e+001
2972963.605	-2.630216e+001	3.660139e+000	-4.182879e+000	-7.524765e+001	-4.181843e+000	-7.510093e+001	-2.386435e+001	1.779186e+001
2997400.347	-2.576424e+001	9.171392e+000	-4.243749e+000	-7.889021e+001	-4.234082e+000	-7.875879e+001	-2.320276e+001	2.236769e+001
3021837.088	-2.505421e+001	1.493988e+001	-4.306739e+000	-8.240374e+001	-4.300192e+000	-8.230855e+001	-2.259960e+001	2.583631e+001
3046273.830	-2.438633e+001	1.788669e+001	-4.351947e+000	-8.596685e+001	-4.331770e+000	-8.590295e+001	-2.199110e+001	2.762582e+001
3070710.572	-2.381547e+001	1.950291e+001	-4.380220e+000	-8.943769e+001	-4.372887e+000	-8.932889e+001	-2.134587e+001	2.892169e+001
3095147.314	-2.346647e+001	2.051748e+001	-4.402813e+000	-9.299144e+001	-4.386262e+000	-9.288948e+001	-2.105930e+001	2.873726e+001
3119584.055	-2.330264e+001	2.162250e+001	-4.402816e+000	-9.663146e+001	-4.390110e+000	-9.657541e+001	-2.090039e+001	2.920982e+001
3144020.797	-2.326715e+001	2.319604e+001	-4.421179e+000	-1.003633e+002	-4.417515e+000	-1.002391e+002	-2.080393e+001	3.069079e+001
3168457.539	-2.330001e+001	2.659426e+001	-4.445717e+000	-1.041087e+002	-4.428105e+000	-1.041003e+002	-2.077066e+001	3.274962e+001
3192894.281	-2.326154e+001	3.058316e+001	-4.470578e+000	-1.079451e+002	-4.472102e+000	-1.078378e+002	-2.063576e+001	3.551320e+001
3217331.023	-2.308250e+001	3.537339e+001	-4.505688e+000	-1.117790e+002	-4.505362e+000	-1.117257e+002	-2.044682e+001	3.904040e+001
3241767.764	-2.283443e+001	4.017477e+001	-4.542722e+000	-1.155599e+002	-4.544766e+000	-1.154904e+002	-2.019166e+001	4.224068e+001
3266204.506	-2.232327e+001	4.577185e+001	-4.600696e+000	-1.194490e+002	-4.593454e+000	-1.192651e+002	-1.980502e+001	4.585592e+001
3290641.248	-2.177577e+001	4.896957e+001	-4.647228e+000	-1.230599e+002	-4.637244e+000	-1.230237e+002	-1.941231e+001	4.821140e+001
3315077.990	-2.136373e+001	5.276591e+001	-4.665634e+000	-1.268412e+002	-4.665611e+000	-1.267263e+002	-1.905554e+001	5.095683e+001
3339514.731	-2.082236e+001	5.733121e+001	-4.687524e+000	-1.307554e+002	-4.685044e+000	-1.306595e+002	-1.867499e+001	5.432291e+001
3363951.473	-2.003283e+001	6.176344e+001	-4.729173e+000	-1.348436e+002	-4.722161e+000	-1.347188e+002	-1.809979e+001	5.787679e+001
3388388.215	-1.912532e+001	6.544993e+001	-4.786462e+000	-1.389267e+002	-4.783415e+000	-1.388015e+002	-1.736666e+001	6.113278e+001
3412824.957	-1.809718e+001	6.774071e+001	-4.856018e+000	-1.430608e+002	-4.858096e+000	-1.429314e+002	-1.655620e+001	6.336064e+001
3437261.698	-1.706034e+001	6.905719e+001	-4.947545e+000	-1.472036e+002	-4.957677e+000	-1.470729e+002	-1.570983e+001	6.463702e+001
3461698.440	-1.605669e+001	6.916797e+001	-5.067290e+000	-1.512602e+002	-5.068315e+000	-1.511603e+002	-1.487383e+001	6.517264e+001
3486135.182	-1.511399e+001	6.844548e+001	-5.196544e+000	-1.553343e+002	-5.184240e+000	-1.551677e+002	-1.406156e+001	6.483077e+001
3510571.924	-1.424045e+001	6.699101e+001	-5.346186e+000	-1.592951e+002	-5.337076e+000	-1.591537e+002	-1.329818e+001	6.387145e+001
3535008.666	-1.348737e+001	6.525390e+001	-5.502288e+000	-1.631560e+002	-5.499002e+000	-1.629534e+002	-1.258807e+001	6.234629e+001
3559445.407	-1.277311e+001	6.297926e+001	-5.683149e+000	-1.668317e+002	-5.666636e+000	-1.666990e+002	-1.193780e+001	6.049658e+001
3583882.149	-1.217501e+001	6.067849e+001	-5.841603e+000	-1.703819e+002	-5.834241e+000	-1.702241e+002	-1.136569e+001	5.835633e+001
3608318.891	-1.164780e+001	5.835411e+001	-6.005700e+000	-1.738748e+002	-5.993610e+000	-1.736941e+002	-1.087211e+001	5.633723e+001
3632755.633	-1.113094e+001	5.632542e+001	-6.146278e+000	-1.774114e+002	-6.121632e+000	-1.771365e+002	-1.042974e+001	5.431340e+001
3657192.374	-1.065425e+001	5.408771e+001	-6.300593e+000	1.791776e+002	-6.278118e+000	1.793492e+002	-9.979391e+000	5.228347e+001
3681629.116	-1.017663e+001	5.180128e+001	-6.452816e+000	1.756583e+002	-6.423366e+000	1.758574e+002	-9.551269e+000	5.023859e+001
3706065.858	-9.722646e+000	4.919299e+001	-6.629255e+000	1.722020e+002	-6.583837e+000	1.723503e+002	-9.151129e+000	4.797354e+001
3730502.600	-9.339670e+000	4.661644e+001	-6.801517e+000	1.688914e+002	-6.762110e+000	1.690242e+002	-8.772624e+000	4.548459e+001
3754939.341	-8.967064e+000	4.385373e+001	-6.974630e+000	1.655444e+002	-6.942856e+000	1.656766e+002	-8.431405e+000	4.295380e+001
3779376.083	-8.614409e+000	4.113332e+001	-7.167404e+000	1.622850e+002	-7.130623e+000	1.623362e+002	-8.102311e+000	4.030843e+001
3803812.825	-8.306997e+000	3.810281e+001	-7.373571e+000	1.591950e+002	-7.356211e+000	1.591671e+002	-7.804976e+000	3.747628e+001
3828249.567	-7.990610e+000	3.511174e+001	-7.604094e+000	1.559896e+002	-7.572472e+000	1.560814e+002	-7.554469e+000	3.471932e+001
3852686.308	-7.751250e+000	3.197588e+001	-7.834552e+000	1.531267e+002	-7.811229e+000	1.531820e+002	-7.309881e+000	3.166991e+001
3877123.050	-7.553673e+000	2.855847e+001	-8.096893e+000	1.506169e+002	-8.062885e+000	1.506249e+002	-7.135881e+000	2.859509e+001
3901559.792	-7.395995e+000	2.540989e+001	-8.326315e+000	1.482566e+002	-8.317468e+000	1.483310e+002	-6.984744e+000	2.532271e+001
3925996.534	-7.285308e+000	2.180619e+001	-8.590039e+000	1.463453e+002	-8.564393e+000	1.462467e+002	-6.881531e+000	2.214384e+001
3950433.276	-7.239615e+000	1.842990e+001	-8.811189e+000	1.448239e+002	-8.781085e+000	1.447835e+002	-6.848613e+000	1.889168e+001
3974870.017	-7.274377e+000	1.507075e+001	-8.957437e+000	1.437189e+002	-8.946718e+000	1.436189e+002	-6.878857e+000	1.571093e+001
3999306.759	-7.401844e+000	1.210119e+001	-8.991287e+000	1.429634e+002	-9.023626e+000	1.429256e+002	-6.995605e+000	1.266492e+001
4023743.501	-7.525278e+000	9.316975e+000	-8.981842e+000	1.420376e+002	-8.985254e+000	1.420061e+002	-7.153918e+000	1.013914e+001
4048180.243	-7.730825e+000	7.275821e+000	-8.844171e+000	1.409468e+002	-8.865949e+000	1.410328e+002	-7.354992e+000	7.926347e+000
4072616.984	-7.942350e+000	5.495799e+000	-8.665957e+000	1.395061e+002	-8.666786e+000	1.395879e+002	-7.575828e+000	6.332208e+000
4097053.726	-8.155281e+000	4.516514e+000	-8.407888e+000	1.375189e+002	-8.414443e+000	1.374435e+002	-7.777257e+000	5.442277e+000
4121490.468	-8.283870e+000	4.136697e+000	-8.156899e+000	1.347790e+002	-8.157238e+000	1.347637e+002	-7.933940e+000	5.056579e+000
4145927.210	-8.343734e+000	3.749387e+000	-7.933397e+000	1.315735e+002	-7.921977e+000	1.316258e+002	-8.024085e+000	4.835792e+000
4170363.951	-8.345429e+000	3.612672e+000	-7.747033e+000	1.280476e+002	-7.735386e+000	1.280012e+002	-8.007757e+000	4.796851e+000
4194800.693	-8.275230e+000	3.341983e+000	-7.592982e+000	1.244608e+002	-7.583696e+000	1.244922e+002	-7.971687e+000	4.466233e+000
4219237.435	-8.151031e+000	2.741465e+000	-7.498063e+000	1.205564e+002	-7.474866e+000	1.206907e+002	-7.870047e+000	3.960269e+000
4243674.177	-8.009277e+000	1.804562e+000	-7.427428e+000	1.167348e+002	-7.414378e+000	1.168278e+002	-7.744642e+000	3.173807e+000
4268110.919	-7.857896e+000	5.360739e-001	-7.412354e+000	1.130281e+002	-7.378580e+000	1.130735e+002	-7.610737e+000	2.063229e+000
4292547.660	-7.736539e+000	-8.534545e-001	-7.384956e+000	1.093719e+002	-7.385993e+000	1.094518e+002	-7.489934e+000	5.989316e-001
4316984.402	-7.613512e+000	-2.469934e+000	-7.380949e+000	1.057935e+002	-7.375213e+000	1.058219e+002	-7.373293e+000	-8.941875e-001
4341421.144	-7.508218e+000	-4.293524e+000	-7.401567e+000	1.022461e+002	-7.373533e+000	1.023976e+002	-7.299378e+000	-2.490789e+000
4365857.886	-7.438066e+000	-6.080214e+000	-7.400192e+000	9.887129e+001	-7.404844e+000	9.895641e+001	-7.210028e+000	-4.446573e+000
4390294.627	-7.366657e+000	-8.085690e+000	-7.422481e+000	9.552519e+001	-7.418752e+000	9.552493e+001	-7.144488e+000	-6.238957e+000
4414731.369	-7.319222e+000	-1.013781e+001	-7.446242e+000	9.221894e+001	-7.449201e+000	9.221770e+001	-7.111230e+000	-8.195893e+000
4439168.111	-7.278106e+000	-1.224705e+001	-7.469868e+000	8.886117e+001	-7.462681e+000	8.913529e+001	-7.116663e+000	-1.028476e+001
4463604.853	-7.279651e+000	-1.427952e+001	-7.481976e+000	8.573110e+001	-7.466302e+000	8.581403e+001	-7.092050e+000	-1.219265e+001
4488041.594	-7.310274e+000	-1.640156e+001	-7.490068e+000	8.266668e+001	-7.481098e+000	8.269815e+001	-7.111754e+000	-1.423040e+001
4512478.336	-7.338542e+000	-1.848270e+001	-7.487504e+000	7.959032e+001	-7.475994e+000	7.962844e+001	-7.152125e+000	-1.622195e+001
4536915.078	-7.372513e+000	-2.051281e+001	-7.465384e+000	7.649160e+001	-7.463852e+000	7.651879e+001	-7.206978e+000	-1.817333e+001
4561351.820	-7.416534e+000	-2.260500e+001	-7.471365e+000	7.330470e+001	-7.469581e+000	7.332665e+001	-7.256008e+000	-2.030276e+001
4585788.562	-7.497714e+000	-2.476897e+001	-7.466582e+000	7.028217e+001	-7.453583e+000	7.031916e+001	-7.338018e+000	-2.228173e+001
4610225.303	-7.582554e+000	-2.681306e+001	-7.445322e+000	6.722511e+001	-7.432156e+000	6.732714e+001	-7.428317e+000	-2.428928e+001
4634662.045	-7.678045e+000	-2.874814e+001	-7.393518e+000	6.417851e+001	-7.392833e+000	6.427133e+001	-7.539943e+000	-2.619276e+001
4659098.787	-7.792366e+000	-3.067116e+001	-7.352525e+000	6.115947e+001	-7.345933e+000	6.116379e+001	-7.650569e+000	-2.807100e+001
4683535.529	-7.899694e+000	-3.266072e+001	-7.298405e+000	5.797289e+001	-7.281154e+000	5.792615e+001	-7.766070e+000	-2.984120e+001
4707972.270	-8.009098e+000	-3.458332e+001	-7.244755e+000	5.473732e+001	-7.230310e+000	5.473661e+001	-7.890865e+000	-3.169183e+001
4732409.012	-8.121749e+000	-3.644706e+001	-7.181747e+000	5.141783e+001	-7.176062e+000	5.141923e+001	-8.008653e+000	-3.350564e+001
4756845.754	-8.234657e+000	-3.838344e+001	-7.122391e+000	4.811569e+001	-7.106348e+000	4.809570e+001	-8.131200e+000	-3.537675e+001
4781282.496	-8.361824e+000	-4.032718e+001	-7.059153e+000	4.468078e+001	-7.060411e+000	4.469193e+001	-8.270021e+000	-3.723740e+001
4805719.237	-8.495068e+000	-4.227582e+001	-7.000528e+000	4.129620e+001	-7.001682e+000	4.125146e+001	-8.400292e+000	-3.918322e+001
4830155.979	-8.625160e+000	-4.435095e+001	-6.951381e+000	3.776893e+001	-6.947288e+000	3.776453e+001	-8.551066e+000	-4.107300e+001
4854592.721	-8.778324e+000	-4.641230e+001	-6.900930e+000	3.422158e+001	-6.895933e+000	3.424167e+001	-8.710727e+000	-4.306155e+001
4879029.463	-8.937851e+000	-4.861439e+001	-6.855882e+000	3.067541e+001	-6.846045e+000	3.069758e+001	-8.869223e+000	-4.509685e+001
4903466.205	-9.125334e+000	-5.092966e+001	-6.814674e+000	2.708513e+001	-6.815090e+000	2.712884e+001	-9.061846e+000	-4.726103e+001
4927902.946	-9.320332e+000	-5.311295e+001	-6.776267e+000	2.352127e+001	-6.770178e+000	2.354428e+001	-9.259243e+000	-4.935335e+001
4952339.688	-9.523928e+000	-5.540261e+001	-6.734645e+000	1.989067e+001	-6.739638e+000	1.989576e+001	-9.472458e+000	-5.159526e+001
4976776.430	-9.750856e+000	-5.766405e+001	-6.699967e+000	1.626559e+001	-6.706102e+000	1.627479e+001	-9.691721e+000	-5.376464e+001
5001213.172	-9.998533e+000	-6.004956e+001	-6.670268e+000	1.266063e+001	-6.670564e+000	1.264897e+001	-9.954112e+000	-5.603379e+001
5025649.913	-1.025789e+001	-6.243828e+001	-6.642278e+000	9.005493e+000	-6.641702e+000	9.006135e+000	-1.021673e+001	-5.828294e+001
5050086.655	-1.054100e+001	-6.483944e+001	-6.611876e+000	5.334733e+000	-6.611982e+000	5.335917e+000	-1.050666e+001	-6.061984e+001
5074523.397	-1.083666e+001	-6.724184e+001	-6.583195e+000	1.629998e+000	-6.588780e+000	1.613621e+000	-1.080797e+001	-6.296758e+001
5098960.139	-1.116249e+001	-6.969509e+001	-6.564248e+000	-2.095364e+000	-6.568153e+000	-2.077425e+000	-1.113464e+001	-6.536731e+001
5123396.880	-1.150441e+001	-7.232135e+001	-6.554948e+000	-5.810216e+000	-6.549057e+000	-5.774119e+000	-1.148427e+001	-6.781120e+001
5147833.622	-1.187160e+001	-7.485159e+001	-6.535830e+000	-9.525341e+000	-6.539423e+000	-9.519745e+000	-1.185785e+001	-7.030924e+001
5172270.364	-1.227197e+001	-7.753621e+001	-6.524629e+000	-1.326257e+001	-6.532765e+000	-1.319492e+001	-1.228007e+001	-7.283712e+001
5196707.106	-1.270252e+001	-8.006740e+001	-6.516870e+000	-1.697113e+001	-6.525713e+000	-1.693671e+001	-1.271054e+001	-7.540097e+001
5221143.847	-1.316232e+001	-8.284793e+001	-6.512802e+000	-2.072054e+001	-6.507726e+000	-2.068563e+001	-1.316274e+001	-7.794723e+001
5245580.589	-1.363151e+001	-8.543106e+001	-6.494853e+000	-2.444937e+001	-6.504121e+000	-2.445071e+001	-1.365972e+001	-8.065232e+001
5270017.331	-1.414208e+001	-8.815946e+001	-6.489962e+000	-2.823132e+001	-6.494905e+000	-2.818583e+001	-1.417585e+001	-8.327100e+001
5294454.073	-1.467046e+001	-9.104038e+001	-6.489189e+000	-3.198619e+001	-6.487773e+000	-3.193992e+001	-1.472266e+001	-8.603121e+001
5318890.815	-1.524505e+001	-9.407902e+001	-6.488727e+000	-3.578950e+001	-6.493440e+000	-3.573953e+001	-1.531250e+001	-8.897894e+001
5343327.556	-1.584500e+001	-9.724523e+001	-6.494272e+000	-3.954407e+001	-6.491151e+000	-3.953946e+001	-1.592192e+001	-9.198426e+001
5367764.298	-1.647203e+001	-1.005250e+002	-6.489143e+000	-4.340330e+001	-6.495666e+000	-4.333489e+001	-1.658090e+001	-9.533574e+001
5392201.040	-1.713238e+001	-1.041132e+002	-6.500542e+000	-4.721993e+001	-6.498746e+000	-4.721254e+001	-1.727085e+001	-9.889363e+001
5416637.782	-1.785001e+001	-1.079711e+002	-6.508887e+000	-5.104325e+001	-6.510185e+000	-5.102671e+001	-1.802788e+001	-1.028367e+002
5441074.523	-1.859926e+001	-1.122077e+002	-6.521668e+000	-5.493480e+001	-6.524644e+000	-5.487333e+001	-1.880177e+001	-1.070275e+002
5465511.265	-1.936774e+001	-1.170024e+002	-6.531279e+000	-5.871359e+001	-6.539282e+000	-5.872576e+001	-1.961661e+001	-1.120604e+002
