!Agilent Technologies,E5061B,MY49101568,A.02.00
!Date: Wed Mar 01 15:32:24 2023
!Data & Calibration Information:
!Freq	S11:SOLT2(OFF)	S21:SOLT2(OFF)	S12:SOLT2(OFF)	S22:SOLT2(OFF)
# Hz S dB R 50
1800000.000	-9.660929e+000	-2.377733e+001	-2.121565e+001	-1.239248e+002	-2.123736e+001	-1.239326e+002	-1.002287e+001	1.156544e+001
1824436.742	-9.784034e+000	-2.847260e+001	-2.075136e+001	-1.282494e+002	-2.078235e+001	-1.282047e+002	-1.016825e+001	7.424232e+000
1848873.484	-9.916641e+000	-3.327716e+001	-2.028906e+001	-1.326259e+002	-2.031799e+001	-1.325931e+002	-1.031957e+001	3.199575e+000
1873310.225	-1.006053e+001	-3.819605e+001	-1.980881e+001	-1.372067e+002	-1.985131e+001	-1.371147e+002	-1.047443e+001	-1.097438e+000
1897746.967	-1.021670e+001	-4.323099e+001	-1.932349e+001	-1.418872e+002	-1.936157e+001	-1.417997e+002	-1.063261e+001	-5.482564e+000
1922183.709	-1.038527e+001	-4.843705e+001	-1.882685e+001	-1.467185e+002	-1.887151e+001	-1.465957e+002	-1.079767e+001	-1.001255e+001
1946620.451	-1.056681e+001	-5.381243e+001	-1.832553e+001	-1.516678e+002	-1.836873e+001	-1.515525e+002	-1.097307e+001	-1.466171e+001
1971057.192	-1.077032e+001	-5.938162e+001	-1.781247e+001	-1.568665e+002	-1.786478e+001	-1.567411e+002	-1.115639e+001	-1.941975e+001
1995493.934	-1.100917e+001	-6.513600e+001	-1.728857e+001	-1.623937e+002	-1.734905e+001	-1.621111e+002	-1.136047e+001	-2.431951e+001
2019930.676	-1.126764e+001	-7.105735e+001	-1.678043e+001	-1.679839e+002	-1.684537e+001	-1.676594e+002	-1.157039e+001	-2.923578e+001
2044367.418	-1.156328e+001	-7.715019e+001	-1.626696e+001	-1.738337e+002	-1.633674e+001	-1.734568e+002	-1.179383e+001	-3.434990e+001
2068804.159	-1.189675e+001	-8.337088e+001	-1.577851e+001	-1.798895e+002	-1.584643e+001	-1.794700e+002	-1.202871e+001	-3.944586e+001
2093240.901	-1.229158e+001	-8.974692e+001	-1.528345e+001	1.737094e+002	-1.537802e+001	1.743183e+002	-1.228151e+001	-4.456268e+001
2117677.643	-1.270898e+001	-9.627546e+001	-1.483507e+001	1.672882e+002	-1.493346e+001	1.679758e+002	-1.254032e+001	-4.970168e+001
2142114.385	-1.316566e+001	-1.029477e+002	-1.440950e+001	1.607420e+002	-1.450225e+001	1.615328e+002	-1.279980e+001	-5.490834e+001
2166551.127	-1.367705e+001	-1.098402e+002	-1.399199e+001	1.540444e+002	-1.408229e+001	1.549233e+002	-1.307081e+001	-6.019364e+001
2190987.868	-1.425219e+001	-1.168426e+002	-1.359956e+001	1.471718e+002	-1.368687e+001	1.481249e+002	-1.335781e+001	-6.545127e+001
2215424.610	-1.491382e+001	-1.239057e+002	-1.323217e+001	1.399620e+002	-1.332318e+001	1.411945e+002	-1.364015e+001	-7.066117e+001
2239861.352	-1.560210e+001	-1.310143e+002	-1.291120e+001	1.328165e+002	-1.299161e+001	1.341014e+002	-1.391498e+001	-7.580875e+001
2264298.094	-1.632902e+001	-1.382674e+002	-1.262460e+001	1.256694e+002	-1.269713e+001	1.270109e+002	-1.416959e+001	-8.090699e+001
2288734.835	-1.709641e+001	-1.456940e+002	-1.236260e+001	1.185174e+002	-1.242528e+001	1.199043e+002	-1.439780e+001	-8.604898e+001
2313171.577	-1.790792e+001	-1.533189e+002	-1.212663e+001	1.113397e+002	-1.217608e+001	1.127358e+002	-1.460157e+001	-9.121434e+001
2337608.319	-1.873271e+001	-1.611733e+002	-1.191825e+001	1.041993e+002	-1.195465e+001	1.055233e+002	-1.477970e+001	-9.638217e+001
2362045.061	-1.955275e+001	-1.691848e+002	-1.174102e+001	9.710413e+001	-1.176569e+001	9.827272e+001	-1.492494e+001	-1.015728e+002
2386481.802	-2.033764e+001	-1.774867e+002	-1.159219e+001	9.001154e+001	-1.160364e+001	9.109762e+001	-1.501290e+001	-1.068999e+002
2410918.544	-2.107103e+001	1.737236e+002	-1.146318e+001	8.297604e+001	-1.146408e+001	8.399868e+001	-1.504421e+001	-1.124265e+002
2435355.286	-2.173610e+001	1.641347e+002	-1.134153e+001	7.598911e+001	-1.133620e+001	7.692516e+001	-1.505045e+001	-1.182322e+002
2459792.028	-2.231136e+001	1.541962e+002	-1.124195e+001	6.899118e+001	-1.122928e+001	6.986091e+001	-1.502142e+001	-1.242679e+002
2484228.769	-2.259544e+001	1.435257e+002	-1.117105e+001	6.221730e+001	-1.113973e+001	6.272660e+001	-1.498555e+001	-1.304773e+002
2508665.511	-2.284921e+001	1.328551e+002	-1.111092e+001	5.526926e+001	-1.107470e+001	5.569436e+001	-1.490253e+001	-1.369321e+002
2533102.253	-2.284459e+001	1.221149e+002	-1.107702e+001	4.848149e+001	-1.102594e+001	4.861129e+001	-1.482116e+001	-1.435642e+002
2557538.995	-2.272788e+001	1.114876e+002	-1.105529e+001	4.158111e+001	-1.099958e+001	4.168702e+001	-1.470133e+001	-1.504773e+002
2581975.737	-2.245207e+001	1.012178e+002	-1.105334e+001	3.474928e+001	-1.099217e+001	3.479569e+001	-1.457522e+001	-1.575446e+002
2606412.478	-2.204439e+001	9.137773e+001	-1.107010e+001	2.796514e+001	-1.100387e+001	2.796236e+001	-1.444286e+001	-1.647598e+002
2630849.220	-2.153102e+001	8.209451e+001	-1.110650e+001	2.124653e+001	-1.103563e+001	2.118387e+001	-1.431483e+001	-1.720798e+002
2655285.962	-2.096556e+001	7.326381e+001	-1.116339e+001	1.459523e+001	-1.108835e+001	1.446977e+001	-1.419313e+001	-1.794522e+002
2679722.704	-2.036843e+001	6.499965e+001	-1.123614e+001	8.035145e+000	-1.116070e+001	7.836672e+000	-1.407816e+001	1.731542e+002
2704159.445	-1.976046e+001	5.715077e+001	-1.132656e+001	1.579976e+000	-1.124993e+001	1.309586e+000	-1.396909e+001	1.658135e+002
2728596.187	-1.916199e+001	4.969296e+001	-1.143580e+001	-4.775006e+000	-1.135725e+001	-5.082171e+000	-1.387304e+001	1.584887e+002
2753032.929	-1.857823e+001	4.257368e+001	-1.155670e+001	-1.098856e+001	-1.147640e+001	-1.136591e+001	-1.378660e+001	1.512330e+002
2777469.671	-1.802977e+001	3.570788e+001	-1.168557e+001	-1.707750e+001	-1.160699e+001	-1.751053e+001	-1.371734e+001	1.440853e+002
2801906.412	-1.751478e+001	2.913385e+001	-1.182387e+001	-2.304727e+001	-1.174747e+001	-2.350563e+001	-1.366059e+001	1.370386e+002
2826343.154	-1.703754e+001	2.282116e+001	-1.197192e+001	-2.889300e+001	-1.189935e+001	-2.936348e+001	-1.361308e+001	1.301703e+002
2850779.896	-1.659676e+001	1.674636e+001	-1.212401e+001	-3.458874e+001	-1.205547e+001	-3.509461e+001	-1.358513e+001	1.234654e+002
2875216.638	-1.618718e+001	1.090258e+001	-1.228200e+001	-4.019464e+001	-1.221796e+001	-4.064334e+001	-1.356484e+001	1.169527e+002
2899653.380	-1.581231e+001	5.236598e+000	-1.244021e+001	-4.563653e+001	-1.238171e+001	-4.608583e+001	-1.356104e+001	1.106250e+002
2924090.121	-1.546771e+001	-2.253623e-001	-1.259699e+001	-5.093504e+001	-1.254542e+001	-5.139353e+001	-1.356757e+001	1.044676e+002
2948526.863	-1.515297e+001	-5.531906e+000	-1.275079e+001	-5.611900e+001	-1.270914e+001	-5.655485e+001	-1.358286e+001	9.850507e+001
2972963.605	-1.486201e+001	-1.067350e+001	-1.290135e+001	-6.118181e+001	-1.286571e+001	-6.159766e+001	-1.360852e+001	9.269037e+001
2997400.347	-1.459645e+001	-1.566685e+001	-1.304475e+001	-6.614618e+001	-1.301938e+001	-6.652857e+001	-1.364338e+001	8.707211e+001
3021837.088	-1.435160e+001	-2.050966e+001	-1.318294e+001	-7.100766e+001	-1.316642e+001	-7.135219e+001	-1.368540e+001	8.161133e+001
3046273.830	-1.412859e+001	-2.521478e+001	-1.331437e+001	-7.575939e+001	-1.330619e+001	-7.606320e+001	-1.373287e+001	7.631373e+001
3070710.572	-1.391981e+001	-2.981914e+001	-1.343644e+001	-8.041627e+001	-1.343561e+001	-8.068092e+001	-1.378521e+001	7.114564e+001
3095147.314	-1.372984e+001	-3.432549e+001	-1.354396e+001	-8.496757e+001	-1.355170e+001	-8.520585e+001	-1.384494e+001	6.606906e+001
3119584.055	-1.355415e+001	-3.876078e+001	-1.363623e+001	-8.947331e+001	-1.365035e+001	-8.967338e+001	-1.391703e+001	6.107903e+001
3144020.797	-1.340273e+001	-4.312489e+001	-1.371116e+001	-9.394726e+001	-1.374030e+001	-9.403900e+001	-1.398721e+001	5.624475e+001
3168457.539	-1.326450e+001	-4.739461e+001	-1.377613e+001	-9.837435e+001	-1.381166e+001	-9.843861e+001	-1.408329e+001	5.147757e+001
3192894.281	-1.314387e+001	-5.159619e+001	-1.383121e+001	-1.028239e+002	-1.387189e+001	-1.028305e+002	-1.419314e+001	4.682742e+001
3217331.023	-1.303851e+001	-5.569620e+001	-1.387474e+001	-1.072550e+002	-1.392098e+001	-1.072240e+002	-1.431500e+001	4.227488e+001
3241767.764	-1.294857e+001	-5.971046e+001	-1.391365e+001	-1.116683e+002	-1.396365e+001	-1.116268e+002	-1.444957e+001	3.787563e+001
3266204.506	-1.286850e+001	-6.363357e+001	-1.394976e+001	-1.160608e+002	-1.400145e+001	-1.159770e+002	-1.458617e+001	3.361053e+001
3290641.248	-1.279299e+001	-6.748981e+001	-1.397427e+001	-1.203381e+002	-1.402983e+001	-1.202359e+002	-1.471729e+001	2.940569e+001
3315077.990	-1.272411e+001	-7.139186e+001	-1.396869e+001	-1.245687e+002	-1.402723e+001	-1.244269e+002	-1.485092e+001	2.510865e+001
3339514.731	-1.268284e+001	-7.532369e+001	-1.393445e+001	-1.289079e+002	-1.399494e+001	-1.287124e+002	-1.502374e+001	2.074539e+001
3363951.473	-1.266686e+001	-7.921063e+001	-1.388568e+001	-1.333530e+002	-1.394938e+001	-1.331356e+002	-1.523441e+001	1.646919e+001
3388388.215	-1.267881e+001	-8.304977e+001	-1.382798e+001	-1.378994e+002	-1.389381e+001	-1.376717e+002	-1.548085e+001	1.230518e+001
3412824.957	-1.271565e+001	-8.677568e+001	-1.376819e+001	-1.425528e+002	-1.383256e+001	-1.423065e+002	-1.576197e+001	8.274869e+000
3437261.698	-1.277876e+001	-9.042229e+001	-1.370259e+001	-1.473148e+002	-1.376699e+001	-1.470499e+002	-1.608446e+001	4.415848e+000
3461698.440	-1.287248e+001	-9.394733e+001	-1.363583e+001	-1.521951e+002	-1.369902e+001	-1.519081e+002	-1.644963e+001	7.479319e-001
3486135.182	-1.299311e+001	-9.728331e+001	-1.357794e+001	-1.571833e+002	-1.363815e+001	-1.568725e+002	-1.685625e+001	-2.616398e+000
3510571.924	-1.314142e+001	-1.004426e+002	-1.352361e+001	-1.622554e+002	-1.358229e+001	-1.619282e+002	-1.730669e+001	-5.583786e+000
3535008.666	-1.330765e+001	-1.033679e+002	-1.347864e+001	-1.673811e+002	-1.353879e+001	-1.670467e+002	-1.778948e+001	-8.087233e+000
3559445.407	-1.348713e+001	-1.060659e+002	-1.343904e+001	-1.725003e+002	-1.349868e+001	-1.721588e+002	-1.828311e+001	-1.020143e+001
3583882.149	-1.367801e+001	-1.085621e+002	-1.339724e+001	-1.776374e+002	-1.345498e+001	-1.772929e+002	-1.880794e+001	-1.189559e+001
3608318.891	-1.389224e+001	-1.108560e+002	-1.334550e+001	1.771291e+002	-1.340315e+001	1.774896e+002	-1.937086e+001	-1.311473e+001
3632755.633	-1.413070e+001	-1.128412e+002	-1.329254e+001	1.717153e+002	-1.334572e+001	1.721060e+002	-1.999804e+001	-1.361341e+001
3657192.374	-1.437933e+001	-1.144348e+002	-1.324680e+001	1.662193e+002	-1.329832e+001	1.665991e+002	-2.063591e+001	-1.306271e+001
3681629.116	-1.464025e+001	-1.155859e+002	-1.320704e+001	1.605426e+002	-1.325250e+001	1.609083e+002	-2.128169e+001	-1.119080e+001
3706065.858	-1.489718e+001	-1.161969e+002	-1.318041e+001	1.546887e+002	-1.323114e+001	1.550299e+002	-2.182243e+001	-7.608227e+000
3730502.600	-1.511374e+001	-1.161764e+002	-1.318699e+001	1.486902e+002	-1.323771e+001	1.490234e+002	-2.212491e+001	-2.508628e+000
3754939.341	-1.526378e+001	-1.156074e+002	-1.322298e+001	1.425929e+002	-1.327463e+001	1.429095e+002	-2.208482e+001	3.354159e+000
3779376.083	-1.531886e+001	-1.146134e+002	-1.329068e+001	1.364449e+002	-1.334549e+001	1.367395e+002	-2.168182e+001	8.874497e+000
3803812.825	-1.525749e+001	-1.133843e+002	-1.339448e+001	1.302369e+002	-1.345102e+001	1.305719e+002	-2.098961e+001	1.307541e+001
3828249.567	-1.507483e+001	-1.121979e+002	-1.352976e+001	1.240741e+002	-1.359398e+001	1.244013e+002	-2.013085e+001	1.564853e+001
3852686.308	-1.477975e+001	-1.112900e+002	-1.370226e+001	1.179515e+002	-1.376631e+001	1.183021e+002	-1.922772e+001	1.654946e+001
3877123.050	-1.440225e+001	-1.108338e+002	-1.389962e+001	1.119156e+002	-1.396564e+001	1.122569e+002	-1.834685e+001	1.617474e+001
3901559.792	-1.395755e+001	-1.108895e+002	-1.413061e+001	1.059385e+002	-1.419856e+001	1.062974e+002	-1.750931e+001	1.480779e+001
3925996.534	-1.347837e+001	-1.115061e+002	-1.438567e+001	1.000569e+002	-1.445541e+001	1.003974e+002	-1.673761e+001	1.267770e+001
3950433.276	-1.297995e+001	-1.126441e+002	-1.467191e+001	9.422842e+001	-1.474627e+001	9.458907e+001	-1.602752e+001	9.977380e+000
3974870.017	-1.248065e+001	-1.143191e+002	-1.499033e+001	8.854202e+001	-1.506798e+001	8.892781e+001	-1.538334e+001	6.833789e+000
3999306.759	-1.199630e+001	-1.164399e+002	-1.533677e+001	8.302449e+001	-1.541989e+001	8.341333e+001	-1.479947e+001	3.373227e+000
4023743.501	-1.153355e+001	-1.189446e+002	-1.571005e+001	7.765332e+001	-1.579919e+001	7.809434e+001	-1.427764e+001	-3.447220e-001
4048180.243	-1.109985e+001	-1.217762e+002	-1.610987e+001	7.245434e+001	-1.620316e+001	7.295641e+001	-1.380776e+001	-4.203992e+000
4072616.984	-1.069369e+001	-1.248984e+002	-1.654269e+001	6.745849e+001	-1.663949e+001	6.801221e+001	-1.338343e+001	-8.192934e+000
4097053.726	-1.032186e+001	-1.282303e+002	-1.700152e+001	6.266720e+001	-1.710445e+001	6.324493e+001	-1.299737e+001	-1.225918e+001
4121490.468	-9.980036e+000	-1.317805e+002	-1.749441e+001	5.815444e+001	-1.760277e+001	5.883515e+001	-1.265300e+001	-1.643665e+001
4145927.210	-9.673151e+000	-1.355015e+002	-1.802154e+001	5.397482e+001	-1.813202e+001	5.473255e+001	-1.234429e+001	-2.066139e+001
4170363.951	-9.393044e+000	-1.393618e+002	-1.859082e+001	5.017466e+001	-1.868561e+001	5.109368e+001	-1.207250e+001	-2.491351e+001
4194800.693	-9.154675e+000	-1.434034e+002	-1.919529e+001	4.699780e+001	-1.928296e+001	4.799107e+001	-1.183022e+001	-2.927221e+001
4219237.435	-8.958320e+000	-1.475454e+002	-1.979817e+001	4.456455e+001	-1.987928e+001	4.562689e+001	-1.162839e+001	-3.366022e+001
4243674.177	-8.807640e+000	-1.517394e+002	-2.036801e+001	4.293024e+001	-2.043292e+001	4.401379e+001	-1.146294e+001	-3.800666e+001
4268110.919	-8.695651e+000	-1.558926e+002	-2.086236e+001	4.188314e+001	-2.092826e+001	4.297775e+001	-1.132912e+001	-4.227857e+001
4292547.660	-8.612945e+000	-1.600381e+002	-2.128596e+001	4.136562e+001	-2.134553e+001	4.252493e+001	-1.121813e+001	-4.649618e+001
4316984.402	-8.560290e+000	-1.641578e+002	-2.161646e+001	4.127797e+001	-2.166690e+001	4.247505e+001	-1.112844e+001	-5.064533e+001
4341421.144	-8.539861e+000	-1.682108e+002	-2.180977e+001	4.145646e+001	-2.186113e+001	4.284454e+001	-1.106311e+001	-5.473612e+001
4365857.886	-8.544813e+000	-1.721716e+002	-2.187295e+001	4.150229e+001	-2.190602e+001	4.287989e+001	-1.101544e+001	-5.865410e+001
4390294.627	-8.556841e+000	-1.760129e+002	-2.187678e+001	4.092348e+001	-2.188023e+001	4.225314e+001	-1.096923e+001	-6.239131e+001
4414731.369	-8.563276e+000	-1.798388e+002	-2.190603e+001	3.998999e+001	-2.190230e+001	4.110375e+001	-1.089814e+001	-6.604246e+001
4439168.111	-8.564991e+000	1.761950e+002	-2.200938e+001	3.923147e+001	-2.202041e+001	4.018983e+001	-1.079623e+001	-6.981266e+001
4463604.853	-8.576514e+000	1.719802e+002	-2.214274e+001	3.949707e+001	-2.219145e+001	4.060523e+001	-1.067975e+001	-7.391302e+001
4488041.594	-8.630693e+000	1.674189e+002	-2.215032e+001	4.133395e+001	-2.220229e+001	4.274099e+001	-1.058581e+001	-7.840700e+001
4512478.336	-8.769048e+000	1.626205e+002	-2.179122e+001	4.403935e+001	-2.180728e+001	4.579050e+001	-1.055567e+001	-8.327840e+001
4536915.078	-9.012632e+000	1.578946e+002	-2.101263e+001	4.557986e+001	-2.094461e+001	4.729623e+001	-1.062911e+001	-8.820422e+001
4561351.820	-9.338354e+000	1.536531e+002	-2.008019e+001	4.432426e+001	-1.997055e+001	4.570698e+001	-1.078037e+001	-9.271963e+001
4585788.562	-9.680855e+000	1.499474e+002	-1.927267e+001	4.102378e+001	-1.916405e+001	4.203695e+001	-1.094351e+001	-9.672735e+001
4610225.303	-1.000660e+001	1.464971e+002	-1.865522e+001	3.699185e+001	-1.856179e+001	3.789710e+001	-1.107491e+001	-1.005257e+002
4634662.045	-1.033043e+001	1.430845e+002	-1.814116e+001	3.295248e+001	-1.805239e+001	3.382157e+001	-1.118954e+001	-1.043512e+002
4659098.787	-1.066954e+001	1.396505e+002	-1.767506e+001	2.896351e+001	-1.758761e+001	2.977590e+001	-1.130054e+001	-1.082630e+002
4683535.529	-1.103467e+001	1.361679e+002	-1.724016e+001	2.505634e+001	-1.715192e+001	2.571165e+001	-1.141838e+001	-1.122624e+002
4707972.270	-1.144511e+001	1.325559e+002	-1.680820e+001	2.142700e+001	-1.672857e+001	2.198732e+001	-1.152844e+001	-1.165009e+002
4732409.012	-1.194839e+001	1.288307e+002	-1.630827e+001	1.791207e+001	-1.622914e+001	1.841981e+001	-1.168654e+001	-1.211486e+002
4756845.754	-1.260203e+001	1.254338e+002	-1.569107e+001	1.394871e+001	-1.560988e+001	1.440859e+001	-1.194314e+001	-1.260963e+002
4781282.496	-1.337265e+001	1.230426e+002	-1.503700e+001	8.921478e+000	-1.495715e+001	9.317406e+000	-1.232221e+001	-1.308274e+002
4805719.237	-1.416365e+001	1.219709e+002	-1.445145e+001	2.937877e+000	-1.437529e+001	3.272689e+000	-1.278008e+001	-1.349910e+002
4830155.979	-1.489198e+001	1.219419e+002	-1.397500e+001	-3.473019e+000	-1.390016e+001	-3.201864e+000	-1.326675e+001	-1.385912e+002
4854592.721	-1.553876e+001	1.226018e+002	-1.357901e+001	-9.958490e+000	-1.351451e+001	-9.760739e+000	-1.375541e+001	-1.417641e+002
4879029.463	-1.609540e+001	1.238780e+002	-1.324087e+001	-1.649591e+001	-1.318452e+001	-1.632480e+001	-1.425539e+001	-1.446627e+002
4903466.205	-1.654731e+001	1.255608e+002	-1.294598e+001	-2.302231e+001	-1.289686e+001	-2.287121e+001	-1.477095e+001	-1.472436e+002
4927902.946	-1.688113e+001	1.275362e+002	-1.268348e+001	-2.958601e+001	-1.264227e+001	-2.943470e+001	-1.530490e+001	-1.494423e+002
4952339.688	-1.708612e+001	1.294922e+002	-1.246037e+001	-3.622444e+001	-1.242254e+001	-3.600171e+001	-1.584284e+001	-1.512457e+002
4976776.430	-1.717477e+001	1.311972e+002	-1.226897e+001	-4.285566e+001	-1.223599e+001	-4.260893e+001	-1.637504e+001	-1.525047e+002
5001213.172	-1.717965e+001	1.323964e+002	-1.211439e+001	-4.947518e+001	-1.208279e+001	-4.920481e+001	-1.687861e+001	-1.532528e+002
5025649.913	-1.713903e+001	1.330312e+002	-1.198990e+001	-5.606265e+001	-1.196089e+001	-5.576327e+001	-1.733155e+001	-1.535633e+002
5050086.655	-1.708671e+001	1.331237e+002	-1.189354e+001	-6.260844e+001	-1.186444e+001	-6.229053e+001	-1.772285e+001	-1.534790e+002
5074523.397	-1.704587e+001	1.327642e+002	-1.182176e+001	-6.908961e+001	-1.179313e+001	-6.873539e+001	-1.804398e+001	-1.531832e+002
5098960.139	-1.703009e+001	1.320298e+002	-1.177006e+001	-7.550622e+001	-1.173937e+001	-7.512700e+001	-1.828705e+001	-1.527249e+002
5123396.880	-1.705372e+001	1.310526e+002	-1.173659e+001	-8.185232e+001	-1.170304e+001	-8.144498e+001	-1.845681e+001	-1.522902e+002
5147833.622	-1.711174e+001	1.299124e+002	-1.171652e+001	-8.815033e+001	-1.168241e+001	-8.771039e+001	-1.855096e+001	-1.519047e+002
5172270.364	-1.720481e+001	1.286916e+002	-1.170638e+001	-9.438941e+001	-1.167165e+001	-9.392450e+001	-1.858138e+001	-1.516934e+002
5196707.106	-1.733367e+001	1.273998e+002	-1.170957e+001	-1.005897e+002	-1.167063e+001	-1.001050e+002	-1.854736e+001	-1.516722e+002
5221143.847	-1.749552e+001	1.260387e+002	-1.172574e+001	-1.067552e+002	-1.168117e+001	-1.062371e+002	-1.846737e+001	-1.519436e+002
5245580.589	-1.769649e+001	1.246994e+002	-1.175004e+001	-1.128968e+002	-1.170444e+001	-1.123852e+002	-1.832638e+001	-1.525797e+002
5270017.331	-1.794118e+001	1.234038e+002	-1.178722e+001	-1.190060e+002	-1.173930e+001	-1.185062e+002	-1.815344e+001	-1.536271e+002
5294454.073	-1.822602e+001	1.221937e+002	-1.183452e+001	-1.250661e+002	-1.178595e+001	-1.245765e+002	-1.796648e+001	-1.551127e+002
5318890.815	-1.855431e+001	1.211435e+002	-1.188953e+001	-1.310813e+002	-1.184023e+001	-1.306054e+002	-1.777782e+001	-1.569741e+002
5343327.556	-1.890637e+001	1.202698e+002	-1.194667e+001	-1.370666e+002	-1.189771e+001	-1.365995e+002	-1.759316e+001	-1.591523e+002
5367764.298	-1.929403e+001	1.195452e+002	-1.200811e+001	-1.430458e+002	-1.195875e+001	-1.425970e+002	-1.740920e+001	-1.615939e+002
5392201.040	-1.971866e+001	1.189293e+002	-1.207558e+001	-1.490483e+002	-1.202729e+001	-1.486230e+002	-1.721794e+001	-1.643404e+002
5416637.782	-2.019273e+001	1.184666e+002	-1.215142e+001	-1.550686e+002	-1.210527e+001	-1.546663e+002	-1.702651e+001	-1.674203e+002
5441074.523	-2.073026e+001	1.182955e+002	-1.223858e+001	-1.610816e+002	-1.219419e+001	-1.606977e+002	-1.684869e+001	-1.708117e+002
