!Agilent Technologies,E5061B,MY49101568,A.02.00
!Date: Wed Mar 01 15:34:00 2023
!Data & Calibration Information:
!Freq	S11:SOLT2(OFF)	S21:SOLT2(OFF)	S12:SOLT2(OFF)	S22:SOLT2(OFF)
# Hz S dB R 50
1800000.000	-9.610479e+000	-2.313455e+001	-2.099132e+001	-1.245354e+002	-2.098725e+001	-1.245908e+002	-1.000475e+001	1.228556e+001
1824436.742	-9.744274e+000	-2.782437e+001	-2.052504e+001	-1.289357e+002	-2.053789e+001	-1.289520e+002	-1.016158e+001	8.156192e+000
1848873.484	-9.892210e+000	-3.263854e+001	-2.005289e+001	-1.334764e+002	-2.007175e+001	-1.334314e+002	-1.032615e+001	3.928991e+000
1873310.225	-1.005111e+001	-3.755535e+001	-1.956852e+001	-1.380697e+002	-1.959737e+001	-1.380445e+002	-1.049631e+001	-3.593560e-001
1897746.967	-1.022582e+001	-4.260273e+001	-1.907410e+001	-1.429022e+002	-1.911770e+001	-1.427823e+002	-1.066986e+001	-4.741366e+000
1922183.709	-1.041341e+001	-4.780577e+001	-1.857748e+001	-1.478008e+002	-1.862532e+001	-1.476751e+002	-1.085238e+001	-9.265978e+000
1946620.451	-1.062122e+001	-5.318564e+001	-1.806996e+001	-1.529102e+002	-1.812902e+001	-1.527667e+002	-1.104352e+001	-1.389436e+001
1971057.192	-1.084995e+001	-5.874485e+001	-1.755906e+001	-1.582438e+002	-1.762001e+001	-1.580015e+002	-1.124891e+001	-1.866059e+001
1995493.934	-1.112669e+001	-6.449341e+001	-1.701752e+001	-1.639393e+002	-1.711734e+001	-1.634311e+002	-1.146855e+001	-2.350558e+001
2019930.676	-1.142870e+001	-7.038736e+001	-1.651159e+001	-1.697349e+002	-1.661967e+001	-1.690756e+002	-1.170241e+001	-2.842002e+001
2044367.418	-1.175973e+001	-7.640959e+001	-1.601136e+001	-1.756833e+002	-1.611514e+001	-1.749569e+002	-1.194901e+001	-3.349708e+001
2068804.159	-1.213509e+001	-8.255781e+001	-1.552991e+001	1.781465e+002	-1.563831e+001	1.789343e+002	-1.221580e+001	-3.855859e+001
2093240.901	-1.254487e+001	-8.883536e+001	-1.507075e+001	1.718751e+002	-1.517499e+001	1.726046e+002	-1.249593e+001	-4.361301e+001
2117677.643	-1.300801e+001	-9.522248e+001	-1.463653e+001	1.653518e+002	-1.473787e+001	1.661869e+002	-1.278595e+001	-4.870451e+001
2142114.385	-1.351914e+001	-1.017664e+002	-1.422023e+001	1.587181e+002	-1.431877e+001	1.596449e+002	-1.307785e+001	-5.382411e+001
2166551.127	-1.409052e+001	-1.084709e+002	-1.381783e+001	1.519472e+002	-1.391155e+001	1.529576e+002	-1.338117e+001	-5.901946e+001
2190987.868	-1.472150e+001	-1.152716e+002	-1.344205e+001	1.450196e+002	-1.352838e+001	1.460778e+002	-1.369489e+001	-6.417993e+001
2215424.610	-1.543297e+001	-1.220892e+002	-1.309349e+001	1.378672e+002	-1.317562e+001	1.390533e+002	-1.401836e+001	-6.924893e+001
2239861.352	-1.616851e+001	-1.289707e+002	-1.278958e+001	1.307900e+002	-1.285911e+001	1.319715e+002	-1.431640e+001	-7.427902e+001
2264298.094	-1.694932e+001	-1.359349e+002	-1.251895e+001	1.236838e+002	-1.257766e+001	1.248375e+002	-1.458916e+001	-7.924383e+001
2288734.835	-1.776724e+001	-1.431089e+002	-1.227144e+001	1.166104e+002	-1.231588e+001	1.177568e+002	-1.483515e+001	-8.427879e+001
2313171.577	-1.864052e+001	-1.504814e+002	-1.204405e+001	1.094933e+002	-1.208223e+001	1.106036e+002	-1.505038e+001	-8.935760e+001
2337608.319	-1.955048e+001	-1.579809e+002	-1.184509e+001	1.023456e+002	-1.186992e+001	1.034256e+002	-1.523752e+001	-9.446948e+001
2362045.061	-2.043861e+001	-1.658554e+002	-1.167509e+001	9.531892e+001	-1.168643e+001	9.615946e+001	-1.539637e+001	-9.956957e+001
2386481.802	-2.131280e+001	-1.739212e+002	-1.153148e+001	8.823327e+001	-1.153202e+001	8.901303e+001	-1.548384e+001	-1.048834e+002
2410918.544	-2.212306e+001	1.772973e+002	-1.140453e+001	8.124251e+001	-1.140102e+001	8.196101e+001	-1.551374e+001	-1.104350e+002
2435355.286	-2.288055e+001	1.676563e+002	-1.128500e+001	7.425940e+001	-1.127356e+001	7.493984e+001	-1.551961e+001	-1.163645e+002
2459792.028	-2.354929e+001	1.574219e+002	-1.118497e+001	6.726360e+001	-1.116693e+001	6.787043e+001	-1.549947e+001	-1.224866e+002
2484228.769	-2.406616e+001	1.467251e+002	-1.110546e+001	6.021383e+001	-1.107916e+001	6.083921e+001	-1.544636e+001	-1.288559e+002
2508665.511	-2.433451e+001	1.355556e+002	-1.104942e+001	5.327995e+001	-1.101338e+001	5.386581e+001	-1.535934e+001	-1.354892e+002
2533102.253	-2.427729e+001	1.237202e+002	-1.100806e+001	4.654893e+001	-1.096324e+001	4.679231e+001	-1.528059e+001	-1.422311e+002
2557538.995	-2.406974e+001	1.122407e+002	-1.098085e+001	3.969678e+001	-1.093373e+001	3.989609e+001	-1.516005e+001	-1.493253e+002
2581975.737	-2.367155e+001	1.012697e+002	-1.097668e+001	3.289960e+001	-1.092231e+001	3.303077e+001	-1.502978e+001	-1.565802e+002
2606412.478	-2.312587e+001	9.094642e+001	-1.098979e+001	2.614919e+001	-1.093047e+001	2.620445e+001	-1.489976e+001	-1.639553e+002
2630849.220	-2.249438e+001	8.120203e+001	-1.101896e+001	1.943474e+001	-1.095584e+001	1.943196e+001	-1.476608e+001	-1.714707e+002
2655285.962	-2.180357e+001	7.216293e+001	-1.106874e+001	1.281191e+001	-1.100292e+001	1.274842e+001	-1.463779e+001	-1.790013e+002
2679722.704	-2.108919e+001	6.381793e+001	-1.113604e+001	6.263721e+000	-1.106792e+001	6.165543e+000	-1.451140e+001	1.734273e+002
2704159.445	-2.038840e+001	5.593474e+001	-1.122172e+001	-1.864445e-001	-1.115217e+001	-3.094374e-001	-1.439023e+001	1.659192e+002
2728596.187	-1.969960e+001	4.846262e+001	-1.132181e+001	-6.526557e+000	-1.125226e+001	-6.700640e+000	-1.428123e+001	1.584402e+002
2753032.929	-1.904950e+001	4.132473e+001	-1.143326e+001	-1.274486e+001	-1.136657e+001	-1.294034e+001	-1.418411e+001	1.510593e+002
2777469.671	-1.844239e+001	3.452794e+001	-1.155631e+001	-1.883787e+001	-1.148764e+001	-1.907896e+001	-1.410447e+001	1.437876e+002
2801906.412	-1.788473e+001	2.800877e+001	-1.168419e+001	-2.483234e+001	-1.162211e+001	-2.508911e+001	-1.403847e+001	1.366618e+002
2826343.154	-1.736632e+001	2.173484e+001	-1.182305e+001	-3.068677e+001	-1.176272e+001	-3.097123e+001	-1.399179e+001	1.297024e+002
2850779.896	-1.689560e+001	1.570742e+001	-1.196653e+001	-3.642041e+001	-1.191163e+001	-3.673557e+001	-1.396098e+001	1.229386e+002
2875216.638	-1.645423e+001	9.895091e+000	-1.211740e+001	-4.201143e+001	-1.206597e+001	-4.229523e+001	-1.393255e+001	1.163258e+002
2899653.380	-1.606153e+001	4.274491e+000	-1.226604e+001	-4.748453e+001	-1.221929e+001	-4.779500e+001	-1.393112e+001	1.099574e+002
2924090.121	-1.570176e+001	-1.143860e+000	-1.241455e+001	-5.282353e+001	-1.237201e+001	-5.315091e+001	-1.394203e+001	1.037380e+002
2948526.863	-1.537366e+001	-6.426488e+000	-1.255865e+001	-5.805232e+001	-1.252036e+001	-5.840987e+001	-1.396959e+001	9.771368e+001
2972963.605	-1.507582e+001	-1.153745e+001	-1.269769e+001	-6.317599e+001	-1.266772e+001	-6.354499e+001	-1.400518e+001	9.186959e+001
2997400.347	-1.480616e+001	-1.650739e+001	-1.283263e+001	-6.820023e+001	-1.280556e+001	-6.857709e+001	-1.405228e+001	8.618327e+001
3021837.088	-1.455994e+001	-2.132950e+001	-1.296063e+001	-7.311993e+001	-1.294169e+001	-7.349447e+001	-1.410887e+001	8.069968e+001
3046273.830	-1.433449e+001	-2.601657e+001	-1.308311e+001	-7.794340e+001	-1.307000e+001	-7.833106e+001	-1.417327e+001	7.536514e+001
3070710.572	-1.412750e+001	-3.061064e+001	-1.319470e+001	-8.265597e+001	-1.318606e+001	-8.307001e+001	-1.424506e+001	7.014857e+001
3095147.314	-1.394149e+001	-3.511999e+001	-1.329256e+001	-8.730277e+001	-1.329035e+001	-8.769565e+001	-1.432291e+001	6.504057e+001
3119584.055	-1.377437e+001	-3.956114e+001	-1.337324e+001	-9.190579e+001	-1.337945e+001	-9.225016e+001	-1.440827e+001	6.003555e+001
3144020.797	-1.362409e+001	-4.389872e+001	-1.344447e+001	-9.642695e+001	-1.345703e+001	-9.670911e+001	-1.449466e+001	5.516184e+001
3168457.539	-1.349742e+001	-4.817323e+001	-1.350124e+001	-1.009753e+002	-1.352093e+001	-1.012314e+002	-1.461256e+001	5.039032e+001
3192894.281	-1.339048e+001	-5.235292e+001	-1.354823e+001	-1.055332e+002	-1.357164e+001	-1.057484e+002	-1.474877e+001	4.572434e+001
3217331.023	-1.330197e+001	-5.644873e+001	-1.358467e+001	-1.100913e+002	-1.361363e+001	-1.102738e+002	-1.490073e+001	4.120119e+001
3241767.764	-1.322880e+001	-6.045153e+001	-1.361641e+001	-1.146573e+002	-1.365024e+001	-1.147967e+002	-1.506825e+001	3.682777e+001
3266204.506	-1.317065e+001	-6.433420e+001	-1.364762e+001	-1.191957e+002	-1.368400e+001	-1.192957e+002	-1.523990e+001	3.262672e+001
3290641.248	-1.311329e+001	-6.817777e+001	-1.366322e+001	-1.236263e+002	-1.370455e+001	-1.236949e+002	-1.540505e+001	2.844933e+001
3315077.990	-1.306928e+001	-7.204988e+001	-1.365503e+001	-1.280187e+002	-1.369869e+001	-1.280647e+002	-1.558814e+001	2.420578e+001
3339514.731	-1.305744e+001	-7.596304e+001	-1.361503e+001	-1.325438e+002	-1.366187e+001	-1.325359e+002	-1.581850e+001	1.989862e+001
3363951.473	-1.307729e+001	-7.979607e+001	-1.356409e+001	-1.372033e+002	-1.361330e+001	-1.371854e+002	-1.609768e+001	1.571621e+001
3388388.215	-1.312983e+001	-8.353979e+001	-1.350939e+001	-1.419988e+002	-1.355900e+001	-1.419237e+002	-1.642395e+001	1.171054e+001
3412824.957	-1.321099e+001	-8.714365e+001	-1.345275e+001	-1.469068e+002	-1.350351e+001	-1.467984e+002	-1.679906e+001	7.935472e+000
3437261.698	-1.332385e+001	-9.062491e+001	-1.339585e+001	-1.519037e+002	-1.344695e+001	-1.517788e+002	-1.722258e+001	4.421853e+000
3461698.440	-1.346810e+001	-9.390881e+001	-1.334316e+001	-1.570438e+002	-1.339211e+001	-1.568874e+002	-1.770599e+001	1.282052e+000
3486135.182	-1.363791e+001	-9.696462e+001	-1.329744e+001	-1.622634e+002	-1.334751e+001	-1.620787e+002	-1.823175e+001	-1.367519e+000
3510571.924	-1.383640e+001	-9.970140e+001	-1.326803e+001	-1.675952e+002	-1.331681e+001	-1.673802e+002	-1.880878e+001	-3.352349e+000
3535008.666	-1.404815e+001	-1.021318e+002	-1.324911e+001	-1.729592e+002	-1.329943e+001	-1.727195e+002	-1.940273e+001	-4.587130e+000
3559445.407	-1.426087e+001	-1.042574e+002	-1.324043e+001	-1.782867e+002	-1.329127e+001	-1.780455e+002	-1.998643e+001	-5.083103e+000
3583882.149	-1.448311e+001	-1.061153e+002	-1.323031e+001	1.763551e+002	-1.327856e+001	1.766323e+002	-2.056990e+001	-4.917221e+000
3608318.891	-1.471230e+001	-1.076353e+002	-1.321463e+001	1.709466e+002	-1.326446e+001	1.712290e+002	-2.114948e+001	-3.811282e+000
3632755.633	-1.494885e+001	-1.087423e+002	-1.320221e+001	1.653388e+002	-1.325121e+001	1.657000e+002	-2.169817e+001	-1.502273e+000
3657192.374	-1.517065e+001	-1.093832e+002	-1.319943e+001	1.596782e+002	-1.324413e+001	1.600344e+002	-2.213595e+001	2.101219e+000
3681629.116	-1.536465e+001	-1.094998e+002	-1.320905e+001	1.538794e+002	-1.325379e+001	1.542233e+002	-2.235201e+001	6.981799e+000
3706065.858	-1.550461e+001	-1.090601e+002	-1.323920e+001	1.479131e+002	-1.328264e+001	1.482841e+002	-2.227025e+001	1.252770e+001
3730502.600	-1.555551e+001	-1.081788e+002	-1.330124e+001	1.418667e+002	-1.334676e+001	1.422307e+002	-2.182240e+001	1.781139e+001
3754939.341	-1.549162e+001	-1.070734e+002	-1.339540e+001	1.357876e+002	-1.344445e+001	1.361564e+002	-2.110503e+001	2.175685e+001
3779376.083	-1.531452e+001	-1.059525e+002	-1.352169e+001	1.296828e+002	-1.357187e+001	1.300633e+002	-2.023776e+001	2.408140e+001
3803812.825	-1.502766e+001	-1.050796e+002	-1.368013e+001	1.236039e+002	-1.373030e+001	1.240147e+002	-1.932701e+001	2.482143e+001
3828249.567	-1.464859e+001	-1.046434e+002	-1.387261e+001	1.176006e+002	-1.392509e+001	1.180215e+002	-1.842771e+001	2.424059e+001
3852686.308	-1.420880e+001	-1.047154e+002	-1.409284e+001	1.116738e+002	-1.414186e+001	1.121450e+002	-1.760040e+001	2.263821e+001
3877123.050	-1.373531e+001	-1.053504e+002	-1.433964e+001	1.058466e+002	-1.438541e+001	1.063523e+002	-1.683993e+001	2.033699e+001
3901559.792	-1.325254e+001	-1.064867e+002	-1.459993e+001	1.001334e+002	-1.465085e+001	1.006408e+002	-1.614780e+001	1.754472e+001
3925996.534	-1.277482e+001	-1.080744e+002	-1.488100e+001	9.453246e+001	-1.493749e+001	9.505168e+001	-1.552352e+001	1.438057e+001
3950433.276	-1.230373e+001	-1.100980e+002	-1.518730e+001	8.905759e+001	-1.525314e+001	8.955353e+001	-1.495268e+001	1.093668e+001
3974870.017	-1.185110e+001	-1.124722e+002	-1.551642e+001	8.370183e+001	-1.558737e+001	8.421535e+001	-1.444087e+001	7.286548e+000
3999306.759	-1.142007e+001	-1.151567e+002	-1.587200e+001	7.849670e+001	-1.595557e+001	7.900219e+001	-1.397228e+001	3.443018e+000
4023743.501	-1.101724e+001	-1.181080e+002	-1.624571e+001	7.348039e+001	-1.633558e+001	7.400115e+001	-1.355806e+001	-4.750913e-001
4048180.243	-1.063819e+001	-1.212604e+002	-1.664603e+001	6.856766e+001	-1.674197e+001	6.915069e+001	-1.318000e+001	-4.463138e+000
4072616.984	-1.028920e+001	-1.246047e+002	-1.707055e+001	6.387601e+001	-1.716636e+001	6.448787e+001	-1.283717e+001	-8.504349e+000
4097053.726	-9.965225e+000	-1.281065e+002	-1.752380e+001	5.935377e+001	-1.762569e+001	6.007364e+001	-1.252572e+001	-1.261127e+001
4121490.468	-9.672853e+000	-1.317626e+002	-1.800066e+001	5.512410e+001	-1.810095e+001	5.589281e+001	-1.224483e+001	-1.672471e+001
4145927.210	-9.406034e+000	-1.355335e+002	-1.850982e+001	5.117536e+001	-1.861316e+001	5.197774e+001	-1.198785e+001	-2.088463e+001
4170363.951	-9.169745e+000	-1.394095e+002	-1.904894e+001	4.765709e+001	-1.914850e+001	4.853114e+001	-1.176014e+001	-2.506424e+001
4194800.693	-8.965864e+000	-1.434279e+002	-1.961715e+001	4.466321e+001	-1.971540e+001	4.561159e+001	-1.155851e+001	-2.932525e+001
4219237.435	-8.799365e+000	-1.475224e+002	-2.018593e+001	4.237477e+001	-2.027742e+001	4.341029e+001	-1.139171e+001	-3.361374e+001
4243674.177	-8.669381e+000	-1.516590e+002	-2.072206e+001	4.077358e+001	-2.080123e+001	4.188634e+001	-1.125669e+001	-3.785244e+001
4268110.919	-8.573439e+000	-1.557668e+002	-2.119298e+001	3.980344e+001	-2.126176e+001	4.094607e+001	-1.114546e+001	-4.202593e+001
4292547.660	-8.507173e+000	-1.598586e+002	-2.158409e+001	3.933671e+001	-2.165731e+001	4.047766e+001	-1.105309e+001	-4.615270e+001
4316984.402	-8.468979e+000	-1.639226e+002	-2.188124e+001	3.932546e+001	-2.194895e+001	4.057543e+001	-1.098405e+001	-5.024585e+001
4341421.144	-8.459740e+000	-1.679558e+002	-2.205245e+001	3.960132e+001	-2.210182e+001	4.084552e+001	-1.093607e+001	-5.424328e+001
4365857.886	-8.472162e+000	-1.718525e+002	-2.208679e+001	3.952820e+001	-2.212107e+001	4.090658e+001	-1.090414e+001	-5.809600e+001
4390294.627	-8.492521e+000	-1.756520e+002	-2.206285e+001	3.893803e+001	-2.207081e+001	4.020915e+001	-1.086762e+001	-6.177134e+001
4414731.369	-8.505766e+000	-1.794422e+002	-2.207666e+001	3.793643e+001	-2.208034e+001	3.908387e+001	-1.080675e+001	-6.540413e+001
4439168.111	-8.515178e+000	1.766067e+002	-2.216061e+001	3.719610e+001	-2.217965e+001	3.821811e+001	-1.071909e+001	-6.917691e+001
4463604.853	-8.537497e+000	1.724236e+002	-2.227427e+001	3.742189e+001	-2.230280e+001	3.862339e+001	-1.062412e+001	-7.324558e+001
4488041.594	-8.604390e+000	1.678959e+002	-2.225242e+001	3.928900e+001	-2.227656e+001	4.057608e+001	-1.055117e+001	-7.768675e+001
4512478.336	-8.757040e+000	1.631621e+002	-2.186061e+001	4.192928e+001	-2.185569e+001	4.334024e+001	-1.054431e+001	-8.246076e+001
4536915.078	-9.018014e+000	1.585601e+002	-2.104557e+001	4.327065e+001	-2.100786e+001	4.464830e+001	-1.063519e+001	-8.727681e+001
4561351.820	-9.354497e+000	1.544799e+002	-2.009115e+001	4.180663e+001	-2.003352e+001	4.299937e+001	-1.079833e+001	-9.167778e+001
4585788.562	-9.699671e+000	1.509558e+002	-1.928006e+001	3.828072e+001	-1.921675e+001	3.934747e+001	-1.097534e+001	-9.560188e+001
4610225.303	-1.002402e+001	1.476686e+002	-1.865447e+001	3.410558e+001	-1.858397e+001	3.511360e+001	-1.112514e+001	-9.931697e+001
4634662.045	-1.034560e+001	1.444054e+002	-1.813293e+001	2.995768e+001	-1.805949e+001	3.092121e+001	-1.125679e+001	-1.030559e+002
4659098.787	-1.068584e+001	1.411380e+002	-1.765924e+001	2.586569e+001	-1.758527e+001	2.671278e+001	-1.138644e+001	-1.068383e+002
4683535.529	-1.104646e+001	1.378535e+002	-1.722164e+001	2.179671e+001	-1.714304e+001	2.263421e+001	-1.151705e+001	-1.107536e+002
4707972.270	-1.145916e+001	1.344546e+002	-1.677568e+001	1.808994e+001	-1.669701e+001	1.857685e+001	-1.166564e+001	-1.148025e+002
4732409.012	-1.196760e+001	1.310305e+002	-1.625809e+001	1.445018e+001	-1.618453e+001	1.480655e+001	-1.185944e+001	-1.192885e+002
4756845.754	-1.262132e+001	1.280825e+002	-1.562374e+001	1.032363e+001	-1.557084e+001	1.054714e+001	-1.215624e+001	-1.239238e+002
4781282.496	-1.336545e+001	1.263608e+002	-1.495843e+001	5.040217e+000	-1.492626e+001	5.273266e+000	-1.256861e+001	-1.282490e+002
4805719.237	-1.407723e+001	1.260112e+002	-1.437376e+001	-1.217676e+000	-1.435379e+001	-8.683744e-001	-1.305028e+001	-1.319425e+002
4830155.979	-1.468036e+001	1.266070e+002	-1.390103e+001	-7.874050e+000	-1.388189e+001	-7.403101e+000	-1.355052e+001	-1.350322e+002
4854592.721	-1.515218e+001	1.276381e+002	-1.352234e+001	-1.460286e+001	-1.349503e+001	-1.408919e+001	-1.405031e+001	-1.376179e+002
4879029.463	-1.551526e+001	1.288759e+002	-1.320450e+001	-2.128874e+001	-1.316625e+001	-2.076741e+001	-1.454620e+001	-1.398184e+002
4903466.205	-1.577219e+001	1.301991e+002	-1.292652e+001	-2.796179e+001	-1.288043e+001	-2.747722e+001	-1.504427e+001	-1.415932e+002
4927902.946	-1.592457e+001	1.314263e+002	-1.268554e+001	-3.466184e+001	-1.263731e+001	-3.422384e+001	-1.552429e+001	-1.428565e+002
4952339.688	-1.598351e+001	1.323412e+002	-1.247937e+001	-4.140605e+001	-1.243406e+001	-4.094937e+001	-1.597493e+001	-1.436825e+002
4976776.430	-1.597644e+001	1.327925e+002	-1.230985e+001	-4.812345e+001	-1.226328e+001	-4.767029e+001	-1.637444e+001	-1.440614e+002
5001213.172	-1.593167e+001	1.327167e+002	-1.217288e+001	-5.481857e+001	-1.212755e+001	-5.437388e+001	-1.670390e+001	-1.440623e+002
5025649.913	-1.587717e+001	1.321116e+002	-1.206870e+001	-6.148480e+001	-1.202459e+001	-6.103838e+001	-1.694879e+001	-1.438584e+002
5050086.655	-1.584139e+001	1.310447e+002	-1.198907e+001	-6.809784e+001	-1.194686e+001	-6.764366e+001	-1.711321e+001	-1.436089e+002
5074523.397	-1.583691e+001	1.296147e+002	-1.193615e+001	-7.463719e+001	-1.189341e+001	-7.416146e+001	-1.719443e+001	-1.434434e+002
5098960.139	-1.587320e+001	1.279155e+002	-1.190176e+001	-8.109897e+001	-1.185669e+001	-8.063431e+001	-1.721032e+001	-1.434455e+002
5123396.880	-1.595542e+001	1.260513e+002	-1.188411e+001	-8.749268e+001	-1.184111e+001	-8.703713e+001	-1.716221e+001	-1.437153e+002
5147833.622	-1.608151e+001	1.240580e+002	-1.187989e+001	-9.382474e+001	-1.183518e+001	-9.336922e+001	-1.707534e+001	-1.442967e+002
5172270.364	-1.624934e+001	1.219992e+002	-1.188867e+001	-1.001176e+002	-1.184218e+001	-9.966191e+001	-1.695290e+001	-1.451835e+002
5196707.106	-1.646124e+001	1.199164e+002	-1.190655e+001	-1.063606e+002	-1.185976e+001	-1.059167e+002	-1.680421e+001	-1.463895e+002
5221143.847	-1.671566e+001	1.178158e+002	-1.193693e+001	-1.125480e+002	-1.188639e+001	-1.121270e+002	-1.664090e+001	-1.479195e+002
5245580.589	-1.702063e+001	1.157240e+002	-1.197678e+001	-1.187165e+002	-1.192695e+001	-1.183245e+002	-1.646035e+001	-1.497912e+002
5270017.331	-1.737167e+001	1.136344e+002	-1.203053e+001	-1.248714e+002	-1.197956e+001	-1.244757e+002	-1.627819e+001	-1.520549e+002
5294454.073	-1.778083e+001	1.116507e+002	-1.209472e+001	-1.309673e+002	-1.204148e+001	-1.306012e+002	-1.610106e+001	-1.546231e+002
5318890.815	-1.824847e+001	1.098472e+002	-1.216572e+001	-1.370084e+002	-1.211237e+001	-1.366736e+002	-1.593982e+001	-1.574749e+002
5343327.556	-1.876804e+001	1.081556e+002	-1.223985e+001	-1.430364e+002	-1.218786e+001	-1.427102e+002	-1.579072e+001	-1.605460e+002
5367764.298	-1.934217e+001	1.066273e+002	-1.231771e+001	-1.490551e+002	-1.226946e+001	-1.487553e+002	-1.564726e+001	-1.638351e+002
5392201.040	-1.998943e+001	1.052341e+002	-1.240482e+001	-1.550939e+002	-1.235840e+001	-1.548044e+002	-1.551015e+001	-1.673448e+002
5416637.782	-2.072461e+001	1.040044e+002	-1.250232e+001	-1.611510e+002	-1.245888e+001	-1.608708e+002	-1.538279e+001	-1.711031e+002
5441074.523	-2.157956e+001	1.030686e+002	-1.261243e+001	-1.671953e+002	-1.256994e+001	-1.669306e+002	-1.526656e+001	-1.750997e+002
