!Agilent Technologies,E5061B,MY49101568,A.02.00
!Date: Wed Mar 01 15:31:21 2023
!Data & Calibration Information:
!Freq	S11:SOLT2(OFF)	S21:SOLT2(OFF)	S12:SOLT2(OFF)	S22:SOLT2(OFF)
# Hz S dB R 50
1800000.000	-1.301355e+001	-4.718237e+001	-1.230014e+001	-1.418055e+002	-1.230777e+001	-1.416599e+002	-1.387249e+001	-1.760658e+001
1824436.742	-1.384882e+001	-5.371190e+001	-1.178937e+001	-1.489631e+002	-1.180155e+001	-1.488105e+002	-1.478109e+001	-2.410964e+001
1848873.484	-1.486919e+001	-6.012477e+001	-1.132589e+001	-1.564603e+002	-1.133876e+001	-1.562673e+002	-1.587829e+001	-3.056337e+001
1873310.225	-1.611977e+001	-6.617916e+001	-1.091704e+001	-1.641726e+002	-1.092983e+001	-1.639561e+002	-1.721326e+001	-3.665881e+001
1897746.967	-1.765993e+001	-7.152457e+001	-1.056296e+001	-1.720578e+002	-1.057292e+001	-1.718138e+002	-1.883636e+001	-4.222222e+001
1922183.709	-1.955885e+001	-7.571980e+001	-1.026319e+001	1.799515e+002	-1.026341e+001	-1.797753e+002	-2.084153e+001	-4.689616e+001
1946620.451	-2.194334e+001	-7.736929e+001	-1.002056e+001	1.719182e+002	-1.001177e+001	1.721629e+002	-2.341261e+001	-4.927097e+001
1971057.192	-2.488940e+001	-7.365434e+001	-9.836313e+000	1.639034e+002	-9.829244e+000	1.640602e+002	-2.673147e+001	-4.583758e+001
1995493.934	-2.808404e+001	-5.812081e+001	-9.704428e+000	1.559624e+002	-9.699650e+000	1.561190e+002	-3.048367e+001	-2.873292e+001
2019930.676	-2.909723e+001	-2.724850e+001	-9.627603e+000	1.481238e+002	-9.620498e+000	1.482755e+002	-3.147959e+001	7.980274e+000
2044367.418	-2.673311e+001	-5.057886e+000	-9.597962e+000	1.404446e+002	-9.590246e+000	1.405698e+002	-2.863444e+001	3.107914e+001
2068804.159	-2.414118e+001	1.506324e+000	-9.621004e+000	1.330811e+002	-9.613856e+000	1.331676e+002	-2.580194e+001	3.625221e+001
2093240.901	-2.218231e+001	1.449888e+000	-9.664288e+000	1.260724e+002	-9.667759e+000	1.261010e+002	-2.377622e+001	3.481217e+001
2117677.643	-2.077454e+001	-1.480372e+000	-9.720875e+000	1.194000e+002	-9.727996e+000	1.194150e+002	-2.239127e+001	3.078042e+001
2142114.385	-1.973148e+001	-5.390114e+000	-9.771347e+000	1.130022e+002	-9.780829e+000	1.130268e+002	-2.140598e+001	2.582196e+001
2166551.127	-1.890638e+001	-9.689998e+000	-9.806253e+000	1.067421e+002	-9.816445e+000	1.067761e+002	-2.066761e+001	2.068694e+001
2190987.868	-1.823488e+001	-1.462679e+001	-9.846534e+000	1.005868e+002	-9.855835e+000	1.006500e+002	-2.009062e+001	1.502049e+001
2215424.610	-1.774899e+001	-1.985935e+001	-9.881938e+000	9.460994e+001	-9.894772e+000	9.469793e+001	-1.965342e+001	8.958776e+000
2239861.352	-1.739912e+001	-2.526763e+001	-9.910893e+000	8.881083e+001	-9.925681e+000	8.889395e+001	-1.936320e+001	2.590756e+000
2264298.094	-1.716323e+001	-3.068190e+001	-9.923779e+000	8.314486e+001	-9.939851e+000	8.325466e+001	-1.918634e+001	-3.938238e+000
2288734.835	-1.701822e+001	-3.594536e+001	-9.914820e+000	7.755888e+001	-9.929548e+000	7.767751e+001	-1.911134e+001	-1.043678e+001
2313171.577	-1.692637e+001	-4.120160e+001	-9.890548e+000	7.196068e+001	-9.902912e+000	7.209317e+001	-1.909196e+001	-1.700292e+001
2337608.319	-1.689858e+001	-4.660017e+001	-9.859542e+000	6.635843e+001	-9.873220e+000	6.649791e+001	-1.912079e+001	-2.387510e+001
2362045.061	-1.694487e+001	-5.209299e+001	-9.823784e+000	6.079450e+001	-9.832889e+000	6.093759e+001	-1.921963e+001	-3.091564e+001
2386481.802	-1.708011e+001	-5.764537e+001	-9.780952e+000	5.523807e+001	-9.789924e+000	5.537584e+001	-1.936089e+001	-3.839978e+001
2410918.544	-1.730949e+001	-6.307161e+001	-9.725286e+000	4.970541e+001	-9.734052e+000	4.983680e+001	-1.959141e+001	-4.617216e+001
2435355.286	-1.758108e+001	-6.829910e+001	-9.650703e+000	4.407138e+001	-9.665527e+000	4.422778e+001	-1.986685e+001	-5.417525e+001
2459792.028	-1.791601e+001	-7.366897e+001	-9.580896e+000	3.833778e+001	-9.594198e+000	3.854734e+001	-2.019902e+001	-6.248939e+001
2484228.769	-1.834050e+001	-7.909831e+001	-9.514042e+000	3.251895e+001	-9.520742e+000	3.281188e+001	-2.057850e+001	-7.129564e+001
2508665.511	-1.887627e+001	-8.447671e+001	-9.451856e+000	2.668302e+001	-9.454827e+000	2.698536e+001	-2.099095e+001	-8.053735e+001
2533102.253	-1.951976e+001	-8.973828e+001	-9.396208e+000	2.081992e+001	-9.394986e+000	2.112314e+001	-2.145647e+001	-9.042637e+001
2557538.995	-2.030317e+001	-9.480325e+001	-9.343345e+000	1.489020e+001	-9.341091e+000	1.520348e+001	-2.195002e+001	-1.008786e+002
2581975.737	-2.123413e+001	-9.952056e+001	-9.301235e+000	8.904544e+000	-9.295127e+000	9.239153e+000	-2.246442e+001	-1.120193e+002
2606412.478	-2.234750e+001	-1.037502e+002	-9.269776e+000	2.903671e+000	-9.261370e+000	3.230310e+000	-2.298083e+001	-1.238249e+002
2630849.220	-2.368207e+001	-1.072580e+002	-9.252396e+000	-3.148030e+000	-9.242261e+000	-2.803724e+000	-2.346304e+001	-1.363485e+002
2655285.962	-2.530800e+001	-1.095617e+002	-9.246870e+000	-9.187701e+000	-9.236234e+000	-8.836846e+000	-2.390078e+001	-1.495287e+002
2679722.704	-2.727997e+001	-1.096170e+002	-9.257241e+000	-1.520393e+001	-9.245652e+000	-1.486525e+001	-2.425198e+001	-1.632059e+002
2704159.445	-2.966323e+001	-1.054402e+002	-9.280353e+000	-2.119548e+001	-9.269203e+000	-2.084923e+001	-2.449338e+001	-1.771895e+002
2728596.187	-3.226506e+001	-9.284279e+001	-9.317354e+000	-2.713205e+001	-9.303967e+000	-2.678529e+001	-2.462170e+001	1.686402e+002
2753032.929	-3.368724e+001	-6.853590e+001	-9.360158e+000	-3.300141e+001	-9.347797e+000	-3.266500e+001	-2.463918e+001	1.546788e+002
2777469.671	-3.250976e+001	-4.407528e+001	-9.411353e+000	-3.882520e+001	-9.399095e+000	-3.849861e+001	-2.458563e+001	1.411899e+002
2801906.412	-3.017831e+001	-3.099218e+001	-9.470654e+000	-4.458848e+001	-9.458914e+000	-4.426831e+001	-2.447326e+001	1.283517e+002
2826343.154	-2.800968e+001	-2.621385e+001	-9.533794e+000	-5.030108e+001	-9.525467e+000	-4.997451e+001	-2.432276e+001	1.162762e+002
2850779.896	-2.623234e+001	-2.550494e+001	-9.603118e+000	-5.592901e+001	-9.595848e+000	-5.560555e+001	-2.417289e+001	1.048606e+002
2875216.638	-2.480115e+001	-2.695778e+001	-9.675863e+000	-6.154401e+001	-9.667957e+000	-6.117427e+001	-2.405575e+001	9.416535e+001
2899653.380	-2.362229e+001	-2.958071e+001	-9.747640e+000	-6.703004e+001	-9.741617e+000	-6.666557e+001	-2.395788e+001	8.405600e+001
2924090.121	-2.265620e+001	-3.283186e+001	-9.818466e+000	-7.246520e+001	-9.815510e+000	-7.209909e+001	-2.390346e+001	7.442864e+001
2948526.863	-2.186436e+001	-3.652863e+001	-9.885184e+000	-7.783377e+001	-9.885647e+000	-7.746287e+001	-2.389407e+001	6.511307e+001
2972963.605	-2.121448e+001	-4.044196e+001	-9.947915e+000	-8.317204e+001	-9.951337e+000	-8.280831e+001	-2.397098e+001	5.617696e+001
2997400.347	-2.068918e+001	-4.443620e+001	-1.000853e+001	-8.849720e+001	-1.001411e+001	-8.810843e+001	-2.410926e+001	4.748823e+001
3021837.088	-2.025413e+001	-4.846001e+001	-1.006488e+001	-9.375939e+001	-1.007255e+001	-9.336029e+001	-2.431324e+001	3.904688e+001
3046273.830	-1.990400e+001	-5.253909e+001	-1.011546e+001	-9.899672e+001	-1.012479e+001	-9.859140e+001	-2.458345e+001	3.061681e+001
3070710.572	-1.962899e+001	-5.665841e+001	-1.015589e+001	-1.041980e+002	-1.016839e+001	-1.037765e+002	-2.491738e+001	2.210668e+001
3095147.314	-1.943365e+001	-6.083008e+001	-1.018597e+001	-1.094143e+002	-1.019940e+001	-1.089882e+002	-2.535053e+001	1.309790e+001
3119584.055	-1.932239e+001	-6.500446e+001	-1.020352e+001	-1.146842e+002	-1.021770e+001	-1.142364e+002	-2.590687e+001	3.403287e+000
3144020.797	-1.930432e+001	-6.905267e+001	-1.021795e+001	-1.200112e+002	-1.022872e+001	-1.196337e+002	-2.671949e+001	-7.326510e+000
3168457.539	-1.937340e+001	-7.290880e+001	-1.023005e+001	-1.254411e+002	-1.024169e+001	-1.250653e+002	-2.766676e+001	-1.915973e+001
3192894.281	-1.952789e+001	-7.645734e+001	-1.024694e+001	-1.309669e+002	-1.025668e+001	-1.305828e+002	-2.883020e+001	-3.274824e+001
3217331.023	-1.976371e+001	-7.961649e+001	-1.027052e+001	-1.365626e+002	-1.027754e+001	-1.361759e+002	-3.019505e+001	-4.921415e+001
3241767.764	-2.006711e+001	-8.218927e+001	-1.030736e+001	-1.422143e+002	-1.031139e+001	-1.418347e+002	-3.161864e+001	-7.000128e+001
3266204.506	-2.040572e+001	-8.417665e+001	-1.035803e+001	-1.478525e+002	-1.036149e+001	-1.474739e+002	-3.268160e+001	-9.519129e+001
3290641.248	-2.076199e+001	-8.577334e+001	-1.040469e+001	-1.533916e+002	-1.040585e+001	-1.530263e+002	-3.256773e+001	-1.220101e+002
3315077.990	-2.121723e+001	-8.717446e+001	-1.042505e+001	-1.589986e+002	-1.042363e+001	-1.586702e+002	-3.101889e+001	-1.461621e+002
3339514.731	-2.183527e+001	-8.739848e+001	-1.044766e+001	-1.649001e+002	-1.044285e+001	-1.645984e+002	-2.884360e+001	-1.663364e+002
3363951.473	-2.251008e+001	-8.565388e+001	-1.049462e+001	-1.710033e+002	-1.048860e+001	-1.707260e+002	-2.670762e+001	1.771160e+002
3388388.215	-2.309687e+001	-8.162449e+001	-1.057485e+001	-1.772046e+002	-1.056835e+001	-1.769488e+002	-2.482583e+001	1.632240e+002
3412824.957	-2.340594e+001	-7.542579e+001	-1.068909e+001	1.765389e+002	-1.068181e+001	1.767500e+002	-2.316993e+001	1.511450e+002
3437261.698	-2.327487e+001	-6.812045e+001	-1.083859e+001	1.702824e+002	-1.083243e+001	1.704385e+002	-2.174132e+001	1.402944e+002
3461698.440	-2.267051e+001	-6.132716e+001	-1.102138e+001	1.640394e+002	-1.101826e+001	1.641627e+002	-2.050560e+001	1.303548e+002
3486135.182	-2.172103e+001	-5.644479e+001	-1.124231e+001	1.579024e+002	-1.124413e+001	1.579591e+002	-1.944139e+001	1.210464e+002
3510571.924	-2.062353e+001	-5.381461e+001	-1.149479e+001	1.519124e+002	-1.150222e+001	1.519360e+002	-1.854270e+001	1.123054e+002
3535008.666	-1.953793e+001	-5.320888e+001	-1.176993e+001	1.461504e+002	-1.178534e+001	1.461360e+002	-1.778612e+001	1.041240e+002
3559445.407	-1.854795e+001	-5.397034e+001	-1.204991e+001	1.406157e+002	-1.207516e+001	1.405762e+002	-1.714571e+001	9.658048e+001
3583882.149	-1.765016e+001	-5.549519e+001	-1.232919e+001	1.352278e+002	-1.236040e+001	1.351839e+002	-1.658150e+001	8.967563e+001
3608318.891	-1.682745e+001	-5.750253e+001	-1.260408e+001	1.299121e+002	-1.264406e+001	1.298763e+002	-1.606176e+001	8.320100e+001
3632755.633	-1.607957e+001	-5.992252e+001	-1.287624e+001	1.246611e+002	-1.293026e+001	1.246025e+002	-1.557377e+001	7.705156e+001
3657192.374	-1.537890e+001	-6.267294e+001	-1.316011e+001	1.195027e+002	-1.322661e+001	1.193979e+002	-1.512388e+001	7.109447e+001
3681629.116	-1.472458e+001	-6.565701e+001	-1.345013e+001	1.143665e+002	-1.352726e+001	1.142623e+002	-1.470726e+001	6.535771e+001
3706065.858	-1.411522e+001	-6.889847e+001	-1.375730e+001	1.093231e+002	-1.384327e+001	1.091952e+002	-1.431983e+001	5.972841e+001
3730502.600	-1.355134e+001	-7.230427e+001	-1.407381e+001	1.043511e+002	-1.417384e+001	1.042690e+002	-1.397400e+001	5.418444e+001
3754939.341	-1.303748e+001	-7.587201e+001	-1.439916e+001	9.952631e+001	-1.451137e+001	9.948773e+001	-1.366417e+001	4.879600e+001
3779376.083	-1.256928e+001	-7.954813e+001	-1.473265e+001	9.484285e+001	-1.485277e+001	9.482748e+001	-1.338309e+001	4.356185e+001
3803812.825	-1.213955e+001	-8.327193e+001	-1.507051e+001	9.026133e+001	-1.520029e+001	9.029236e+001	-1.313091e+001	3.845539e+001
3828249.567	-1.174585e+001	-8.701772e+001	-1.540990e+001	8.581516e+001	-1.554648e+001	8.594105e+001	-1.290879e+001	3.350899e+001
3852686.308	-1.138453e+001	-9.079247e+001	-1.575454e+001	8.149875e+001	-1.589213e+001	8.168274e+001	-1.270455e+001	2.869461e+001
3877123.050	-1.105405e+001	-9.456999e+001	-1.609429e+001	7.732303e+001	-1.623204e+001	7.752468e+001	-1.251578e+001	2.403764e+001
3901559.792	-1.074729e+001	-9.830891e+001	-1.643049e+001	7.322413e+001	-1.657351e+001	7.345383e+001	-1.234182e+001	1.950563e+001
3925996.534	-1.046389e+001	-1.020471e+002	-1.676742e+001	6.923245e+001	-1.691811e+001	6.947087e+001	-1.217778e+001	1.507993e+001
3950433.276	-1.019644e+001	-1.057627e+002	-1.710412e+001	6.528091e+001	-1.726171e+001	6.557432e+001	-1.202372e+001	1.074204e+001
3974870.017	-9.948453e+000	-1.095028e+002	-1.744960e+001	6.146102e+001	-1.760686e+001	6.177728e+001	-1.187874e+001	6.489500e+000
3999306.759	-9.716589e+000	-1.132157e+002	-1.779186e+001	5.769678e+001	-1.796083e+001	5.805526e+001	-1.174001e+001	2.308117e+000
4023743.501	-9.498499e+000	-1.169398e+002	-1.814281e+001	5.405689e+001	-1.832006e+001	5.445213e+001	-1.160937e+001	-1.803385e+000
4048180.243	-9.294335e+000	-1.206733e+002	-1.850450e+001	5.046416e+001	-1.868193e+001	5.095210e+001	-1.148380e+001	-5.876803e+000
4072616.984	-9.104128e+000	-1.244271e+002	-1.887803e+001	4.702867e+001	-1.905662e+001	4.755563e+001	-1.136508e+001	-9.890035e+000
4097053.726	-8.927386e+000	-1.281912e+002	-1.926203e+001	4.370368e+001	-1.944950e+001	4.433589e+001	-1.124991e+001	-1.389720e+001
4121490.468	-8.764113e+000	-1.319923e+002	-1.966410e+001	4.055588e+001	-1.984850e+001	4.125241e+001	-1.114216e+001	-1.785851e+001
4145927.210	-8.615866e+000	-1.358406e+002	-2.009338e+001	3.765571e+001	-2.027431e+001	3.843804e+001	-1.104006e+001	-2.184482e+001
4170363.951	-8.480332e+000	-1.396996e+002	-2.053699e+001	3.504294e+001	-2.071937e+001	3.595980e+001	-1.094710e+001	-2.580065e+001
4194800.693	-8.369124e+000	-1.436475e+002	-2.100447e+001	3.294637e+001	-2.117503e+001	3.393918e+001	-1.086611e+001	-2.979828e+001
4219237.435	-8.280612e+000	-1.476156e+002	-2.146271e+001	3.140680e+001	-2.162326e+001	3.249708e+001	-1.080100e+001	-3.379814e+001
4243674.177	-8.215176e+000	-1.515864e+002	-2.188646e+001	3.049340e+001	-2.202790e+001	3.162491e+001	-1.074996e+001	-3.776388e+001
4268110.919	-8.173075e+000	-1.555245e+002	-2.223988e+001	3.003315e+001	-2.236761e+001	3.116123e+001	-1.071066e+001	-4.165601e+001
4292547.660	-8.150090e+000	-1.594430e+002	-2.252047e+001	2.998305e+001	-2.265249e+001	3.110270e+001	-1.067851e+001	-4.554937e+001
4316984.402	-8.148712e+000	-1.633484e+002	-2.271549e+001	3.031579e+001	-2.283795e+001	3.150973e+001	-1.066236e+001	-4.941035e+001
4341421.144	-8.166837e+000	-1.671997e+002	-2.278967e+001	3.074280e+001	-2.289122e+001	3.212609e+001	-1.065967e+001	-5.320488e+001
4365857.886	-8.200197e+000	-1.709560e+002	-2.274315e+001	3.088927e+001	-2.281447e+001	3.235044e+001	-1.066395e+001	-5.687686e+001
4390294.627	-8.237753e+000	-1.746450e+002	-2.265352e+001	3.051833e+001	-2.268627e+001	3.178298e+001	-1.065878e+001	-6.041747e+001
4414731.369	-8.270376e+000	-1.783671e+002	-2.259675e+001	2.975804e+001	-2.262853e+001	3.071502e+001	-1.062628e+001	-6.393891e+001
4439168.111	-8.303408e+000	1.777271e+002	-2.261950e+001	2.935503e+001	-2.267739e+001	3.003264e+001	-1.056732e+001	-6.767463e+001
4463604.853	-8.358299e+000	1.735981e+002	-2.264403e+001	2.997821e+001	-2.276500e+001	3.097873e+001	-1.051088e+001	-7.179573e+001
4488041.594	-8.467273e+000	1.691926e+002	-2.250702e+001	3.217735e+001	-2.263592e+001	3.373050e+001	-1.049464e+001	-7.630131e+001
4512478.336	-8.667266e+000	1.646705e+002	-2.198056e+001	3.493279e+001	-2.202572e+001	3.702092e+001	-1.056376e+001	-8.107822e+001
4536915.078	-8.973348e+000	1.604133e+002	-2.103632e+001	3.611976e+001	-2.096702e+001	3.807649e+001	-1.074098e+001	-8.569479e+001
4561351.820	-9.345173e+000	1.568170e+002	-1.996762e+001	3.421594e+001	-1.986232e+001	3.557085e+001	-1.098466e+001	-8.967457e+001
4585788.562	-9.696167e+000	1.538447e+002	-1.910150e+001	3.018257e+001	-1.900989e+001	3.122925e+001	-1.120483e+001	-9.310801e+001
4610225.303	-1.001034e+001	1.510468e+002	-1.845081e+001	2.566274e+001	-1.838029e+001	2.661828e+001	-1.137813e+001	-9.640202e+001
4634662.045	-1.031785e+001	1.482248e+002	-1.790889e+001	2.131635e+001	-1.784132e+001	2.230442e+001	-1.153584e+001	-9.983274e+001
4659098.787	-1.064436e+001	1.454039e+002	-1.740797e+001	1.711756e+001	-1.733499e+001	1.806463e+001	-1.170253e+001	-1.033607e+002
4683535.529	-1.099985e+001	1.425761e+002	-1.693043e+001	1.304391e+001	-1.684856e+001	1.390212e+001	-1.187933e+001	-1.070101e+002
4707972.270	-1.141469e+001	1.397730e+002	-1.643472e+001	9.233306e+000	-1.637010e+001	1.012043e+001	-1.207316e+001	-1.109546e+002
4732409.012	-1.193189e+001	1.371771e+002	-1.585322e+001	5.457887e+000	-1.578090e+001	6.318155e+000	-1.236369e+001	-1.151857e+002
4756845.754	-1.256944e+001	1.355873e+002	-1.514360e+001	9.824319e-001	-1.506733e+001	1.761714e+000	-1.280748e+001	-1.192774e+002
4781282.496	-1.319722e+001	1.356528e+002	-1.441803e+001	-4.851179e+000	-1.434650e+001	-4.132223e+000	-1.338260e+001	-1.224435e+002
4805719.237	-1.364301e+001	1.369343e+002	-1.381232e+001	-1.170470e+001	-1.374701e+001	-1.102039e+001	-1.397721e+001	-1.243583e+002
4830155.979	-1.385610e+001	1.384597e+002	-1.335084e+001	-1.896948e+001	-1.328804e+001	-1.822201e+001	-1.450308e+001	-1.252878e+002
4854592.721	-1.391701e+001	1.395280e+002	-1.299434e+001	-2.614759e+001	-1.293363e+001	-2.538844e+001	-1.493463e+001	-1.256604e+002
4879029.463	-1.387790e+001	1.400335e+002	-1.270489e+001	-3.323105e+001	-1.264064e+001	-3.244408e+001	-1.528798e+001	-1.256667e+002
4903466.205	-1.378392e+001	1.399625e+002	-1.246173e+001	-4.021592e+001	-1.239485e+001	-3.942748e+001	-1.555752e+001	-1.253862e+002
4927902.946	-1.365362e+001	1.393408e+002	-1.225576e+001	-4.718852e+001	-1.218583e+001	-4.638241e+001	-1.573999e+001	-1.248670e+002
4952339.688	-1.350330e+001	1.381146e+002	-1.209319e+001	-5.419985e+001	-1.201608e+001	-5.331544e+001	-1.581284e+001	-1.243071e+002
4976776.430	-1.337196e+001	1.363734e+002	-1.196381e+001	-6.108950e+001	-1.188368e+001	-6.022246e+001	-1.578069e+001	-1.238579e+002
5001213.172	-1.326993e+001	1.341503e+002	-1.186955e+001	-6.793562e+001	-1.178678e+001	-6.706073e+001	-1.565750e+001	-1.237615e+002
5025649.913	-1.320994e+001	1.315571e+002	-1.180479e+001	-7.469191e+001	-1.171828e+001	-7.381927e+001	-1.547118e+001	-1.241239e+002
5050086.655	-1.320143e+001	1.286796e+002	-1.176743e+001	-8.135070e+001	-1.167744e+001	-8.049728e+001	-1.524288e+001	-1.249762e+002
5074523.397	-1.324437e+001	1.255977e+002	-1.175232e+001	-8.792860e+001	-1.165809e+001	-8.708217e+001	-1.499723e+001	-1.263061e+002
5098960.139	-1.334003e+001	1.223882e+002	-1.175377e+001	-9.440803e+001	-1.165645e+001	-9.358050e+001	-1.474632e+001	-1.280720e+002
5123396.880	-1.348903e+001	1.191017e+002	-1.177027e+001	-1.008071e+002	-1.166851e+001	-9.999963e+001	-1.450057e+001	-1.302100e+002
5147833.622	-1.368463e+001	1.157538e+002	-1.179843e+001	-1.071406e+002	-1.169502e+001	-1.063514e+002	-1.426356e+001	-1.326676e+002
5172270.364	-1.392826e+001	1.123792e+002	-1.183820e+001	-1.134141e+002	-1.173083e+001	-1.126572e+002	-1.404096e+001	-1.354133e+002
5196707.106	-1.421882e+001	1.089776e+002	-1.188821e+001	-1.196374e+002	-1.177934e+001	-1.189180e+002	-1.383210e+001	-1.384206e+002
5221143.847	-1.455752e+001	1.055419e+002	-1.194946e+001	-1.258120e+002	-1.184733e+001	-1.252060e+002	-1.362414e+001	-1.417061e+002
5245580.589	-1.495016e+001	1.020770e+002	-1.202294e+001	-1.319647e+002	-1.192011e+001	-1.313937e+002	-1.344728e+001	-1.452010e+002
5270017.331	-1.540198e+001	9.860696e+001	-1.210852e+001	-1.380621e+002	-1.200590e+001	-1.375577e+002	-1.328952e+001	-1.489178e+002
5294454.073	-1.591571e+001	9.511406e+001	-1.220319e+001	-1.441195e+002	-1.210283e+001	-1.436707e+002	-1.315544e+001	-1.528143e+002
5318890.815	-1.649386e+001	9.163461e+001	-1.230482e+001	-1.501259e+002	-1.220821e+001	-1.497305e+002	-1.304492e+001	-1.568572e+002
5343327.556	-1.714038e+001	8.815880e+001	-1.241046e+001	-1.560980e+002	-1.231977e+001	-1.557498e+002	-1.295601e+001	-1.610254e+002
5367764.298	-1.786804e+001	8.459693e+001	-1.252178e+001	-1.620729e+002	-1.243846e+001	-1.617747e+002	-1.288239e+001	-1.653195e+002
5392201.040	-1.869258e+001	8.089114e+001	-1.264469e+001	-1.680554e+002	-1.256706e+001	-1.677895e+002	-1.282234e+001	-1.697471e+002
5416637.782	-1.964335e+001	7.701090e+001	-1.277815e+001	-1.740322e+002	-1.270979e+001	-1.738087e+002	-1.277869e+001	-1.743399e+002
5441074.523	-2.075791e+001	7.287630e+001	-1.292596e+001	-1.799873e+002	-1.286365e+001	-1.798002e+002	-1.275378e+001	-1.790648e+002
