!Agilent Technologies,E5061B,MY49101568,A.02.00
!Date: Wed Mar 01 15:36:28 2023
!Data & Calibration Information:
!Freq	S11:SOLT2(OFF)	S21:SOLT2(OFF)	S12:SOLT2(OFF)	S22:SOLT2(OFF)
# Hz S dB R 50
1800000.000	-9.094441e+000	-1.658413e+001	-2.745163e+001	-1.282695e+002	-2.741275e+001	-1.284590e+002	-9.395621e+000	1.981917e+001
1824436.742	-9.167271e+000	-2.080409e+001	-2.707236e+001	-1.319080e+002	-2.704717e+001	-1.321217e+002	-9.495580e+000	1.615988e+001
1848873.484	-9.242222e+000	-2.510306e+001	-2.668664e+001	-1.356239e+002	-2.667301e+001	-1.358773e+002	-9.595663e+000	1.243801e+001
1873310.225	-9.322252e+000	-2.946029e+001	-2.630254e+001	-1.395299e+002	-2.629225e+001	-1.396232e+002	-9.688071e+000	8.678922e+000
1897746.967	-9.398783e+000	-3.388291e+001	-2.590688e+001	-1.433593e+002	-2.589431e+001	-1.435266e+002	-9.780689e+000	4.883270e+000
1922183.709	-9.476125e+000	-3.843422e+001	-2.549820e+001	-1.472987e+002	-2.547755e+001	-1.475115e+002	-9.869143e+000	9.534708e-001
1946620.451	-9.555851e+000	-4.310302e+001	-2.505593e+001	-1.513937e+002	-2.505495e+001	-1.516593e+002	-9.955203e+000	-3.029489e+000
1971057.192	-9.636419e+000	-4.789770e+001	-2.463338e+001	-1.555489e+002	-2.462130e+001	-1.557805e+002	-1.003636e+001	-7.128992e+000
1995493.934	-9.720837e+000	-5.283058e+001	-2.416926e+001	-1.598615e+002	-2.417958e+001	-1.599566e+002	-1.011936e+001	-1.130811e+001
2019930.676	-9.812322e+000	-5.789361e+001	-2.371346e+001	-1.642392e+002	-2.371567e+001	-1.643336e+002	-1.019642e+001	-1.555279e+001
2044367.418	-9.908607e+000	-6.309867e+001	-2.323317e+001	-1.688384e+002	-2.324809e+001	-1.688961e+002	-1.027100e+001	-1.995092e+001
2068804.159	-1.001004e+001	-6.845253e+001	-2.275634e+001	-1.735273e+002	-2.277567e+001	-1.735674e+002	-1.033967e+001	-2.440544e+001
2093240.901	-1.012044e+001	-7.397089e+001	-2.225865e+001	-1.783664e+002	-2.231627e+001	-1.782557e+002	-1.040072e+001	-2.893296e+001
2117677.643	-1.023889e+001	-7.967588e+001	-2.177234e+001	1.765281e+002	-2.183821e+001	1.767549e+002	-1.046537e+001	-3.358992e+001
2142114.385	-1.036894e+001	-8.557362e+001	-2.128588e+001	1.713149e+002	-2.135320e+001	1.715611e+002	-1.052179e+001	-3.835586e+001
2166551.127	-1.050898e+001	-9.165966e+001	-2.079527e+001	1.659084e+002	-2.086596e+001	1.662284e+002	-1.057614e+001	-4.325058e+001
2190987.868	-1.066383e+001	-9.797108e+001	-2.030959e+001	1.602985e+002	-2.038596e+001	1.606861e+002	-1.062675e+001	-4.825165e+001
2215424.610	-1.083976e+001	-1.044788e+002	-1.982374e+001	1.543675e+002	-1.991068e+001	1.549771e+002	-1.067558e+001	-5.337017e+001
2239861.352	-1.102446e+001	-1.112162e+002	-1.936382e+001	1.483656e+002	-1.945008e+001	1.490030e+002	-1.071589e+001	-5.860185e+001
2264298.094	-1.122636e+001	-1.182153e+002	-1.891901e+001	1.421912e+002	-1.900622e+001	1.429467e+002	-1.075244e+001	-6.395440e+001
2288734.835	-1.144476e+001	-1.254423e+002	-1.848267e+001	1.358534e+002	-1.856151e+001	1.366573e+002	-1.078202e+001	-6.941988e+001
2313171.577	-1.168224e+001	-1.329198e+002	-1.806247e+001	1.293433e+002	-1.813543e+001	1.301938e+002	-1.080895e+001	-7.499626e+001
2337608.319	-1.193945e+001	-1.406361e+002	-1.766712e+001	1.226369e+002	-1.773592e+001	1.235378e+002	-1.082837e+001	-8.069542e+001
2362045.061	-1.220769e+001	-1.485773e+002	-1.730103e+001	1.158342e+002	-1.736100e+001	1.167625e+002	-1.084223e+001	-8.646396e+001
2386481.802	-1.248400e+001	-1.567606e+002	-1.696266e+001	1.088506e+002	-1.701131e+001	1.097875e+002	-1.084596e+001	-9.236580e+001
2410918.544	-1.276367e+001	-1.651860e+002	-1.665403e+001	1.017919e+002	-1.669301e+001	1.027363e+002	-1.084118e+001	-9.838872e+001
2435355.286	-1.304608e+001	-1.738734e+002	-1.636994e+001	9.461624e+001	-1.639819e+001	9.555817e+001	-1.082772e+001	-1.045266e+002
2459792.028	-1.333012e+001	1.772525e+002	-1.611898e+001	8.734272e+001	-1.613107e+001	8.826508e+001	-1.080853e+001	-1.107733e+002
2484228.769	-1.359268e+001	1.681960e+002	-1.590768e+001	8.002843e+001	-1.589888e+001	8.087661e+001	-1.078473e+001	-1.171602e+002
2508665.511	-1.384229e+001	1.589851e+002	-1.572616e+001	7.263062e+001	-1.570440e+001	7.346373e+001	-1.075156e+001	-1.236242e+002
2533102.253	-1.405629e+001	1.496685e+002	-1.558182e+001	6.531944e+001	-1.554579e+001	6.597870e+001	-1.071810e+001	-1.301798e+002
2557538.995	-1.424392e+001	1.402897e+002	-1.547175e+001	5.790605e+001	-1.542317e+001	5.853969e+001	-1.067610e+001	-1.368450e+002
2581975.737	-1.439178e+001	1.308889e+002	-1.539508e+001	5.052801e+001	-1.533395e+001	5.109837e+001	-1.063336e+001	-1.435978e+002
2606412.478	-1.449978e+001	1.215478e+002	-1.534971e+001	4.320225e+001	-1.527795e+001	4.370569e+001	-1.059291e+001	-1.504119e+002
2630849.220	-1.456174e+001	1.122910e+002	-1.534322e+001	3.593241e+001	-1.525868e+001	3.634463e+001	-1.055584e+001	-1.572878e+002
2655285.962	-1.458178e+001	1.032109e+002	-1.535900e+001	2.875465e+001	-1.527147e+001	2.910880e+001	-1.052149e+001	-1.641869e+002
2679722.704	-1.456552e+001	9.429782e+001	-1.541109e+001	2.165335e+001	-1.531900e+001	2.193933e+001	-1.049506e+001	-1.711007e+002
2704159.445	-1.451154e+001	8.564814e+001	-1.548772e+001	1.468743e+001	-1.539086e+001	1.489859e+001	-1.047482e+001	-1.779744e+002
2728596.187	-1.443021e+001	7.724331e+001	-1.559187e+001	7.852835e+000	-1.549374e+001	7.993432e+000	-1.046443e+001	1.751779e+002
2753032.929	-1.432373e+001	6.915037e+001	-1.571639e+001	1.176593e+000	-1.561737e+001	1.226602e+000	-1.046260e+001	1.683975e+002
2777469.671	-1.419839e+001	6.131862e+001	-1.586423e+001	-5.384201e+000	-1.576336e+001	-5.382447e+000	-1.047130e+001	1.617011e+002
2801906.412	-1.406075e+001	5.381533e+001	-1.602158e+001	-1.175902e+001	-1.592649e+001	-1.182807e+001	-1.048660e+001	1.551082e+002
2826343.154	-1.391245e+001	4.661169e+001	-1.619951e+001	-1.799056e+001	-1.611065e+001	-1.810485e+001	-1.051182e+001	1.486509e+002
2850779.896	-1.376210e+001	3.969495e+001	-1.639112e+001	-2.404585e+001	-1.630524e+001	-2.419477e+001	-1.054701e+001	1.423279e+002
2875216.638	-1.360783e+001	3.306830e+001	-1.658605e+001	-2.997762e+001	-1.651261e+001	-3.009437e+001	-1.058630e+001	1.361489e+002
2899653.380	-1.344959e+001	2.671173e+001	-1.679497e+001	-3.567454e+001	-1.672856e+001	-3.583451e+001	-1.063233e+001	1.301360e+002
2924090.121	-1.329333e+001	2.061698e+001	-1.700833e+001	-4.120425e+001	-1.694727e+001	-4.139702e+001	-1.068472e+001	1.242838e+002
2948526.863	-1.313642e+001	1.476080e+001	-1.722009e+001	-4.656512e+001	-1.717000e+001	-4.678074e+001	-1.074182e+001	1.185899e+002
2972963.605	-1.298537e+001	9.119563e+000	-1.743496e+001	-5.177899e+001	-1.739020e+001	-5.199214e+001	-1.080024e+001	1.130507e+002
2997400.347	-1.283675e+001	3.686018e+000	-1.764255e+001	-5.682514e+001	-1.761211e+001	-5.708042e+001	-1.086559e+001	1.076715e+002
3021837.088	-1.269097e+001	-1.541634e+000	-1.785447e+001	-6.174535e+001	-1.783029e+001	-6.199915e+001	-1.092959e+001	1.024483e+002
3046273.830	-1.254958e+001	-6.602612e+000	-1.805715e+001	-6.651709e+001	-1.804538e+001	-6.676586e+001	-1.099321e+001	9.737130e+001
3070710.572	-1.241289e+001	-1.148643e+001	-1.825456e+001	-7.116319e+001	-1.825226e+001	-7.139146e+001	-1.105720e+001	9.243298e+001
3095147.314	-1.227892e+001	-1.622235e+001	-1.844360e+001	-7.569057e+001	-1.844862e+001	-7.587756e+001	-1.112066e+001	8.762099e+001
3119584.055	-1.214807e+001	-2.083128e+001	-1.861918e+001	-8.007066e+001	-1.863582e+001	-8.027212e+001	-1.118629e+001	8.293556e+001
3144020.797	-1.202185e+001	-2.529815e+001	-1.879166e+001	-8.431232e+001	-1.881436e+001	-8.453088e+001	-1.124690e+001	7.839478e+001
3168457.539	-1.190152e+001	-2.965488e+001	-1.894727e+001	-8.853438e+001	-1.898106e+001	-8.872179e+001	-1.131071e+001	7.394522e+001
3192894.281	-1.178486e+001	-3.389859e+001	-1.909319e+001	-9.268214e+001	-1.913873e+001	-9.281910e+001	-1.137513e+001	6.961192e+001
3217331.023	-1.167158e+001	-3.803492e+001	-1.923432e+001	-9.671075e+001	-1.928088e+001	-9.685355e+001	-1.143779e+001	6.538431e+001
3241767.764	-1.156026e+001	-4.206629e+001	-1.936648e+001	-1.006616e+002	-1.942202e+001	-1.008186e+002	-1.149759e+001	6.126788e+001
3266204.506	-1.145173e+001	-4.600792e+001	-1.949754e+001	-1.045468e+002	-1.954745e+001	-1.047035e+002	-1.155516e+001	5.724434e+001
3290641.248	-1.134463e+001	-4.987380e+001	-1.960787e+001	-1.083066e+002	-1.966645e+001	-1.084524e+002	-1.160830e+001	5.330838e+001
3315077.990	-1.124015e+001	-5.369847e+001	-1.969696e+001	-1.119659e+002	-1.975927e+001	-1.121223e+002	-1.165952e+001	4.940837e+001
3339514.731	-1.114276e+001	-5.746734e+001	-1.976714e+001	-1.156327e+002	-1.983246e+001	-1.157542e+002	-1.171409e+001	4.556807e+001
3363951.473	-1.104913e+001	-6.118494e+001	-1.982218e+001	-1.192818e+002	-1.989106e+001	-1.194061e+002	-1.176939e+001	4.180771e+001
3388388.215	-1.096449e+001	-6.483563e+001	-1.986177e+001	-1.229321e+002	-1.993251e+001	-1.230468e+002	-1.182667e+001	3.811914e+001
3412824.957	-1.088337e+001	-6.842628e+001	-1.988806e+001	-1.265946e+002	-1.996337e+001	-1.266787e+002	-1.188438e+001	3.450195e+001
3437261.698	-1.080863e+001	-7.196844e+001	-1.990528e+001	-1.302325e+002	-1.997871e+001	-1.303039e+002	-1.194312e+001	3.095595e+001
3461698.440	-1.073821e+001	-7.545453e+001	-1.990419e+001	-1.338729e+002	-1.998283e+001	-1.339427e+002	-1.200480e+001	2.747361e+001
3486135.182	-1.067344e+001	-7.888217e+001	-1.989676e+001	-1.374972e+002	-1.997403e+001	-1.375571e+002	-1.206674e+001	2.407650e+001
3510571.924	-1.061355e+001	-8.226200e+001	-1.987589e+001	-1.411637e+002	-1.995297e+001	-1.412121e+002	-1.212848e+001	2.074933e+001
3535008.666	-1.055832e+001	-8.558121e+001	-1.983998e+001	-1.448253e+002	-1.991755e+001	-1.448631e+002	-1.219025e+001	1.748284e+001
3559445.407	-1.050551e+001	-8.884607e+001	-1.979149e+001	-1.484585e+002	-1.986923e+001	-1.484879e+002	-1.224870e+001	1.428292e+001
3583882.149	-1.045645e+001	-9.207218e+001	-1.972398e+001	-1.521288e+002	-1.980339e+001	-1.520942e+002	-1.230033e+001	1.111522e+001
3608318.891	-1.041039e+001	-9.527483e+001	-1.963222e+001	-1.558783e+002	-1.971892e+001	-1.557445e+002	-1.235465e+001	7.985955e+000
3632755.633	-1.036589e+001	-9.844502e+001	-1.952994e+001	-1.596917e+002	-1.961322e+001	-1.595249e+002	-1.241289e+001	4.877622e+000
3657192.374	-1.032429e+001	-1.015830e+002	-1.941505e+001	-1.635574e+002	-1.949555e+001	-1.634163e+002	-1.247461e+001	1.834024e+000
3681629.116	-1.028849e+001	-1.046941e+002	-1.928413e+001	-1.675574e+002	-1.936131e+001	-1.674153e+002	-1.254058e+001	-1.179303e+000
3706065.858	-1.025889e+001	-1.077999e+002	-1.914338e+001	-1.716766e+002	-1.922199e+001	-1.715155e+002	-1.260817e+001	-4.157193e+000
3730502.600	-1.023746e+001	-1.108846e+002	-1.899515e+001	-1.759314e+002	-1.907652e+001	-1.757287e+002	-1.268204e+001	-7.071310e+000
3754939.341	-1.022369e+001	-1.139320e+002	-1.884737e+001	1.796675e+002	-1.892632e+001	1.799085e+002	-1.276232e+001	-9.934910e+000
3779376.083	-1.022129e+001	-1.169496e+002	-1.869556e+001	1.751327e+002	-1.877659e+001	1.754242e+002	-1.284754e+001	-1.271045e+001
3803812.825	-1.022737e+001	-1.199199e+002	-1.854781e+001	1.704882e+002	-1.863146e+001	1.707997e+002	-1.293879e+001	-1.540432e+001
3828249.567	-1.024303e+001	-1.228412e+002	-1.840311e+001	1.657087e+002	-1.848642e+001	1.660733e+002	-1.303409e+001	-1.800451e+001
3852686.308	-1.026887e+001	-1.256842e+002	-1.826489e+001	1.608248e+002	-1.834891e+001	1.612577e+002	-1.313013e+001	-2.050418e+001
3877123.050	-1.030564e+001	-1.284609e+002	-1.813122e+001	1.558338e+002	-1.820953e+001	1.563023e+002	-1.323473e+001	-2.291156e+001
3901559.792	-1.035385e+001	-1.311513e+002	-1.799555e+001	1.507131e+002	-1.806990e+001	1.511747e+002	-1.334435e+001	-2.518451e+001
3925996.534	-1.041414e+001	-1.337298e+002	-1.785925e+001	1.454052e+002	-1.793489e+001	1.459386e+002	-1.345819e+001	-2.733460e+001
3950433.276	-1.048328e+001	-1.361420e+002	-1.773976e+001	1.398874e+002	-1.781132e+001	1.404748e+002	-1.357514e+001	-2.928113e+001
3974870.017	-1.055592e+001	-1.383527e+002	-1.764131e+001	1.341712e+002	-1.771108e+001	1.348304e+002	-1.368262e+001	-3.099231e+001
3999306.759	-1.062415e+001	-1.403545e+002	-1.757319e+001	1.282676e+002	-1.763736e+001	1.289863e+002	-1.377715e+001	-3.244421e+001
4023743.501	-1.067868e+001	-1.421345e+002	-1.753328e+001	1.221813e+002	-1.759667e+001	1.229136e+002	-1.384775e+001	-3.361585e+001
4048180.243	-1.070911e+001	-1.436984e+002	-1.754005e+001	1.159020e+002	-1.760097e+001	1.166887e+002	-1.387638e+001	-3.456493e+001
4072616.984	-1.070326e+001	-1.450811e+002	-1.759916e+001	1.095130e+002	-1.765943e+001	1.103289e+002	-1.384901e+001	-3.532620e+001
4097053.726	-1.064801e+001	-1.463451e+002	-1.772282e+001	1.030172e+002	-1.778136e+001	1.038678e+002	-1.375689e+001	-3.600703e+001
4121490.468	-1.053399e+001	-1.476363e+002	-1.792475e+001	9.655682e+001	-1.798151e+001	9.742804e+001	-1.358845e+001	-3.674802e+001
4145927.210	-1.036717e+001	-1.490692e+002	-1.819826e+001	9.021675e+001	-1.825518e+001	9.112432e+001	-1.335580e+001	-3.774595e+001
4170363.951	-1.015090e+001	-1.507214e+002	-1.856256e+001	8.407714e+001	-1.861894e+001	8.512270e+001	-1.306908e+001	-3.908898e+001
4194800.693	-9.905431e+000	-1.527895e+002	-1.900051e+001	7.842790e+001	-1.905632e+001	7.942438e+001	-1.274931e+001	-4.085059e+001
4219237.435	-9.646054e+000	-1.552540e+002	-1.951735e+001	7.331249e+001	-1.957495e+001	7.433514e+001	-1.241539e+001	-4.309176e+001
4243674.177	-9.392349e+000	-1.581535e+002	-2.008756e+001	6.909490e+001	-2.013878e+001	7.014295e+001	-1.209147e+001	-4.581737e+001
4268110.919	-9.170802e+000	-1.614165e+002	-2.064877e+001	6.579988e+001	-2.070003e+001	6.687273e+001	-1.179994e+001	-4.891511e+001
4292547.660	-8.987067e+000	-1.649232e+002	-2.116769e+001	6.334197e+001	-2.120865e+001	6.445495e+001	-1.155015e+001	-5.226323e+001
4316984.402	-8.842605e+000	-1.685751e+002	-2.161100e+001	6.156588e+001	-2.165702e+001	6.277364e+001	-1.133163e+001	-5.576460e+001
4341421.144	-8.736005e+000	-1.723321e+002	-2.195144e+001	6.034705e+001	-2.198466e+001	6.154943e+001	-1.115473e+001	-5.932524e+001
4365857.886	-8.670750e+000	-1.761199e+002	-2.215180e+001	5.931278e+001	-2.217541e+001	6.062834e+001	-1.101369e+001	-6.293416e+001
4390294.627	-8.634334e+000	-1.798236e+002	-2.225008e+001	5.789627e+001	-2.225711e+001	5.917440e+001	-1.089875e+001	-6.640843e+001
4414731.369	-8.604588e+000	1.765520e+002	-2.234765e+001	5.594174e+001	-2.235503e+001	5.720298e+001	-1.078157e+001	-6.974781e+001
4439168.111	-8.563675e+000	1.728453e+002	-2.253535e+001	5.407052e+001	-2.253450e+001	5.524745e+001	-1.064333e+001	-7.310184e+001
4463604.853	-8.519045e+000	1.689588e+002	-2.279477e+001	5.303779e+001	-2.279594e+001	5.424651e+001	-1.048144e+001	-7.662954e+001
4488041.594	-8.493891e+000	1.646946e+002	-2.299096e+001	5.369884e+001	-2.298035e+001	5.498162e+001	-1.031665e+001	-8.052430e+001
4512478.336	-8.529247e+000	1.601012e+002	-2.287483e+001	5.565019e+001	-2.285396e+001	5.696144e+001	-1.018739e+001	-8.479741e+001
4536915.078	-8.653713e+000	1.554018e+002	-2.234461e+001	5.698528e+001	-2.230199e+001	5.829807e+001	-1.012990e+001	-8.928284e+001
4561351.820	-8.858026e+000	1.509461e+002	-2.159151e+001	5.592687e+001	-2.153513e+001	5.721038e+001	-1.014662e+001	-9.365023e+001
4585788.562	-9.095192e+000	1.468456e+002	-2.092341e+001	5.290126e+001	-2.085664e+001	5.402570e+001	-1.019476e+001	-9.767015e+001
4610225.303	-9.331295e+000	1.429817e+002	-2.041695e+001	4.903020e+001	-2.035406e+001	5.011864e+001	-1.023389e+001	-1.014634e+002
4634662.045	-9.564501e+000	1.391392e+002	-2.001648e+001	4.509398e+001	-1.994983e+001	4.615832e+001	-1.025662e+001	-1.052243e+002
4659098.787	-9.806230e+000	1.352086e+002	-1.966945e+001	4.137008e+001	-1.959038e+001	4.236053e+001	-1.026815e+001	-1.090470e+002
4683535.529	-1.007066e+001	1.311987e+002	-1.932411e+001	3.772780e+001	-1.924006e+001	3.864448e+001	-1.028071e+001	-1.129919e+002
4707972.270	-1.036520e+001	1.270548e+002	-1.897770e+001	3.426312e+001	-1.889618e+001	3.504454e+001	-1.029279e+001	-1.170339e+002
4732409.012	-1.070376e+001	1.227294e+002	-1.858927e+001	3.087034e+001	-1.849914e+001	3.163482e+001	-1.031573e+001	-1.213659e+002
4756845.754	-1.112038e+001	1.182971e+002	-1.811974e+001	2.730174e+001	-1.801682e+001	2.797754e+001	-1.037608e+001	-1.259282e+002
4781282.496	-1.162792e+001	1.139947e+002	-1.758951e+001	2.306363e+001	-1.747824e+001	2.365559e+001	-1.049347e+001	-1.305978e+002
4805719.237	-1.220446e+001	1.100472e+002	-1.708554e+001	1.806608e+001	-1.696630e+001	1.858078e+001	-1.065935e+001	-1.351846e+002
4830155.979	-1.282682e+001	1.064041e+002	-1.663976e+001	1.264062e+001	-1.651642e+001	1.302436e+001	-1.085470e+001	-1.396269e+002
4854592.721	-1.349300e+001	1.030052e+002	-1.624164e+001	7.026710e+000	-1.612254e+001	7.244454e+000	-1.107099e+001	-1.439759e+002
4879029.463	-1.420983e+001	9.986680e+001	-1.588175e+001	1.249827e+000	-1.577899e+001	1.371059e+000	-1.130303e+001	-1.482734e+002
4903466.205	-1.497592e+001	9.702563e+001	-1.555969e+001	-4.636132e+000	-1.547001e+001	-4.550156e+000	-1.155193e+001	-1.525596e+002
4927902.946	-1.580109e+001	9.450265e+001	-1.526727e+001	-1.061856e+001	-1.518897e+001	-1.055552e+001	-1.182423e+001	-1.568080e+002
4952339.688	-1.668045e+001	9.249248e+001	-1.500445e+001	-1.679722e+001	-1.493506e+001	-1.658439e+001	-1.211774e+001	-1.610469e+002
4976776.430	-1.762210e+001	9.081392e+001	-1.476952e+001	-2.289303e+001	-1.470741e+001	-2.270281e+001	-1.243544e+001	-1.652072e+002
5001213.172	-1.861989e+001	8.968707e+001	-1.456395e+001	-2.906618e+001	-1.450763e+001	-2.885277e+001	-1.277543e+001	-1.693043e+002
5025649.913	-1.968548e+001	8.914576e+001	-1.438360e+001	-3.522228e+001	-1.433446e+001	-3.502799e+001	-1.313750e+001	-1.733172e+002
5050086.655	-2.080905e+001	8.933875e+001	-1.423125e+001	-4.138885e+001	-1.418263e+001	-4.121599e+001	-1.351998e+001	-1.772544e+002
5074523.397	-2.199946e+001	9.044153e+001	-1.410089e+001	-4.756411e+001	-1.406019e+001	-4.740041e+001	-1.391718e+001	1.789083e+002
5098960.139	-2.324614e+001	9.267569e+001	-1.399094e+001	-5.373489e+001	-1.395615e+001	-5.355812e+001	-1.433248e+001	1.751615e+002
5123396.880	-2.454545e+001	9.634835e+001	-1.390207e+001	-5.984908e+001	-1.387277e+001	-5.967354e+001	-1.476162e+001	1.714933e+002
5147833.622	-2.585042e+001	1.019572e+002	-1.382871e+001	-6.595363e+001	-1.380519e+001	-6.575021e+001	-1.520751e+001	1.679070e+002
5172270.364	-2.706162e+001	1.099908e+002	-1.377209e+001	-7.202054e+001	-1.375179e+001	-7.179111e+001	-1.567035e+001	1.643912e+002
5196707.106	-2.800742e+001	1.205915e+002	-1.372678e+001	-7.804946e+001	-1.370962e+001	-7.778128e+001	-1.614742e+001	1.609771e+002
5221143.847	-2.845290e+001	1.330352e+002	-1.369243e+001	-8.402691e+001	-1.367894e+001	-8.371162e+001	-1.664009e+001	1.576348e+002
5245580.589	-2.832512e+001	1.457686e+002	-1.366822e+001	-8.996924e+001	-1.365840e+001	-8.963162e+001	-1.714793e+001	1.544207e+002
5270017.331	-2.767229e+001	1.567699e+002	-1.365373e+001	-9.587693e+001	-1.364707e+001	-9.552896e+001	-1.767385e+001	1.513402e+002
5294454.073	-2.672544e+001	1.651399e+002	-1.364641e+001	-1.017666e+002	-1.364144e+001	-1.013922e+002	-1.820895e+001	1.483977e+002
5318890.815	-2.567385e+001	1.710154e+002	-1.364550e+001	-1.076395e+002	-1.364327e+001	-1.072175e+002	-1.876168e+001	1.455821e+002
5343327.556	-2.463966e+001	1.748819e+002	-1.365020e+001	-1.134804e+002	-1.364771e+001	-1.130276e+002	-1.932407e+001	1.429524e+002
5367764.298	-2.366203e+001	1.772986e+002	-1.365657e+001	-1.193000e+002	-1.365659e+001	-1.188465e+002	-1.989867e+001	1.405683e+002
5392201.040	-2.277828e+001	1.785992e+002	-1.367100e+001	-1.251216e+002	-1.367255e+001	-1.246563e+002	-2.046551e+001	1.384447e+002
5416637.782	-2.199289e+001	1.791334e+002	-1.368942e+001	-1.309458e+002	-1.369393e+001	-1.304874e+002	-2.102396e+001	1.366089e+002
5441074.523	-2.130030e+001	1.791276e+002	-1.371911e+001	-1.367780e+002	-1.372254e+001	-1.363181e+002	-2.154736e+001	1.350374e+002
