!Agilent Technologies,E5061B,MY49101568,A.02.00
!Date: Fri Mar 03 16:35:11 2023
!Data & Calibration Information:
!Freq	S11:SOLT2(ON)	S21:SOLT2(ON)	S12:SOLT2(ON)	S22:SOLT2(ON)
# Hz S dB R 50
1800000.000	-9.478237e+000	-1.026873e+002	-4.783244e+000	1.449690e+002	-4.802367e+000	1.449811e+002	-1.038379e+001	-1.011386e+002
1824436.742	-1.012397e+001	-1.057572e+002	-4.626071e+000	1.404106e+002	-4.632332e+000	1.404080e+002	-1.113915e+001	-1.049343e+002
1848873.484	-1.085925e+001	-1.089338e+002	-4.478066e+000	1.357880e+002	-4.485600e+000	1.357406e+002	-1.198393e+001	-1.086947e+002
1873310.225	-1.165455e+001	-1.117766e+002	-4.336518e+000	1.309817e+002	-4.349681e+000	1.310150e+002	-1.288046e+001	-1.121702e+002
1897746.967	-1.250507e+001	-1.142482e+002	-4.219075e+000	1.261396e+002	-4.221847e+000	1.261755e+002	-1.392007e+001	-1.155975e+002
1922183.709	-1.344819e+001	-1.164684e+002	-4.108597e+000	1.213175e+002	-4.126691e+000	1.213544e+002	-1.506454e+001	-1.187128e+002
1946620.451	-1.445191e+001	-1.181698e+002	-4.036459e+000	1.165931e+002	-4.041386e+000	1.165544e+002	-1.633914e+001	-1.212074e+002
1971057.192	-1.551242e+001	-1.194325e+002	-3.966156e+000	1.117664e+002	-3.979141e+000	1.118229e+002	-1.769520e+001	-1.235536e+002
1995493.934	-1.662552e+001	-1.204313e+002	-3.919065e+000	1.070652e+002	-3.927130e+000	1.070448e+002	-1.923898e+001	-1.256589e+002
2019930.676	-1.785569e+001	-1.206987e+002	-3.870906e+000	1.023320e+002	-3.874116e+000	1.023883e+002	-2.096546e+001	-1.271524e+002
2044367.418	-1.914961e+001	-1.201217e+002	-3.825520e+000	9.760063e+001	-3.837160e+000	9.766643e+001	-2.302789e+001	-1.279008e+002
2068804.159	-2.045664e+001	-1.182266e+002	-3.797943e+000	9.292664e+001	-3.808275e+000	9.298363e+001	-2.530682e+001	-1.265230e+002
2093240.901	-2.168266e+001	-1.156791e+002	-3.791798e+000	8.825960e+001	-3.804018e+000	8.826089e+001	-2.798637e+001	-1.219275e+002
2117677.643	-2.278224e+001	-1.120546e+002	-3.803632e+000	8.379273e+001	-3.808461e+000	8.379687e+001	-3.068722e+001	-1.129780e+002
2142114.385	-2.390452e+001	-1.099005e+002	-3.798367e+000	7.942177e+001	-3.797774e+000	7.939679e+001	-3.392255e+001	-1.018860e+002
2166551.127	-2.520319e+001	-1.058322e+002	-3.779951e+000	7.499480e+001	-3.782762e+000	7.497340e+001	-3.753265e+001	-7.507181e+001
2190987.868	-2.656329e+001	-1.004675e+002	-3.765695e+000	7.051749e+001	-3.773297e+000	7.052890e+001	-3.786605e+001	-3.337189e+001
2215424.610	-2.769606e+001	-9.369200e+001	-3.753614e+000	6.602709e+001	-3.771225e+000	6.602741e+001	-3.475951e+001	-8.150659e+000
2239861.352	-2.866118e+001	-8.592972e+001	-3.762083e+000	6.160252e+001	-3.778666e+000	6.161624e+001	-3.234529e+001	1.832797e+000
2264298.094	-2.960668e+001	-7.956197e+001	-3.766328e+000	5.715249e+001	-3.774974e+000	5.724359e+001	-3.074217e+001	8.492253e+000
2288734.835	-3.064906e+001	-7.188397e+001	-3.773509e+000	5.287258e+001	-3.784433e+000	5.284256e+001	-2.935801e+001	1.318008e+001
2313171.577	-3.159580e+001	-6.274589e+001	-3.779420e+000	4.855161e+001	-3.784794e+000	4.849829e+001	-2.827715e+001	1.642941e+001
2337608.319	-3.242238e+001	-5.211799e+001	-3.780954e+000	4.418836e+001	-3.791008e+000	4.415739e+001	-2.739642e+001	1.981120e+001
2362045.061	-3.307930e+001	-3.793238e+001	-3.800465e+000	3.977276e+001	-3.802279e+000	3.980931e+001	-2.665362e+001	2.230013e+001
2386481.802	-3.364957e+001	-2.498375e+001	-3.811431e+000	3.549646e+001	-3.820695e+000	3.558277e+001	-2.604892e+001	2.532156e+001
2410918.544	-3.352871e+001	-7.290095e+000	-3.824586e+000	3.122475e+001	-3.829305e+000	3.124104e+001	-2.544370e+001	2.845282e+001
2435355.286	-3.269954e+001	9.439613e+000	-3.843545e+000	2.697332e+001	-3.846248e+000	2.701640e+001	-2.476010e+001	3.177052e+001
2459792.028	-3.118505e+001	2.202691e+001	-3.857821e+000	2.269845e+001	-3.857181e+000	2.271569e+001	-2.403670e+001	3.460181e+001
2484228.769	-2.941325e+001	3.081352e+001	-3.865201e+000	1.843495e+001	-3.874860e+000	1.844898e+001	-2.327918e+001	3.701896e+001
2508665.511	-2.785765e+001	3.629352e+001	-3.891521e+000	1.415863e+001	-3.887455e+000	1.420369e+001	-2.259026e+001	3.872926e+001
2533102.253	-2.636855e+001	3.947186e+001	-3.909541e+000	9.895685e+000	-3.903073e+000	9.890032e+000	-2.188687e+001	3.997448e+001
2557538.995	-2.506325e+001	4.183475e+001	-3.924542e+000	5.676778e+000	-3.928229e+000	5.681558e+000	-2.119562e+001	4.108187e+001
2581975.737	-2.388158e+001	4.283704e+001	-3.946170e+000	1.381484e+000	-3.950453e+000	1.454169e+000	-2.054149e+001	4.159235e+001
2606412.478	-2.286029e+001	4.307319e+001	-3.978550e+000	-2.879596e+000	-3.978553e+000	-2.825661e+000	-1.995010e+001	4.187639e+001
2630849.220	-2.193018e+001	4.296862e+001	-4.009333e+000	-7.118933e+000	-4.009031e+000	-7.050098e+000	-1.936409e+001	4.188037e+001
2655285.962	-2.106585e+001	4.248715e+001	-4.039357e+000	-1.133277e+001	-4.039631e+000	-1.125391e+001	-1.880834e+001	4.169350e+001
2679722.704	-2.029527e+001	4.168176e+001	-4.071854e+000	-1.553135e+001	-4.071654e+000	-1.543927e+001	-1.828059e+001	4.129033e+001
2704159.445	-1.962724e+001	4.059553e+001	-4.114080e+000	-1.972491e+001	-4.108566e+000	-1.962926e+001	-1.779969e+001	4.052458e+001
2728596.187	-1.898684e+001	3.921392e+001	-4.138802e+000	-2.390303e+001	-4.137954e+000	-2.380050e+001	-1.733622e+001	3.951634e+001
2753032.929	-1.845436e+001	3.760064e+001	-4.175113e+000	-2.800121e+001	-4.168558e+000	-2.793724e+001	-1.691261e+001	3.842047e+001
2777469.671	-1.796434e+001	3.583400e+001	-4.208146e+000	-3.220068e+001	-4.208054e+000	-3.201649e+001	-1.653208e+001	3.713245e+001
2801906.412	-1.756387e+001	3.405672e+001	-4.247264e+000	-3.637594e+001	-4.234417e+000	-3.629780e+001	-1.624279e+001	3.570974e+001
2826343.154	-1.721388e+001	3.215372e+001	-4.270997e+000	-4.050477e+001	-4.268133e+000	-4.040343e+001	-1.595820e+001	3.419578e+001
2850779.896	-1.693986e+001	3.025579e+001	-4.298797e+000	-4.468467e+001	-4.305095e+000	-4.457548e+001	-1.573836e+001	3.255708e+001
2875216.638	-1.673970e+001	2.811198e+001	-4.338455e+000	-4.888449e+001	-4.332241e+000	-4.878611e+001	-1.557673e+001	3.097457e+001
2899653.380	-1.659405e+001	2.629594e+001	-4.365260e+000	-5.304240e+001	-4.358537e+000	-5.295153e+001	-1.544397e+001	2.935686e+001
2924090.121	-1.651148e+001	2.444847e+001	-4.409079e+000	-5.728565e+001	-4.404478e+000	-5.718322e+001	-1.538706e+001	2.792041e+001
2948526.863	-1.648968e+001	2.298764e+001	-4.447237e+000	-6.150726e+001	-4.436139e+000	-6.137779e+001	-1.537260e+001	2.663503e+001
2972963.605	-1.648954e+001	2.174499e+001	-4.488970e+000	-6.569976e+001	-4.486878e+000	-6.556347e+001	-1.538402e+001	2.553666e+001
2997400.347	-1.650701e+001	2.048617e+001	-4.537442e+000	-6.980985e+001	-4.527879e+000	-6.972261e+001	-1.538165e+001	2.458563e+001
3021837.088	-1.658759e+001	1.943439e+001	-4.573716e+000	-7.398580e+001	-4.568311e+000	-7.383601e+001	-1.546177e+001	2.358031e+001
3046273.830	-1.672829e+001	1.833646e+001	-4.603014e+000	-7.821655e+001	-4.598856e+000	-7.807906e+001	-1.558466e+001	2.280057e+001
3070710.572	-1.694524e+001	1.759161e+001	-4.638261e+000	-8.242161e+001	-4.625777e+000	-8.231210e+001	-1.576704e+001	2.217347e+001
3095147.314	-1.724544e+001	1.758856e+001	-4.683182e+000	-8.674197e+001	-4.668969e+000	-8.658964e+001	-1.599898e+001	2.209844e+001
3119584.055	-1.750655e+001	1.809446e+001	-4.724207e+000	-9.103723e+001	-4.711879e+000	-9.090290e+001	-1.624522e+001	2.266243e+001
3144020.797	-1.780628e+001	1.934323e+001	-4.777001e+000	-9.535615e+001	-4.771759e+000	-9.518033e+001	-1.649226e+001	2.370149e+001
3168457.539	-1.814237e+001	2.116149e+001	-4.825589e+000	-9.966722e+001	-4.822255e+000	-9.950843e+001	-1.672411e+001	2.527159e+001
3192894.281	-1.841659e+001	2.393051e+001	-4.881305e+000	-1.039953e+002	-4.877787e+000	-1.038445e+002	-1.694047e+001	2.758614e+001
3217331.023	-1.861788e+001	2.747602e+001	-4.947465e+000	-1.083591e+002	-4.943505e+000	-1.081915e+002	-1.707851e+001	3.053680e+001
3241767.764	-1.869331e+001	3.167498e+001	-5.019206e+000	-1.126639e+002	-5.012367e+000	-1.125167e+002	-1.712504e+001	3.392308e+001
3266204.506	-1.858817e+001	3.621727e+001	-5.094333e+000	-1.169668e+002	-5.090269e+000	-1.167739e+002	-1.701021e+001	3.753717e+001
3290641.248	-1.839143e+001	3.998414e+001	-5.160477e+000	-1.211096e+002	-5.150253e+000	-1.209634e+002	-1.685472e+001	4.052936e+001
3315077.990	-1.823483e+001	4.402004e+001	-5.196888e+000	-1.253961e+002	-5.189913e+000	-1.252286e+002	-1.671887e+001	4.374041e+001
3339514.731	-1.796021e+001	4.914876e+001	-5.236712e+000	-1.299184e+002	-5.230076e+000	-1.297386e+002	-1.649559e+001	4.779595e+001
3363951.473	-1.739337e+001	5.428357e+001	-5.295883e+000	-1.345706e+002	-5.290584e+000	-1.343978e+002	-1.606959e+001	5.208131e+001
3388388.215	-1.662958e+001	5.856865e+001	-5.380260e+000	-1.392657e+002	-5.373449e+000	-1.390772e+002	-1.545458e+001	5.595822e+001
3412824.957	-1.573840e+001	6.165157e+001	-5.486251e+000	-1.440179e+002	-5.473452e+000	-1.438134e+002	-1.471381e+001	5.884430e+001
3437261.698	-1.480289e+001	6.342028e+001	-5.609910e+000	-1.487284e+002	-5.600247e+000	-1.485300e+002	-1.391398e+001	6.069460e+001
3461698.440	-1.386487e+001	6.403433e+001	-5.758733e+000	-1.534140e+002	-5.743357e+000	-1.532273e+002	-1.309363e+001	6.154714e+001
3486135.182	-1.297772e+001	6.382780e+001	-5.924612e+000	-1.580616e+002	-5.912056e+000	-1.578584e+002	-1.229454e+001	6.155553e+001
3510571.924	-1.216837e+001	6.278912e+001	-6.107889e+000	-1.626212e+002	-6.092571e+000	-1.624362e+002	-1.153678e+001	6.087764e+001
3535008.666	-1.141926e+001	6.134916e+001	-6.298989e+000	-1.670617e+002	-6.286645e+000	-1.668614e+002	-1.084802e+001	5.965575e+001
3559445.407	-1.075060e+001	5.954650e+001	-6.499922e+000	-1.713947e+002	-6.484916e+000	-1.712301e+002	-1.022036e+001	5.814349e+001
3583882.149	-1.014133e+001	5.754607e+001	-6.698853e+000	-1.756625e+002	-6.684348e+000	-1.754964e+002	-9.646940e+000	5.634350e+001
3608318.891	-9.594604e+000	5.542600e+001	-6.899170e+000	-1.798250e+002	-6.882387e+000	-1.796617e+002	-9.132233e+000	5.440558e+001
3632755.633	-9.077263e+000	5.323614e+001	-7.092712e+000	1.760116e+002	-7.076606e+000	1.761615e+002	-8.644650e+000	5.243101e+001
3657192.374	-8.591920e+000	5.106263e+001	-7.282391e+000	1.718349e+002	-7.264120e+000	1.719408e+002	-8.187142e+000	5.043052e+001
3681629.116	-8.122744e+000	4.869051e+001	-7.483225e+000	1.676180e+002	-7.468586e+000	1.677425e+002	-7.746682e+000	4.827616e+001
3706065.858	-7.683985e+000	4.617523e+001	-7.700884e+000	1.633858e+002	-7.687433e+000	1.634845e+002	-7.329136e+000	4.595191e+001
3730502.600	-7.274899e+000	4.349526e+001	-7.934422e+000	1.592237e+002	-7.917775e+000	1.592831e+002	-6.933161e+000	4.350388e+001
3754939.341	-6.899182e+000	4.068439e+001	-8.177947e+000	1.550880e+002	-8.162972e+000	1.551950e+002	-6.576165e+000	4.087780e+001
3779376.083	-6.561871e+000	3.786653e+001	-8.432205e+000	1.510927e+002	-8.420327e+000	1.511407e+002	-6.250601e+000	3.818169e+001
3803812.825	-6.253826e+000	3.498113e+001	-8.693056e+000	1.471120e+002	-8.677159e+000	1.472050e+002	-5.959470e+000	3.546594e+001
3828249.567	-5.971602e+000	3.206173e+001	-8.961285e+000	1.432413e+002	-8.947220e+000	1.432761e+002	-5.692042e+000	3.269024e+001
3852686.308	-5.725605e+000	2.914882e+001	-9.232176e+000	1.393679e+002	-9.224872e+000	1.394522e+002	-5.452205e+000	2.988535e+001
3877123.050	-5.494616e+000	2.621465e+001	-9.511953e+000	1.356165e+002	-9.504703e+000	1.356845e+002	-5.234894e+000	2.709961e+001
3901559.792	-5.295677e+000	2.330892e+001	-9.797708e+000	1.319141e+002	-9.788711e+000	1.319806e+002	-5.038037e+000	2.427468e+001
3925996.534	-5.108560e+000	2.034892e+001	-1.009086e+001	1.282607e+002	-1.007966e+001	1.283543e+002	-4.868021e+000	2.146605e+001
3950433.276	-4.940551e+000	1.743664e+001	-1.038968e+001	1.246724e+002	-1.038548e+001	1.247432e+002	-4.711519e+000	1.865553e+001
3974870.017	-4.792623e+000	1.447311e+001	-1.070090e+001	1.211456e+002	-1.069694e+001	1.211861e+002	-4.566895e+000	1.582417e+001
3999306.759	-4.659047e+000	1.151655e+001	-1.102552e+001	1.176410e+002	-1.102243e+001	1.177018e+002	-4.444314e+000	1.297588e+001
4023743.501	-4.541990e+000	8.562283e+000	-1.135909e+001	1.142603e+002	-1.135263e+001	1.143442e+002	-4.339795e+000	1.013407e+001
4048180.243	-4.440371e+000	5.576690e+000	-1.171392e+001	1.109678e+002	-1.170680e+001	1.110315e+002	-4.243460e+000	7.272773e+000
4072616.984	-4.351444e+000	2.559433e+000	-1.208680e+001	1.077624e+002	-1.208476e+001	1.078015e+002	-4.165193e+000	4.378087e+000
4097053.726	-4.284375e+000	-4.624583e-001	-1.247515e+001	1.047655e+002	-1.247511e+001	1.047481e+002	-4.098321e+000	1.434366e+000
4121490.468	-4.231583e+000	-3.532545e+000	-1.288671e+001	1.018808e+002	-1.288415e+001	1.018982e+002	-4.052520e+000	-1.517575e+000
4145927.210	-4.190010e+000	-6.657703e+000	-1.332463e+001	9.917573e+001	-1.332544e+001	9.925479e+001	-4.022606e+000	-4.514649e+000
4170363.951	-4.177220e+000	-9.762959e+000	-1.376635e+001	9.684509e+001	-1.377524e+001	9.688115e+001	-4.007980e+000	-7.530580e+000
4194800.693	-4.178353e+000	-1.292894e+001	-1.425322e+001	9.485806e+001	-1.426031e+001	9.490312e+001	-4.012555e+000	-1.060167e+001
4219237.435	-4.212301e+000	-1.616395e+001	-1.474565e+001	9.339280e+001	-1.475418e+001	9.343739e+001	-4.047909e+000	-1.369807e+001
4243674.177	-4.265483e+000	-1.932493e+001	-1.520938e+001	9.254043e+001	-1.522266e+001	9.256771e+001	-4.105763e+000	-1.679371e+001
4268110.919	-4.347670e+000	-2.247730e+001	-1.562600e+001	9.220095e+001	-1.562642e+001	9.222112e+001	-4.189717e+000	-1.981177e+001
4292547.660	-4.442665e+000	-2.554638e+001	-1.597620e+001	9.206844e+001	-1.598373e+001	9.216074e+001	-4.284954e+000	-2.279245e+001
4316984.402	-4.554750e+000	-2.862715e+001	-1.628082e+001	9.236679e+001	-1.628766e+001	9.243787e+001	-4.395443e+000	-2.577583e+001
4341421.144	-4.688671e+000	-3.166826e+001	-1.649937e+001	9.309972e+001	-1.650820e+001	9.314209e+001	-4.531220e+000	-2.872495e+001
4365857.886	-4.843219e+000	-3.460948e+001	-1.658823e+001	9.377136e+001	-1.660394e+001	9.382741e+001	-4.683415e+000	-3.156544e+001
4390294.627	-5.000072e+000	-3.742425e+001	-1.659423e+001	9.408817e+001	-1.659912e+001	9.411556e+001	-4.842253e+000	-3.431013e+001
4414731.369	-5.142450e+000	-4.023300e+001	-1.659962e+001	9.372398e+001	-1.660829e+001	9.373415e+001	-4.984740e+000	-3.701311e+001
4439168.111	-5.267954e+000	-4.317934e+001	-1.669552e+001	9.322161e+001	-1.671301e+001	9.324393e+001	-5.111169e+000	-3.989415e+001
4463604.853	-5.394325e+000	-4.649153e+001	-1.691670e+001	9.352543e+001	-1.692199e+001	9.354233e+001	-5.242346e+000	-4.310682e+001
4488041.594	-5.578782e+000	-5.025487e+001	-1.710136e+001	9.570562e+001	-1.710577e+001	9.581053e+001	-5.422374e+000	-4.676504e+001
4512478.336	-5.862370e+000	-5.424217e+001	-1.694656e+001	9.964612e+001	-1.695359e+001	9.975504e+001	-5.704706e+000	-5.065534e+001
4536915.078	-6.272092e+000	-5.803817e+001	-1.626195e+001	1.030975e+002	-1.627327e+001	1.030518e+002	-6.111665e+000	-5.429168e+001
4561351.820	-6.751427e+000	-6.104904e+001	-1.536056e+001	1.032075e+002	-1.535898e+001	1.032179e+002	-6.580774e+000	-5.721598e+001
4585788.562	-7.186307e+000	-6.357634e+001	-1.462341e+001	1.012236e+002	-1.462405e+001	1.012541e+002	-7.004609e+000	-5.964464e+001
4610225.303	-7.600102e+000	-6.621596e+001	-1.404639e+001	9.900849e+001	-1.404450e+001	9.897895e+001	-7.408463e+000	-6.218163e+001
4634662.045	-8.056651e+000	-6.887358e+001	-1.347657e+001	9.671794e+001	-1.348840e+001	9.670468e+001	-7.856093e+000	-6.479037e+001
4659098.787	-8.542862e+000	-7.141518e+001	-1.293242e+001	9.402663e+001	-1.293712e+001	9.401652e+001	-8.331620e+000	-6.727389e+001
4683535.529	-9.048321e+000	-7.391112e+001	-1.243459e+001	9.104073e+001	-1.244718e+001	9.102490e+001	-8.831114e+000	-6.967474e+001
4707972.270	-9.595388e+000	-7.655791e+001	-1.197659e+001	8.824788e+001	-1.199163e+001	8.824253e+001	-9.363823e+000	-7.228814e+001
4732409.012	-1.026775e+001	-7.940620e+001	-1.145736e+001	8.576260e+001	-1.146286e+001	8.579494e+001	-1.003685e+001	-7.507078e+001
4756845.754	-1.115081e+001	-8.181808e+001	-1.079438e+001	8.293284e+001	-1.079953e+001	8.295279e+001	-1.090928e+001	-7.741107e+001
4781282.496	-1.221051e+001	-8.238901e+001	-1.006866e+001	7.880286e+001	-1.007439e+001	7.885153e+001	-1.194701e+001	-7.797629e+001
4805719.237	-1.323769e+001	-8.059251e+001	-9.417166e+000	7.348923e+001	-9.421357e+000	7.350572e+001	-1.293751e+001	-7.624499e+001
4830155.979	-1.403198e+001	-7.696527e+001	-8.892138e+000	6.755531e+001	-8.895339e+000	6.759693e+001	-1.372754e+001	-7.277128e+001
4854592.721	-1.453209e+001	-7.251744e+001	-8.478751e+000	6.145281e+001	-8.474546e+000	6.148563e+001	-1.422826e+001	-6.847550e+001
4879029.463	-1.472438e+001	-6.810020e+001	-8.142295e+000	5.530036e+001	-8.139464e+000	5.534581e+001	-1.445294e+001	-6.425457e+001
4903466.205	-1.466422e+001	-6.437930e+001	-7.861090e+000	4.912164e+001	-7.858561e+000	4.918433e+001	-1.441808e+001	-6.056952e+001
4927902.946	-1.440931e+001	-6.178294e+001	-7.639769e+000	4.295867e+001	-7.637448e+000	4.299412e+001	-1.420289e+001	-5.801590e+001
4952339.688	-1.404166e+001	-6.072572e+001	-7.471190e+000	3.677060e+001	-7.470900e+000	3.682992e+001	-1.388275e+001	-5.681093e+001
4976776.430	-1.367172e+001	-6.100101e+001	-7.354449e+000	3.066543e+001	-7.352667e+000	3.073110e+001	-1.353127e+001	-5.693207e+001
5001213.172	-1.333371e+001	-6.241881e+001	-7.279233e+000	2.469306e+001	-7.275556e+000	2.471111e+001	-1.321649e+001	-5.826647e+001
5025649.913	-1.306666e+001	-6.474936e+001	-7.244147e+000	1.880649e+001	-7.240373e+000	1.885423e+001	-1.296826e+001	-6.047893e+001
5050086.655	-1.287421e+001	-6.773466e+001	-7.232669e+000	1.310463e+001	-7.227949e+000	1.314151e+001	-1.279428e+001	-6.333599e+001
5074523.397	-1.275701e+001	-7.113752e+001	-7.242478e+000	7.508879e+000	-7.237565e+000	7.550316e+000	-1.269191e+001	-6.666110e+001
5098960.139	-1.270540e+001	-7.491927e+001	-7.264812e+000	2.056501e+000	-7.259406e+000	2.119296e+000	-1.265588e+001	-7.031528e+001
5123396.880	-1.271188e+001	-7.899366e+001	-7.302630e+000	-3.295823e+000	-7.295202e+000	-3.232523e+000	-1.267910e+001	-7.429043e+001
5147833.622	-1.275476e+001	-8.334674e+001	-7.342609e+000	-8.572964e+000	-7.340862e+000	-8.515573e+000	-1.274574e+001	-7.852076e+001
5172270.364	-1.283805e+001	-8.789804e+001	-7.391153e+000	-1.379046e+001	-7.390522e+000	-1.371513e+001	-1.285345e+001	-8.304481e+001
5196707.106	-1.296032e+001	-9.275953e+001	-7.452685e+000	-1.895372e+001	-7.452119e+000	-1.889752e+001	-1.299434e+001	-8.784028e+001
5221143.847	-1.310050e+001	-9.798001e+001	-7.524043e+000	-2.410515e+001	-7.520666e+000	-2.400503e+001	-1.316540e+001	-9.296518e+001
5245580.589	-1.327125e+001	-1.034938e+002	-7.603135e+000	-2.920911e+001	-7.600222e+000	-2.911375e+001	-1.335877e+001	-9.847759e+001
5270017.331	-1.346351e+001	-1.093500e+002	-7.693636e+000	-3.424746e+001	-7.687227e+000	-3.414991e+001	-1.357241e+001	-1.042666e+002
5294454.073	-1.365936e+001	-1.154879e+002	-7.790610e+000	-3.922029e+001	-7.783940e+000	-3.912713e+001	-1.379978e+001	-1.105165e+002
5318890.815	-1.386496e+001	-1.219768e+002	-7.889272e+000	-4.415191e+001	-7.883405e+000	-4.406218e+001	-1.403745e+001	-1.170778e+002
5343327.556	-1.405393e+001	-1.287842e+002	-7.995821e+000	-4.906160e+001	-7.985569e+000	-4.896450e+001	-1.425871e+001	-1.238902e+002
5367764.298	-1.421631e+001	-1.359561e+002	-8.101657e+000	-5.399035e+001	-8.095172e+000	-5.386866e+001	-1.444878e+001	-1.311511e+002
5392201.040	-1.434390e+001	-1.433099e+002	-8.213474e+000	-5.887056e+001	-8.206966e+000	-5.878095e+001	-1.458397e+001	-1.388007e+002
5416637.782	-1.441090e+001	-1.510595e+002	-8.340112e+000	-6.379548e+001	-8.327893e+000	-6.366268e+001	-1.467853e+001	-1.466737e+002
5441074.523	-1.443616e+001	-1.589745e+002	-8.470472e+000	-6.867502e+001	-8.461836e+000	-6.855315e+001	-1.470086e+001	-1.548739e+002
5465511.265	-1.438017e+001	-1.671313e+002	-8.606698e+000	-7.354424e+001	-8.602991e+000	-7.340413e+001	-1.465003e+001	-1.631916e+002
