!Agilent Technologies,E5061B,MY49101568,A.02.00
!Date: Wed Mar 01 15:33:20 2023
!Data & Calibration Information:
!Freq	S11:SOLT2(OFF)	S21:SOLT2(OFF)	S12:SOLT2(OFF)	S22:SOLT2(OFF)
# Hz S dB R 50
1800000.000	-1.373579e+001	-4.554033e+001	-1.188741e+001	-1.447125e+002	-1.188183e+001	-1.444945e+002	-1.480753e+001	-1.641449e+001
1824436.742	-1.478040e+001	-5.155643e+001	-1.141059e+001	-1.522243e+002	-1.140488e+001	-1.520462e+002	-1.599452e+001	-2.248050e+001
1848873.484	-1.607221e+001	-5.700518e+001	-1.098608e+001	-1.600750e+002	-1.098707e+001	-1.598860e+002	-1.745029e+001	-2.804689e+001
1873310.225	-1.765335e+001	-6.140055e+001	-1.062930e+001	-1.680740e+002	-1.063233e+001	-1.678781e+002	-1.924174e+001	-3.255779e+001
1897746.967	-1.959109e+001	-6.393028e+001	-1.033128e+001	-1.761637e+002	-1.033523e+001	-1.759257e+002	-2.143718e+001	-3.526394e+001
1922183.709	-2.194722e+001	-6.304020e+001	-1.008835e+001	1.757004e+002	-1.009122e+001	1.759781e+002	-2.421654e+001	-3.431101e+001
1946620.451	-2.461479e+001	-5.510728e+001	-9.901771e+000	1.675586e+002	-9.903101e+000	1.678588e+002	-2.756834e+001	-2.432568e+001
1971057.192	-2.657093e+001	-3.569947e+001	-9.782641e+000	1.594851e+002	-9.778128e+000	1.598035e+002	-2.995453e+001	2.821342e+000
1995493.934	-2.617835e+001	-1.220593e+001	-9.713887e+000	1.515508e+002	-9.706436e+000	1.519496e+002	-2.863982e+001	3.192554e+001
2019930.676	-2.419320e+001	1.451005e+000	-9.691136e+000	1.438434e+002	-9.677485e+000	1.442357e+002	-2.587376e+001	4.428558e+001
2044367.418	-2.211547e+001	5.670831e+000	-9.709395e+000	1.363503e+002	-9.691968e+000	1.367266e+002	-2.357676e+001	4.619577e+001
2068804.159	-2.046932e+001	4.740101e+000	-9.766659e+000	1.291662e+002	-9.747142e+000	1.295443e+002	-2.188096e+001	4.360896e+001
2093240.901	-1.923346e+001	1.405295e+000	-9.848943e+000	1.223927e+002	-9.825460e+000	1.226906e+002	-2.066118e+001	3.912470e+001
2117677.643	-1.833711e+001	-2.839751e+000	-9.925387e+000	1.159506e+002	-9.903557e+000	1.162301e+002	-1.980360e+001	3.383775e+001
2142114.385	-1.766924e+001	-7.381217e+000	-9.982930e+000	1.097939e+002	-9.963074e+000	1.100493e+002	-1.919631e+001	2.834169e+001
2166551.127	-1.712052e+001	-1.206472e+001	-1.002359e+001	1.037355e+002	-1.000487e+001	1.039839e+002	-1.873263e+001	2.283600e+001
2190987.868	-1.667936e+001	-1.710707e+001	-1.006262e+001	9.776329e+001	-1.004802e+001	9.801606e+001	-1.836975e+001	1.707015e+001
2215424.610	-1.635880e+001	-2.239244e+001	-1.009853e+001	9.193107e+001	-1.008456e+001	9.221635e+001	-1.811919e+001	1.101044e+001
2239861.352	-1.614805e+001	-2.777517e+001	-1.012026e+001	8.628848e+001	-1.010987e+001	8.655403e+001	-1.797515e+001	4.810429e+000
2264298.094	-1.602474e+001	-3.312093e+001	-1.012295e+001	8.075649e+001	-1.011697e+001	8.102535e+001	-1.791025e+001	-1.492499e+000
2288734.835	-1.595765e+001	-3.836538e+001	-1.010373e+001	7.526516e+001	-1.009885e+001	7.553802e+001	-1.792771e+001	-7.784222e+000
2313171.577	-1.594309e+001	-4.360443e+001	-1.007146e+001	6.976540e+001	-1.006539e+001	7.002798e+001	-1.798904e+001	-1.414210e+001
2337608.319	-1.597669e+001	-4.896267e+001	-1.002838e+001	6.423922e+001	-1.002558e+001	6.449415e+001	-1.808995e+001	-2.072586e+001
2362045.061	-1.607474e+001	-5.444215e+001	-9.980672e+000	5.873755e+001	-9.983913e+000	5.896399e+001	-1.823928e+001	-2.749640e+001
2386481.802	-1.624720e+001	-6.000636e+001	-9.926247e+000	5.321275e+001	-9.931166e+000	5.345024e+001	-1.844787e+001	-3.463992e+001
2410918.544	-1.650649e+001	-6.544592e+001	-9.856307e+000	4.774330e+001	-9.863742e+000	4.797321e+001	-1.873338e+001	-4.206294e+001
2435355.286	-1.680557e+001	-7.078324e+001	-9.772306e+000	4.212382e+001	-9.779197e+000	4.237792e+001	-1.907720e+001	-4.950849e+001
2459792.028	-1.715754e+001	-7.624922e+001	-9.689651e+000	3.640809e+001	-9.695701e+000	3.666605e+001	-1.944350e+001	-5.727398e+001
2484228.769	-1.759482e+001	-8.175803e+001	-9.609404e+000	3.061075e+001	-9.618767e+000	3.090678e+001	-1.986219e+001	-6.547916e+001
2508665.511	-1.812869e+001	-8.729612e+001	-9.536691e+000	2.478462e+001	-9.542528e+000	2.508265e+001	-2.033782e+001	-7.412587e+001
2533102.253	-1.877359e+001	-9.270484e+001	-9.464766e+000	1.894454e+001	-9.475198e+000	1.918643e+001	-2.086929e+001	-8.321359e+001
2557538.995	-1.952852e+001	-9.800237e+001	-9.403489e+000	1.300412e+001	-9.407957e+000	1.326251e+001	-2.145134e+001	-9.286426e+001
2581975.737	-2.043038e+001	-1.031185e+002	-9.348786e+000	7.006667e+000	-9.353763e+000	7.272632e+000	-2.208037e+001	-1.030786e+002
2606412.478	-2.149093e+001	-1.079264e+002	-9.307992e+000	9.829064e-001	-9.310429e+000	1.235282e+000	-2.274381e+001	-1.139062e+002
2630849.220	-2.275533e+001	-1.123058e+002	-9.278776e+000	-5.077471e+000	-9.278933e+000	-4.821090e+000	-2.343870e+001	-1.255585e+002
2655285.962	-2.428287e+001	-1.158937e+002	-9.264683e+000	-1.114483e+001	-9.262310e+000	-1.089329e+001	-2.411392e+001	-1.378541e+002
2679722.704	-2.614113e+001	-1.181181e+002	-9.264995e+000	-1.718953e+001	-9.262813e+000	-1.696244e+001	-2.475368e+001	-1.510464e+002
2704159.445	-2.846639e+001	-1.177396e+002	-9.277102e+000	-2.322352e+001	-9.272930e+000	-2.299754e+001	-2.531395e+001	-1.648398e+002
2728596.187	-3.133489e+001	-1.119554e+002	-9.302041e+000	-2.919266e+001	-9.298133e+000	-2.898616e+001	-2.577623e+001	-1.793463e+002
2753032.929	-3.434430e+001	-9.416546e+001	-9.335999e+000	-3.510784e+001	-9.332042e+000	-3.493384e+001	-2.613860e+001	1.659575e+002
2777469.671	-3.520693e+001	-6.270815e+001	-9.375912e+000	-4.099858e+001	-9.372497e+000	-4.081825e+001	-2.638965e+001	1.513411e+002
2801906.412	-3.298830e+001	-3.872043e+001	-9.425025e+000	-4.681649e+001	-9.421921e+000	-4.666785e+001	-2.652749e+001	1.371394e+002
2826343.154	-3.033851e+001	-2.890214e+001	-9.479870e+000	-5.258998e+001	-9.476692e+000	-5.245619e+001	-2.659450e+001	1.236415e+002
2850779.896	-2.816417e+001	-2.621751e+001	-9.538417e+000	-5.831273e+001	-9.537974e+000	-5.818064e+001	-2.663339e+001	1.108022e+002
2875216.638	-2.644878e+001	-2.676859e+001	-9.601660e+000	-6.397488e+001	-9.599034e+000	-6.383598e+001	-2.663955e+001	9.871489e+001
2899653.380	-2.510791e+001	-2.897517e+001	-9.664341e+000	-6.956741e+001	-9.663691e+000	-6.943062e+001	-2.669334e+001	8.736609e+001
2924090.121	-2.403381e+001	-3.198122e+001	-9.726887e+000	-7.509374e+001	-9.727279e+000	-7.497661e+001	-2.678996e+001	7.645031e+001
2948526.863	-2.317582e+001	-3.552021e+001	-9.786488e+000	-8.058470e+001	-9.788010e+000	-8.048490e+001	-2.697999e+001	6.600684e+001
2972963.605	-2.249557e+001	-3.930034e+001	-9.843294e+000	-8.605987e+001	-9.846979e+000	-8.596303e+001	-2.725981e+001	5.587958e+001
2997400.347	-2.195553e+001	-4.318285e+001	-9.897970e+000	-9.149965e+001	-9.902775e+000	-9.141219e+001	-2.765319e+001	4.591031e+001
3021837.088	-2.153320e+001	-4.708328e+001	-9.950975e+000	-9.692076e+001	-9.955981e+000	-9.683720e+001	-2.817726e+001	3.600621e+001
3046273.830	-2.120652e+001	-5.093918e+001	-9.999885e+000	-1.023136e+002	-1.000538e+001	-1.022281e+002	-2.882147e+001	2.589013e+001
3070710.572	-2.096669e+001	-5.485677e+001	-1.004055e+001	-1.076872e+002	-1.004726e+001	-1.076160e+002	-2.962113e+001	1.497323e+001
3095147.314	-2.083114e+001	-5.876832e+001	-1.007133e+001	-1.130940e+002	-1.007860e+001	-1.130075e+002	-3.061076e+001	2.349362e+000
3119584.055	-2.079226e+001	-6.258190e+001	-1.009410e+001	-1.185433e+002	-1.009990e+001	-1.184887e+002	-3.186769e+001	-1.328734e+001
3144020.797	-2.086198e+001	-6.612799e+001	-1.011644e+001	-1.240519e+002	-1.011973e+001	-1.240293e+002	-3.326372e+001	-3.292102e+001
3168457.539	-2.103990e+001	-6.930998e+001	-1.013992e+001	-1.297028e+002	-1.014360e+001	-1.296763e+002	-3.453234e+001	-5.960823e+001
3192894.281	-2.131365e+001	-7.185089e+001	-1.017157e+001	-1.354382e+002	-1.017519e+001	-1.354067e+002	-3.469483e+001	-9.241649e+001
3217331.023	-2.166618e+001	-7.367538e+001	-1.021539e+001	-1.412310e+002	-1.021845e+001	-1.412094e+002	-3.331208e+001	-1.238796e+002
3241767.764	-2.205899e+001	-7.450745e+001	-1.027661e+001	-1.470733e+002	-1.027812e+001	-1.470519e+002	-3.118780e+001	-1.482019e+002
3266204.506	-2.244501e+001	-7.434028e+001	-1.035330e+001	-1.528738e+002	-1.035626e+001	-1.528657e+002	-2.911584e+001	-1.662465e+002
3290641.248	-2.279841e+001	-7.353338e+001	-1.042636e+001	-1.585869e+002	-1.042980e+001	-1.585813e+002	-2.729340e+001	-1.791301e+002
3315077.990	-2.321289e+001	-7.197998e+001	-1.047897e+001	-1.643831e+002	-1.048122e+001	-1.643944e+002	-2.552511e+001	1.710143e+002
3339514.731	-2.362413e+001	-6.840350e+001	-1.053929e+001	-1.704499e+002	-1.054411e+001	-1.704632e+002	-2.381507e+001	1.617717e+002
3363951.473	-2.379063e+001	-6.272386e+001	-1.063355e+001	-1.766739e+002	-1.063576e+001	-1.766925e+002	-2.228027e+001	1.527562e+002
3388388.215	-2.354724e+001	-5.611131e+001	-1.076189e+001	1.770466e+002	-1.076518e+001	1.770004e+002	-2.093458e+001	1.438318e+002
3412824.957	-2.287004e+001	-5.005890e+001	-1.092708e+001	1.707590e+002	-1.093235e+001	1.707094e+002	-1.978432e+001	1.351735e+002
3437261.698	-2.189651e+001	-4.576596e+001	-1.112542e+001	1.645018e+002	-1.113200e+001	1.644451e+002	-1.877505e+001	1.268629e+002
3461698.440	-2.078379e+001	-4.348722e+001	-1.135722e+001	1.583261e+002	-1.136807e+001	1.582618e+002	-1.789873e+001	1.188268e+002
3486135.182	-1.966192e+001	-4.311815e+001	-1.162362e+001	1.523063e+002	-1.163787e+001	1.522207e+002	-1.714613e+001	1.110178e+002
3510571.924	-1.860537e+001	-4.417749e+001	-1.191869e+001	1.464495e+002	-1.193593e+001	1.463823e+002	-1.650540e+001	1.035447e+002
3535008.666	-1.765594e+001	-4.626380e+001	-1.223070e+001	1.408384e+002	-1.225145e+001	1.407801e+002	-1.596534e+001	9.642147e+001
3559445.407	-1.682029e+001	-4.895250e+001	-1.254584e+001	1.354771e+002	-1.256884e+001	1.354132e+002	-1.550284e+001	8.974885e+001
3583882.149	-1.608440e+001	-5.191755e+001	-1.285059e+001	1.302816e+002	-1.287873e+001	1.302212e+002	-1.509374e+001	8.350429e+001
3608318.891	-1.540923e+001	-5.501463e+001	-1.315248e+001	1.251569e+002	-1.318191e+001	1.251025e+002	-1.471088e+001	7.762816e+001
3632755.633	-1.478049e+001	-5.827612e+001	-1.346110e+001	1.200291e+002	-1.348574e+001	1.200841e+002	-1.435843e+001	7.197326e+001
3657192.374	-1.420463e+001	-6.165657e+001	-1.376980e+001	1.150468e+002	-1.379579e+001	1.151444e+002	-1.403073e+001	6.649251e+001
3681629.116	-1.366833e+001	-6.514593e+001	-1.407861e+001	1.101113e+002	-1.411011e+001	1.102070e+002	-1.371388e+001	6.115693e+001
3706065.858	-1.316909e+001	-6.874215e+001	-1.439682e+001	1.052774e+002	-1.443447e+001	1.053942e+002	-1.342361e+001	5.591528e+001
3730502.600	-1.270656e+001	-7.245498e+001	-1.472973e+001	1.005287e+002	-1.476909e+001	1.006880e+002	-1.316105e+001	5.077890e+001
3754939.341	-1.228411e+001	-7.621737e+001	-1.506318e+001	9.595924e+001	-1.510781e+001	9.613371e+001	-1.292461e+001	4.574530e+001
3779376.083	-1.189422e+001	-8.001268e+001	-1.540151e+001	9.148512e+001	-1.544714e+001	9.168651e+001	-1.270913e+001	4.084356e+001
3803812.825	-1.153661e+001	-8.381565e+001	-1.573706e+001	8.712378e+001	-1.578894e+001	8.735741e+001	-1.251515e+001	3.605264e+001
3828249.567	-1.120633e+001	-8.761627e+001	-1.607499e+001	8.288436e+001	-1.612967e+001	8.317468e+001	-1.234176e+001	3.137660e+001
3852686.308	-1.090386e+001	-9.140560e+001	-1.640789e+001	7.877052e+001	-1.646493e+001	7.909665e+001	-1.218181e+001	2.683436e+001
3877123.050	-1.062265e+001	-9.515975e+001	-1.673907e+001	7.475614e+001	-1.679706e+001	7.510715e+001	-1.203570e+001	2.241513e+001
3901559.792	-1.035931e+001	-9.889950e+001	-1.706515e+001	7.081153e+001	-1.712717e+001	7.120303e+001	-1.189851e+001	1.809514e+001
3925996.534	-1.011295e+001	-1.026023e+002	-1.738899e+001	6.692421e+001	-1.745463e+001	6.735609e+001	-1.176703e+001	1.387338e+001
3950433.276	-9.879177e+000	-1.063100e+002	-1.771823e+001	6.309407e+001	-1.778183e+001	6.358781e+001	-1.164448e+001	9.733828e+000
3974870.017	-9.661751e+000	-1.100170e+002	-1.805321e+001	5.936997e+001	-1.811433e+001	5.992204e+001	-1.152639e+001	5.657321e+000
3999306.759	-9.458210e+000	-1.137112e+002	-1.838426e+001	5.572872e+001	-1.845079e+001	5.634391e+001	-1.141614e+001	1.632553e+000
4023743.501	-9.265717e+000	-1.174076e+002	-1.872620e+001	5.217585e+001	-1.879075e+001	5.280882e+001	-1.130584e+001	-2.328191e+000
4048180.243	-9.085299e+000	-1.211105e+002	-1.907268e+001	4.869043e+001	-1.913352e+001	4.939628e+001	-1.120341e+001	-6.247949e+000
4072616.984	-8.915828e+000	-1.248277e+002	-1.943266e+001	4.532344e+001	-1.948695e+001	4.608182e+001	-1.110359e+001	-1.014103e+001
4097053.726	-8.759536e+000	-1.285707e+002	-1.980386e+001	4.211481e+001	-1.985839e+001	4.288861e+001	-1.100669e+001	-1.401848e+001
4121490.468	-8.614444e+000	-1.323269e+002	-2.019105e+001	3.907465e+001	-2.024035e+001	3.989777e+001	-1.091749e+001	-1.788658e+001
4145927.210	-8.480813e+000	-1.361234e+002	-2.059726e+001	3.621374e+001	-2.064500e+001	3.708860e+001	-1.082958e+001	-2.175933e+001
4170363.951	-8.364304e+000	-1.399516e+002	-2.102761e+001	3.375389e+001	-2.108098e+001	3.465683e+001	-1.075221e+001	-2.564355e+001
4194800.693	-8.265491e+000	-1.438466e+002	-2.147345e+001	3.173275e+001	-2.152026e+001	3.259073e+001	-1.068293e+001	-2.954061e+001
4219237.435	-8.188220e+000	-1.477659e+002	-2.190673e+001	3.023838e+001	-2.195127e+001	3.114640e+001	-1.062885e+001	-3.345237e+001
4243674.177	-8.134090e+000	-1.516720e+002	-2.229681e+001	2.937113e+001	-2.234062e+001	3.027293e+001	-1.058883e+001	-3.733706e+001
4268110.919	-8.097225e+000	-1.555579e+002	-2.262827e+001	2.887088e+001	-2.266544e+001	2.989710e+001	-1.056204e+001	-4.118323e+001
4292547.660	-8.081874e+000	-1.594391e+002	-2.288144e+001	2.885851e+001	-2.291766e+001	2.984223e+001	-1.054290e+001	-4.499409e+001
4316984.402	-8.083363e+000	-1.632914e+002	-2.305348e+001	2.912028e+001	-2.308314e+001	3.013328e+001	-1.053430e+001	-4.877357e+001
4341421.144	-8.109562e+000	-1.671163e+002	-2.309982e+001	2.964602e+001	-2.311390e+001	3.061149e+001	-1.053936e+001	-5.250100e+001
4365857.886	-8.145954e+000	-1.708098e+002	-2.301807e+001	2.959621e+001	-2.303870e+001	3.073965e+001	-1.054788e+001	-5.612288e+001
4390294.627	-8.185856e+000	-1.744606e+002	-2.290648e+001	2.912647e+001	-2.291843e+001	3.029340e+001	-1.054863e+001	-5.965894e+001
4414731.369	-8.220118e+000	-1.781528e+002	-2.284158e+001	2.826805e+001	-2.283923e+001	2.947439e+001	-1.053133e+001	-6.321729e+001
4439168.111	-8.257815e+000	1.779935e+002	-2.283310e+001	2.777127e+001	-2.283689e+001	2.900336e+001	-1.049540e+001	-6.696066e+001
4463604.853	-8.318500e+000	1.738828e+002	-2.284506e+001	2.840864e+001	-2.282386e+001	2.962724e+001	-1.046551e+001	-7.097068e+001
4488041.594	-8.437166e+000	1.695224e+002	-2.267786e+001	3.057163e+001	-2.265244e+001	3.171679e+001	-1.046820e+001	-7.531624e+001
4512478.336	-8.647449e+000	1.650977e+002	-2.210532e+001	3.322153e+001	-2.206741e+001	3.438368e+001	-1.054661e+001	-7.989661e+001
4536915.078	-8.961942e+000	1.609989e+002	-2.111387e+001	3.410369e+001	-2.108387e+001	3.530255e+001	-1.072053e+001	-8.436493e+001
4561351.820	-9.326453e+000	1.575798e+002	-2.004453e+001	3.191241e+001	-2.000135e+001	3.301020e+001	-1.096265e+001	-8.827876e+001
4585788.562	-9.666506e+000	1.547535e+002	-1.917451e+001	2.765294e+001	-1.913178e+001	2.870856e+001	-1.119041e+001	-9.163438e+001
4610225.303	-9.967671e+000	1.520761e+002	-1.851986e+001	2.301073e+001	-1.847465e+001	2.402053e+001	-1.137555e+001	-9.482458e+001
4634662.045	-1.026083e+001	1.493922e+002	-1.797396e+001	1.848794e+001	-1.792143e+001	1.948308e+001	-1.154409e+001	-9.809748e+001
4659098.787	-1.056928e+001	1.467133e+002	-1.747014e+001	1.412661e+001	-1.740991e+001	1.509811e+001	-1.171670e+001	-1.014681e+002
4683535.529	-1.090512e+001	1.440776e+002	-1.698228e+001	9.842797e+000	-1.692284e+001	1.077059e+001	-1.190193e+001	-1.049277e+002
4707972.270	-1.128767e+001	1.416573e+002	-1.646718e+001	5.541827e+000	-1.641886e+001	6.699852e+000	-1.212287e+001	-1.086082e+002
4732409.012	-1.175381e+001	1.394494e+002	-1.589124e+001	1.387502e+000	-1.582393e+001	2.619132e+000	-1.243378e+001	-1.124702e+002
4756845.754	-1.229195e+001	1.381718e+002	-1.521607e+001	-3.389834e+000	-1.510760e+001	-2.200966e+000	-1.289396e+001	-1.160244e+002
4781282.496	-1.277171e+001	1.382255e+002	-1.454957e+001	-9.406496e+000	-1.440612e+001	-8.418067e+000	-1.344808e+001	-1.184123e+002
4805719.237	-1.308402e+001	1.389975e+002	-1.399026e+001	-1.619365e+001	-1.383231e+001	-1.556217e+001	-1.397156e+001	-1.194990e+002
4830155.979	-1.323285e+001	1.397609e+002	-1.354429e+001	-2.324756e+001	-1.340673e+001	-2.296697e+001	-1.437411e+001	-1.197625e+002
4854592.721	-1.324672e+001	1.402154e+002	-1.318246e+001	-3.041814e+001	-1.308716e+001	-3.028603e+001	-1.465063e+001	-1.197116e+002
4879029.463	-1.318537e+001	1.401833e+002	-1.287826e+001	-3.754681e+001	-1.282639e+001	-3.743183e+001	-1.483336e+001	-1.195826e+002
4903466.205	-1.304780e+001	1.394954e+002	-1.264199e+001	-4.477191e+001	-1.260759e+001	-4.449579e+001	-1.492881e+001	-1.194273e+002
4927902.946	-1.290086e+001	1.381683e+002	-1.245220e+001	-5.191128e+001	-1.242664e+001	-5.152422e+001	-1.493700e+001	-1.193231e+002
4952339.688	-1.275854e+001	1.362824e+002	-1.230441e+001	-5.904422e+001	-1.227994e+001	-5.849441e+001	-1.486256e+001	-1.194334e+002
4976776.430	-1.264977e+001	1.338753e+002	-1.220059e+001	-6.602614e+001	-1.217201e+001	-6.544081e+001	-1.471060e+001	-1.198475e+002
5001213.172	-1.258656e+001	1.310679e+002	-1.213338e+001	-7.290064e+001	-1.209807e+001	-7.231246e+001	-1.450733e+001	-1.207361e+002
5025649.913	-1.257236e+001	1.279560e+002	-1.209499e+001	-7.966839e+001	-1.205237e+001	-7.909493e+001	-1.427388e+001	-1.220651e+002
5050086.655	-1.261470e+001	1.246319e+002	-1.207993e+001	-8.631172e+001	-1.203265e+001	-8.577558e+001	-1.402986e+001	-1.238675e+002
5074523.397	-1.270831e+001	1.211624e+002	-1.208545e+001	-9.286617e+001	-1.203338e+001	-9.236137e+001	-1.378646e+001	-1.260758e+002
5098960.139	-1.285190e+001	1.176086e+002	-1.210354e+001	-9.931249e+001	-1.204905e+001	-9.884997e+001	-1.355282e+001	-1.285992e+002
5123396.880	-1.304739e+001	1.139825e+002	-1.213511e+001	-1.056717e+002	-1.208066e+001	-1.052634e+002	-1.333722e+001	-1.314260e+002
5147833.622	-1.329062e+001	1.103055e+002	-1.217853e+001	-1.119683e+002	-1.212317e+001	-1.116126e+002	-1.313632e+001	-1.345045e+002
5172270.364	-1.358091e+001	1.066148e+002	-1.223074e+001	-1.182058e+002	-1.217779e+001	-1.179036e+002	-1.295296e+001	-1.378010e+002
5196707.106	-1.391713e+001	1.028746e+002	-1.229414e+001	-1.243945e+002	-1.224194e+001	-1.241572e+002	-1.278718e+001	-1.412900e+002
5221143.847	-1.430335e+001	9.910849e+001	-1.236634e+001	-1.305200e+002	-1.231574e+001	-1.303403e+002	-1.264181e+001	-1.449167e+002
5245580.589	-1.474296e+001	9.527381e+001	-1.245073e+001	-1.366351e+002	-1.240237e+001	-1.365187e+002	-1.251212e+001	-1.487612e+002
5270017.331	-1.524275e+001	9.135935e+001	-1.254790e+001	-1.427232e+002	-1.250199e+001	-1.426322e+002	-1.240318e+001	-1.527793e+002
5294454.073	-1.580583e+001	8.740229e+001	-1.265455e+001	-1.487466e+002	-1.261193e+001	-1.486968e+002	-1.231635e+001	-1.569244e+002
5318890.815	-1.644305e+001	8.337188e+001	-1.276955e+001	-1.547208e+002	-1.272880e+001	-1.546986e+002	-1.225199e+001	-1.611862e+002
5343327.556	-1.715344e+001	7.926376e+001	-1.288727e+001	-1.606655e+002	-1.285091e+001	-1.606786e+002	-1.220499e+001	-1.655337e+002
5367764.298	-1.794856e+001	7.496226e+001	-1.301231e+001	-1.666055e+002	-1.298020e+001	-1.666653e+002	-1.216985e+001	-1.699808e+002
5392201.040	-1.885171e+001	7.034692e+001	-1.314942e+001	-1.725503e+002	-1.312301e+001	-1.726460e+002	-1.214815e+001	-1.745723e+002
5416637.782	-1.988775e+001	6.532739e+001	-1.329786e+001	-1.784901e+002	-1.327585e+001	-1.785864e+002	-1.214401e+001	-1.792630e+002
5441074.523	-2.110262e+001	5.970947e+001	-1.345996e+001	1.756087e+002	-1.344226e+001	1.754803e+002	-1.215639e+001	1.759218e+002
