!Agilent Technologies,E5061B,MY49101568,A.02.00
!Date: Wed Mar 01 15:28:05 2023
!Data & Calibration Information:
!Freq	S11:SOLT2(OFF)	S21:SOLT2(OFF)	S12:SOLT2(OFF)	S22:SOLT2(OFF)
# Hz S dB R 50
1800000.000	-9.901712e+000	-1.698828e+001	-2.233062e+001	-1.485964e+002	-2.233412e+001	-1.486361e+002	-1.031901e+001	1.951969e+001
1824436.742	-1.003667e+001	-2.118404e+001	-2.200540e+001	-1.526013e+002	-2.200962e+001	-1.526938e+002	-1.047716e+001	1.589029e+001
1848873.484	-1.018110e+001	-2.544208e+001	-2.167071e+001	-1.567874e+002	-2.165758e+001	-1.567914e+002	-1.063984e+001	1.217837e+001
1873310.225	-1.033643e+001	-2.974797e+001	-2.132255e+001	-1.610271e+002	-2.133897e+001	-1.610114e+002	-1.079555e+001	8.500616e+000
1897746.967	-1.049258e+001	-3.413083e+001	-2.097117e+001	-1.652478e+002	-2.098376e+001	-1.653320e+002	-1.095936e+001	4.741605e+000
1922183.709	-1.065599e+001	-3.857110e+001	-2.062056e+001	-1.697054e+002	-2.063124e+001	-1.697277e+002	-1.112121e+001	8.848535e-001
1946620.451	-1.083038e+001	-4.317120e+001	-2.024639e+001	-1.741127e+002	-2.028069e+001	-1.742072e+002	-1.128054e+001	-3.010960e+000
1971057.192	-1.101559e+001	-4.779570e+001	-1.988157e+001	-1.788545e+002	-1.991885e+001	-1.787909e+002	-1.144363e+001	-7.004570e+000
1995493.934	-1.120780e+001	-5.255588e+001	-1.951775e+001	1.764684e+002	-1.955251e+001	1.764380e+002	-1.161327e+001	-1.102874e+001
2019930.676	-1.141330e+001	-5.737092e+001	-1.915355e+001	1.715635e+002	-1.919742e+001	1.717099e+002	-1.177018e+001	-1.512899e+001
2044367.418	-1.162142e+001	-6.228927e+001	-1.880438e+001	1.666558e+002	-1.885165e+001	1.668299e+002	-1.192130e+001	-1.932691e+001
2068804.159	-1.183991e+001	-6.737083e+001	-1.845346e+001	1.617747e+002	-1.850334e+001	1.619338e+002	-1.206900e+001	-2.361837e+001
2093240.901	-1.208349e+001	-7.259567e+001	-1.806999e+001	1.568106e+002	-1.811347e+001	1.570158e+002	-1.222418e+001	-2.807069e+001
2117677.643	-1.234952e+001	-7.798761e+001	-1.769053e+001	1.516478e+002	-1.774146e+001	1.519206e+002	-1.237696e+001	-3.257638e+001
2142114.385	-1.264563e+001	-8.346417e+001	-1.729837e+001	1.462508e+002	-1.734546e+001	1.465138e+002	-1.253960e+001	-3.714232e+001
2166551.127	-1.296024e+001	-8.902478e+001	-1.692488e+001	1.407160e+002	-1.696685e+001	1.409866e+002	-1.269229e+001	-4.182048e+001
2190987.868	-1.329298e+001	-9.467455e+001	-1.656604e+001	1.349210e+002	-1.660354e+001	1.353083e+002	-1.283985e+001	-4.656585e+001
2215424.610	-1.363471e+001	-1.004987e+002	-1.623489e+001	1.290809e+002	-1.627661e+001	1.294373e+002	-1.296728e+001	-5.134040e+001
2239861.352	-1.399477e+001	-1.064882e+002	-1.591707e+001	1.231346e+002	-1.595889e+001	1.235565e+002	-1.308235e+001	-5.628162e+001
2264298.094	-1.437027e+001	-1.126950e+002	-1.560953e+001	1.171466e+002	-1.565214e+001	1.176157e+002	-1.318725e+001	-6.138593e+001
2288734.835	-1.477803e+001	-1.192209e+002	-1.530715e+001	1.111177e+002	-1.534863e+001	1.115782e+002	-1.327522e+001	-6.662302e+001
2313171.577	-1.519869e+001	-1.258946e+002	-1.502249e+001	1.049177e+002	-1.505069e+001	1.054575e+002	-1.335795e+001	-7.206428e+001
2337608.319	-1.565317e+001	-1.328487e+002	-1.474000e+001	9.860274e+001	-1.477325e+001	9.914242e+001	-1.342767e+001	-7.760260e+001
2362045.061	-1.611072e+001	-1.399357e+002	-1.449193e+001	9.213941e+001	-1.451648e+001	9.272388e+001	-1.348422e+001	-8.325670e+001
2386481.802	-1.656945e+001	-1.473581e+002	-1.426673e+001	8.557212e+001	-1.428704e+001	8.610318e+001	-1.351900e+001	-8.900259e+001
2410918.544	-1.698788e+001	-1.551585e+002	-1.408174e+001	7.898380e+001	-1.409313e+001	7.952364e+001	-1.351992e+001	-9.494287e+001
2435355.286	-1.738092e+001	-1.634380e+002	-1.392606e+001	7.240729e+001	-1.393062e+001	7.294901e+001	-1.349072e+001	-1.011109e+002
2459792.028	-1.773862e+001	-1.724445e+002	-1.378789e+001	6.592924e+001	-1.379475e+001	6.653986e+001	-1.342367e+001	-1.075779e+002
2484228.769	-1.805223e+001	1.777635e+002	-1.366549e+001	5.952949e+001	-1.364036e+001	6.024006e+001	-1.336154e+001	-1.144863e+002
2508665.511	-1.840170e+001	1.673334e+002	-1.351617e+001	5.308297e+001	-1.348517e+001	5.372950e+001	-1.331367e+001	-1.215653e+002
2533102.253	-1.871044e+001	1.566670e+002	-1.338396e+001	4.646686e+001	-1.335429e+001	4.707860e+001	-1.326473e+001	-1.286874e+002
2557538.995	-1.893994e+001	1.459271e+002	-1.328344e+001	3.967169e+001	-1.325523e+001	4.024796e+001	-1.321875e+001	-1.358327e+002
2581975.737	-1.904489e+001	1.351448e+002	-1.323158e+001	3.283406e+001	-1.319029e+001	3.336260e+001	-1.316594e+001	-1.430098e+002
2606412.478	-1.901024e+001	1.242728e+002	-1.321835e+001	2.609477e+001	-1.316779e+001	2.655349e+001	-1.309654e+001	-1.502831e+002
2630849.220	-1.888939e+001	1.134683e+002	-1.322408e+001	1.938741e+001	-1.316734e+001	1.986731e+001	-1.301936e+001	-1.576887e+002
2655285.962	-1.868852e+001	1.028487e+002	-1.325517e+001	1.277690e+001	-1.319624e+001	1.316915e+001	-1.295121e+001	-1.650679e+002
2679722.704	-1.841294e+001	9.271198e+001	-1.331742e+001	6.181587e+000	-1.325308e+001	6.508437e+000	-1.288780e+001	-1.723750e+002
2704159.445	-1.807462e+001	8.306915e+001	-1.340992e+001	-3.125314e-001	-1.334867e+001	-4.310193e-002	-1.281361e+001	-1.795948e+002
2728596.187	-1.768094e+001	7.392525e+001	-1.354292e+001	-6.663147e+000	-1.347917e+001	-6.381809e+000	-1.273102e+001	1.732190e+002
2753032.929	-1.725163e+001	6.498800e+001	-1.368041e+001	-1.266476e+001	-1.361448e+001	-1.247632e+001	-1.264704e+001	1.659984e+002
2777469.671	-1.683250e+001	5.650550e+001	-1.382180e+001	-1.854916e+001	-1.375394e+001	-1.839084e+001	-1.257384e+001	1.587943e+002
2801906.412	-1.645747e+001	4.832569e+001	-1.395203e+001	-2.437422e+001	-1.388846e+001	-2.426455e+001	-1.253653e+001	1.516699e+002
2826343.154	-1.608813e+001	4.065511e+001	-1.409470e+001	-3.008243e+001	-1.403340e+001	-3.011389e+001	-1.251971e+001	1.447838e+002
2850779.896	-1.576015e+001	3.360717e+001	-1.426466e+001	-3.587571e+001	-1.420995e+001	-3.584501e+001	-1.250408e+001	1.381703e+002
2875216.638	-1.542909e+001	2.685050e+001	-1.444396e+001	-4.144215e+001	-1.439154e+001	-4.146897e+001	-1.249980e+001	1.317443e+002
2899653.380	-1.512131e+001	2.051876e+001	-1.463988e+001	-4.687483e+001	-1.459936e+001	-4.693959e+001	-1.249833e+001	1.256076e+002
2924090.121	-1.482446e+001	1.446884e+001	-1.484426e+001	-5.211019e+001	-1.480194e+001	-5.218416e+001	-1.249607e+001	1.195757e+002
2948526.863	-1.453887e+001	8.683947e+000	-1.505348e+001	-5.716811e+001	-1.501724e+001	-5.729471e+001	-1.249774e+001	1.137846e+002
2972963.605	-1.426992e+001	3.127092e+000	-1.526136e+001	-6.208353e+001	-1.523394e+001	-6.221130e+001	-1.249664e+001	1.081526e+002
2997400.347	-1.401287e+001	-2.211929e+000	-1.546624e+001	-6.680784e+001	-1.544430e+001	-6.695166e+001	-1.249814e+001	1.026435e+002
3021837.088	-1.377102e+001	-7.373966e+000	-1.566645e+001	-7.136308e+001	-1.564726e+001	-7.153595e+001	-1.250291e+001	9.731172e+001
3046273.830	-1.354767e+001	-1.236961e+001	-1.585566e+001	-7.583123e+001	-1.584363e+001	-7.601297e+001	-1.251194e+001	9.210652e+001
3070710.572	-1.333818e+001	-1.720299e+001	-1.603285e+001	-8.015814e+001	-1.603081e+001	-8.033238e+001	-1.252530e+001	8.704200e+001
3095147.314	-1.313818e+001	-2.189936e+001	-1.620005e+001	-8.437573e+001	-1.620541e+001	-8.455462e+001	-1.254025e+001	8.210516e+001
3119584.055	-1.295409e+001	-2.645548e+001	-1.635458e+001	-8.854400e+001	-1.636598e+001	-8.870779e+001	-1.256698e+001	7.729245e+001
3144020.797	-1.278156e+001	-3.088911e+001	-1.649965e+001	-9.257641e+001	-1.651529e+001	-9.281004e+001	-1.259481e+001	7.265184e+001
3168457.539	-1.262453e+001	-3.520212e+001	-1.663058e+001	-9.660649e+001	-1.665355e+001	-9.682367e+001	-1.262868e+001	6.812186e+001
3192894.281	-1.247442e+001	-3.940078e+001	-1.675350e+001	-1.006238e+002	-1.678414e+001	-1.008180e+002	-1.266899e+001	6.370442e+001
3217331.023	-1.233646e+001	-4.349027e+001	-1.687078e+001	-1.045853e+002	-1.690787e+001	-1.047704e+002	-1.270843e+001	5.943471e+001
3241767.764	-1.220578e+001	-4.746228e+001	-1.698192e+001	-1.085098e+002	-1.702489e+001	-1.086575e+002	-1.274870e+001	5.529352e+001
3266204.506	-1.207923e+001	-5.133139e+001	-1.709369e+001	-1.123413e+002	-1.713968e+001	-1.124911e+002	-1.279039e+001	5.126378e+001
3290641.248	-1.195587e+001	-5.513230e+001	-1.719449e+001	-1.160921e+002	-1.724493e+001	-1.162122e+002	-1.282237e+001	4.732593e+001
3315077.990	-1.183852e+001	-5.889584e+001	-1.727682e+001	-1.197554e+002	-1.733115e+001	-1.198330e+002	-1.285594e+001	4.342278e+001
3339514.731	-1.173018e+001	-6.260457e+001	-1.733931e+001	-1.234144e+002	-1.740024e+001	-1.235008e+002	-1.289913e+001	3.959694e+001
3363951.473	-1.163179e+001	-6.625116e+001	-1.738891e+001	-1.270910e+002	-1.745641e+001	-1.271432e+002	-1.294623e+001	3.585796e+001
3388388.215	-1.154222e+001	-6.983354e+001	-1.743288e+001	-1.308151e+002	-1.750470e+001	-1.308052e+002	-1.299645e+001	3.220632e+001
3412824.957	-1.146021e+001	-7.335232e+001	-1.747184e+001	-1.344955e+002	-1.754659e+001	-1.344746e+002	-1.305151e+001	2.866041e+001
3437261.698	-1.138461e+001	-7.681265e+001	-1.750167e+001	-1.381915e+002	-1.757848e+001	-1.381400e+002	-1.310715e+001	2.519811e+001
3461698.440	-1.131703e+001	-8.020855e+001	-1.752385e+001	-1.419080e+002	-1.760560e+001	-1.418027e+002	-1.316611e+001	2.183770e+001
3486135.182	-1.125635e+001	-8.353464e+001	-1.754467e+001	-1.455837e+002	-1.762429e+001	-1.454768e+002	-1.322543e+001	1.857661e+001
3510571.924	-1.120183e+001	-8.679356e+001	-1.755779e+001	-1.493186e+002	-1.764100e+001	-1.491430e+002	-1.328435e+001	1.541803e+001
3535008.666	-1.115089e+001	-8.998761e+001	-1.756523e+001	-1.530135e+002	-1.765191e+001	-1.528029e+002	-1.334148e+001	1.234126e+001
3559445.407	-1.110016e+001	-9.311081e+001	-1.756588e+001	-1.566615e+002	-1.765276e+001	-1.564245e+002	-1.339149e+001	9.356243e+000
3583882.149	-1.105625e+001	-9.619400e+001	-1.755917e+001	-1.602932e+002	-1.764824e+001	-1.600242e+002	-1.343531e+001	6.450219e+000
3608318.891	-1.101165e+001	-9.922338e+001	-1.754299e+001	-1.639555e+002	-1.762854e+001	-1.636494e+002	-1.347650e+001	3.573737e+000
3632755.633	-1.096775e+001	-1.022326e+002	-1.751100e+001	-1.676295e+002	-1.759795e+001	-1.672479e+002	-1.351413e+001	7.020227e-001
3657192.374	-1.092652e+001	-1.052036e+002	-1.746737e+001	-1.713013e+002	-1.755293e+001	-1.708909e+002	-1.354877e+001	-2.119567e+000
3681629.116	-1.089049e+001	-1.081541e+002	-1.740906e+001	-1.750708e+002	-1.749163e+001	-1.746133e+002	-1.358507e+001	-4.925684e+000
3706065.858	-1.086195e+001	-1.110834e+002	-1.733871e+001	-1.789452e+002	-1.742455e+001	-1.784786e+002	-1.363328e+001	-7.673883e+000
3730502.600	-1.084179e+001	-1.139557e+002	-1.727169e+001	1.770350e+002	-1.735500e+001	1.775446e+002	-1.368249e+001	-1.033088e+001
3754939.341	-1.082821e+001	-1.167532e+002	-1.721409e+001	1.728804e+002	-1.729428e+001	1.734384e+002	-1.373290e+001	-1.287352e+001
3779376.083	-1.081625e+001	-1.194749e+002	-1.716920e+001	1.686522e+002	-1.725160e+001	1.692476e+002	-1.377798e+001	-1.529190e+001
3803812.825	-1.080485e+001	-1.221010e+002	-1.714462e+001	1.643952e+002	-1.722097e+001	1.650172e+002	-1.381253e+001	-1.761369e+001
3828249.567	-1.078863e+001	-1.246618e+002	-1.713434e+001	1.601356e+002	-1.720835e+001	1.607422e+002	-1.383821e+001	-1.983650e+001
3852686.308	-1.076791e+001	-1.271647e+002	-1.714016e+001	1.558684e+002	-1.721368e+001	1.565498e+002	-1.384577e+001	-2.202384e+001
3877123.050	-1.074146e+001	-1.296026e+002	-1.716537e+001	1.516200e+002	-1.723400e+001	1.522979e+002	-1.384150e+001	-2.409818e+001
3901559.792	-1.070292e+001	-1.319436e+002	-1.722570e+001	1.474037e+002	-1.728761e+001	1.481083e+002	-1.381106e+001	-2.608138e+001
3925996.534	-1.063446e+001	-1.342964e+002	-1.732062e+001	1.434847e+002	-1.737344e+001	1.441624e+002	-1.374265e+001	-2.810764e+001
3950433.276	-1.055406e+001	-1.367455e+002	-1.741103e+001	1.398403e+002	-1.746607e+001	1.405141e+002	-1.364501e+001	-3.026610e+001
3974870.017	-1.046228e+001	-1.393262e+002	-1.749022e+001	1.365082e+002	-1.755127e+001	1.371903e+002	-1.353090e+001	-3.259718e+001
3999306.759	-1.036399e+001	-1.420369e+002	-1.755711e+001	1.334274e+002	-1.761997e+001	1.341535e+002	-1.340722e+001	-3.511598e+001
4023743.501	-1.027039e+001	-1.449492e+002	-1.757638e+001	1.306263e+002	-1.764414e+001	1.313459e+002	-1.328595e+001	-3.784656e+001
4048180.243	-1.018986e+001	-1.480080e+002	-1.754691e+001	1.279616e+002	-1.761484e+001	1.287508e+002	-1.317256e+001	-4.080188e+001
4072616.984	-1.013118e+001	-1.512077e+002	-1.746002e+001	1.253339e+002	-1.752226e+001	1.261873e+002	-1.308234e+001	-4.394285e+001
4097053.726	-1.009874e+001	-1.544891e+002	-1.732110e+001	1.225774e+002	-1.738119e+001	1.234360e+002	-1.302003e+001	-4.711120e+001
4121490.468	-1.009579e+001	-1.577952e+002	-1.714038e+001	1.195847e+002	-1.719621e+001	1.205146e+002	-1.298127e+001	-5.035586e+001
4145927.210	-1.011854e+001	-1.610969e+002	-1.693906e+001	1.163821e+002	-1.698687e+001	1.173283e+002	-1.296705e+001	-5.356712e+001
4170363.951	-1.016330e+001	-1.643613e+002	-1.672420e+001	1.129972e+002	-1.676624e+001	1.139109e+002	-1.297089e+001	-5.671189e+001
4194800.693	-1.022677e+001	-1.676024e+002	-1.650315e+001	1.094511e+002	-1.653869e+001	1.103653e+002	-1.298505e+001	-5.989132e+001
4219237.435	-1.031525e+001	-1.707994e+002	-1.627342e+001	1.056625e+002	-1.630097e+001	1.066445e+002	-1.301417e+001	-6.304184e+001
4243674.177	-1.042377e+001	-1.739547e+002	-1.603625e+001	1.017317e+002	-1.606249e+001	1.026982e+002	-1.306105e+001	-6.611044e+001
4268110.919	-1.055760e+001	-1.769845e+002	-1.580526e+001	9.754709e+001	-1.581839e+001	9.853554e+001	-1.312886e+001	-6.913671e+001
4292547.660	-1.070685e+001	-1.799267e+002	-1.558030e+001	9.324263e+001	-1.558883e+001	9.418680e+001	-1.320235e+001	-7.204640e+001
4316984.402	-1.087265e+001	1.772629e+002	-1.536734e+001	8.876469e+001	-1.537366e+001	8.970926e+001	-1.328140e+001	-7.485938e+001
4341421.144	-1.105047e+001	1.746176e+002	-1.516838e+001	8.413547e+001	-1.516481e+001	8.508588e+001	-1.337086e+001	-7.758028e+001
4365857.886	-1.123051e+001	1.720934e+002	-1.498947e+001	7.946123e+001	-1.498317e+001	8.036692e+001	-1.345177e+001	-8.017880e+001
4390294.627	-1.141786e+001	1.697023e+002	-1.482410e+001	7.468466e+001	-1.481310e+001	7.558512e+001	-1.353280e+001	-8.271127e+001
4414731.369	-1.160101e+001	1.674563e+002	-1.467784e+001	6.985634e+001	-1.466140e+001	7.073924e+001	-1.360694e+001	-8.516187e+001
4439168.111	-1.178162e+001	1.653103e+002	-1.454502e+001	6.496393e+001	-1.452971e+001	6.588938e+001	-1.366467e+001	-8.758565e+001
4463604.853	-1.195303e+001	1.632278e+002	-1.443090e+001	6.011702e+001	-1.441239e+001	6.101851e+001	-1.371686e+001	-8.994216e+001
4488041.594	-1.211527e+001	1.612158e+002	-1.433423e+001	5.526343e+001	-1.431233e+001	5.617722e+001	-1.375058e+001	-9.232096e+001
4512478.336	-1.226825e+001	1.592134e+002	-1.424862e+001	5.045272e+001	-1.422153e+001	5.131629e+001	-1.377902e+001	-9.469895e+001
4536915.078	-1.242149e+001	1.572238e+002	-1.416772e+001	4.564914e+001	-1.413657e+001	4.645695e+001	-1.380152e+001	-9.713118e+001
4561351.820	-1.257590e+001	1.552812e+002	-1.408942e+001	4.078966e+001	-1.405975e+001	4.166770e+001	-1.381338e+001	-9.963985e+001
4585788.562	-1.271109e+001	1.533509e+002	-1.403620e+001	3.593257e+001	-1.400369e+001	3.675766e+001	-1.381705e+001	-1.020526e+002
4610225.303	-1.282697e+001	1.512958e+002	-1.400881e+001	3.114685e+001	-1.397304e+001	3.196015e+001	-1.379314e+001	-1.045801e+002
4634662.045	-1.294020e+001	1.490389e+002	-1.399884e+001	2.653351e+001	-1.395515e+001	2.730078e+001	-1.375169e+001	-1.072840e+002
4659098.787	-1.307181e+001	1.465214e+002	-1.398835e+001	2.212430e+001	-1.393992e+001	2.292382e+001	-1.369797e+001	-1.103148e+002
4683535.529	-1.324583e+001	1.438453e+002	-1.395728e+001	1.787063e+001	-1.390680e+001	1.864254e+001	-1.366003e+001	-1.135713e+002
4707972.270	-1.346324e+001	1.411266e+002	-1.390722e+001	1.372465e+001	-1.385060e+001	1.441672e+001	-1.364700e+001	-1.170284e+002
4732409.012	-1.373521e+001	1.383760e+002	-1.382890e+001	9.596765e+000	-1.377534e+001	1.024937e+001	-1.365657e+001	-1.206902e+002
4756845.754	-1.405345e+001	1.356633e+002	-1.373567e+001	5.461921e+000	-1.367434e+001	6.029177e+000	-1.370171e+001	-1.245016e+002
4781282.496	-1.442027e+001	1.332034e+002	-1.361555e+001	1.162017e+000	-1.355750e+001	1.732495e+000	-1.377796e+001	-1.284155e+002
4805719.237	-1.483201e+001	1.309384e+002	-1.348440e+001	-3.221454e+000	-1.342207e+001	-2.681425e+000	-1.389504e+001	-1.323754e+002
4830155.979	-1.528010e+001	1.289968e+002	-1.334166e+001	-7.775183e+000	-1.328810e+001	-7.260652e+000	-1.403979e+001	-1.363077e+002
4854592.721	-1.573973e+001	1.273903e+002	-1.320857e+001	-1.251545e+001	-1.315569e+001	-1.202928e+001	-1.421481e+001	-1.401688e+002
4879029.463	-1.621654e+001	1.259822e+002	-1.308399e+001	-1.733100e+001	-1.303150e+001	-1.689307e+001	-1.441257e+001	-1.440154e+002
4903466.205	-1.669720e+001	1.248524e+002	-1.297405e+001	-2.228769e+001	-1.292321e+001	-2.186477e+001	-1.462580e+001	-1.478000e+002
4927902.946	-1.719453e+001	1.239523e+002	-1.287571e+001	-2.728452e+001	-1.282916e+001	-2.688445e+001	-1.485404e+001	-1.515775e+002
4952339.688	-1.770696e+001	1.232342e+002	-1.279240e+001	-3.234250e+001	-1.274698e+001	-3.192335e+001	-1.509753e+001	-1.554026e+002
4976776.430	-1.822756e+001	1.227316e+002	-1.273087e+001	-3.741600e+001	-1.268203e+001	-3.700669e+001	-1.535033e+001	-1.591811e+002
5001213.172	-1.878899e+001	1.225604e+002	-1.266808e+001	-4.247304e+001	-1.262895e+001	-4.209338e+001	-1.561982e+001	-1.629642e+002
5025649.913	-1.937128e+001	1.227040e+002	-1.262150e+001	-4.755009e+001	-1.258407e+001	-4.718925e+001	-1.591062e+001	-1.668043e+002
5050086.655	-1.997600e+001	1.232187e+002	-1.258689e+001	-5.262500e+001	-1.255273e+001	-5.228909e+001	-1.621264e+001	-1.706429e+002
5074523.397	-2.061138e+001	1.242944e+002	-1.256120e+001	-5.770438e+001	-1.252973e+001	-5.736782e+001	-1.653774e+001	-1.745314e+002
5098960.139	-2.126510e+001	1.259567e+002	-1.254807e+001	-6.276189e+001	-1.251999e+001	-6.243000e+001	-1.687109e+001	-1.784880e+002
5123396.880	-2.192580e+001	1.283896e+002	-1.254309e+001	-6.780775e+001	-1.252049e+001	-6.748909e+001	-1.722631e+001	1.775725e+002
5147833.622	-2.257648e+001	1.316560e+002	-1.255235e+001	-7.282583e+001	-1.253274e+001	-7.250528e+001	-1.759012e+001	1.735406e+002
5172270.364	-2.317829e+001	1.360635e+002	-1.256742e+001	-7.778747e+001	-1.255454e+001	-7.743956e+001	-1.796037e+001	1.693422e+002
5196707.106	-2.368266e+001	1.416715e+002	-1.258835e+001	-8.269008e+001	-1.257796e+001	-8.235123e+001	-1.836634e+001	1.650546e+002
5221143.847	-2.400284e+001	1.483788e+002	-1.261395e+001	-8.750452e+001	-1.260532e+001	-8.722067e+001	-1.879645e+001	1.606337e+002
5245580.589	-2.405085e+001	1.556643e+002	-1.264023e+001	-9.233965e+001	-1.263421e+001	-9.203698e+001	-1.925630e+001	1.560147e+002
5270017.331	-2.380855e+001	1.628729e+002	-1.266744e+001	-9.714053e+001	-1.266682e+001	-9.682316e+001	-1.974318e+001	1.512911e+002
5294454.073	-2.332432e+001	1.693355e+002	-1.270028e+001	-1.019041e+002	-1.270299e+001	-1.015688e+002	-2.025659e+001	1.463680e+002
5318890.815	-2.265770e+001	1.746190e+002	-1.273464e+001	-1.066417e+002	-1.273934e+001	-1.063015e+002	-2.080229e+001	1.413154e+002
5343327.556	-2.189288e+001	1.786067e+002	-1.277123e+001	-1.113632e+002	-1.277768e+001	-1.110008e+002	-2.137201e+001	1.360109e+002
5367764.298	-2.108325e+001	-1.786103e+002	-1.280912e+001	-1.160551e+002	-1.282034e+001	-1.156631e+002	-2.196889e+001	1.304705e+002
5392201.040	-2.028660e+001	-1.768223e+002	-1.284914e+001	-1.207078e+002	-1.286246e+001	-1.202979e+002	-2.259169e+001	1.246377e+002
5416637.782	-1.951100e+001	-1.759081e+002	-1.289026e+001	-1.253499e+002	-1.290365e+001	-1.249245e+002	-2.324583e+001	1.185215e+002
5441074.523	-1.877839e+001	-1.756625e+002	-1.293320e+001	-1.299668e+002	-1.294729e+001	-1.295171e+002	-2.390892e+001	1.119802e+002
