!Agilent Technologies,E5061B,MY49101568,A.02.00
!Date: Wed Mar 01 14:37:08 2023
!Data & Calibration Information:
!Freq	S11:SOLT2(OFF)	S21:SOLT2(OFF)	S12:SOLT2(OFF)	S22:SOLT2(OFF)
# Hz S dB R 50
1800000.000	-9.130043e+000	-1.616736e+001	-2.748756e+001	-1.273894e+002	-2.754759e+001	-1.272796e+002	-9.436873e+000	2.027980e+001
1824436.742	-9.204611e+000	-2.039346e+001	-2.710701e+001	-1.311249e+002	-2.718885e+001	-1.309323e+002	-9.535724e+000	1.659762e+001
1848873.484	-9.280275e+000	-2.470807e+001	-2.670947e+001	-1.348181e+002	-2.680850e+001	-1.345671e+002	-9.636025e+000	1.286092e+001
1873310.225	-9.358549e+000	-2.906682e+001	-2.632643e+001	-1.385936e+002	-2.642381e+001	-1.383250e+002	-9.732224e+000	9.088483e+000
1897746.967	-9.431866e+000	-3.351709e+001	-2.592770e+001	-1.424328e+002	-2.602998e+001	-1.422560e+002	-9.822204e+000	5.257912e+000
1922183.709	-9.507150e+000	-3.808669e+001	-2.551310e+001	-1.463771e+002	-2.561955e+001	-1.461419e+002	-9.911107e+000	1.304656e+000
1946620.451	-9.582579e+000	-4.276852e+001	-2.508583e+001	-1.504553e+002	-2.519786e+001	-1.501565e+002	-9.995315e+000	-2.722058e+000
1971057.192	-9.660017e+000	-4.759265e+001	-2.464971e+001	-1.545654e+002	-2.476814e+001	-1.542798e+002	-1.007628e+001	-6.840956e+000
1995493.934	-9.738978e+000	-5.253572e+001	-2.422120e+001	-1.587861e+002	-2.430517e+001	-1.585615e+002	-1.015803e+001	-1.106601e+001
2019930.676	-9.824470e+000	-5.762505e+001	-2.375975e+001	-1.631277e+002	-2.385014e+001	-1.628786e+002	-1.023244e+001	-1.534402e+001
2044367.418	-9.916267e+000	-6.284528e+001	-2.328994e+001	-1.676635e+002	-2.337746e+001	-1.673293e+002	-1.030240e+001	-1.977196e+001
2068804.159	-1.001243e+001	-6.822081e+001	-2.280669e+001	-1.723569e+002	-2.290274e+001	-1.719999e+002	-1.037091e+001	-2.428526e+001
2093240.901	-1.011440e+001	-7.375723e+001	-2.231558e+001	-1.771855e+002	-2.240455e+001	-1.768806e+002	-1.043775e+001	-2.886814e+001
2117677.643	-1.022487e+001	-7.947715e+001	-2.183271e+001	1.777960e+002	-2.192242e+001	1.781568e+002	-1.049849e+001	-3.356185e+001
2142114.385	-1.034387e+001	-8.539637e+001	-2.134782e+001	1.726554e+002	-2.143341e+001	1.730212e+002	-1.055151e+001	-3.837150e+001
2166551.127	-1.047442e+001	-9.151575e+001	-2.086121e+001	1.672359e+002	-2.094298e+001	1.676506e+002	-1.060123e+001	-4.332003e+001
2190987.868	-1.061550e+001	-9.783926e+001	-2.037306e+001	1.616833e+002	-2.045193e+001	1.621188e+002	-1.064787e+001	-4.836802e+001
2215424.610	-1.076861e+001	-1.043822e+002	-1.990370e+001	1.559156e+002	-1.994928e+001	1.561794e+002	-1.070221e+001	-5.355829e+001
2239861.352	-1.093633e+001	-1.111610e+002	-1.944409e+001	1.499527e+002	-1.948514e+001	1.502993e+002	-1.073676e+001	-5.884242e+001
2264298.094	-1.112014e+001	-1.181704e+002	-1.899450e+001	1.438766e+002	-1.903123e+001	1.442163e+002	-1.076586e+001	-6.424783e+001
2288734.835	-1.132029e+001	-1.254289e+002	-1.856096e+001	1.375738e+002	-1.858702e+001	1.379499e+002	-1.078961e+001	-6.976729e+001
2313171.577	-1.153571e+001	-1.329156e+002	-1.813845e+001	1.310953e+002	-1.816243e+001	1.315032e+002	-1.080898e+001	-7.539309e+001
2337608.319	-1.177015e+001	-1.406485e+002	-1.774140e+001	1.244385e+002	-1.775422e+001	1.248390e+002	-1.082267e+001	-8.113156e+001
2362045.061	-1.201206e+001	-1.486042e+002	-1.737444e+001	1.176731e+002	-1.738028e+001	1.180813e+002	-1.082409e+001	-8.694334e+001
2386481.802	-1.226660e+001	-1.568088e+002	-1.702895e+001	1.106889e+002	-1.702994e+001	1.111540e+002	-1.081937e+001	-9.287621e+001
2410918.544	-1.252859e+001	-1.652150e+002	-1.671448e+001	1.035973e+002	-1.670588e+001	1.040847e+002	-1.080415e+001	-9.892567e+001
2435355.286	-1.279425e+001	-1.738544e+002	-1.643016e+001	9.642166e+001	-1.641424e+001	9.691659e+001	-1.077958e+001	-1.050709e+002
2459792.028	-1.305501e+001	1.773124e+002	-1.618090e+001	8.911769e+001	-1.615261e+001	8.964509e+001	-1.074784e+001	-1.113286e+002
2484228.769	-1.330653e+001	1.683281e+002	-1.596242e+001	8.172413e+001	-1.591963e+001	8.226108e+001	-1.071328e+001	-1.177075e+002
2508665.511	-1.353858e+001	1.591981e+002	-1.578203e+001	7.434971e+001	-1.572487e+001	7.482663e+001	-1.066961e+001	-1.241684e+002
2533102.253	-1.374657e+001	1.499720e+002	-1.564000e+001	6.697708e+001	-1.557283e+001	6.741540e+001	-1.061907e+001	-1.307079e+002
2557538.995	-1.392794e+001	1.407066e+002	-1.552549e+001	5.956618e+001	-1.544950e+001	5.995314e+001	-1.056845e+001	-1.373366e+002
2581975.737	-1.407241e+001	1.314345e+002	-1.545031e+001	5.217152e+001	-1.536425e+001	5.250901e+001	-1.051411e+001	-1.440552e+002
2606412.478	-1.418063e+001	1.222089e+002	-1.540914e+001	4.481896e+001	-1.531354e+001	4.514348e+001	-1.046070e+001	-1.508260e+002
2630849.220	-1.425320e+001	1.130683e+002	-1.540198e+001	3.752695e+001	-1.529932e+001	3.780940e+001	-1.041139e+001	-1.576453e+002
2655285.962	-1.427996e+001	1.040976e+002	-1.542352e+001	3.031925e+001	-1.531644e+001	3.056293e+001	-1.036775e+001	-1.644852e+002
2679722.704	-1.427435e+001	9.530286e+001	-1.547714e+001	2.322806e+001	-1.536673e+001	2.341215e+001	-1.033172e+001	-1.713185e+002
2704159.445	-1.424083e+001	8.673717e+001	-1.556267e+001	1.628297e+001	-1.544992e+001	1.641895e+001	-1.030292e+001	-1.781486e+002
2728596.187	-1.417393e+001	7.840004e+001	-1.566582e+001	9.421402e+000	-1.555215e+001	9.511886e+000	-1.028233e+001	1.750826e+002
2753032.929	-1.408967e+001	7.035178e+001	-1.579458e+001	2.733899e+000	-1.568419e+001	2.764731e+000	-1.027240e+001	1.683634e+002
2777469.671	-1.398387e+001	6.259007e+001	-1.594602e+001	-3.789158e+000	-1.583397e+001	-3.836002e+000	-1.027399e+001	1.617467e+002
2801906.412	-1.386301e+001	5.511470e+001	-1.611042e+001	-1.018508e+001	-1.600631e+001	-1.027506e+001	-1.028941e+001	1.552373e+002
2826343.154	-1.373481e+001	4.792516e+001	-1.629579e+001	-1.638423e+001	-1.619367e+001	-1.655568e+001	-1.031432e+001	1.488521e+002
2850779.896	-1.359641e+001	4.102049e+001	-1.648673e+001	-2.245652e+001	-1.639278e+001	-2.263772e+001	-1.034520e+001	1.426069e+002
2875216.638	-1.346071e+001	3.437802e+001	-1.669296e+001	-2.834312e+001	-1.661261e+001	-2.848045e+001	-1.037939e+001	1.365027e+002
2899653.380	-1.331803e+001	2.800454e+001	-1.690487e+001	-3.402825e+001	-1.683265e+001	-3.420102e+001	-1.042708e+001	1.305701e+002
2924090.121	-1.317548e+001	2.189630e+001	-1.712134e+001	-3.954254e+001	-1.705759e+001	-3.975738e+001	-1.048042e+001	1.247923e+002
2948526.863	-1.303280e+001	1.601467e+001	-1.734352e+001	-4.489030e+001	-1.728737e+001	-4.514078e+001	-1.053740e+001	1.191664e+002
2972963.605	-1.289155e+001	1.035255e+001	-1.756164e+001	-5.007634e+001	-1.751541e+001	-5.035426e+001	-1.059989e+001	1.136928e+002
2997400.347	-1.275267e+001	4.900130e+000	-1.778042e+001	-5.511375e+001	-1.774408e+001	-5.540597e+001	-1.066545e+001	1.083800e+002
3021837.088	-1.261445e+001	-3.656060e-001	-1.799550e+001	-5.999539e+001	-1.796561e+001	-6.031671e+001	-1.073296e+001	1.032055e+002
3046273.830	-1.248139e+001	-5.452504e+000	-1.820483e+001	-6.471169e+001	-1.818040e+001	-6.505767e+001	-1.080167e+001	9.816555e+001
3070710.572	-1.234969e+001	-1.037960e+001	-1.840355e+001	-6.932437e+001	-1.839108e+001	-6.963093e+001	-1.086972e+001	9.327375e+001
3095147.314	-1.222277e+001	-1.514866e+001	-1.859643e+001	-7.381816e+001	-1.859336e+001	-7.411961e+001	-1.093873e+001	8.850380e+001
3119584.055	-1.209733e+001	-1.978241e+001	-1.877942e+001	-7.817561e+001	-1.878770e+001	-7.848435e+001	-1.100695e+001	8.387403e+001
3144020.797	-1.197823e+001	-2.429283e+001	-1.895163e+001	-8.245043e+001	-1.897155e+001	-8.273916e+001	-1.107492e+001	7.937375e+001
3168457.539	-1.185732e+001	-2.866816e+001	-1.911495e+001	-8.660882e+001	-1.914555e+001	-8.687280e+001	-1.114298e+001	7.497922e+001
3192894.281	-1.174176e+001	-3.293762e+001	-1.927037e+001	-9.068241e+001	-1.930602e+001	-9.095194e+001	-1.120794e+001	7.067795e+001
3217331.023	-1.163076e+001	-3.711508e+001	-1.941007e+001	-9.469171e+001	-1.945724e+001	-9.493604e+001	-1.127383e+001	6.648081e+001
3241767.764	-1.152242e+001	-4.118279e+001	-1.954453e+001	-9.864886e+001	-1.959853e+001	-9.886109e+001	-1.133655e+001	6.238746e+001
3266204.506	-1.141614e+001	-4.515907e+001	-1.966989e+001	-1.025111e+002	-1.973266e+001	-1.026839e+002	-1.139879e+001	5.839326e+001
3290641.248	-1.131038e+001	-4.904665e+001	-1.978527e+001	-1.062460e+002	-1.985528e+001	-1.063976e+002	-1.145393e+001	5.448651e+001
3315077.990	-1.120603e+001	-5.288946e+001	-1.988248e+001	-1.099011e+002	-1.995708e+001	-1.100182e+002	-1.150748e+001	5.061729e+001
3339514.731	-1.110865e+001	-5.668305e+001	-1.995408e+001	-1.135450e+002	-2.003342e+001	-1.136235e+002	-1.156312e+001	4.680392e+001
3363951.473	-1.101465e+001	-6.040719e+001	-2.001514e+001	-1.171757e+002	-2.009999e+001	-1.172140e+002	-1.161942e+001	4.306727e+001
3388388.215	-1.092616e+001	-6.407389e+001	-2.005910e+001	-1.207927e+002	-2.015371e+001	-1.207738e+002	-1.167606e+001	3.940150e+001
3412824.957	-1.084181e+001	-6.768265e+001	-2.009369e+001	-1.243743e+002	-2.018977e+001	-1.243197e+002	-1.173246e+001	3.578719e+001
3437261.698	-1.076277e+001	-7.124745e+001	-2.011473e+001	-1.279653e+002	-2.021390e+001	-1.278440e+002	-1.178821e+001	3.224285e+001
3461698.440	-1.068728e+001	-7.475158e+001	-2.011516e+001	-1.315283e+002	-2.022243e+001	-1.313582e+002	-1.184548e+001	2.876341e+001
3486135.182	-1.061785e+001	-7.822393e+001	-2.010157e+001	-1.351182e+002	-2.021473e+001	-1.348820e+002	-1.190445e+001	2.533465e+001
3510571.924	-1.055457e+001	-8.163709e+001	-2.007447e+001	-1.387213e+002	-2.019022e+001	-1.384115e+002	-1.196394e+001	2.197990e+001
3535008.666	-1.049683e+001	-8.500082e+001	-2.003333e+001	-1.423677e+002	-2.015269e+001	-1.419664e+002	-1.202372e+001	1.868622e+001
3559445.407	-1.044204e+001	-8.830976e+001	-1.997458e+001	-1.460206e+002	-2.010296e+001	-1.455253e+002	-1.207960e+001	1.545178e+001
3583882.149	-1.038950e+001	-9.157158e+001	-1.990213e+001	-1.496909e+002	-2.003699e+001	-1.490986e+002	-1.213239e+001	1.226911e+001
3608318.891	-1.033762e+001	-9.478443e+001	-1.981660e+001	-1.533829e+002	-1.995419e+001	-1.527238e+002	-1.218558e+001	9.127252e+000
3632755.633	-1.028324e+001	-9.796712e+001	-1.972457e+001	-1.571107e+002	-1.985599e+001	-1.564361e+002	-1.224104e+001	5.988609e+000
3657192.374	-1.023606e+001	-1.011248e+002	-1.961314e+001	-1.609407e+002	-1.974443e+001	-1.602063e+002	-1.229484e+001	2.912527e+000
3681629.116	-1.018970e+001	-1.042606e+002	-1.949726e+001	-1.648467e+002	-1.962464e+001	-1.640882e+002	-1.235191e+001	-1.196536e-001
3706065.858	-1.014600e+001	-1.073801e+002	-1.937132e+001	-1.688025e+002	-1.949311e+001	-1.680402e+002	-1.240682e+001	-3.129373e+000
3730502.600	-1.010950e+001	-1.105019e+002	-1.923015e+001	-1.728997e+002	-1.935608e+001	-1.721039e+002	-1.247004e+001	-6.082840e+000
3754939.341	-1.007848e+001	-1.136065e+002	-1.909501e+001	-1.770628e+002	-1.921432e+001	-1.762473e+002	-1.253237e+001	-8.999904e+000
3779376.083	-1.005542e+001	-1.167002e+002	-1.894703e+001	1.786773e+002	-1.906083e+001	1.795080e+002	-1.259836e+001	-1.189651e+001
3803812.825	-1.004366e+001	-1.198091e+002	-1.878582e+001	1.743589e+002	-1.889828e+001	1.751586e+002	-1.267026e+001	-1.476432e+001
3828249.567	-1.004543e+001	-1.228538e+002	-1.862719e+001	1.698221e+002	-1.873226e+001	1.706724e+002	-1.275269e+001	-1.758978e+001
3852686.308	-1.006050e+001	-1.258782e+002	-1.845714e+001	1.651867e+002	-1.855604e+001	1.660085e+002	-1.284646e+001	-2.035448e+001
3877123.050	-1.009137e+001	-1.288330e+002	-1.828834e+001	1.603479e+002	-1.838263e+001	1.611857e+002	-1.294948e+001	-2.301408e+001
3901559.792	-1.013654e+001	-1.317011e+002	-1.812399e+001	1.553312e+002	-1.821449e+001	1.562157e+002	-1.306111e+001	-2.557739e+001
3925996.534	-1.019639e+001	-1.344612e+002	-1.796352e+001	1.501058e+002	-1.804904e+001	1.510200e+002	-1.318455e+001	-2.798879e+001
3950433.276	-1.026970e+001	-1.370765e+002	-1.781397e+001	1.446852e+002	-1.789786e+001	1.456097e+002	-1.331755e+001	-3.020602e+001
3974870.017	-1.035464e+001	-1.395189e+002	-1.768007e+001	1.389899e+002	-1.776410e+001	1.399749e+002	-1.345282e+001	-3.218396e+001
3999306.759	-1.043989e+001	-1.417576e+002	-1.757072e+001	1.331724e+002	-1.764738e+001	1.341555e+002	-1.358503e+001	-3.394062e+001
4023743.501	-1.052450e+001	-1.437515e+002	-1.749581e+001	1.270631e+002	-1.756719e+001	1.280827e+002	-1.370324e+001	-3.536921e+001
4048180.243	-1.059550e+001	-1.454605e+002	-1.745976e+001	1.207279e+002	-1.753031e+001	1.217667e+002	-1.379248e+001	-3.647529e+001
4072616.984	-1.063593e+001	-1.469163e+002	-1.747979e+001	1.142190e+002	-1.754655e+001	1.152698e+002	-1.383599e+001	-3.729379e+001
4097053.726	-1.062971e+001	-1.481879e+002	-1.756397e+001	1.075871e+002	-1.762915e+001	1.086386e+002	-1.381280e+001	-3.789210e+001
4121490.468	-1.056630e+001	-1.493578e+002	-1.772499e+001	1.009042e+002	-1.778508e+001	1.019581e+002	-1.371218e+001	-3.844354e+001
4145927.210	-1.043364e+001	-1.505726e+002	-1.798166e+001	9.427171e+001	-1.804227e+001	9.529754e+001	-1.352269e+001	-3.905520e+001
4170363.951	-1.023453e+001	-1.519776e+002	-1.834545e+001	8.789906e+001	-1.841488e+001	8.867004e+001	-1.324612e+001	-3.987886e+001
4194800.693	-9.984494e+000	-1.538096e+002	-1.881139e+001	8.199438e+001	-1.887197e+001	8.281973e+001	-1.291985e+001	-4.138731e+001
4219237.435	-9.717525e+000	-1.561466e+002	-1.934853e+001	7.687390e+001	-1.940045e+001	7.777361e+001	-1.257787e+001	-4.352498e+001
4243674.177	-9.464420e+000	-1.589452e+002	-1.990335e+001	7.265867e+001	-1.994762e+001	7.358951e+001	-1.225404e+001	-4.614700e+001
4268110.919	-9.238410e+000	-1.620691e+002	-2.045538e+001	6.920947e+001	-2.048230e+001	7.012449e+001	-1.196051e+001	-4.908391e+001
4292547.660	-9.044824e+000	-1.654599e+002	-2.096958e+001	6.654233e+001	-2.099646e+001	6.746240e+001	-1.169699e+001	-5.229784e+001
4316984.402	-8.886919e+000	-1.690534e+002	-2.143075e+001	6.466200e+001	-2.145773e+001	6.553210e+001	-1.146295e+001	-5.571803e+001
4341421.144	-8.771609e+000	-1.727777e+002	-2.177157e+001	6.340978e+001	-2.180201e+001	6.435680e+001	-1.127139e+001	-5.929321e+001
4365857.886	-8.696556e+000	-1.765216e+002	-2.198454e+001	6.222393e+001	-2.199488e+001	6.323519e+001	-1.112226e+001	-6.285961e+001
4390294.627	-8.653039e+000	1.798145e+002	-2.208758e+001	6.062107e+001	-2.208107e+001	6.165093e+001	-1.100076e+001	-6.631218e+001
4414731.369	-8.613783e+000	1.762274e+002	-2.220981e+001	5.855984e+001	-2.219059e+001	5.952541e+001	-1.087820e+001	-6.962172e+001
4439168.111	-8.561975e+000	1.725794e+002	-2.242607e+001	5.648303e+001	-2.238678e+001	5.749239e+001	-1.073125e+001	-7.295667e+001
4463604.853	-8.505095e+000	1.687193e+002	-2.271934e+001	5.537820e+001	-2.266938e+001	5.636651e+001	-1.055750e+001	-7.644442e+001
4488041.594	-8.466315e+000	1.645012e+002	-2.294309e+001	5.588407e+001	-2.289379e+001	5.689405e+001	-1.038092e+001	-8.029294e+001
4512478.336	-8.484458e+000	1.599441e+002	-2.286872e+001	5.771828e+001	-2.281784e+001	5.869204e+001	-1.023759e+001	-8.451456e+001
4536915.078	-8.584099e+000	1.552704e+002	-2.240826e+001	5.902951e+001	-2.234136e+001	5.998944e+001	-1.016054e+001	-8.896393e+001
4561351.820	-8.755118e+000	1.507514e+002	-2.174162e+001	5.838683e+001	-2.167157e+001	5.924402e+001	-1.014364e+001	-9.332118e+001
4585788.562	-8.964082e+000	1.464841e+002	-2.110443e+001	5.599430e+001	-2.102072e+001	5.684501e+001	-1.015874e+001	-9.749696e+001
4610225.303	-9.196773e+000	1.423415e+002	-2.053351e+001	5.278179e+001	-2.044352e+001	5.357634e+001	-1.018376e+001	-1.015592e+002
4634662.045	-9.451440e+000	1.383354e+002	-2.002577e+001	4.896515e+001	-1.993187e+001	4.968525e+001	-1.022163e+001	-1.055280e+002
4659098.787	-9.719029e+000	1.344469e+002	-1.959909e+001	4.472255e+001	-1.950241e+001	4.534658e+001	-1.026309e+001	-1.093964e+002
4683535.529	-9.987063e+000	1.306200e+002	-1.926584e+001	4.037284e+001	-1.916756e+001	4.095682e+001	-1.028923e+001	-1.131925e+002
4707972.270	-1.024771e+001	1.266470e+002	-1.900979e+001	3.650252e+001	-1.891035e+001	3.701214e+001	-1.028807e+001	-1.170500e+002
4732409.012	-1.053816e+001	1.223248e+002	-1.871473e+001	3.321817e+001	-1.861609e+001	3.368801e+001	-1.027519e+001	-1.212533e+002
4756845.754	-1.090871e+001	1.177250e+002	-1.829681e+001	3.003387e+001	-1.819655e+001	3.042966e+001	-1.029285e+001	-1.258149e+002
4781282.496	-1.137870e+001	1.131716e+002	-1.778170e+001	2.615659e+001	-1.768315e+001	2.653219e+001	-1.036867e+001	-1.305662e+002
4805719.237	-1.192989e+001	1.088812e+002	-1.726979e+001	2.146152e+001	-1.717128e+001	2.177560e+001	-1.049915e+001	-1.352774e+002
4830155.979	-1.253579e+001	1.049156e+002	-1.680625e+001	1.619779e+001	-1.671232e+001	1.648420e+001	-1.066397e+001	-1.398915e+002
4854592.721	-1.318597e+001	1.011933e+002	-1.640363e+001	1.064268e+001	-1.630768e+001	1.088079e+001	-1.085171e+001	-1.444227e+002
4879029.463	-1.388307e+001	9.767735e+001	-1.604712e+001	4.942169e+000	-1.595606e+001	5.152951e+000	-1.105504e+001	-1.489048e+002
4903466.205	-1.463151e+001	9.434021e+001	-1.572887e+001	-8.300287e-001	-1.564059e+001	-6.549675e-001	-1.127838e+001	-1.533704e+002
4927902.946	-1.544577e+001	9.120217e+001	-1.543864e+001	-6.662942e+000	-1.535702e+001	-6.531104e+000	-1.152072e+001	-1.578253e+002
4952339.688	-1.632945e+001	8.832858e+001	-1.517251e+001	-1.260042e+001	-1.509842e+001	-1.246228e+001	-1.178416e+001	-1.623020e+002
4976776.430	-1.729936e+001	8.580081e+001	-1.492935e+001	-1.860536e+001	-1.486650e+001	-1.847342e+001	-1.207277e+001	-1.667299e+002
5001213.172	-1.834854e+001	8.367886e+001	-1.471725e+001	-2.465878e+001	-1.465992e+001	-2.454756e+001	-1.238592e+001	-1.711063e+002
5025649.913	-1.949682e+001	8.204973e+001	-1.452759e+001	-3.076017e+001	-1.448170e+001	-3.064986e+001	-1.271940e+001	-1.754287e+002
5050086.655	-2.074834e+001	8.099330e+001	-1.437197e+001	-3.687066e+001	-1.432905e+001	-3.675904e+001	-1.307199e+001	-1.796984e+002
5074523.397	-2.213213e+001	8.068178e+001	-1.423647e+001	-4.298130e+001	-1.420118e+001	-4.285808e+001	-1.344328e+001	1.760855e+002
5098960.139	-2.367567e+001	8.140981e+001	-1.412349e+001	-4.908381e+001	-1.409415e+001	-4.894899e+001	-1.383359e+001	1.719239e+002
5123396.880	-2.543037e+001	8.364134e+001	-1.403163e+001	-5.514117e+001	-1.400625e+001	-5.500475e+001	-1.423958e+001	1.678193e+002
5147833.622	-2.740459e+001	8.836826e+001	-1.395662e+001	-6.116068e+001	-1.393648e+001	-6.102919e+001	-1.466342e+001	1.637497e+002
5172270.364	-2.959044e+001	9.740193e+001	-1.389530e+001	-6.713742e+001	-1.388016e+001	-6.702853e+001	-1.510719e+001	1.597379e+002
5196707.106	-3.165635e+001	1.134911e+002	-1.384707e+001	-7.308201e+001	-1.383718e+001	-7.295576e+001	-1.556628e+001	1.557609e+002
5221143.847	-3.259199e+001	1.370950e+002	-1.381117e+001	-7.893536e+001	-1.380579e+001	-7.881772e+001	-1.603755e+001	1.517991e+002
5245580.589	-3.167712e+001	1.600466e+002	-1.378606e+001	-8.480557e+001	-1.378365e+001	-8.466420e+001	-1.653251e+001	1.478962e+002
5270017.331	-2.978149e+001	1.753364e+002	-1.376878e+001	-9.062450e+001	-1.376985e+001	-9.047638e+001	-1.704690e+001	1.440438e+002
5294454.073	-2.782168e+001	-1.762680e+002	-1.375739e+001	-9.640975e+001	-1.376309e+001	-9.622570e+001	-1.757984e+001	1.402225e+002
5318890.815	-2.608193e+001	-1.718538e+002	-1.375208e+001	-1.021575e+002	-1.376004e+001	-1.019580e+002	-1.813087e+001	1.364462e+002
5343327.556	-2.458034e+001	-1.697828e+002	-1.374855e+001	-1.078730e+002	-1.375873e+001	-1.076672e+002	-1.871369e+001	1.327561e+002
5367764.298	-2.330770e+001	-1.692009e+002	-1.375090e+001	-1.135832e+002	-1.376135e+001	-1.133706e+002	-1.931904e+001	1.291627e+002
5392201.040	-2.221591e+001	-1.695604e+002	-1.375805e+001	-1.193236e+002	-1.377088e+001	-1.190676e+002	-1.994332e+001	1.257559e+002
5416637.782	-2.127744e+001	-1.704430e+002	-1.377079e+001	-1.250443e+002	-1.378433e+001	-1.247742e+002	-2.058157e+001	1.225150e+002
5441074.523	-2.046532e+001	-1.717172e+002	-1.378932e+001	-1.307649e+002	-1.380385e+001	-1.304858e+002	-2.123280e+001	1.194845e+002
