!Agilent Technologies,E5061B,MY49101568,A.02.00
!Date: Wed Mar 01 14:34:12 2023
!Data & Calibration Information:
!Freq	S11:SOLT2(OFF)	S21:SOLT2(OFF)	S12:SOLT2(OFF)	S22:SOLT2(OFF)
# Hz S dB R 50
1800000.000	-9.696650e+000	-2.376740e+001	-2.097343e+001	-1.242852e+002	-2.110604e+001	-1.238337e+002	-1.008582e+001	1.167890e+001
1824436.742	-9.819286e+000	-2.845857e+001	-2.053369e+001	-1.285339e+002	-2.064856e+001	-1.281504e+002	-1.023234e+001	7.494233e+000
1848873.484	-9.953529e+000	-3.328105e+001	-2.007259e+001	-1.329786e+002	-2.018850e+001	-1.325576e+002	-1.038746e+001	3.229501e+000
1873310.225	-1.010450e+001	-3.820087e+001	-1.959861e+001	-1.375362e+002	-1.971185e+001	-1.371031e+002	-1.054989e+001	-1.101531e+000
1897746.967	-1.025341e+001	-4.322888e+001	-1.913915e+001	-1.421152e+002	-1.919679e+001	-1.420044e+002	-1.072740e+001	-5.575229e+000
1922183.709	-1.042706e+001	-4.846157e+001	-1.864415e+001	-1.469642e+002	-1.869126e+001	-1.468964e+002	-1.090522e+001	-1.017111e+001
1946620.451	-1.061561e+001	-5.383946e+001	-1.814677e+001	-1.519837e+002	-1.818660e+001	-1.519538e+002	-1.109000e+001	-1.486879e+001
1971057.192	-1.082671e+001	-5.941598e+001	-1.763822e+001	-1.572339e+002	-1.768098e+001	-1.571623e+002	-1.128413e+001	-1.967441e+001
1995493.934	-1.103915e+001	-6.508678e+001	-1.716670e+001	-1.624664e+002	-1.716867e+001	-1.625698e+002	-1.149460e+001	-2.461236e+001
2019930.676	-1.130153e+001	-7.100921e+001	-1.667209e+001	-1.680528e+002	-1.665725e+001	-1.682046e+002	-1.172394e+001	-2.958287e+001
2044367.418	-1.160080e+001	-7.709719e+001	-1.616379e+001	-1.739345e+002	-1.614510e+001	-1.741449e+002	-1.196558e+001	-3.476502e+001
2068804.159	-1.193871e+001	-8.330371e+001	-1.567538e+001	1.799635e+002	-1.565326e+001	1.797550e+002	-1.222500e+001	-3.992373e+001
2093240.901	-1.229602e+001	-8.962519e+001	-1.522365e+001	1.738700e+002	-1.517103e+001	1.733278e+002	-1.251322e+001	-4.509046e+001
2117677.643	-1.270328e+001	-9.609216e+001	-1.478670e+001	1.674581e+002	-1.473678e+001	1.669336e+002	-1.278575e+001	-5.021836e+001
2142114.385	-1.314723e+001	-1.027698e+002	-1.436881e+001	1.609879e+002	-1.432247e+001	1.604675e+002	-1.305523e+001	-5.541047e+001
2166551.127	-1.364544e+001	-1.096724e+002	-1.395852e+001	1.543777e+002	-1.391166e+001	1.538287e+002	-1.334440e+001	-6.070197e+001
2190987.868	-1.420079e+001	-1.166776e+002	-1.356950e+001	1.475378e+002	-1.352389e+001	1.469274e+002	-1.365067e+001	-6.591445e+001
2215424.610	-1.479975e+001	-1.237579e+002	-1.322215e+001	1.405809e+002	-1.319445e+001	1.402901e+002	-1.389446e+001	-7.114663e+001
2239861.352	-1.545468e+001	-1.309710e+002	-1.290231e+001	1.335237e+002	-1.287568e+001	1.332987e+002	-1.416726e+001	-7.629582e+001
2264298.094	-1.616459e+001	-1.383684e+002	-1.260314e+001	1.264021e+002	-1.257895e+001	1.262180e+002	-1.442855e+001	-8.144451e+001
2288734.835	-1.692104e+001	-1.458805e+002	-1.233317e+001	1.192334e+002	-1.231110e+001	1.191632e+002	-1.465834e+001	-8.658698e+001
2313171.577	-1.772222e+001	-1.535229e+002	-1.209562e+001	1.120216e+002	-1.207090e+001	1.120121e+002	-1.485997e+001	-9.171440e+001
2337608.319	-1.853789e+001	-1.613020e+002	-1.188566e+001	1.048043e+002	-1.186103e+001	1.048620e+002	-1.502389e+001	-9.686986e+001
2362045.061	-1.930923e+001	-1.695312e+002	-1.170913e+001	9.778252e+001	-1.168660e+001	9.780611e+001	-1.512641e+001	-1.020691e+002
2386481.802	-2.010008e+001	-1.778277e+002	-1.155518e+001	9.062398e+001	-1.152966e+001	9.074577e+001	-1.518954e+001	-1.074337e+002
2410918.544	-2.083216e+001	1.733940e+002	-1.142052e+001	8.353862e+001	-1.139342e+001	8.370510e+001	-1.520908e+001	-1.130009e+002
2435355.286	-2.149166e+001	1.641573e+002	-1.130727e+001	7.648603e+001	-1.127597e+001	7.666090e+001	-1.519207e+001	-1.187585e+002
2459792.028	-2.205496e+001	1.544395e+002	-1.121297e+001	6.945128e+001	-1.117712e+001	6.965975e+001	-1.514261e+001	-1.247633e+002
2484228.769	-2.249023e+001	1.443650e+002	-1.113503e+001	6.240686e+001	-1.109681e+001	6.269334e+001	-1.505290e+001	-1.310133e+002
2508665.511	-2.274154e+001	1.338074e+002	-1.107633e+001	5.544691e+001	-1.103183e+001	5.574699e+001	-1.494376e+001	-1.375113e+002
2533102.253	-2.279274e+001	1.231218e+002	-1.103552e+001	4.860986e+001	-1.099043e+001	4.888431e+001	-1.480677e+001	-1.442111e+002
2557538.995	-2.268668e+001	1.125606e+002	-1.101285e+001	4.171442e+001	-1.096532e+001	4.196880e+001	-1.467427e+001	-1.510882e+002
2581975.737	-2.242340e+001	1.022517e+002	-1.100994e+001	3.486681e+001	-1.095612e+001	3.509970e+001	-1.453513e+001	-1.581032e+002
2606412.478	-2.202920e+001	9.246656e+001	-1.102833e+001	2.806640e+001	-1.097138e+001	2.825954e+001	-1.439240e+001	-1.652524e+002
2630849.220	-2.154092e+001	8.308398e+001	-1.106616e+001	2.132634e+001	-1.100642e+001	2.151186e+001	-1.424468e+001	-1.724992e+002
2655285.962	-2.097967e+001	7.425956e+001	-1.112024e+001	1.468238e+001	-1.106251e+001	1.483767e+001	-1.410589e+001	-1.798086e+002
2679722.704	-2.038319e+001	6.592535e+001	-1.119665e+001	8.134091e+000	-1.113471e+001	8.245077e+000	-1.397697e+001	1.728724e+002
2704159.445	-1.978162e+001	5.798644e+001	-1.128518e+001	1.674130e+000	-1.122460e+001	1.753853e+000	-1.386019e+001	1.655895e+002
2728596.187	-1.919036e+001	5.039103e+001	-1.138755e+001	-4.676078e+000	-1.132875e+001	-4.646548e+000	-1.375717e+001	1.583212e+002
2753032.929	-1.862093e+001	4.317449e+001	-1.150425e+001	-1.092616e+001	-1.144680e+001	-1.093021e+001	-1.367429e+001	1.511392e+002
2777469.671	-1.807742e+001	3.628065e+001	-1.163457e+001	-1.705529e+001	-1.158010e+001	-1.709271e+001	-1.360306e+001	1.440958e+002
2801906.412	-1.756709e+001	2.964128e+001	-1.177147e+001	-2.302320e+001	-1.172237e+001	-2.306797e+001	-1.354123e+001	1.371444e+002
2826343.154	-1.708758e+001	2.331261e+001	-1.191744e+001	-2.885454e+001	-1.187559e+001	-2.891472e+001	-1.349344e+001	1.303698e+002
2850779.896	-1.664368e+001	1.719202e+001	-1.206980e+001	-3.456920e+001	-1.203350e+001	-3.462711e+001	-1.346488e+001	1.237626e+002
2875216.638	-1.624423e+001	1.127747e+001	-1.222426e+001	-4.020266e+001	-1.219844e+001	-4.019118e+001	-1.344251e+001	1.173043e+002
2899653.380	-1.587029e+001	5.580245e+000	-1.238135e+001	-4.565076e+001	-1.236171e+001	-4.563631e+001	-1.344299e+001	1.110369e+002
2924090.121	-1.552469e+001	7.508501e-002	-1.253815e+001	-5.095449e+001	-1.252419e+001	-5.095589e+001	-1.345754e+001	1.049511e+002
2948526.863	-1.520828e+001	-5.264948e+000	-1.268960e+001	-5.614339e+001	-1.268530e+001	-5.615392e+001	-1.348106e+001	9.903267e+001
2972963.605	-1.492108e+001	-1.043120e+001	-1.283989e+001	-6.123587e+001	-1.284248e+001	-6.122219e+001	-1.351742e+001	9.329336e+001
2997400.347	-1.465507e+001	-1.543233e+001	-1.298439e+001	-6.619397e+001	-1.299434e+001	-6.617642e+001	-1.356052e+001	8.771179e+001
3021837.088	-1.441122e+001	-2.032215e+001	-1.311809e+001	-7.105459e+001	-1.313839e+001	-7.099808e+001	-1.360839e+001	8.226833e+001
3046273.830	-1.418960e+001	-2.510824e+001	-1.323902e+001	-7.582623e+001	-1.326968e+001	-7.571217e+001	-1.366317e+001	7.693383e+001
3070710.572	-1.398917e+001	-2.978660e+001	-1.334778e+001	-8.052297e+001	-1.338632e+001	-8.037325e+001	-1.373388e+001	7.170758e+001
3095147.314	-1.380868e+001	-3.434887e+001	-1.344579e+001	-8.518073e+001	-1.349518e+001	-8.495101e+001	-1.381201e+001	6.662606e+001
3119584.055	-1.364192e+001	-3.878636e+001	-1.354116e+001	-8.974374e+001	-1.359352e+001	-8.949171e+001	-1.390084e+001	6.169889e+001
3144020.797	-1.348803e+001	-4.314377e+001	-1.361780e+001	-9.421827e+001	-1.368391e+001	-9.389938e+001	-1.398182e+001	5.690216e+001
3168457.539	-1.335397e+001	-4.742304e+001	-1.368484e+001	-9.868899e+001	-1.375737e+001	-9.831350e+001	-1.408601e+001	5.217321e+001
3192894.281	-1.323821e+001	-5.164525e+001	-1.373485e+001	-1.031681e+002	-1.381610e+001	-1.027137e+002	-1.420409e+001	4.752412e+001
3217331.023	-1.314162e+001	-5.578084e+001	-1.377448e+001	-1.076612e+002	-1.386270e+001	-1.071340e+002	-1.433580e+001	4.298550e+001
3241767.764	-1.305746e+001	-5.981232e+001	-1.380946e+001	-1.121383e+002	-1.390006e+001	-1.115572e+002	-1.448177e+001	3.858261e+001
3266204.506	-1.298342e+001	-6.372546e+001	-1.384402e+001	-1.165747e+002	-1.393939e+001	-1.159472e+002	-1.463359e+001	3.433514e+001
3290641.248	-1.291175e+001	-6.757033e+001	-1.387351e+001	-1.209076e+002	-1.396844e+001	-1.202497e+002	-1.477549e+001	3.018208e+001
3315077.990	-1.285379e+001	-7.145599e+001	-1.386964e+001	-1.252128e+002	-1.397068e+001	-1.244926e+002	-1.492577e+001	2.594588e+001
3339514.731	-1.282265e+001	-7.536487e+001	-1.383921e+001	-1.296337e+002	-1.394053e+001	-1.288324e+002	-1.511544e+001	2.164622e+001
3363951.473	-1.280675e+001	-7.922725e+001	-1.379765e+001	-1.340778e+002	-1.390024e+001	-1.332750e+002	-1.533553e+001	1.741856e+001
3388388.215	-1.281679e+001	-8.301347e+001	-1.374907e+001	-1.386115e+002	-1.384960e+001	-1.378096e+002	-1.558757e+001	1.331923e+001
3412824.957	-1.285572e+001	-8.672150e+001	-1.369497e+001	-1.432698e+002	-1.379560e+001	-1.423931e+002	-1.586681e+001	9.341298e+000
3437261.698	-1.291976e+001	-9.033698e+001	-1.363535e+001	-1.480247e+002	-1.373018e+001	-1.470974e+002	-1.618711e+001	5.504915e+000
3461698.440	-1.301721e+001	-9.383747e+001	-1.356915e+001	-1.528979e+002	-1.366310e+001	-1.519278e+002	-1.655820e+001	1.854771e+000
3486135.182	-1.314708e+001	-9.718818e+001	-1.350768e+001	-1.579072e+002	-1.359402e+001	-1.568374e+002	-1.696741e+001	-1.579505e+000
3510571.924	-1.329922e+001	-1.003678e+002	-1.344528e+001	-1.629679e+002	-1.352884e+001	-1.618961e+002	-1.743514e+001	-4.625904e+000
3535008.666	-1.346808e+001	-1.033022e+002	-1.339530e+001	-1.680469e+002	-1.347459e+001	-1.670949e+002	-1.795671e+001	-7.157412e+000
3559445.407	-1.365649e+001	-1.059724e+002	-1.335363e+001	-1.731860e+002	-1.342426e+001	-1.722789e+002	-1.849413e+001	-9.264727e+000
3583882.149	-1.386380e+001	-1.083488e+002	-1.331897e+001	-1.784239e+002	-1.338222e+001	-1.775306e+002	-1.906711e+001	-1.072286e+001
3608318.891	-1.408590e+001	-1.104296e+002	-1.328644e+001	1.762562e+002	-1.334287e+001	1.771295e+002	-1.966889e+001	-1.153200e+001
3632755.633	-1.430530e+001	-1.122159e+002	-1.326115e+001	1.709081e+002	-1.331256e+001	1.714964e+002	-2.034095e+001	-1.107517e+001
3657192.374	-1.453710e+001	-1.135787e+002	-1.324296e+001	1.654084e+002	-1.329385e+001	1.659335e+002	-2.093837e+001	-9.644800e+000
3681629.116	-1.476431e+001	-1.145953e+002	-1.322430e+001	1.598462e+002	-1.327615e+001	1.602930e+002	-2.148480e+001	-7.169463e+000
3706065.858	-1.497581e+001	-1.151261e+002	-1.322181e+001	1.541349e+002	-1.326561e+001	1.545625e+002	-2.189973e+001	-3.470926e+000
3730502.600	-1.515772e+001	-1.151852e+002	-1.323459e+001	1.482902e+002	-1.327906e+001	1.486829e+002	-2.207716e+001	1.441452e+000
3754939.341	-1.527646e+001	-1.148174e+002	-1.327031e+001	1.424096e+002	-1.331453e+001	1.427571e+002	-2.194971e+001	6.627178e+000
3779376.083	-1.532360e+001	-1.141134e+002	-1.332562e+001	1.364715e+002	-1.337458e+001	1.367675e+002	-2.152228e+001	1.132603e+001
3803812.825	-1.527638e+001	-1.131355e+002	-1.340878e+001	1.304667e+002	-1.346047e+001	1.307191e+002	-2.086479e+001	1.495245e+001
3828249.567	-1.512390e+001	-1.120200e+002	-1.351955e+001	1.243672e+002	-1.357988e+001	1.245899e+002	-2.005902e+001	1.726658e+001
3852686.308	-1.484857e+001	-1.110579e+002	-1.367141e+001	1.182478e+002	-1.373673e+001	1.184307e+002	-1.917741e+001	1.816861e+001
3877123.050	-1.447281e+001	-1.104694e+002	-1.385925e+001	1.121527e+002	-1.393386e+001	1.123091e+002	-1.829280e+001	1.774479e+001
3901559.792	-1.402609e+001	-1.104289e+002	-1.407903e+001	1.061310e+002	-1.416872e+001	1.062410e+002	-1.744984e+001	1.633455e+001
3925996.534	-1.353298e+001	-1.109393e+002	-1.433272e+001	1.001512e+002	-1.443136e+001	1.002721e+002	-1.667240e+001	1.415332e+001
3950433.276	-1.302171e+001	-1.120559e+002	-1.461617e+001	9.427665e+001	-1.472491e+001	9.443888e+001	-1.596572e+001	1.136172e+001
3974870.017	-1.250972e+001	-1.136917e+002	-1.493386e+001	8.853068e+001	-1.504764e+001	8.876382e+001	-1.533029e+001	8.155972e+000
3999306.759	-1.201152e+001	-1.158285e+002	-1.528475e+001	8.294039e+001	-1.540195e+001	8.323871e+001	-1.475304e+001	4.612181e+000
4023743.501	-1.154022e+001	-1.183798e+002	-1.566072e+001	7.754209e+001	-1.578397e+001	7.787332e+001	-1.423639e+001	8.531266e-001
4048180.243	-1.109679e+001	-1.212526e+002	-1.606910e+001	7.231547e+001	-1.620648e+001	7.265171e+001	-1.376140e+001	-3.088959e+000
4072616.984	-1.068321e+001	-1.244367e+002	-1.651251e+001	6.728698e+001	-1.664187e+001	6.772889e+001	-1.334642e+001	-7.127365e+000
4097053.726	-1.030448e+001	-1.278447e+002	-1.698887e+001	6.249926e+001	-1.710959e+001	6.306117e+001	-1.297347e+001	-1.126155e+001
4121490.468	-9.960366e+000	-1.314614e+002	-1.749696e+001	5.802693e+001	-1.761576e+001	5.864975e+001	-1.263512e+001	-1.548274e+001
4145927.210	-9.650842e+000	-1.352605e+002	-1.804596e+001	5.391646e+001	-1.815409e+001	5.457591e+001	-1.233285e+001	-1.976974e+001
4170363.951	-9.380734e+000	-1.391885e+002	-1.861848e+001	5.034594e+001	-1.871483e+001	5.104894e+001	-1.207246e+001	-2.407968e+001
4194800.693	-9.149315e+000	-1.432692e+002	-1.921857e+001	4.732065e+001	-1.930102e+001	4.804703e+001	-1.184402e+001	-2.846757e+001
4219237.435	-8.962418e+000	-1.474169e+002	-1.980426e+001	4.502075e+001	-1.987683e+001	4.579165e+001	-1.165399e+001	-3.286651e+001
4243674.177	-8.813961e+000	-1.515760e+002	-2.035229e+001	4.335665e+001	-2.041338e+001	4.415022e+001	-1.149767e+001	-3.720021e+001
4268110.919	-8.698482e+000	-1.557034e+002	-2.084017e+001	4.221373e+001	-2.089474e+001	4.308309e+001	-1.136692e+001	-4.146998e+001
4292547.660	-8.612652e+000	-1.598501e+002	-2.126981e+001	4.163699e+001	-2.132182e+001	4.250811e+001	-1.125571e+001	-4.567776e+001
4316984.402	-8.558043e+000	-1.639913e+002	-2.160986e+001	4.163675e+001	-2.164196e+001	4.251852e+001	-1.117018e+001	-4.986264e+001
4341421.144	-8.537753e+000	-1.680570e+002	-2.180061e+001	4.186398e+001	-2.182653e+001	4.281685e+001	-1.110975e+001	-5.396113e+001
4365857.886	-8.543259e+000	-1.719970e+002	-2.184700e+001	4.186829e+001	-2.187019e+001	4.280279e+001	-1.106533e+001	-5.788747e+001
4390294.627	-8.554358e+000	-1.758036e+002	-2.184270e+001	4.115290e+001	-2.185706e+001	4.217076e+001	-1.101677e+001	-6.164156e+001
4414731.369	-8.555751e+000	-1.795917e+002	-2.188015e+001	4.001681e+001	-2.188267e+001	4.102277e+001	-1.094741e+001	-6.531211e+001
4439168.111	-8.546076e+000	1.764499e+002	-2.201995e+001	3.914957e+001	-2.201067e+001	4.022640e+001	-1.084842e+001	-6.914374e+001
4463604.853	-8.548216e+000	1.722004e+002	-2.219597e+001	3.950751e+001	-2.217918e+001	4.060384e+001	-1.073385e+001	-7.325841e+001
4488041.594	-8.597294e+000	1.675949e+002	-2.222294e+001	4.155154e+001	-2.220549e+001	4.260798e+001	-1.063960e+001	-7.775641e+001
4512478.336	-8.732069e+000	1.627542e+002	-2.187053e+001	4.452002e+001	-2.182955e+001	4.547631e+001	-1.060934e+001	-8.259119e+001
4536915.078	-8.970132e+000	1.580354e+002	-2.109465e+001	4.608651e+001	-2.104697e+001	4.710088e+001	-1.066532e+001	-8.750841e+001
4561351.820	-9.283190e+000	1.537171e+002	-2.017204e+001	4.511340e+001	-2.012345e+001	4.606901e+001	-1.079128e+001	-9.213398e+001
4585788.562	-9.627377e+000	1.498080e+002	-1.933140e+001	4.233184e+001	-1.927949e+001	4.323199e+001	-1.094379e+001	-9.644264e+001
4610225.303	-9.987613e+000	1.462019e+002	-1.860534e+001	3.856331e+001	-1.854991e+001	3.942833e+001	-1.110567e+001	-1.005558e+002
4634662.045	-1.035776e+001	1.428811e+002	-1.798439e+001	3.413809e+001	-1.792183e+001	3.499075e+001	-1.127553e+001	-1.044622e+002
4659098.787	-1.072438e+001	1.398157e+002	-1.747253e+001	2.932766e+001	-1.741447e+001	3.020254e+001	-1.143208e+001	-1.081826e+002
4683535.529	-1.106519e+001	1.367212e+002	-1.709018e+001	2.469786e+001	-1.702533e+001	2.550687e+001	-1.155530e+001	-1.118728e+002
4707972.270	-1.141497e+001	1.333134e+002	-1.675858e+001	2.073960e+001	-1.669400e+001	2.158299e+001	-1.163809e+001	-1.159052e+002
4732409.012	-1.186214e+001	1.295105e+002	-1.634112e+001	1.739370e+001	-1.626940e+001	1.825747e+001	-1.175169e+001	-1.205643e+002
4756845.754	-1.247535e+001	1.258666e+002	-1.576488e+001	1.384308e+001	-1.567265e+001	1.464927e+001	-1.197825e+001	-1.256691e+002
4781282.496	-1.322883e+001	1.231700e+002	-1.511415e+001	9.172747e+000	-1.500322e+001	9.881966e+000	-1.234575e+001	-1.306533e+002
4805719.237	-1.403336e+001	1.217615e+002	-1.450407e+001	3.486226e+000	-1.438776e+001	4.012976e+000	-1.281352e+001	-1.350771e+002
4830155.979	-1.479711e+001	1.215187e+002	-1.399299e+001	-2.796871e+000	-1.388027e+001	-2.435888e+000	-1.332070e+001	-1.388722e+002
4854592.721	-1.548083e+001	1.221142e+002	-1.357227e+001	-9.235813e+000	-1.346882e+001	-9.082795e+000	-1.384274e+001	-1.421570e+002
4879029.463	-1.607130e+001	1.235358e+002	-1.320519e+001	-1.584267e+001	-1.312933e+001	-1.574554e+001	-1.436895e+001	-1.450283e+002
4903466.205	-1.652862e+001	1.254650e+002	-1.289340e+001	-2.251615e+001	-1.283979e+001	-2.241360e+001	-1.490625e+001	-1.475334e+002
4927902.946	-1.685370e+001	1.275885e+002	-1.262564e+001	-2.918113e+001	-1.258857e+001	-2.907173e+001	-1.545465e+001	-1.496614e+002
4952339.688	-1.703139e+001	1.296477e+002	-1.240077e+001	-3.593545e+001	-1.237220e+001	-3.564477e+001	-1.599981e+001	-1.514402e+002
4976776.430	-1.709053e+001	1.313255e+002	-1.221605e+001	-4.267099e+001	-1.219184e+001	-4.228633e+001	-1.653558e+001	-1.526166e+002
5001213.172	-1.707898e+001	1.324635e+002	-1.206257e+001	-4.932853e+001	-1.204274e+001	-4.890974e+001	-1.704288e+001	-1.532831e+002
5025649.913	-1.702992e+001	1.329795e+002	-1.194617e+001	-5.595160e+001	-1.192390e+001	-5.550488e+001	-1.749855e+001	-1.534999e+002
5050086.655	-1.697423e+001	1.329173e+002	-1.185709e+001	-6.251526e+001	-1.183130e+001	-6.204677e+001	-1.788579e+001	-1.533477e+002
5074523.397	-1.693349e+001	1.324184e+002	-1.179376e+001	-6.901251e+001	-1.176525e+001	-6.852767e+001	-1.819401e+001	-1.529450e+002
5098960.139	-1.692910e+001	1.315630e+002	-1.175103e+001	-7.542924e+001	-1.171938e+001	-7.495195e+001	-1.841516e+001	-1.524413e+002
5123396.880	-1.696144e+001	1.304739e+002	-1.172336e+001	-8.177827e+001	-1.169290e+001	-8.130314e+001	-1.855454e+001	-1.519759e+002
5147833.622	-1.703701e+001	1.292351e+002	-1.171399e+001	-8.805005e+001	-1.167889e+001	-8.757506e+001	-1.862247e+001	-1.516700e+002
5172270.364	-1.715042e+001	1.279307e+002	-1.171558e+001	-9.427107e+001	-1.167683e+001	-9.379637e+001	-1.863004e+001	-1.515567e+002
5196707.106	-1.730334e+001	1.266072e+002	-1.172550e+001	-1.004401e+002	-1.168565e+001	-9.995014e+001	-1.858362e+001	-1.517467e+002
5221143.847	-1.748611e+001	1.252453e+002	-1.174878e+001	-1.065623e+002	-1.170141e+001	-1.060378e+002	-1.850724e+001	-1.522212e+002
5245580.589	-1.770784e+001	1.241252e+002	-1.176866e+001	-1.125893e+002	-1.172389e+001	-1.121046e+002	-1.839548e+001	-1.530013e+002
5270017.331	-1.796087e+001	1.230302e+002	-1.180017e+001	-1.186068e+002	-1.175394e+001	-1.181471e+002	-1.825393e+001	-1.541145e+002
5294454.073	-1.823552e+001	1.220099e+002	-1.183527e+001	-1.246143e+002	-1.179005e+001	-1.241689e+002	-1.809681e+001	-1.555300e+002
5318890.815	-1.853686e+001	1.210584e+002	-1.187903e+001	-1.306234e+002	-1.183269e+001	-1.301805e+002	-1.792301e+001	-1.572581e+002
5343327.556	-1.887074e+001	1.201790e+002	-1.193076e+001	-1.366390e+002	-1.188096e+001	-1.362069e+002	-1.773245e+001	-1.593055e+002
5367764.298	-1.923708e+001	1.193347e+002	-1.198798e+001	-1.426780e+002	-1.193645e+001	-1.422488e+002	-1.753241e+001	-1.616681e+002
5392201.040	-1.964658e+001	1.186300e+002	-1.205501e+001	-1.487231e+002	-1.200141e+001	-1.482960e+002	-1.733228e+001	-1.644045e+002
5416637.782	-2.011043e+001	1.180976e+002	-1.213017e+001	-1.547610e+002	-1.208100e+001	-1.543663e+002	-1.713159e+001	-1.675132e+002
5441074.523	-2.063887e+001	1.178096e+002	-1.221777e+001	-1.607951e+002	-1.216914e+001	-1.604340e+002	-1.694132e+001	-1.709719e+002
