!Agilent Technologies,E5061B,MY49101568,A.02.00
!Date: Wed Mar 01 14:33:44 2023
!Data & Calibration Information:
!Freq	S11:SOLT2(OFF)	S21:SOLT2(OFF)	S12:SOLT2(OFF)	S22:SOLT2(OFF)
# Hz S dB R 50
1800000.000	-1.300057e+001	-4.688276e+001	-1.231394e+001	-1.416722e+002	-1.232674e+001	-1.414726e+002	-1.391902e+001	-1.770145e+001
1824436.742	-1.381451e+001	-5.338656e+001	-1.180812e+001	-1.487431e+002	-1.182492e+001	-1.485179e+002	-1.480260e+001	-2.428549e+001
1848873.484	-1.481594e+001	-5.977354e+001	-1.134534e+001	-1.561902e+002	-1.136047e+001	-1.558938e+002	-1.588448e+001	-3.086198e+001
1873310.225	-1.603752e+001	-6.594693e+001	-1.092811e+001	-1.638369e+002	-1.094507e+001	-1.635477e+002	-1.719911e+001	-3.721082e+001
1897746.967	-1.755281e+001	-7.144729e+001	-1.056381e+001	-1.716938e+002	-1.057808e+001	-1.713997e+002	-1.881527e+001	-4.319105e+001
1922183.709	-1.942397e+001	-7.585854e+001	-1.025349e+001	-1.796605e+002	-1.026221e+001	-1.793750e+002	-2.083463e+001	-4.830636e+001
1946620.451	-2.179444e+001	-7.789221e+001	-1.000151e+001	1.722733e+002	-1.000371e+001	1.725581e+002	-2.343254e+001	-5.150553e+001
1971057.192	-2.476621e+001	-7.433146e+001	-9.815562e+000	1.641736e+002	-9.809896e+000	1.644576e+002	-2.687191e+001	-4.957571e+001
1995493.934	-2.797248e+001	-5.912594e+001	-9.685733e+000	1.561609e+002	-9.680432e+000	1.564566e+002	-3.113590e+001	-3.337023e+001
2019930.676	-2.907564e+001	-2.856593e+001	-9.612371e+000	1.483314e+002	-9.600973e+000	1.486040e+002	-3.257596e+001	7.296008e+000
2044367.418	-2.679844e+001	-6.001605e+000	-9.584246e+000	1.406297e+002	-9.572301e+000	1.408898e+002	-2.934446e+001	3.340488e+001
2068804.159	-2.419384e+001	9.486361e-001	-9.607682e+000	1.332212e+002	-9.589052e+000	1.334614e+002	-2.624923e+001	3.878855e+001
2093240.901	-2.221927e+001	1.070621e+000	-9.650559e+000	1.261956e+002	-9.646961e+000	1.263309e+002	-2.406021e+001	3.687464e+001
2117677.643	-2.080186e+001	-2.096411e+000	-9.721002e+000	1.195275e+002	-9.716667e+000	1.196251e+002	-2.259882e+001	3.231678e+001
2142114.385	-1.979886e+001	-5.969430e+000	-9.770298e+000	1.132046e+002	-9.769668e+000	1.132994e+002	-2.162482e+001	2.705123e+001
2166551.127	-1.897862e+001	-1.017164e+001	-9.804042e+000	1.069596e+002	-9.804427e+000	1.070482e+002	-2.086869e+001	2.179847e+001
2190987.868	-1.831921e+001	-1.504264e+001	-9.838738e+000	1.008415e+002	-9.842807e+000	1.008886e+002	-2.026097e+001	1.596297e+001
2215424.610	-1.783655e+001	-2.017078e+001	-9.872474e+000	9.487784e+001	-9.884992e+000	9.499404e+001	-1.983828e+001	9.664021e+000
2239861.352	-1.748644e+001	-2.541161e+001	-9.893944e+000	8.909894e+001	-9.911351e+000	8.924222e+001	-1.956955e+001	3.202090e+000
2264298.094	-1.723382e+001	-3.065515e+001	-9.896791e+000	8.340971e+001	-9.910403e+000	8.358633e+001	-1.939479e+001	-3.232575e+000
2288734.835	-1.705945e+001	-3.595727e+001	-9.889070e+000	7.776151e+001	-9.901613e+000	7.792567e+001	-1.928397e+001	-9.747908e+000
2313171.577	-1.696190e+001	-4.129101e+001	-9.868742e+000	7.215547e+001	-9.881204e+000	7.232011e+001	-1.924676e+001	-1.648921e+001
2337608.319	-1.692803e+001	-4.670116e+001	-9.838122e+000	6.655906e+001	-9.851876e+000	6.671147e+001	-1.926718e+001	-2.344321e+001
2362045.061	-1.698037e+001	-5.215844e+001	-9.801721e+000	6.101510e+001	-9.816775e+000	6.112331e+001	-1.935003e+001	-3.063644e+001
2386481.802	-1.710587e+001	-5.770480e+001	-9.757024e+000	5.544220e+001	-9.772643e+000	5.555821e+001	-1.948897e+001	-3.821144e+001
2410918.544	-1.730543e+001	-6.320836e+001	-9.702359e+000	4.984999e+001	-9.719028e+000	4.999805e+001	-1.969143e+001	-4.610438e+001
2435355.286	-1.757972e+001	-6.866194e+001	-9.639711e+000	4.421794e+001	-9.656303e+000	4.438553e+001	-1.995876e+001	-5.432759e+001
2459792.028	-1.793518e+001	-7.407618e+001	-9.571652e+000	3.853833e+001	-9.586413e+000	3.872220e+001	-2.027157e+001	-6.281868e+001
2484228.769	-1.837383e+001	-7.947518e+001	-9.506248e+000	3.276532e+001	-9.514517e+000	3.300474e+001	-2.063598e+001	-7.176693e+001
2508665.511	-1.890801e+001	-8.480386e+001	-9.440266e+000	2.695498e+001	-9.446684e+000	2.719331e+001	-2.103210e+001	-8.118686e+001
2533102.253	-1.955924e+001	-9.004340e+001	-9.380461e+000	2.111054e+001	-9.386219e+000	2.134372e+001	-2.147222e+001	-9.112789e+001
2557538.995	-2.033100e+001	-9.508101e+001	-9.328332e+000	1.517705e+001	-9.331081e+000	1.541619e+001	-2.193327e+001	-1.016815e+002
2581975.737	-2.125606e+001	-9.981660e+001	-9.285455e+000	9.204252e+000	-9.285258e+000	9.447549e+000	-2.240506e+001	-1.128550e+002
2606412.478	-2.236499e+001	-1.041536e+002	-9.254271e+000	3.187300e+000	-9.252514e+000	3.447056e+000	-2.286705e+001	-1.247106e+002
2630849.220	-2.370983e+001	-1.077640e+002	-9.237831e+000	-2.830485e+000	-9.234158e+000	-2.580611e+000	-2.329900e+001	-1.371846e+002
2655285.962	-2.535353e+001	-1.100866e+002	-9.235845e+000	-8.844704e+000	-9.228563e+000	-8.600854e+000	-2.366605e+001	-1.502614e+002
2679722.704	-2.736362e+001	-1.101330e+002	-9.245012e+000	-1.484390e+001	-9.237228e+000	-1.460723e+001	-2.396603e+001	-1.638351e+002
2704159.445	-2.977058e+001	-1.056971e+002	-9.264644e+000	-2.081187e+001	-9.255898e+000	-2.057303e+001	-2.417803e+001	-1.775973e+002
2728596.187	-3.231322e+001	-9.296139e+001	-9.294304e+000	-2.674831e+001	-9.286656e+000	-2.650552e+001	-2.429174e+001	1.686280e+002
2753032.929	-3.372888e+001	-6.891830e+001	-9.336559e+000	-3.263969e+001	-9.328515e+000	-3.239909e+001	-2.431588e+001	1.551349e+002
2777469.671	-3.257720e+001	-4.444212e+001	-9.388476e+000	-3.846822e+001	-9.381167e+000	-3.823995e+001	-2.427255e+001	1.421275e+002
2801906.412	-3.028113e+001	-3.119387e+001	-9.447954e+000	-4.424508e+001	-9.440868e+000	-4.401738e+001	-2.417419e+001	1.297106e+002
2826343.154	-2.808750e+001	-2.627554e+001	-9.514622e+000	-4.994266e+001	-9.507497e+000	-4.972244e+001	-2.405702e+001	1.179566e+002
2850779.896	-2.629146e+001	-2.550926e+001	-9.583629e+000	-5.557236e+001	-9.579183e+000	-5.535108e+001	-2.393397e+001	1.068412e+002
2875216.638	-2.486160e+001	-2.694136e+001	-9.657285e+000	-6.117592e+001	-9.651747e+000	-6.089631e+001	-2.381972e+001	9.631433e+001
2899653.380	-2.367264e+001	-2.958318e+001	-9.729502e+000	-6.666040e+001	-9.726857e+000	-6.638476e+001	-2.375957e+001	8.636962e+001
2924090.121	-2.270348e+001	-3.284606e+001	-9.801150e+000	-7.207798e+001	-9.800712e+000	-7.180566e+001	-2.373129e+001	7.688967e+001
2948526.863	-2.191089e+001	-3.654749e+001	-9.869608e+000	-7.746247e+001	-9.870660e+000	-7.716724e+001	-2.375992e+001	6.773266e+001
2972963.605	-2.124486e+001	-4.040280e+001	-9.936856e+000	-8.277995e+001	-9.940361e+000	-8.248444e+001	-2.384434e+001	5.900251e+001
2997400.347	-2.069641e+001	-4.444194e+001	-9.996582e+000	-8.803357e+001	-1.000409e+001	-8.773200e+001	-2.397617e+001	5.046440e+001
3021837.088	-2.024150e+001	-4.860267e+001	-1.004875e+001	-9.325542e+001	-1.005873e+001	-9.293000e+001	-2.415528e+001	4.194454e+001
3046273.830	-1.988733e+001	-5.290479e+001	-1.008880e+001	-9.845833e+001	-1.009989e+001	-9.812459e+001	-2.442798e+001	3.317105e+001
3070710.572	-1.962702e+001	-5.721917e+001	-1.011912e+001	-1.037052e+002	-1.013147e+001	-1.033509e+002	-2.481924e+001	2.415167e+001
3095147.314	-1.946608e+001	-6.144701e+001	-1.014496e+001	-1.090073e+002	-1.015892e+001	-1.086275e+002	-2.534564e+001	1.498535e+001
3119584.055	-1.937552e+001	-6.553152e+001	-1.017000e+001	-1.143315e+002	-1.018413e+001	-1.139269e+002	-2.600945e+001	5.541015e+000
3144020.797	-1.936150e+001	-6.950931e+001	-1.019066e+001	-1.196640e+002	-1.020363e+001	-1.192795e+002	-2.684551e+001	-4.656035e+000
3168457.539	-1.942360e+001	-7.336326e+001	-1.020645e+001	-1.250772e+002	-1.021849e+001	-1.246692e+002	-2.783277e+001	-1.623642e+001
3192894.281	-1.957557e+001	-7.701896e+001	-1.022035e+001	-1.305723e+002	-1.023025e+001	-1.301565e+002	-2.904357e+001	-2.989502e+001
3217331.023	-1.982221e+001	-8.027228e+001	-1.024049e+001	-1.361850e+002	-1.024814e+001	-1.357428e+002	-3.048501e+001	-4.668645e+001
3241767.764	-2.014866e+001	-8.289147e+001	-1.027568e+001	-1.418711e+002	-1.028002e+001	-1.414133e+002	-3.204032e+001	-6.829513e+001
3266204.506	-2.051288e+001	-8.480349e+001	-1.032981e+001	-1.475361e+002	-1.033092e+001	-1.470744e+002	-3.320064e+001	-9.523625e+001
3290641.248	-2.087893e+001	-8.625263e+001	-1.038392e+001	-1.530877e+002	-1.037896e+001	-1.526296e+002	-3.300854e+001	-1.236263e+002
3315077.990	-2.134500e+001	-8.757249e+001	-1.040955e+001	-1.587002e+002	-1.040405e+001	-1.582566e+002	-3.131829e+001	-1.482544e+002
3339514.731	-2.195483e+001	-8.774340e+001	-1.043611e+001	-1.645736e+002	-1.042746e+001	-1.641392e+002	-2.904768e+001	-1.680899e+002
3363951.473	-2.262365e+001	-8.597797e+001	-1.048644e+001	-1.706372e+002	-1.047635e+001	-1.702063e+002	-2.685989e+001	1.758489e+002
3388388.215	-2.319533e+001	-8.193410e+001	-1.057117e+001	-1.767784e+002	-1.055527e+001	-1.763772e+002	-2.493990e+001	1.624953e+002
3412824.957	-2.352186e+001	-7.590242e+001	-1.068067e+001	1.770264e+002	-1.066416e+001	1.773953e+002	-2.327475e+001	1.509348e+002
3437261.698	-2.342209e+001	-6.869105e+001	-1.082216e+001	1.708187e+002	-1.080345e+001	1.711504e+002	-2.183962e+001	1.405540e+002
3461698.440	-2.286275e+001	-6.180758e+001	-1.099482e+001	1.646175e+002	-1.097517e+001	1.649113e+002	-2.058937e+001	1.310622e+002
3486135.182	-2.195040e+001	-5.652741e+001	-1.119920e+001	1.584563e+002	-1.118345e+001	1.587206e+002	-1.950315e+001	1.220493e+002
3510571.924	-2.085835e+001	-5.345604e+001	-1.143679e+001	1.524011e+002	-1.142329e+001	1.526161e+002	-1.856289e+001	1.135665e+002
3535008.666	-1.973080e+001	-5.246540e+001	-1.170642e+001	1.465165e+002	-1.169531e+001	1.466923e+002	-1.776335e+001	1.054994e+002
3559445.407	-1.867659e+001	-5.301541e+001	-1.199202e+001	1.408387e+002	-1.198821e+001	1.409641e+002	-1.708087e+001	9.788640e+001
3583882.149	-1.771567e+001	-5.456967e+001	-1.228689e+001	1.353454e+002	-1.228888e+001	1.354497e+002	-1.649216e+001	9.076221e+001
3608318.891	-1.685631e+001	-5.675667e+001	-1.258228e+001	1.300010e+002	-1.259398e+001	1.300690e+002	-1.596701e+001	8.407693e+001
3632755.633	-1.607475e+001	-5.943174e+001	-1.288275e+001	1.247572e+002	-1.290986e+001	1.248313e+002	-1.549322e+001	7.764911e+001
3657192.374	-1.537264e+001	-6.239860e+001	-1.318242e+001	1.196733e+002	-1.321843e+001	1.197441e+002	-1.507443e+001	7.162910e+001
3681629.116	-1.473166e+001	-6.553841e+001	-1.347881e+001	1.146835e+002	-1.352143e+001	1.147189e+002	-1.468326e+001	6.590093e+001
3706065.858	-1.413938e+001	-6.880298e+001	-1.377775e+001	1.097246e+002	-1.383045e+001	1.097734e+002	-1.432158e+001	6.032943e+001
3730502.600	-1.358902e+001	-7.224442e+001	-1.409011e+001	1.048384e+002	-1.415210e+001	1.049062e+002	-1.398682e+001	5.487701e+001
3754939.341	-1.308461e+001	-7.578190e+001	-1.440885e+001	1.000589e+002	-1.447904e+001	1.001474e+002	-1.368456e+001	4.954046e+001
3779376.083	-1.262131e+001	-7.940974e+001	-1.473274e+001	9.540015e+001	-1.481017e+001	9.549893e+001	-1.340934e+001	4.436595e+001
3803812.825	-1.219203e+001	-8.305694e+001	-1.505703e+001	9.083612e+001	-1.514435e+001	9.095277e+001	-1.315751e+001	3.931884e+001
3828249.567	-1.179434e+001	-8.675905e+001	-1.538865e+001	8.635493e+001	-1.548322e+001	8.653075e+001	-1.293128e+001	3.439305e+001
3852686.308	-1.142614e+001	-9.048622e+001	-1.572615e+001	8.198898e+001	-1.582504e+001	8.221078e+001	-1.272608e+001	2.960769e+001
3877123.050	-1.108675e+001	-9.422913e+001	-1.606048e+001	7.773650e+001	-1.616867e+001	7.802742e+001	-1.253934e+001	2.494551e+001
3901559.792	-1.077263e+001	-9.797630e+001	-1.639999e+001	7.359059e+001	-1.650718e+001	7.391434e+001	-1.236341e+001	2.040867e+001
3925996.534	-1.048142e+001	-1.017231e+002	-1.673971e+001	6.953242e+001	-1.684692e+001	6.989817e+001	-1.220207e+001	1.598286e+001
3950433.276	-1.020934e+001	-1.054696e+002	-1.708122e+001	6.556518e+001	-1.719479e+001	6.595804e+001	-1.204744e+001	1.163389e+001
3974870.017	-9.957795e+000	-1.092132e+002	-1.742807e+001	6.171597e+001	-1.754388e+001	6.213460e+001	-1.190203e+001	7.374807e+000
3999306.759	-9.720650e+000	-1.129535e+002	-1.777812e+001	5.792029e+001	-1.789399e+001	5.838356e+001	-1.176537e+001	3.197375e+000
4023743.501	-9.500437e+000	-1.166964e+002	-1.813322e+001	5.427398e+001	-1.825651e+001	5.473840e+001	-1.163364e+001	-9.383259e-001
4048180.243	-9.292929e+000	-1.204572e+002	-1.850183e+001	5.066560e+001	-1.862860e+001	5.118650e+001	-1.150784e+001	-5.022016e+000
4072616.984	-9.101628e+000	-1.242181e+002	-1.887885e+001	4.720667e+001	-1.901333e+001	4.779718e+001	-1.138969e+001	-9.069836e+000
4097053.726	-8.923632e+000	-1.280117e+002	-1.927104e+001	4.390856e+001	-1.941001e+001	4.454114e+001	-1.127582e+001	-1.310083e+001
4121490.468	-8.759445e+000	-1.318359e+002	-1.968408e+001	4.080535e+001	-1.982394e+001	4.150025e+001	-1.116939e+001	-1.711490e+001
4145927.210	-8.613388e+000	-1.356928e+002	-2.010880e+001	3.798136e+001	-2.025853e+001	3.873289e+001	-1.106990e+001	-2.112511e+001
4170363.951	-8.483848e+000	-1.395708e+002	-2.055275e+001	3.550395e+001	-2.070042e+001	3.629809e+001	-1.098313e+001	-2.509829e+001
4194800.693	-8.374399e+000	-1.435065e+002	-2.100859e+001	3.350397e+001	-2.115924e+001	3.438805e+001	-1.090647e+001	-2.912156e+001
4219237.435	-8.286982e+000	-1.474547e+002	-2.144268e+001	3.202395e+001	-2.159199e+001	3.299860e+001	-1.084637e+001	-3.311462e+001
4243674.177	-8.221845e+000	-1.513798e+002	-2.183682e+001	3.098027e+001	-2.198058e+001	3.205753e+001	-1.079716e+001	-3.705985e+001
4268110.919	-8.174367e+000	-1.553054e+002	-2.219126e+001	3.036603e+001	-2.232259e+001	3.151712e+001	-1.075719e+001	-4.096827e+001
4292547.660	-8.145224e+000	-1.592219e+002	-2.248998e+001	3.018751e+001	-2.260071e+001	3.141798e+001	-1.072737e+001	-4.485274e+001
4316984.402	-8.139843e+000	-1.631518e+002	-2.269889e+001	3.053011e+001	-2.279911e+001	3.180079e+001	-1.070980e+001	-4.874249e+001
4341421.144	-8.161853e+000	-1.670090e+002	-2.276354e+001	3.111249e+001	-2.285566e+001	3.234563e+001	-1.070816e+001	-5.254197e+001
4365857.886	-8.198257e+000	-1.707405e+002	-2.269235e+001	3.124624e+001	-2.277374e+001	3.247627e+001	-1.071481e+001	-5.619744e+001
4390294.627	-8.232531e+000	-1.743875e+002	-2.259084e+001	3.062435e+001	-2.265722e+001	3.193694e+001	-1.070857e+001	-5.975652e+001
4414731.369	-8.254923e+000	-1.780694e+002	-2.255064e+001	2.959391e+001	-2.261068e+001	3.085574e+001	-1.067435e+001	-6.330273e+001
4439168.111	-8.277779e+000	1.780363e+002	-2.261107e+001	2.903321e+001	-2.267473e+001	3.028361e+001	-1.061670e+001	-6.708577e+001
4463604.853	-8.324174e+000	1.738615e+002	-2.268869e+001	2.979239e+001	-2.275583e+001	3.112107e+001	-1.056120e+001	-7.119404e+001
4488041.594	-8.429460e+000	1.694030e+002	-2.257960e+001	3.221155e+001	-2.263447e+001	3.376124e+001	-1.054464e+001	-7.569583e+001
4512478.336	-8.628333e+000	1.648472e+002	-2.204745e+001	3.525715e+001	-2.207068e+001	3.691099e+001	-1.060453e+001	-8.044433e+001
4536915.078	-8.929468e+000	1.605596e+002	-2.110469e+001	3.657956e+001	-2.106905e+001	3.814027e+001	-1.076742e+001	-8.509474e+001
4561351.820	-9.289622e+000	1.568657e+002	-2.005925e+001	3.500367e+001	-1.999081e+001	3.634665e+001	-1.099136e+001	-8.927885e+001
4585788.562	-9.657860e+000	1.536672e+002	-1.914308e+001	3.156755e+001	-1.907413e+001	3.270825e+001	-1.122385e+001	-9.303915e+001
4610225.303	-1.002131e+001	1.508162e+002	-1.836850e+001	2.725549e+001	-1.829075e+001	2.826827e+001	-1.145693e+001	-9.655243e+001
4634662.045	-1.037072e+001	1.482826e+002	-1.771540e+001	2.236938e+001	-1.762940e+001	2.330018e+001	-1.168453e+001	-9.982967e+001
4659098.787	-1.069009e+001	1.459230e+002	-1.719989e+001	1.723347e+001	-1.710956e+001	1.804836e+001	-1.188025e+001	-1.029065e+002
4683535.529	-1.098587e+001	1.433950e+002	-1.680414e+001	1.244625e+001	-1.671948e+001	1.312444e+001	-1.202937e+001	-1.060992e+002
4707972.270	-1.132572e+001	1.405244e+002	-1.642768e+001	8.513684e+000	-1.636061e+001	9.099375e+000	-1.216571e+001	-1.098037e+002
4732409.012	-1.180043e+001	1.375867e+002	-1.592787e+001	5.179453e+000	-1.587465e+001	5.671021e+000	-1.239049e+001	-1.141190e+002
4756845.754	-1.243544e+001	1.355776e+002	-1.523536e+001	1.224440e+000	-1.520049e+001	1.674323e+000	-1.278878e+001	-1.184798e+002
4781282.496	-1.309464e+001	1.352812e+002	-1.448932e+001	-4.202175e+000	-1.448225e+001	-3.707264e+000	-1.333687e+001	-1.220283e+002
4805719.237	-1.359651e+001	1.364412e+002	-1.384358e+001	-1.084771e+001	-1.384729e+001	-1.021431e+001	-1.394298e+001	-1.243993e+002
4830155.979	-1.387033e+001	1.381448e+002	-1.333296e+001	-1.802568e+001	-1.333426e+001	-1.724945e+001	-1.452302e+001	-1.256720e+002
4854592.721	-1.394107e+001	1.394942e+002	-1.294795e+001	-2.533156e+001	-1.293050e+001	-2.441878e+001	-1.502654e+001	-1.261352e+002
4879029.463	-1.389348e+001	1.402086e+002	-1.264420e+001	-3.254098e+001	-1.260623e+001	-3.162276e+001	-1.543483e+001	-1.259425e+002
4903466.205	-1.377611e+001	1.402496e+002	-1.239775e+001	-3.966444e+001	-1.234330e+001	-3.875615e+001	-1.573551e+001	-1.253753e+002
4927902.946	-1.362789e+001	1.396350e+002	-1.219601e+001	-4.672338e+001	-1.213251e+001	-4.587743e+001	-1.591306e+001	-1.245518e+002
4952339.688	-1.346920e+001	1.383668e+002	-1.203817e+001	-5.375854e+001	-1.197342e+001	-5.295794e+001	-1.595373e+001	-1.237385e+002
4976776.430	-1.333041e+001	1.365810e+002	-1.191535e+001	-6.068296e+001	-1.184670e+001	-5.990666e+001	-1.589986e+001	-1.232379e+002
5001213.172	-1.322489e+001	1.343366e+002	-1.182510e+001	-6.753499e+001	-1.175486e+001	-6.676820e+001	-1.576049e+001	-1.231400e+002
5025649.913	-1.316337e+001	1.317037e+002	-1.176651e+001	-7.430726e+001	-1.169506e+001	-7.354448e+001	-1.555730e+001	-1.235233e+002
5050086.655	-1.315316e+001	1.288185e+002	-1.173321e+001	-8.097348e+001	-1.165657e+001	-8.021696e+001	-1.532302e+001	-1.244325e+002
5074523.397	-1.319732e+001	1.257076e+002	-1.172186e+001	-8.753923e+001	-1.164181e+001	-8.679688e+001	-1.506721e+001	-1.258343e+002
5098960.139	-1.329511e+001	1.224915e+002	-1.172718e+001	-9.401756e+001	-1.164425e+001	-9.328381e+001	-1.480980e+001	-1.276665e+002
5123396.880	-1.344589e+001	1.191816e+002	-1.174940e+001	-1.004024e+002	-1.166134e+001	-9.968534e+001	-1.456424e+001	-1.298920e+002
5147833.622	-1.364681e+001	1.158393e+002	-1.178396e+001	-1.067092e+002	-1.169130e+001	-1.060044e+002	-1.433295e+001	-1.324381e+002
5172270.364	-1.389650e+001	1.124835e+002	-1.182701e+001	-1.129381e+002	-1.173200e+001	-1.122648e+002	-1.411510e+001	-1.352790e+002
5196707.106	-1.419422e+001	1.091184e+002	-1.187900e+001	-1.191134e+002	-1.178385e+001	-1.184666e+002	-1.391714e+001	-1.383613e+002
5221143.847	-1.453812e+001	1.057405e+002	-1.194318e+001	-1.252299e+002	-1.184492e+001	-1.246445e+002	-1.373420e+001	-1.416349e+002
5245580.589	-1.493064e+001	1.023848e+002	-1.201140e+001	-1.313228e+002	-1.191221e+001	-1.307721e+002	-1.357020e+001	-1.451016e+002
5270017.331	-1.537364e+001	9.903716e+001	-1.208787e+001	-1.373873e+002	-1.198669e+001	-1.368662e+002	-1.342441e+001	-1.487458e+002
5294454.073	-1.586905e+001	9.567159e+001	-1.217119e+001	-1.434205e+002	-1.207137e+001	-1.429476e+002	-1.329601e+001	-1.525659e+002
5318890.815	-1.642339e+001	9.231060e+001	-1.226078e+001	-1.494444e+002	-1.216521e+001	-1.490047e+002	-1.318341e+001	-1.565384e+002
5343327.556	-1.704513e+001	8.884326e+001	-1.236058e+001	-1.554680e+002	-1.226560e+001	-1.550647e+002	-1.308448e+001	-1.606520e+002
5367764.298	-1.774139e+001	8.526380e+001	-1.246952e+001	-1.615091e+002	-1.237631e+001	-1.611208e+002	-1.299971e+001	-1.649170e+002
5392201.040	-1.854056e+001	8.154701e+001	-1.259201e+001	-1.675429e+002	-1.250405e+001	-1.671844e+002	-1.293082e+001	-1.693811e+002
5416637.782	-1.946643e+001	7.762919e+001	-1.272719e+001	-1.735520e+002	-1.264261e+001	-1.732244e+002	-1.288142e+001	-1.739952e+002
5441074.523	-2.055063e+001	7.350052e+001	-1.287558e+001	-1.795433e+002	-1.279615e+001	-1.792259e+002	-1.285331e+001	-1.787647e+002
