!Agilent Technologies,E5061B,MY49101568,A.02.00
!Date: Wed Mar 01 14:24:44 2023
!Data & Calibration Information:
!Freq	S11:SOLT2(OFF)	S21:SOLT2(OFF)	S12:SOLT2(OFF)	S22:SOLT2(OFF)
# Hz S dB R 50
1800000.000	-1.133970e+001	3.306299e+001	-1.082780e+001	1.407019e+002	-1.078254e+001	1.407142e+002	-1.108757e+001	7.801803e+001
1824436.742	-1.117560e+001	2.842476e+001	-1.104945e+001	1.356739e+002	-1.100492e+001	1.357409e+002	-1.101929e+001	7.302370e+001
1848873.484	-1.106315e+001	2.388544e+001	-1.124979e+001	1.309270e+002	-1.120903e+001	1.309568e+002	-1.098572e+001	6.821123e+001
1873310.225	-1.097855e+001	1.942274e+001	-1.142860e+001	1.263361e+002	-1.138872e+001	1.263402e+002	-1.097736e+001	6.354710e+001
1897746.967	-1.091263e+001	1.507506e+001	-1.157685e+001	1.219082e+002	-1.155098e+001	1.218692e+002	-1.099302e+001	5.898308e+001
1922183.709	-1.085846e+001	1.067119e+001	-1.171654e+001	1.174881e+002	-1.168118e+001	1.174750e+002	-1.102157e+001	5.454093e+001
1946620.451	-1.082568e+001	6.337951e+000	-1.182601e+001	1.131983e+002	-1.180799e+001	1.131984e+002	-1.107247e+001	5.005347e+001
1971057.192	-1.082179e+001	1.875157e+000	-1.194280e+001	1.090779e+002	-1.192075e+001	1.089263e+002	-1.112830e+001	4.558067e+001
1995493.934	-1.083732e+001	-2.484495e+000	-1.202491e+001	1.050216e+002	-1.201768e+001	1.049421e+002	-1.122458e+001	4.114061e+001
2019930.676	-1.086018e+001	-6.803673e+000	-1.208212e+001	1.010683e+002	-1.208551e+001	1.010734e+002	-1.133730e+001	3.678708e+001
2044367.418	-1.090038e+001	-1.112249e+001	-1.211722e+001	9.718894e+001	-1.211593e+001	9.720640e+001	-1.145868e+001	3.250054e+001
2068804.159	-1.094047e+001	-1.530415e+001	-1.210876e+001	9.326913e+001	-1.210939e+001	9.333328e+001	-1.158006e+001	2.832687e+001
2093240.901	-1.097715e+001	-1.963036e+001	-1.210328e+001	8.931704e+001	-1.210253e+001	8.934401e+001	-1.169608e+001	2.403961e+001
2117677.643	-1.104197e+001	-2.404841e+001	-1.208810e+001	8.542735e+001	-1.206984e+001	8.545151e+001	-1.183268e+001	1.977424e+001
2142114.385	-1.111028e+001	-2.838809e+001	-1.203593e+001	8.148219e+001	-1.202717e+001	8.148198e+001	-1.196540e+001	1.537414e+001
2166551.127	-1.118888e+001	-3.283875e+001	-1.197839e+001	7.750776e+001	-1.197159e+001	7.741415e+001	-1.210356e+001	1.089385e+001
2190987.868	-1.128248e+001	-3.740009e+001	-1.191298e+001	7.352161e+001	-1.191204e+001	7.342373e+001	-1.226544e+001	6.274211e+000
2215424.610	-1.139742e+001	-4.197839e+001	-1.182516e+001	6.948274e+001	-1.185289e+001	6.946062e+001	-1.244960e+001	1.467242e+000
2239861.352	-1.154260e+001	-4.665589e+001	-1.172958e+001	6.549765e+001	-1.175314e+001	6.553771e+001	-1.266121e+001	-3.294205e+000
2264298.094	-1.171068e+001	-5.138091e+001	-1.161350e+001	6.148603e+001	-1.164838e+001	6.154865e+001	-1.289122e+001	-8.251821e+000
2288734.835	-1.191633e+001	-5.600003e+001	-1.146932e+001	5.747934e+001	-1.150205e+001	5.755450e+001	-1.315197e+001	-1.312331e+001
2313171.577	-1.212435e+001	-6.062513e+001	-1.130401e+001	5.328291e+001	-1.133855e+001	5.339007e+001	-1.343037e+001	-1.807144e+001
2337608.319	-1.235345e+001	-6.537444e+001	-1.113871e+001	4.893880e+001	-1.117042e+001	4.910047e+001	-1.372659e+001	-2.315122e+001
2362045.061	-1.262455e+001	-7.013697e+001	-1.096284e+001	4.459888e+001	-1.099214e+001	4.472719e+001	-1.405481e+001	-2.835464e+001
2386481.802	-1.293008e+001	-7.483444e+001	-1.076500e+001	4.013415e+001	-1.078883e+001	4.022003e+001	-1.442200e+001	-3.356978e+001
2410918.544	-1.325038e+001	-7.943928e+001	-1.055012e+001	3.545082e+001	-1.058299e+001	3.565207e+001	-1.483522e+001	-3.895313e+001
2435355.286	-1.357054e+001	-8.409916e+001	-1.033520e+001	3.048333e+001	-1.036562e+001	3.068739e+001	-1.524763e+001	-4.425502e+001
2459792.028	-1.392742e+001	-8.892701e+001	-1.013375e+001	2.535335e+001	-1.016863e+001	2.558066e+001	-1.568773e+001	-4.983103e+001
2484228.769	-1.432527e+001	-9.390076e+001	-9.947836e+000	2.006039e+001	-9.982292e+000	2.032531e+001	-1.616881e+001	-5.561877e+001
2508665.511	-1.477518e+001	-9.904475e+001	-9.779502e+000	1.465166e+001	-9.815078e+000	1.496146e+001	-1.669426e+001	-6.163085e+001
2533102.253	-1.530459e+001	-1.042928e+002	-9.630712e+000	9.207816e+000	-9.663852e+000	9.490398e+000	-1.728902e+001	-6.783045e+001
2557538.995	-1.591809e+001	-1.097206e+002	-9.506473e+000	3.632968e+000	-9.528790e+000	3.944106e+000	-1.794280e+001	-7.430180e+001
2581975.737	-1.663618e+001	-1.150760e+002	-9.396399e+000	-1.966007e+000	-9.416253e+000	-1.611556e+000	-1.868953e+001	-8.114229e+001
2606412.478	-1.748863e+001	-1.203008e+002	-9.303210e+000	-7.563251e+000	-9.321323e+000	-7.230445e+000	-1.951308e+001	-8.823259e+001
2630849.220	-1.846932e+001	-1.252860e+002	-9.225458e+000	-1.318670e+001	-9.240564e+000	-1.283921e+001	-2.047868e+001	-9.562789e+001
2655285.962	-1.961165e+001	-1.299066e+002	-9.164644e+000	-1.879947e+001	-9.174133e+000	-1.843302e+001	-2.157889e+001	-1.033899e+002
2679722.704	-2.093428e+001	-1.337271e+002	-9.107991e+000	-2.439019e+001	-9.116226e+000	-2.406582e+001	-2.285185e+001	-1.113284e+002
2704159.445	-2.242412e+001	-1.369914e+002	-9.069401e+000	-3.006657e+001	-9.074087e+000	-2.972786e+001	-2.429456e+001	-1.195364e+002
2728596.187	-2.414147e+001	-1.392163e+002	-9.046449e+000	-3.578282e+001	-9.049893e+000	-3.541039e+001	-2.593158e+001	-1.282615e+002
2753032.929	-2.622859e+001	-1.394550e+002	-9.046411e+000	-4.141889e+001	-9.049106e+000	-4.105698e+001	-2.778368e+001	-1.379650e+002
2777469.671	-2.873424e+001	-1.361849e+002	-9.061792e+000	-4.700060e+001	-9.065158e+000	-4.669315e+001	-2.989805e+001	-1.490190e+002
2801906.412	-3.166647e+001	-1.259439e+002	-9.097389e+000	-5.253247e+001	-9.094228e+000	-5.222716e+001	-3.240607e+001	-1.631274e+002
2826343.154	-3.404781e+001	-1.025577e+002	-9.144088e+000	-5.797305e+001	-9.139656e+000	-5.767166e+001	-3.512901e+001	1.768997e+002
2850779.896	-3.351215e+001	-7.269216e+001	-9.192122e+000	-6.330098e+001	-9.193171e+000	-6.302336e+001	-3.749294e+001	1.466668e+002
2875216.638	-3.116239e+001	-5.463564e+001	-9.259905e+000	-6.857256e+001	-9.259252e+000	-6.829210e+001	-3.793696e+001	1.111655e+002
2899653.380	-2.875098e+001	-4.751575e+001	-9.324943e+000	-7.369228e+001	-9.323428e+000	-7.344187e+001	-3.642799e+001	8.022440e+001
2924090.121	-2.681906e+001	-4.584767e+001	-9.387550e+000	-7.875410e+001	-9.389059e+000	-7.849150e+001	-3.443352e+001	5.926991e+001
2948526.863	-2.527370e+001	-4.671915e+001	-9.449851e+000	-8.372210e+001	-9.451201e+000	-8.347551e+001	-3.272499e+001	4.432053e+001
2972963.605	-2.405747e+001	-4.886001e+001	-9.508895e+000	-8.863809e+001	-9.512184e+000	-8.839317e+001	-3.138675e+001	3.243969e+001
2997400.347	-2.306836e+001	-5.176240e+001	-9.562506e+000	-9.348042e+001	-9.569144e+000	-9.324376e+001	-3.031809e+001	2.235123e+001
3021837.088	-2.225522e+001	-5.507031e+001	-9.614748e+000	-9.827341e+001	-9.622638e+000	-9.803334e+001	-2.948044e+001	1.330290e+001
3046273.830	-2.158430e+001	-5.869297e+001	-9.658624e+000	-1.029816e+002	-9.667126e+000	-1.027475e+002	-2.874680e+001	4.750345e+000
3070710.572	-2.103333e+001	-6.261618e+001	-9.687173e+000	-1.076718e+002	-9.702188e+000	-1.074132e+002	-2.816065e+001	-3.660000e+000
3095147.314	-2.059199e+001	-6.669940e+001	-9.705205e+000	-1.123496e+002	-9.718598e+000	-1.120938e+002	-2.767540e+001	-1.275148e+001
3119584.055	-2.027081e+001	-7.097745e+001	-9.706513e+000	-1.170765e+002	-9.723670e+000	-1.167991e+002	-2.730224e+001	-2.222608e+001
3144020.797	-2.006122e+001	-7.521573e+001	-9.706283e+000	-1.218453e+002	-9.719748e+000	-1.216013e+002	-2.708879e+001	-3.231217e+001
3168457.539	-1.995219e+001	-7.940244e+001	-9.698253e+000	-1.267217e+002	-9.715327e+000	-1.264566e+002	-2.698343e+001	-4.289555e+001
3192894.281	-1.993158e+001	-8.345848e+001	-9.691975e+000	-1.316624e+002	-9.707478e+000	-1.313839e+002	-2.694024e+001	-5.412342e+001
3217331.023	-2.000952e+001	-8.726646e+001	-9.691225e+000	-1.366829e+002	-9.704190e+000	-1.363866e+002	-2.699166e+001	-6.595101e+001
3241767.764	-2.017841e+001	-9.070502e+001	-9.702519e+000	-1.417857e+002	-9.713831e+000	-1.414695e+002	-2.712946e+001	-7.854084e+001
3266204.506	-2.039001e+001	-9.363868e+001	-9.727501e+000	-1.468483e+002	-9.736303e+000	-1.465494e+002	-2.729730e+001	-9.135232e+001
3290641.248	-2.062752e+001	-9.641876e+001	-9.751437e+000	-1.518297e+002	-9.758710e+000	-1.515274e+002	-2.732156e+001	-1.038153e+002
3315077.990	-2.095863e+001	-9.932245e+001	-9.750807e+000	-1.568549e+002	-9.756615e+000	-1.565576e+002	-2.701920e+001	-1.170133e+002
3339514.731	-2.146319e+001	-1.017046e+002	-9.750859e+000	-1.621243e+002	-9.753410e+000	-1.618176e+002	-2.651125e+001	-1.315929e+002
3363951.473	-2.211530e+001	-1.030176e+002	-9.771808e+000	-1.675351e+002	-9.772105e+000	-1.672389e+002	-2.590142e+001	-1.467617e+002
3388388.215	-2.285091e+001	-1.027793e+002	-9.818583e+000	-1.730378e+002	-9.816571e+000	-1.727624e+002	-2.520173e+001	-1.617755e+002
3412824.957	-2.362342e+001	-1.005152e+002	-9.890345e+000	-1.785963e+002	-9.887247e+000	-1.783383e+002	-2.442001e+001	-1.761975e+002
3437261.698	-2.428494e+001	-9.596205e+001	-9.992162e+000	1.758427e+002	-9.985950e+000	1.760771e+002	-2.359316e+001	1.702488e+002
3461698.440	-2.464325e+001	-8.924580e+001	-1.012206e+001	1.703184e+002	-1.011864e+001	1.705096e+002	-2.277401e+001	1.573947e+002
3486135.182	-2.452742e+001	-8.141658e+001	-1.028499e+001	1.648566e+002	-1.028099e+001	1.650303e+002	-2.199398e+001	1.455302e+002
3510571.924	-2.393565e+001	-7.434832e+001	-1.047663e+001	1.594959e+002	-1.047355e+001	1.596384e+002	-2.125412e+001	1.343475e+002
3535008.666	-2.302993e+001	-6.931251e+001	-1.068730e+001	1.543212e+002	-1.069217e+001	1.544279e+002	-2.058280e+001	1.239412e+002
3559445.407	-2.199767e+001	-6.653498e+001	-1.091707e+001	1.493351e+002	-1.092431e+001	1.494213e+002	-1.999126e+001	1.143906e+002
3583882.149	-2.096813e+001	-6.542076e+001	-1.115247e+001	1.445077e+002	-1.116137e+001	1.446197e+002	-1.945127e+001	1.056270e+002
3608318.891	-2.000470e+001	-6.559988e+001	-1.139066e+001	1.398524e+002	-1.140356e+001	1.399187e+002	-1.893777e+001	9.743478e+001
3632755.633	-1.910053e+001	-6.664599e+001	-1.163316e+001	1.352548e+002	-1.165525e+001	1.353718e+002	-1.846637e+001	8.964327e+001
3657192.374	-1.826257e+001	-6.837693e+001	-1.188486e+001	1.308312e+002	-1.190840e+001	1.309345e+002	-1.802271e+001	8.233394e+001
3681629.116	-1.747312e+001	-7.061914e+001	-1.214605e+001	1.264855e+002	-1.217875e+001	1.266141e+002	-1.760783e+001	7.519588e+001
3706065.858	-1.673284e+001	-7.341161e+001	-1.243348e+001	1.223185e+002	-1.246995e+001	1.224628e+002	-1.722955e+001	6.816825e+001
3730502.600	-1.605811e+001	-7.679641e+001	-1.274137e+001	1.184737e+002	-1.278231e+001	1.186065e+002	-1.691398e+001	6.116990e+001
3754939.341	-1.546592e+001	-8.064921e+001	-1.306127e+001	1.150356e+002	-1.310535e+001	1.152135e+002	-1.668956e+001	5.424082e+001
3779376.083	-1.497255e+001	-8.491241e+001	-1.336896e+001	1.121443e+002	-1.341887e+001	1.123596e+002	-1.655621e+001	4.741052e+001
3803812.825	-1.460522e+001	-8.943566e+001	-1.362056e+001	1.099066e+002	-1.366664e+001	1.100932e+002	-1.654957e+001	4.103981e+001
3828249.567	-1.439276e+001	-9.387355e+001	-1.374852e+001	1.081303e+002	-1.380309e+001	1.084535e+002	-1.670101e+001	3.525194e+001
3852686.308	-1.432486e+001	-9.772994e+001	-1.370954e+001	1.062870e+002	-1.375196e+001	1.066291e+002	-1.693779e+001	3.106559e+001
3877123.050	-1.433471e+001	-1.003760e+002	-1.353437e+001	1.035652e+002	-1.357167e+001	1.039400e+002	-1.711503e+001	2.863128e+001
3901559.792	-1.427443e+001	-1.018598e+002	-1.335143e+001	9.968528e+001	-1.337568e+001	9.997721e+001	-1.705063e+001	2.746765e+001
3925996.534	-1.404740e+001	-1.029865e+002	-1.327660e+001	9.507625e+001	-1.331044e+001	9.519829e+001	-1.669893e+001	2.577072e+001
3950433.276	-1.367673e+001	-1.044870e+002	-1.332941e+001	9.024743e+001	-1.338645e+001	9.025110e+001	-1.622424e+001	2.281590e+001
3974870.017	-1.326335e+001	-1.068284e+002	-1.348217e+001	8.577272e+001	-1.357211e+001	8.578863e+001	-1.579695e+001	1.860807e+001
3999306.759	-1.287994e+001	-1.098806e+002	-1.368895e+001	8.187712e+001	-1.380903e+001	8.209141e+001	-1.549175e+001	1.369400e+001
4023743.501	-1.256482e+001	-1.134395e+002	-1.390236e+001	7.865317e+001	-1.402494e+001	7.911504e+001	-1.531739e+001	8.652215e+000
4048180.243	-1.234955e+001	-1.171460e+002	-1.405458e+001	7.601466e+001	-1.416422e+001	7.667494e+001	-1.525858e+001	3.855440e+000
4072616.984	-1.221938e+001	-1.207346e+002	-1.412348e+001	7.368748e+001	-1.420835e+001	7.443995e+001	-1.527555e+001	-4.675871e-001
4097053.726	-1.214796e+001	-1.240050e+002	-1.409775e+001	7.133159e+001	-1.416203e+001	7.202487e+001	-1.532766e+001	-4.159676e+000
4121490.468	-1.209976e+001	-1.269156e+002	-1.401247e+001	6.869983e+001	-1.406187e+001	6.929478e+001	-1.537222e+001	-7.349899e+000
4145927.210	-1.205707e+001	-1.294507e+002	-1.388343e+001	6.572341e+001	-1.394041e+001	6.632670e+001	-1.540138e+001	-1.025083e+001
4170363.951	-1.200053e+001	-1.317261e+002	-1.374235e+001	6.245850e+001	-1.380336e+001	6.302412e+001	-1.540001e+001	-1.280069e+001
4194800.693	-1.191956e+001	-1.338648e+002	-1.360254e+001	5.889719e+001	-1.366400e+001	5.948803e+001	-1.537014e+001	-1.521947e+001
4219237.435	-1.181619e+001	-1.358590e+002	-1.346788e+001	5.507614e+001	-1.353895e+001	5.570231e+001	-1.529205e+001	-1.754270e+001
4243674.177	-1.168069e+001	-1.379676e+002	-1.336639e+001	5.117038e+001	-1.342810e+001	5.180057e+001	-1.518906e+001	-1.989824e+001
4268110.919	-1.153499e+001	-1.401108e+002	-1.327145e+001	4.718796e+001	-1.333501e+001	4.781572e+001	-1.506520e+001	-2.233561e+001
4292547.660	-1.138059e+001	-1.423334e+002	-1.318801e+001	4.315556e+001	-1.324936e+001	4.384462e+001	-1.493987e+001	-2.487396e+001
4316984.402	-1.122418e+001	-1.446095e+002	-1.310795e+001	3.909755e+001	-1.316940e+001	3.981774e+001	-1.480584e+001	-2.745172e+001
4341421.144	-1.106395e+001	-1.469761e+002	-1.303586e+001	3.500953e+001	-1.309929e+001	3.575520e+001	-1.466443e+001	-3.010205e+001
4365857.886	-1.090113e+001	-1.494478e+002	-1.297584e+001	3.089320e+001	-1.303393e+001	3.166094e+001	-1.452077e+001	-3.281310e+001
4390294.627	-1.073945e+001	-1.520190e+002	-1.292163e+001	2.676707e+001	-1.297325e+001	2.756214e+001	-1.438187e+001	-3.558508e+001
4414731.369	-1.059062e+001	-1.547016e+002	-1.287328e+001	2.268911e+001	-1.292439e+001	2.352429e+001	-1.424895e+001	-3.851176e+001
4439168.111	-1.044885e+001	-1.574535e+002	-1.282606e+001	1.856372e+001	-1.287275e+001	1.946023e+001	-1.412124e+001	-4.146608e+001
4463604.853	-1.032351e+001	-1.602823e+002	-1.277991e+001	1.451393e+001	-1.282406e+001	1.541666e+001	-1.400393e+001	-4.446964e+001
4488041.594	-1.020596e+001	-1.631612e+002	-1.273270e+001	1.044515e+001	-1.277257e+001	1.138707e+001	-1.389811e+001	-4.748995e+001
4512478.336	-1.010260e+001	-1.660843e+002	-1.268437e+001	6.382667e+000	-1.271927e+001	7.349519e+000	-1.380079e+001	-5.052786e+001
4536915.078	-1.001179e+001	-1.690843e+002	-1.264037e+001	2.309105e+000	-1.267125e+001	3.298394e+000	-1.370726e+001	-5.362619e+001
4561351.820	-9.938006e+000	-1.721445e+002	-1.259897e+001	-1.719200e+000	-1.262460e+001	-7.224513e-001	-1.362709e+001	-5.678963e+001
4585788.562	-9.887899e+000	-1.752296e+002	-1.255382e+001	-5.691605e+000	-1.257391e+001	-4.673132e+000	-1.356931e+001	-5.999204e+001
4610225.303	-9.858990e+000	-1.783161e+002	-1.249808e+001	-9.638254e+000	-1.251354e+001	-8.614818e+000	-1.352943e+001	-6.318188e+001
4634662.045	-9.844694e+000	1.786281e+002	-1.243273e+001	-1.360971e+001	-1.243981e+001	-1.255614e+001	-1.350729e+001	-6.632873e+001
4659098.787	-9.846568e+000	1.756042e+002	-1.235720e+001	-1.760688e+001	-1.236041e+001	-1.655523e+001	-1.349553e+001	-6.942109e+001
4683535.529	-9.860307e+000	1.725877e+002	-1.227744e+001	-2.164592e+001	-1.227388e+001	-2.058308e+001	-1.349504e+001	-7.247541e+001
4707972.270	-9.889237e+000	1.696061e+002	-1.219036e+001	-2.568904e+001	-1.218012e+001	-2.468330e+001	-1.350574e+001	-7.545566e+001
4732409.012	-9.931524e+000	1.666380e+002	-1.209867e+001	-2.981182e+001	-1.208210e+001	-2.881996e+001	-1.352523e+001	-7.840066e+001
4756845.754	-9.983482e+000	1.637059e+002	-1.200168e+001	-3.401453e+001	-1.197923e+001	-3.303002e+001	-1.355153e+001	-8.128767e+001
4781282.496	-1.004754e+001	1.607818e+002	-1.190318e+001	-3.829260e+001	-1.187656e+001	-3.731274e+001	-1.358176e+001	-8.412567e+001
4805719.237	-1.012092e+001	1.578750e+002	-1.180583e+001	-4.263732e+001	-1.177388e+001	-4.168737e+001	-1.361476e+001	-8.688977e+001
4830155.979	-1.020776e+001	1.549562e+002	-1.171215e+001	-4.706453e+001	-1.167710e+001	-4.611273e+001	-1.364840e+001	-8.966943e+001
4854592.721	-1.030916e+001	1.520339e+002	-1.162473e+001	-5.152889e+001	-1.158479e+001	-5.060973e+001	-1.368192e+001	-9.240264e+001
4879029.463	-1.042725e+001	1.491155e+002	-1.154125e+001	-5.605265e+001	-1.149702e+001	-5.514854e+001	-1.372108e+001	-9.513656e+001
4903466.205	-1.056532e+001	1.462080e+002	-1.146526e+001	-6.058823e+001	-1.141515e+001	-5.971851e+001	-1.376688e+001	-9.786727e+001
4927902.946	-1.072234e+001	1.433250e+002	-1.139440e+001	-6.516713e+001	-1.133904e+001	-6.432908e+001	-1.381517e+001	-1.005743e+002
4952339.688	-1.089824e+001	1.404812e+002	-1.132615e+001	-6.980703e+001	-1.126790e+001	-6.895114e+001	-1.386995e+001	-1.032989e+002
4976776.430	-1.109622e+001	1.376986e+002	-1.126327e+001	-7.443903e+001	-1.120346e+001	-7.361092e+001	-1.392835e+001	-1.059891e+002
5001213.172	-1.131318e+001	1.349648e+002	-1.120549e+001	-7.910096e+001	-1.114138e+001	-7.829472e+001	-1.399408e+001	-1.086263e+002
5025649.913	-1.155313e+001	1.323181e+002	-1.115084e+001	-8.376949e+001	-1.108751e+001	-8.299577e+001	-1.406386e+001	-1.112732e+002
5050086.655	-1.181283e+001	1.297478e+002	-1.110409e+001	-8.845537e+001	-1.103585e+001	-8.772496e+001	-1.413517e+001	-1.138746e+002
5074523.397	-1.209133e+001	1.272782e+002	-1.105946e+001	-9.317751e+001	-1.099140e+001	-9.247368e+001	-1.421018e+001	-1.164670e+002
5098960.139	-1.239230e+001	1.249112e+002	-1.102271e+001	-9.791703e+001	-1.095332e+001	-9.723683e+001	-1.428566e+001	-1.190625e+002
5123396.880	-1.271464e+001	1.226599e+002	-1.099233e+001	-1.026535e+002	-1.092238e+001	-1.020023e+002	-1.436378e+001	-1.216476e+002
5147833.622	-1.305893e+001	1.205579e+002	-1.096730e+001	-1.073889e+002	-1.089558e+001	-1.067776e+002	-1.444694e+001	-1.242362e+002
5172270.364	-1.342286e+001	1.186284e+002	-1.094551e+001	-1.121238e+002	-1.087603e+001	-1.115372e+002	-1.453489e+001	-1.268222e+002
5196707.106	-1.380379e+001	1.169000e+002	-1.092757e+001	-1.168485e+002	-1.085864e+001	-1.162961e+002	-1.462755e+001	-1.293750e+002
5221143.847	-1.419870e+001	1.153741e+002	-1.091178e+001	-1.215404e+002	-1.084400e+001	-1.210629e+002	-1.472146e+001	-1.318973e+002
5245580.589	-1.460268e+001	1.140614e+002	-1.089850e+001	-1.262834e+002	-1.083317e+001	-1.258220e+002	-1.481772e+001	-1.344159e+002
5270017.331	-1.501756e+001	1.129536e+002	-1.088978e+001	-1.310275e+002	-1.082471e+001	-1.305976e+002	-1.491105e+001	-1.369354e+002
5294454.073	-1.543399e+001	1.120875e+002	-1.088393e+001	-1.357773e+002	-1.082068e+001	-1.353716e+002	-1.500368e+001	-1.394696e+002
5318890.815	-1.585360e+001	1.114165e+002	-1.088157e+001	-1.405392e+002	-1.081965e+001	-1.401465e+002	-1.509558e+001	-1.420211e+002
5343327.556	-1.627267e+001	1.109966e+002	-1.088269e+001	-1.452996e+002	-1.082308e+001	-1.449298e+002	-1.518635e+001	-1.446127e+002
5367764.298	-1.668970e+001	1.108031e+002	-1.088768e+001	-1.500677e+002	-1.083084e+001	-1.497174e+002	-1.527497e+001	-1.472316e+002
5392201.040	-1.709814e+001	1.108154e+002	-1.089514e+001	-1.548396e+002	-1.084019e+001	-1.544982e+002	-1.536738e+001	-1.498750e+002
5416637.782	-1.749730e+001	1.110418e+002	-1.090592e+001	-1.596223e+002	-1.085305e+001	-1.592885e+002	-1.545551e+001	-1.525979e+002
5441074.523	-1.788710e+001	1.114845e+002	-1.092180e+001	-1.644096e+002	-1.087111e+001	-1.640870e+002	-1.554588e+001	-1.553790e+002
