!Agilent Technologies,E5061B,MY49101568,A.02.00
!Date: Wed Mar 01 14:36:37 2023
!Data & Calibration Information:
!Freq	S11:SOLT2(OFF)	S21:SOLT2(OFF)	S12:SOLT2(OFF)	S22:SOLT2(OFF)
# Hz S dB R 50
1800000.000	-9.485624e+000	-1.770319e+001	-2.458372e+001	-1.329033e+002	-2.459281e+001	-1.329505e+002	-9.863987e+000	1.855527e+001
1824436.742	-9.583480e+000	-2.200495e+001	-2.420500e+001	-1.367990e+002	-2.422206e+001	-1.368488e+002	-9.988998e+000	1.478978e+001
1848873.484	-9.686142e+000	-2.640296e+001	-2.381760e+001	-1.407209e+002	-2.383475e+001	-1.408260e+002	-1.011631e+001	1.096097e+001
1873310.225	-9.795380e+000	-3.085966e+001	-2.342688e+001	-1.447933e+002	-2.343884e+001	-1.448573e+002	-1.024116e+001	7.101682e+000
1897746.967	-9.904967e+000	-3.540183e+001	-2.301877e+001	-1.489518e+002	-2.304092e+001	-1.490198e+002	-1.036105e+001	3.169947e+000
1922183.709	-1.001791e+001	-4.006766e+001	-2.260370e+001	-1.531861e+002	-2.263103e+001	-1.532602e+002	-1.048145e+001	-8.707893e-001
1946620.451	-1.013522e+001	-4.484976e+001	-2.217624e+001	-1.575531e+002	-2.220180e+001	-1.576174e+002	-1.060294e+001	-4.995344e+000
1971057.192	-1.026042e+001	-4.978951e+001	-2.174331e+001	-1.620472e+002	-2.177073e+001	-1.620421e+002	-1.072320e+001	-9.229832e+000
1995493.934	-1.039518e+001	-5.484128e+001	-2.130107e+001	-1.666551e+002	-2.133378e+001	-1.666125e+002	-1.084608e+001	-1.354814e+001
2019930.676	-1.053999e+001	-6.004403e+001	-2.085003e+001	-1.714108e+002	-2.088513e+001	-1.712937e+002	-1.096549e+001	-1.793540e+001
2044367.418	-1.069383e+001	-6.537082e+001	-2.038872e+001	-1.763001e+002	-2.042811e+001	-1.761943e+002	-1.108553e+001	-2.247464e+001
2068804.159	-1.086346e+001	-7.083428e+001	-1.993254e+001	1.786266e+002	-1.997504e+001	1.787830e+002	-1.120397e+001	-2.706325e+001
2093240.901	-1.104559e+001	-7.644188e+001	-1.947213e+001	1.734272e+002	-1.951775e+001	1.735544e+002	-1.132523e+001	-3.170663e+001
2117677.643	-1.124164e+001	-8.222264e+001	-1.902082e+001	1.680458e+002	-1.906870e+001	1.682030e+002	-1.144287e+001	-3.647089e+001
2142114.385	-1.145356e+001	-8.819520e+001	-1.857145e+001	1.624836e+002	-1.861771e+001	1.627184e+002	-1.155236e+001	-4.133451e+001
2166551.127	-1.168657e+001	-9.434979e+001	-1.812384e+001	1.567476e+002	-1.817233e+001	1.570361e+002	-1.166324e+001	-4.631967e+001
2190987.868	-1.193778e+001	-1.006747e+002	-1.768682e+001	1.508350e+002	-1.773067e+001	1.511867e+002	-1.177138e+001	-5.139118e+001
2215424.610	-1.221212e+001	-1.071684e+002	-1.726492e+001	1.447221e+002	-1.731088e+001	1.451431e+002	-1.187532e+001	-5.655397e+001
2239861.352	-1.250326e+001	-1.138936e+002	-1.686534e+001	1.385016e+002	-1.690433e+001	1.389850e+002	-1.196972e+001	-6.182409e+001
2264298.094	-1.281646e+001	-1.208392e+002	-1.647110e+001	1.321555e+002	-1.651073e+001	1.326693e+002	-1.205637e+001	-6.718853e+001
2288734.835	-1.315215e+001	-1.280091e+002	-1.609849e+001	1.256660e+002	-1.613554e+001	1.262263e+002	-1.213579e+001	-7.266242e+001
2313171.577	-1.350836e+001	-1.353737e+002	-1.574778e+001	1.190123e+002	-1.577967e+001	1.196243e+002	-1.220418e+001	-7.823778e+001
2337608.319	-1.388143e+001	-1.429783e+002	-1.541760e+001	1.122594e+002	-1.544439e+001	1.129039e+002	-1.226359e+001	-8.389517e+001
2362045.061	-1.426675e+001	-1.507881e+002	-1.511324e+001	1.054201e+002	-1.513774e+001	1.060563e+002	-1.230598e+001	-8.963223e+001
2386481.802	-1.465483e+001	-1.588420e+002	-1.483925e+001	9.846027e+001	-1.485515e+001	9.912914e+001	-1.233372e+001	-9.549905e+001
2410918.544	-1.503545e+001	-1.671518e+002	-1.458660e+001	9.145061e+001	-1.459731e+001	9.211880e+001	-1.234275e+001	-1.014913e+002
2435355.286	-1.541028e+001	-1.757514e+002	-1.436521e+001	8.437349e+001	-1.436485e+001	8.505925e+001	-1.233695e+001	-1.075972e+002
2459792.028	-1.576165e+001	1.753713e+002	-1.417373e+001	7.725266e+001	-1.416260e+001	7.793276e+001	-1.231508e+001	-1.138529e+002
2484228.769	-1.608350e+001	1.662680e+002	-1.400449e+001	7.008999e+001	-1.398598e+001	7.078216e+001	-1.227907e+001	-1.202500e+002
2508665.511	-1.636082e+001	1.569409e+002	-1.386622e+001	6.292302e+001	-1.384050e+001	6.360181e+001	-1.223309e+001	-1.267549e+002
2533102.253	-1.658763e+001	1.474400e+002	-1.375492e+001	5.581005e+001	-1.372281e+001	5.639692e+001	-1.217734e+001	-1.333693e+002
2557538.995	-1.675778e+001	1.377733e+002	-1.367511e+001	4.863359e+001	-1.363375e+001	4.920788e+001	-1.211536e+001	-1.401210e+002
2581975.737	-1.686257e+001	1.280987e+002	-1.362543e+001	4.152506e+001	-1.357412e+001	4.205077e+001	-1.204972e+001	-1.469576e+002
2606412.478	-1.689693e+001	1.184255e+002	-1.359863e+001	3.444506e+001	-1.354374e+001	3.492678e+001	-1.198235e+001	-1.538795e+002
2630849.220	-1.686733e+001	1.088882e+002	-1.360239e+001	2.742682e+001	-1.354168e+001	2.784467e+001	-1.191942e+001	-1.608562e+002
2655285.962	-1.677873e+001	9.948641e+001	-1.363694e+001	2.047670e+001	-1.356751e+001	2.085592e+001	-1.185864e+001	-1.678615e+002
2679722.704	-1.663768e+001	9.031353e+001	-1.369197e+001	1.363182e+001	-1.362125e+001	1.393947e+001	-1.180459e+001	-1.748818e+002
2704159.445	-1.645734e+001	8.143626e+001	-1.377182e+001	6.901127e+000	-1.369755e+001	7.159865e+000	-1.175841e+001	1.781333e+002
2728596.187	-1.624681e+001	7.287808e+001	-1.387133e+001	2.824167e-001	-1.379767e+001	4.872465e-001	-1.172352e+001	1.711819e+002
2753032.929	-1.601678e+001	6.465505e+001	-1.399031e+001	-6.185696e+000	-1.391646e+001	-6.069577e+000	-1.169737e+001	1.643186e+002
2777469.671	-1.577205e+001	5.676634e+001	-1.412468e+001	-1.255643e+001	-1.405461e+001	-1.246707e+001	-1.168357e+001	1.575467e+002
2801906.412	-1.552301e+001	4.919871e+001	-1.427659e+001	-1.875060e+001	-1.421021e+001	-1.873173e+001	-1.167992e+001	1.509010e+002
2826343.154	-1.527090e+001	4.197583e+001	-1.443864e+001	-2.481500e+001	-1.437514e+001	-2.482300e+001	-1.168765e+001	1.444082e+002
2850779.896	-1.502689e+001	3.506651e+001	-1.461294e+001	-3.069754e+001	-1.455450e+001	-3.077857e+001	-1.170510e+001	1.380345e+002
2875216.638	-1.478745e+001	2.844028e+001	-1.479397e+001	-3.646288e+001	-1.474035e+001	-3.655203e+001	-1.173212e+001	1.318254e+002
2899653.380	-1.455680e+001	2.210960e+001	-1.498173e+001	-4.205861e+001	-1.493283e+001	-4.217855e+001	-1.176676e+001	1.257991e+002
2924090.121	-1.433409e+001	1.604317e+001	-1.517081e+001	-4.749460e+001	-1.512999e+001	-4.764582e+001	-1.180668e+001	1.199389e+002
2948526.863	-1.412020e+001	1.021098e+001	-1.536188e+001	-5.276943e+001	-1.532773e+001	-5.297175e+001	-1.185446e+001	1.142513e+002
2972963.605	-1.391758e+001	4.613985e+000	-1.555197e+001	-5.792507e+001	-1.552526e+001	-5.812975e+001	-1.190557e+001	1.087169e+002
2997400.347	-1.372243e+001	-7.759776e-001	-1.573887e+001	-6.291960e+001	-1.571935e+001	-6.315148e+001	-1.196286e+001	1.033421e+002
3021837.088	-1.353686e+001	-5.984307e+000	-1.592088e+001	-6.778226e+001	-1.590972e+001	-6.801755e+001	-1.201896e+001	9.810938e+001
3046273.830	-1.335893e+001	-1.101795e+001	-1.609607e+001	-7.252051e+001	-1.609107e+001	-7.276550e+001	-1.208049e+001	9.303101e+001
3070710.572	-1.319318e+001	-1.589782e+001	-1.625976e+001	-7.715569e+001	-1.626238e+001	-7.739807e+001	-1.214576e+001	8.807580e+001
3095147.314	-1.303604e+001	-2.061227e+001	-1.641797e+001	-8.169886e+001	-1.642397e+001	-8.194916e+001	-1.221483e+001	8.326067e+001
3119584.055	-1.288627e+001	-2.519926e+001	-1.656546e+001	-8.614499e+001	-1.658156e+001	-8.640961e+001	-1.228634e+001	7.858700e+001
3144020.797	-1.274455e+001	-2.966140e+001	-1.670528e+001	-9.048457e+001	-1.672500e+001	-9.077609e+001	-1.235643e+001	7.405726e+001
3168457.539	-1.261183e+001	-3.400329e+001	-1.683318e+001	-9.477350e+001	-1.686109e+001	-9.505440e+001	-1.242840e+001	6.962511e+001
3192894.281	-1.248554e+001	-3.824537e+001	-1.695024e+001	-9.901063e+001	-1.698082e+001	-9.927184e+001	-1.250330e+001	6.530183e+001
3217331.023	-1.236687e+001	-4.238044e+001	-1.705617e+001	-1.031922e+002	-1.709322e+001	-1.034410e+002	-1.257972e+001	6.108921e+001
3241767.764	-1.225641e+001	-4.641206e+001	-1.715586e+001	-1.073380e+002	-1.719785e+001	-1.075713e+002	-1.265765e+001	5.698224e+001
3266204.506	-1.215096e+001	-5.034687e+001	-1.725052e+001	-1.114359e+002	-1.729808e+001	-1.116313e+002	-1.273103e+001	5.300535e+001
3290641.248	-1.204508e+001	-5.420997e+001	-1.733417e+001	-1.154001e+002	-1.738747e+001	-1.155891e+002	-1.280117e+001	4.909152e+001
3315077.990	-1.194451e+001	-5.805164e+001	-1.739419e+001	-1.192846e+002	-1.745054e+001	-1.194504e+002	-1.287091e+001	4.518649e+001
3339514.731	-1.185560e+001	-6.184025e+001	-1.743247e+001	-1.231977e+002	-1.749141e+001	-1.233404e+002	-1.295068e+001	4.132855e+001
3363951.473	-1.177800e+001	-6.557318e+001	-1.745441e+001	-1.271486e+002	-1.751912e+001	-1.272546e+002	-1.303756e+001	3.756268e+001
3388388.215	-1.170910e+001	-6.922808e+001	-1.746975e+001	-1.311365e+002	-1.753868e+001	-1.312044e+002	-1.312737e+001	3.390030e+001
3412824.957	-1.164805e+001	-7.282460e+001	-1.747219e+001	-1.351039e+002	-1.754494e+001	-1.351600e+002	-1.322643e+001	3.029692e+001
3437261.698	-1.159619e+001	-7.637169e+001	-1.746357e+001	-1.391144e+002	-1.753778e+001	-1.391174e+002	-1.332746e+001	2.678715e+001
3461698.440	-1.155340e+001	-7.985506e+001	-1.744733e+001	-1.431418e+002	-1.752387e+001	-1.431266e+002	-1.343618e+001	2.337105e+001
3486135.182	-1.151960e+001	-8.326709e+001	-1.741807e+001	-1.471933e+002	-1.749863e+001	-1.471396e+002	-1.354947e+001	2.002524e+001
3510571.924	-1.149751e+001	-8.661061e+001	-1.738205e+001	-1.513024e+002	-1.746388e+001	-1.512110e+002	-1.366963e+001	1.679432e+001
3535008.666	-1.148295e+001	-8.986680e+001	-1.733851e+001	-1.554585e+002	-1.742315e+001	-1.553291e+002	-1.379512e+001	1.369404e+001
3559445.407	-1.147586e+001	-9.304238e+001	-1.729053e+001	-1.596198e+002	-1.737211e+001	-1.594611e+002	-1.391767e+001	1.068990e+001
3583882.149	-1.147415e+001	-9.614676e+001	-1.722997e+001	-1.638462e+002	-1.731220e+001	-1.636414e+002	-1.404395e+001	7.764744e+000
3608318.891	-1.147846e+001	-9.917530e+001	-1.715698e+001	-1.681042e+002	-1.723993e+001	-1.678573e+002	-1.417349e+001	4.926359e+000
3632755.633	-1.149206e+001	-1.021241e+002	-1.707898e+001	-1.725305e+002	-1.716202e+001	-1.721533e+002	-1.430524e+001	2.182223e+000
3657192.374	-1.150514e+001	-1.050062e+002	-1.699314e+001	-1.769536e+002	-1.707420e+001	-1.765315e+002	-1.444559e+001	-4.441774e-001
3681629.116	-1.152676e+001	-1.078265e+002	-1.690038e+001	1.785438e+002	-1.697953e+001	1.789981e+002	-1.458630e+001	-2.957171e+000
3706065.858	-1.155711e+001	-1.105751e+002	-1.679731e+001	1.738748e+002	-1.687826e+001	1.743758e+002	-1.473798e+001	-5.315897e+000
3730502.600	-1.159373e+001	-1.132140e+002	-1.670402e+001	1.691145e+002	-1.677793e+001	1.696394e+002	-1.489156e+001	-7.515755e+000
3754939.341	-1.163997e+001	-1.157796e+002	-1.660476e+001	1.642047e+002	-1.667758e+001	1.647850e+002	-1.504591e+001	-9.525950e+000
3779376.083	-1.169418e+001	-1.182347e+002	-1.650887e+001	1.592163e+002	-1.658383e+001	1.598144e+002	-1.519638e+001	-1.137912e+001
3803812.825	-1.175788e+001	-1.205469e+002	-1.641969e+001	1.540607e+002	-1.648450e+001	1.546991e+002	-1.534622e+001	-1.301755e+001
3828249.567	-1.182832e+001	-1.226867e+002	-1.633539e+001	1.487688e+002	-1.640167e+001	1.494611e+002	-1.548354e+001	-1.442015e+001
3852686.308	-1.190126e+001	-1.246098e+002	-1.626603e+001	1.432871e+002	-1.632805e+001	1.439914e+002	-1.561367e+001	-1.551316e+001
3877123.050	-1.196643e+001	-1.262885e+002	-1.621411e+001	1.376594e+002	-1.627501e+001	1.383977e+002	-1.571267e+001	-1.633740e+001
3901559.792	-1.201313e+001	-1.277614e+002	-1.618819e+001	1.319247e+002	-1.624315e+001	1.326666e+002	-1.577169e+001	-1.690606e+001
3925996.534	-1.203792e+001	-1.290132e+002	-1.618120e+001	1.260437e+002	-1.623655e+001	1.268185e+002	-1.577990e+001	-1.725262e+001
3950433.276	-1.202718e+001	-1.300502e+002	-1.621007e+001	1.200127e+002	-1.626172e+001	1.208272e+002	-1.572490e+001	-1.743404e+001
3974870.017	-1.196608e+001	-1.309403e+002	-1.627928e+001	1.138993e+002	-1.632542e+001	1.147269e+002	-1.559592e+001	-1.754824e+001
3999306.759	-1.185126e+001	-1.317915e+002	-1.638987e+001	1.077341e+002	-1.643338e+001	1.085756e+002	-1.539021e+001	-1.778649e+001
4023743.501	-1.168141e+001	-1.326782e+002	-1.654599e+001	1.014897e+002	-1.658760e+001	1.023953e+002	-1.511523e+001	-1.825172e+001
4048180.243	-1.145490e+001	-1.337362e+002	-1.675719e+001	9.529376e+001	-1.679471e+001	9.620847e+001	-1.477696e+001	-1.902330e+001
4072616.984	-1.118240e+001	-1.350703e+002	-1.702441e+001	8.917312e+001	-1.705728e+001	9.010269e+001	-1.439807e+001	-2.022950e+001
4097053.726	-1.087429e+001	-1.367236e+002	-1.735240e+001	8.317465e+001	-1.738348e+001	8.412963e+001	-1.399445e+001	-2.191175e+001
4121490.468	-1.054406e+001	-1.387808e+002	-1.774659e+001	7.740212e+001	-1.777147e+001	7.837611e+001	-1.357731e+001	-2.406306e+001
4145927.210	-1.021282e+001	-1.412199e+002	-1.820175e+001	7.193374e+001	-1.822406e+001	7.294471e+001	-1.317190e+001	-2.665005e+001
4170363.951	-9.882555e+000	-1.440564e+002	-1.873385e+001	6.691980e+001	-1.874957e+001	6.799307e+001	-1.278243e+001	-2.965130e+001
4194800.693	-9.583075e+000	-1.472909e+002	-1.930916e+001	6.261486e+001	-1.932138e+001	6.360029e+001	-1.242430e+001	-3.300514e+001
4219237.435	-9.321343e+000	-1.508224e+002	-1.990343e+001	5.911129e+001	-1.991217e+001	6.009735e+001	-1.211599e+001	-3.665420e+001
4243674.177	-9.104076e+000	-1.545314e+002	-2.047395e+001	5.635936e+001	-2.047933e+001	5.734659e+001	-1.185414e+001	-4.045233e+001
4268110.919	-8.928314e+000	-1.583422e+002	-2.099846e+001	5.423954e+001	-2.100182e+001	5.526217e+001	-1.163483e+001	-4.430718e+001
4292547.660	-8.784638e+000	-1.622421e+002	-2.148262e+001	5.274258e+001	-2.147806e+001	5.378467e+001	-1.144463e+001	-4.818722e+001
4316984.402	-8.680283e+000	-1.661846e+002	-2.187320e+001	5.187070e+001	-2.186823e+001	5.295810e+001	-1.128634e+001	-5.211710e+001
4341421.144	-8.613002e+000	-1.701566e+002	-2.213735e+001	5.148716e+001	-2.212867e+001	5.250971e+001	-1.116201e+001	-5.601932e+001
4365857.886	-8.579653e+000	-1.740487e+002	-2.225642e+001	5.098483e+001	-2.225428e+001	5.202866e+001	-1.106428e+001	-5.981576e+001
4390294.627	-8.561637e+000	-1.778096e+002	-2.230100e+001	4.983174e+001	-2.229674e+001	5.094571e+001	-1.097811e+001	-6.345575e+001
4414731.369	-8.541116e+000	1.784917e+002	-2.237681e+001	4.822595e+001	-2.236708e+001	4.932889e+001	-1.087984e+001	-6.697420e+001
4439168.111	-8.506072e+000	1.747008e+002	-2.255817e+001	4.659475e+001	-2.253603e+001	4.793379e+001	-1.075431e+001	-7.057354e+001
4463604.853	-8.474589e+000	1.706213e+002	-2.280472e+001	4.629222e+001	-2.276271e+001	4.751539e+001	-1.061142e+001	-7.437232e+001
4488041.594	-8.473737e+000	1.661957e+002	-2.295030e+001	4.767046e+001	-2.288605e+001	4.879711e+001	-1.047615e+001	-7.853821e+001
4512478.336	-8.544649e+000	1.614887e+002	-2.273539e+001	5.017995e+001	-2.268198e+001	5.122496e+001	-1.038103e+001	-8.304820e+001
4536915.078	-8.706171e+000	1.567882e+002	-2.210754e+001	5.171413e+001	-2.206510e+001	5.272394e+001	-1.036261e+001	-8.768665e+001
4561351.820	-8.936988e+000	1.523725e+002	-2.131210e+001	5.088360e+001	-2.126653e+001	5.192077e+001	-1.040557e+001	-9.215834e+001
4585788.562	-9.197780e+000	1.482686e+002	-2.057724e+001	4.828411e+001	-2.052784e+001	4.933260e+001	-1.047667e+001	-9.637333e+001
4610225.303	-9.475866e+000	1.443624e+002	-1.993870e+001	4.480546e+001	-1.988077e+001	4.584015e+001	-1.055435e+001	-1.004350e+002
4634662.045	-9.770607e+000	1.406168e+002	-1.938381e+001	4.073148e+001	-1.932079e+001	4.175444e+001	-1.063698e+001	-1.043749e+002
4659098.787	-1.006940e+001	1.370314e+002	-1.892594e+001	3.627668e+001	-1.885154e+001	3.726984e+001	-1.071932e+001	-1.081940e+002
4683535.529	-1.035893e+001	1.334733e+002	-1.857171e+001	3.181757e+001	-1.850265e+001	3.277828e+001	-1.077687e+001	-1.119458e+002
4707972.270	-1.064297e+001	1.296721e+002	-1.829389e+001	2.802123e+001	-1.821435e+001	2.888398e+001	-1.080085e+001	-1.158685e+002
4732409.012	-1.098064e+001	1.254719e+002	-1.795320e+001	2.484222e+001	-1.786903e+001	2.565247e+001	-1.082478e+001	-1.202413e+002
4756845.754	-1.143356e+001	1.210784e+002	-1.746390e+001	2.168728e+001	-1.737299e+001	2.244075e+001	-1.090290e+001	-1.250483e+002
4781282.496	-1.200552e+001	1.170085e+002	-1.688159e+001	1.762894e+001	-1.677757e+001	1.833819e+001	-1.106931e+001	-1.299636e+002
4805719.237	-1.266146e+001	1.134720e+002	-1.630774e+001	1.268096e+001	-1.619841e+001	1.326241e+001	-1.130654e+001	-1.347242e+002
4830155.979	-1.336376e+001	1.105533e+002	-1.580144e+001	7.095772e+000	-1.568987e+001	7.562442e+000	-1.158548e+001	-1.392353e+002
4854592.721	-1.409502e+001	1.080881e+002	-1.536349e+001	1.260104e+000	-1.525966e+001	1.574413e+000	-1.188669e+001	-1.435272e+002
4879029.463	-1.485804e+001	1.061543e+002	-1.497480e+001	-4.760594e+000	-1.488734e+001	-4.505430e+000	-1.220595e+001	-1.477156e+002
4903466.205	-1.564858e+001	1.047518e+002	-1.463111e+001	-1.088411e+001	-1.455370e+001	-1.068764e+001	-1.255118e+001	-1.517954e+002
4927902.946	-1.646020e+001	1.039257e+002	-1.432138e+001	-1.706769e+001	-1.425678e+001	-1.689730e+001	-1.291947e+001	-1.557797e+002
4952339.688	-1.728680e+001	1.037359e+002	-1.404250e+001	-2.333874e+001	-1.398898e+001	-2.316382e+001	-1.331607e+001	-1.596663e+002
4976776.430	-1.808691e+001	1.043587e+002	-1.380034e+001	-2.970497e+001	-1.375599e+001	-2.952645e+001	-1.373980e+001	-1.633250e+002
5001213.172	-1.884932e+001	1.056458e+002	-1.359163e+001	-3.610823e+001	-1.355301e+001	-3.591544e+001	-1.418635e+001	-1.668034e+002
5025649.913	-1.954497e+001	1.075529e+002	-1.341809e+001	-4.253253e+001	-1.338242e+001	-4.233579e+001	-1.465107e+001	-1.700344e+002
5050086.655	-2.016550e+001	1.098736e+002	-1.327408e+001	-4.892881e+001	-1.324082e+001	-4.873315e+001	-1.512750e+001	-1.730640e+002
5074523.397	-2.071026e+001	1.125419e+002	-1.315566e+001	-5.529176e+001	-1.312495e+001	-5.510265e+001	-1.561048e+001	-1.758635e+002
5098960.139	-2.117673e+001	1.154232e+002	-1.306063e+001	-6.161871e+001	-1.303210e+001	-6.143490e+001	-1.609927e+001	-1.784378e+002
5123396.880	-2.156940e+001	1.184330e+002	-1.298593e+001	-6.788807e+001	-1.296034e+001	-6.770983e+001	-1.659125e+001	1.792042e+002
5147833.622	-2.189987e+001	1.215761e+002	-1.292733e+001	-7.411513e+001	-1.290561e+001	-7.394351e+001	-1.707944e+001	1.770523e+002
5172270.364	-2.216900e+001	1.247539e+002	-1.288537e+001	-8.028322e+001	-1.286537e+001	-8.012638e+001	-1.756055e+001	1.751325e+002
5196707.106	-2.237990e+001	1.280015e+002	-1.285521e+001	-8.641099e+001	-1.283783e+001	-8.625880e+001	-1.803706e+001	1.734056e+002
5221143.847	-2.253512e+001	1.312938e+002	-1.283565e+001	-9.243243e+001	-1.282195e+001	-9.232874e+001	-1.849653e+001	1.719168e+002
5245580.589	-2.262155e+001	1.345516e+002	-1.282677e+001	-9.848715e+001	-1.281640e+001	-9.837525e+001	-1.894344e+001	1.706337e+002
5270017.331	-2.264642e+001	1.377620e+002	-1.282627e+001	-1.044828e+002	-1.281769e+001	-1.043742e+002	-1.936039e+001	1.695465e+002
5294454.073	-2.261198e+001	1.408445e+002	-1.283266e+001	-1.104562e+002	-1.282673e+001	-1.103525e+002	-1.975138e+001	1.686734e+002
5318890.815	-2.251836e+001	1.437225e+002	-1.284501e+001	-1.164169e+002	-1.283991e+001	-1.163098e+002	-2.010530e+001	1.679701e+002
5343327.556	-2.237536e+001	1.463237e+002	-1.286223e+001	-1.223576e+002	-1.285850e+001	-1.222585e+002	-2.041695e+001	1.674198e+002
5367764.298	-2.219681e+001	1.485522e+002	-1.288635e+001	-1.283177e+002	-1.288299e+001	-1.282102e+002	-2.066836e+001	1.670025e+002
5392201.040	-2.200041e+001	1.504269e+002	-1.291687e+001	-1.342853e+002	-1.291356e+001	-1.341734e+002	-2.085305e+001	1.666261e+002
5416637.782	-2.181342e+001	1.519757e+002	-1.295850e+001	-1.402555e+002	-1.295682e+001	-1.401506e+002	-2.095790e+001	1.661258e+002
5441074.523	-2.163771e+001	1.533237e+002	-1.300724e+001	-1.462319e+002	-1.300698e+001	-1.461286e+002	-2.099671e+001	1.653681e+002
