!Agilent Technologies,E5061B,MY49101568,A.02.00
!Date: Wed Mar 01 14:35:47 2023
!Data & Calibration Information:
!Freq	S11:SOLT2(OFF)	S21:SOLT2(OFF)	S12:SOLT2(OFF)	S22:SOLT2(OFF)
# Hz S dB R 50
1800000.000	-9.182493e+000	-1.672261e+001	-2.770150e+001	-1.265835e+002	-2.769748e+001	-1.266035e+002	-9.567127e+000	2.002717e+001
1824436.742	-9.250018e+000	-2.095305e+001	-2.732555e+001	-1.301438e+002	-2.732791e+001	-1.302228e+002	-9.663220e+000	1.632268e+001
1848873.484	-9.318401e+000	-2.527130e+001	-2.693769e+001	-1.338625e+002	-2.694190e+001	-1.338929e+002	-9.759382e+000	1.255651e+001
1873310.225	-9.390614e+000	-2.964522e+001	-2.653360e+001	-1.376759e+002	-2.654522e+001	-1.377082e+002	-9.850242e+000	8.749712e+000
1897746.967	-9.459489e+000	-3.409615e+001	-2.612529e+001	-1.414463e+002	-2.613791e+001	-1.415883e+002	-9.937800e+000	4.895531e+000
1922183.709	-9.527792e+000	-3.866471e+001	-2.571079e+001	-1.453807e+002	-2.572149e+001	-1.455232e+002	-1.002219e+001	9.260222e-001
1946620.451	-9.596880e+000	-4.335023e+001	-2.528030e+001	-1.494238e+002	-2.529783e+001	-1.495055e+002	-1.009914e+001	-3.117089e+000
1971057.192	-9.667895e+000	-4.817373e+001	-2.483202e+001	-1.535743e+002	-2.486309e+001	-1.535880e+002	-1.017551e+001	-7.278291e+000
1995493.934	-9.743100e+000	-5.312023e+001	-2.436856e+001	-1.578310e+002	-2.441033e+001	-1.577394e+002	-1.024857e+001	-1.150338e+001
2019930.676	-9.823058e+000	-5.819909e+001	-2.390547e+001	-1.621447e+002	-2.394932e+001	-1.620474e+002	-1.031839e+001	-1.581857e+001
2044367.418	-9.906672e+000	-6.343140e+001	-2.341978e+001	-1.666917e+002	-2.346884e+001	-1.665516e+002	-1.037985e+001	-2.028744e+001
2068804.159	-9.994109e+000	-6.880281e+001	-2.293054e+001	-1.713784e+002	-2.298802e+001	-1.712144e+002	-1.044068e+001	-2.480926e+001
2093240.901	-1.008686e+001	-7.432761e+001	-2.243927e+001	-1.761757e+002	-2.249264e+001	-1.760684e+002	-1.049749e+001	-2.940740e+001
2117677.643	-1.019046e+001	-8.005009e+001	-2.194566e+001	1.788149e+002	-2.200053e+001	1.789655e+002	-1.055084e+001	-3.411667e+001
2142114.385	-1.030095e+001	-8.595854e+001	-2.145003e+001	1.736095e+002	-2.150473e+001	1.738081e+002	-1.059527e+001	-3.894926e+001
2166551.127	-1.042355e+001	-9.207433e+001	-2.095199e+001	1.682231e+002	-2.100967e+001	1.684653e+002	-1.063806e+001	-4.391318e+001
2190987.868	-1.055876e+001	-9.840244e+001	-2.045555e+001	1.626037e+002	-2.051337e+001	1.629203e+002	-1.067807e+001	-4.897554e+001
2215424.610	-1.070710e+001	-1.049288e+002	-1.997155e+001	1.567973e+002	-2.002298e+001	1.571389e+002	-1.071269e+001	-5.415922e+001
2239861.352	-1.087170e+001	-1.116922e+002	-1.949846e+001	1.508240e+002	-1.955321e+001	1.512282e+002	-1.073954e+001	-5.945713e+001
2264298.094	-1.105035e+001	-1.186981e+002	-1.903206e+001	1.446684e+002	-1.908914e+001	1.451393e+002	-1.076228e+001	-6.487626e+001
2288734.835	-1.124909e+001	-1.259474e+002	-1.858888e+001	1.382993e+002	-1.864302e+001	1.388214e+002	-1.077896e+001	-7.040834e+001
2313171.577	-1.146472e+001	-1.334184e+002	-1.815980e+001	1.317554e+002	-1.820865e+001	1.323523e+002	-1.079013e+001	-7.602286e+001
2337608.319	-1.169713e+001	-1.411214e+002	-1.775351e+001	1.250493e+002	-1.779678e+001	1.256906e+002	-1.079475e+001	-8.176023e+001
2362045.061	-1.194943e+001	-1.490486e+002	-1.737124e+001	1.181674e+002	-1.741199e+001	1.188647e+002	-1.079388e+001	-8.756495e+001
2386481.802	-1.220769e+001	-1.572154e+002	-1.701827e+001	1.111232e+002	-1.705423e+001	1.118777e+002	-1.078377e+001	-9.348040e+001
2410918.544	-1.247552e+001	-1.655959e+002	-1.669865e+001	1.039942e+002	-1.672055e+001	1.047596e+002	-1.076565e+001	-9.950886e+001
2435355.286	-1.274851e+001	-1.741852e+002	-1.640867e+001	9.673820e+001	-1.642083e+001	9.753514e+001	-1.073917e+001	-1.056303e+002
2459792.028	-1.301660e+001	1.770313e+002	-1.615060e+001	8.941046e+001	-1.615412e+001	9.020607e+001	-1.070483e+001	-1.118559e+002
2484228.769	-1.328835e+001	1.680916e+002	-1.592112e+001	8.188592e+001	-1.592513e+001	8.284950e+001	-1.066190e+001	-1.182095e+002
2508665.511	-1.353690e+001	1.590017e+002	-1.573433e+001	7.443700e+001	-1.572832e+001	7.539688e+001	-1.061585e+001	-1.246388e+002
2533102.253	-1.375163e+001	1.498182e+002	-1.558757e+001	6.706838e+001	-1.556683e+001	6.793002e+001	-1.056461e+001	-1.311322e+002
2557538.995	-1.394448e+001	1.405682e+002	-1.547423e+001	5.964134e+001	-1.543957e+001	6.043315e+001	-1.051250e+001	-1.377385e+002
2581975.737	-1.410184e+001	1.313096e+002	-1.539594e+001	5.220038e+001	-1.535228e+001	5.296055e+001	-1.045878e+001	-1.444143e+002
2606412.478	-1.422224e+001	1.220921e+002	-1.535147e+001	4.483639e+001	-1.529898e+001	4.552159e+001	-1.040805e+001	-1.511577e+002
2630849.220	-1.430260e+001	1.129606e+002	-1.534223e+001	3.753189e+001	-1.527912e+001	3.816870e+001	-1.036349e+001	-1.579378e+002
2655285.962	-1.434255e+001	1.039803e+002	-1.536535e+001	3.031406e+001	-1.529360e+001	3.085989e+001	-1.032245e+001	-1.647469e+002
2679722.704	-1.434694e+001	9.516045e+001	-1.541791e+001	2.321220e+001	-1.534117e+001	2.368204e+001	-1.029306e+001	-1.715626e+002
2704159.445	-1.431782e+001	8.656626e+001	-1.549653e+001	1.622724e+001	-1.541531e+001	1.660741e+001	-1.026826e+001	-1.783381e+002
2728596.187	-1.426049e+001	7.820976e+001	-1.560078e+001	9.376374e+000	-1.551984e+001	9.672519e+000	-1.025395e+001	1.749033e+002
2753032.929	-1.417803e+001	7.012075e+001	-1.572928e+001	2.676256e+000	-1.564660e+001	2.887843e+000	-1.025327e+001	1.682156e+002
2777469.671	-1.407632e+001	6.232484e+001	-1.587526e+001	-3.881402e+000	-1.579462e+001	-3.744252e+000	-1.026221e+001	1.616084e+002
2801906.412	-1.395885e+001	5.479500e+001	-1.604195e+001	-1.028108e+001	-1.596154e+001	-1.019127e+001	-1.028141e+001	1.551160e+002
2826343.154	-1.383147e+001	4.756568e+001	-1.622161e+001	-1.650637e+001	-1.614536e+001	-1.647884e+001	-1.031117e+001	1.487455e+002
2850779.896	-1.369799e+001	4.062805e+001	-1.641513e+001	-2.255741e+001	-1.634455e+001	-2.259384e+001	-1.034912e+001	1.425029e+002
2875216.638	-1.355475e+001	3.396894e+001	-1.661878e+001	-2.844498e+001	-1.654760e+001	-2.853926e+001	-1.040023e+001	1.364044e+002
2899653.380	-1.341194e+001	2.756543e+001	-1.682795e+001	-3.415263e+001	-1.676166e+001	-3.430569e+001	-1.045516e+001	1.304633e+002
2924090.121	-1.327040e+001	2.141464e+001	-1.704062e+001	-3.969039e+001	-1.698383e+001	-3.986469e+001	-1.051479e+001	1.246873e+002
2948526.863	-1.312647e+001	1.550998e+001	-1.725730e+001	-4.505968e+001	-1.720677e+001	-4.527100e+001	-1.058078e+001	1.190520e+002
2972963.605	-1.298413e+001	9.808943e+000	-1.747081e+001	-5.026113e+001	-1.743033e+001	-5.051138e+001	-1.065001e+001	1.135827e+002
2997400.347	-1.284294e+001	4.327358e+000	-1.768359e+001	-5.532510e+001	-1.765255e+001	-5.556792e+001	-1.072245e+001	1.082585e+002
3021837.088	-1.270242e+001	-9.653560e-001	-1.789664e+001	-6.020158e+001	-1.787069e+001	-6.050487e+001	-1.079516e+001	1.030803e+002
3046273.830	-1.256610e+001	-6.071955e+000	-1.809975e+001	-6.493347e+001	-1.808105e+001	-6.526466e+001	-1.087016e+001	9.803272e+001
3070710.572	-1.243222e+001	-1.101355e+001	-1.829605e+001	-6.953314e+001	-1.828125e+001	-6.990777e+001	-1.094638e+001	9.310915e+001
3095147.314	-1.230131e+001	-1.580382e+001	-1.848416e+001	-7.403045e+001	-1.847554e+001	-7.440540e+001	-1.102317e+001	8.833427e+001
3119584.055	-1.217318e+001	-2.044056e+001	-1.866630e+001	-7.841249e+001	-1.866102e+001	-7.878894e+001	-1.109666e+001	8.367757e+001
3144020.797	-1.204692e+001	-2.494562e+001	-1.884024e+001	-8.261392e+001	-1.884495e+001	-8.301377e+001	-1.116497e+001	7.917417e+001
3168457.539	-1.192616e+001	-2.934198e+001	-1.900068e+001	-8.680164e+001	-1.901158e+001	-8.719068e+001	-1.123654e+001	7.475619e+001
3192894.281	-1.180782e+001	-3.361952e+001	-1.914819e+001	-9.087217e+001	-1.916709e+001	-9.128005e+001	-1.130782e+001	7.042650e+001
3217331.023	-1.169425e+001	-3.779140e+001	-1.928622e+001	-9.491399e+001	-1.931115e+001	-9.527024e+001	-1.137662e+001	6.621799e+001
3241767.764	-1.158420e+001	-4.187431e+001	-1.941229e+001	-9.888344e+001	-1.944539e+001	-9.920547e+001	-1.144444e+001	6.209794e+001
3266204.506	-1.147575e+001	-4.585413e+001	-1.953434e+001	-1.027666e+002	-1.957229e+001	-1.030763e+002	-1.151145e+001	5.808289e+001
3290641.248	-1.136811e+001	-4.975502e+001	-1.964567e+001	-1.065452e+002	-1.968943e+001	-1.068089e+002	-1.156951e+001	5.414662e+001
3315077.990	-1.126354e+001	-5.360684e+001	-1.973301e+001	-1.102359e+002	-1.978265e+001	-1.104559e+002	-1.162689e+001	5.025325e+001
3339514.731	-1.116302e+001	-5.740887e+001	-1.979935e+001	-1.138779e+002	-1.985773e+001	-1.140865e+002	-1.168639e+001	4.641275e+001
3363951.473	-1.106947e+001	-6.114513e+001	-1.985233e+001	-1.175154e+002	-1.991396e+001	-1.177111e+002	-1.174761e+001	4.263710e+001
3388388.215	-1.098062e+001	-6.481720e+001	-1.988918e+001	-1.211677e+002	-1.995858e+001	-1.213208e+002	-1.180935e+001	3.894821e+001
3412824.957	-1.089615e+001	-6.844195e+001	-1.991729e+001	-1.247833e+002	-1.998749e+001	-1.249060e+002	-1.187004e+001	3.531585e+001
3437261.698	-1.081588e+001	-7.200249e+001	-1.992968e+001	-1.284108e+002	-2.000623e+001	-1.284788e+002	-1.193313e+001	3.174931e+001
3461698.440	-1.074178e+001	-7.551908e+001	-1.992772e+001	-1.320171e+002	-2.000722e+001	-1.320360e+002	-1.199466e+001	2.824299e+001
3486135.182	-1.067368e+001	-7.898518e+001	-1.990886e+001	-1.356229e+002	-1.999292e+001	-1.356082e+002	-1.205816e+001	2.479938e+001
3510571.924	-1.060959e+001	-8.240282e+001	-1.987858e+001	-1.392555e+002	-1.996315e+001	-1.391836e+002	-1.212168e+001	2.141579e+001
3535008.666	-1.055180e+001	-8.576596e+001	-1.982898e+001	-1.429156e+002	-1.991957e+001	-1.427875e+002	-1.218599e+001	1.809552e+001
3559445.407	-1.049778e+001	-8.906621e+001	-1.977039e+001	-1.465846e+002	-1.986165e+001	-1.464172e+002	-1.224957e+001	1.484109e+001
3583882.149	-1.044660e+001	-9.232623e+001	-1.969745e+001	-1.503023e+002	-1.979024e+001	-1.500919e+002	-1.231158e+001	1.164221e+001
3608318.891	-1.039724e+001	-9.553469e+001	-1.960459e+001	-1.540510e+002	-1.969961e+001	-1.538061e+002	-1.237349e+001	8.479835e+000
3632755.633	-1.035054e+001	-9.873386e+001	-1.950143e+001	-1.579042e+002	-1.959574e+001	-1.576528e+002	-1.244231e+001	5.345292e+000
3657192.374	-1.030642e+001	-1.018826e+002	-1.938692e+001	-1.618066e+002	-1.948160e+001	-1.615233e+002	-1.250480e+001	2.272224e+000
3681629.116	-1.026573e+001	-1.050137e+002	-1.926345e+001	-1.657998e+002	-1.935682e+001	-1.654472e+002	-1.256759e+001	-7.687676e-001
3706065.858	-1.022946e+001	-1.081239e+002	-1.913023e+001	-1.698909e+002	-1.922485e+001	-1.694939e+002	-1.263521e+001	-3.770553e+000
3730502.600	-1.020047e+001	-1.112457e+002	-1.898262e+001	-1.740660e+002	-1.908179e+001	-1.736112e+002	-1.270344e+001	-6.741310e+000
3754939.341	-1.017813e+001	-1.143300e+002	-1.884484e+001	-1.783598e+002	-1.893498e+001	-1.778657e+002	-1.277744e+001	-9.652485e+000
3779376.083	-1.016523e+001	-1.174055e+002	-1.869261e+001	1.772609e+002	-1.878317e+001	1.777968e+002	-1.285441e+001	-1.252397e+001
3803812.825	-1.016478e+001	-1.204719e+002	-1.852592e+001	1.727646e+002	-1.861878e+001	1.733676e+002	-1.293847e+001	-1.536780e+001
3828249.567	-1.017749e+001	-1.234884e+002	-1.836282e+001	1.681312e+002	-1.844969e+001	1.687477e+002	-1.303488e+001	-1.814795e+001
3852686.308	-1.020768e+001	-1.264558e+002	-1.818980e+001	1.632996e+002	-1.827622e+001	1.639903e+002	-1.314106e+001	-2.085701e+001
3877123.050	-1.024939e+001	-1.293352e+002	-1.802439e+001	1.583143e+002	-1.810459e+001	1.590240e+002	-1.326074e+001	-2.343876e+001
3901559.792	-1.030717e+001	-1.321202e+002	-1.785997e+001	1.531617e+002	-1.793930e+001	1.538788e+002	-1.338844e+001	-2.587385e+001
3925996.534	-1.037947e+001	-1.347587e+002	-1.770498e+001	1.477702e+002	-1.778378e+001	1.485529e+002	-1.352716e+001	-2.814408e+001
3950433.276	-1.046287e+001	-1.372406e+002	-1.756556e+001	1.421984e+002	-1.763901e+001	1.430013e+002	-1.367182e+001	-3.017629e+001
3974870.017	-1.055459e+001	-1.395205e+002	-1.744173e+001	1.363982e+002	-1.751602e+001	1.372105e+002	-1.381449e+001	-3.194562e+001
3999306.759	-1.064560e+001	-1.415299e+002	-1.735273e+001	1.303385e+002	-1.741903e+001	1.311837e+002	-1.395048e+001	-3.340626e+001
4023743.501	-1.072259e+001	-1.433057e+002	-1.730111e+001	1.241445e+002	-1.736216e+001	1.249666e+002	-1.405857e+001	-3.453552e+001
4048180.243	-1.077723e+001	-1.448111e+002	-1.729090e+001	1.177294e+002	-1.735238e+001	1.185495e+002	-1.412230e+001	-3.535539e+001
4072616.984	-1.079287e+001	-1.460693e+002	-1.734352e+001	1.111542e+002	-1.740110e+001	1.119459e+002	-1.412790e+001	-3.590782e+001
4097053.726	-1.075510e+001	-1.471749e+002	-1.746147e+001	1.044702e+002	-1.752097e+001	1.052809e+002	-1.405295e+001	-3.633911e+001
4121490.468	-1.065046e+001	-1.482488e+002	-1.766047e+001	9.775732e+001	-1.771810e+001	9.857750e+001	-1.389310e+001	-3.678962e+001
4145927.210	-1.047682e+001	-1.494435e+002	-1.795366e+001	9.114325e+001	-1.801017e+001	9.198532e+001	-1.364663e+001	-3.749563e+001
4170363.951	-1.024594e+001	-1.509778e+002	-1.833874e+001	8.493748e+001	-1.841398e+001	8.565220e+001	-1.332454e+001	-3.857062e+001
4194800.693	-9.972557e+000	-1.529385e+002	-1.883198e+001	7.916923e+001	-1.889843e+001	7.992125e+001	-1.296722e+001	-4.027643e+001
4219237.435	-9.694690e+000	-1.554268e+002	-1.937765e+001	7.424117e+001	-1.945368e+001	7.503663e+001	-1.260524e+001	-4.261300e+001
4243674.177	-9.438189e+000	-1.583386e+002	-1.994096e+001	7.017334e+001	-2.002000e+001	7.103057e+001	-1.227155e+001	-4.542885e+001
4268110.919	-9.212546e+000	-1.615501e+002	-2.048892e+001	6.685212e+001	-2.056413e+001	6.779442e+001	-1.197691e+001	-4.854439e+001
4292547.660	-9.019483e+000	-1.649993e+002	-2.101129e+001	6.427325e+001	-2.107906e+001	6.531159e+001	-1.171523e+001	-5.188334e+001
4316984.402	-8.863197e+000	-1.686419e+002	-2.147562e+001	6.247777e+001	-2.151883e+001	6.359261e+001	-1.149237e+001	-5.539472e+001
4341421.144	-8.751649e+000	-1.724117e+002	-2.181411e+001	6.135840e+001	-2.184841e+001	6.249569e+001	-1.130666e+001	-5.903645e+001
4365857.886	-8.685569e+000	-1.761891e+002	-2.199834e+001	6.033800e+001	-2.202676e+001	6.142140e+001	-1.116376e+001	-6.262925e+001
4390294.627	-8.645654e+000	-1.798510e+002	-2.208526e+001	5.877934e+001	-2.212459e+001	5.989425e+001	-1.103954e+001	-6.611287e+001
4414731.369	-8.608017e+000	1.765658e+002	-2.219886e+001	5.665423e+001	-2.222271e+001	5.783625e+001	-1.091825e+001	-6.945597e+001
4439168.111	-8.558072e+000	1.729310e+002	-2.241479e+001	5.457339e+001	-2.242293e+001	5.584522e+001	-1.077011e+001	-7.282591e+001
4463604.853	-8.504311e+000	1.690393e+002	-2.269348e+001	5.351437e+001	-2.269567e+001	5.485566e+001	-1.059856e+001	-7.635938e+001
4488041.594	-8.471029e+000	1.647983e+002	-2.291129e+001	5.415141e+001	-2.290152e+001	5.549479e+001	-1.042534e+001	-8.025698e+001
4512478.336	-8.497586e+000	1.602009e+002	-2.281664e+001	5.616845e+001	-2.279453e+001	5.739715e+001	-1.028783e+001	-8.454246e+001
4536915.078	-8.608624e+000	1.555256e+002	-2.232638e+001	5.749883e+001	-2.228741e+001	5.868982e+001	-1.021808e+001	-8.902081e+001
4561351.820	-8.792898e+000	1.510474e+002	-2.163858e+001	5.673756e+001	-2.159488e+001	5.795242e+001	-1.020805e+001	-9.339881e+001
4585788.562	-9.015374e+000	1.468033e+002	-2.096824e+001	5.431919e+001	-2.091859e+001	5.548754e+001	-1.023216e+001	-9.759046e+001
4610225.303	-9.258977e+000	1.427390e+002	-2.038332e+001	5.095568e+001	-2.032298e+001	5.213653e+001	-1.026740e+001	-1.016531e+002
4634662.045	-9.523559e+000	1.388070e+002	-1.986866e+001	4.703035e+001	-1.979548e+001	4.817114e+001	-1.031208e+001	-1.056204e+002
4659098.787	-9.800524e+000	1.350155e+002	-1.943524e+001	4.265908e+001	-1.935473e+001	4.374982e+001	-1.036249e+001	-1.094677e+002
4683535.529	-1.007334e+001	1.312685e+002	-1.910406e+001	3.826277e+001	-1.901709e+001	3.925738e+001	-1.039580e+001	-1.132409e+002
4707972.270	-1.034105e+001	1.273646e+002	-1.884365e+001	3.433920e+001	-1.874433e+001	3.516513e+001	-1.040470e+001	-1.170848e+002
4732409.012	-1.064150e+001	1.230983e+002	-1.854331e+001	3.102859e+001	-1.844730e+001	3.176821e+001	-1.039857e+001	-1.212750e+002
4756845.754	-1.102692e+001	1.185722e+002	-1.811874e+001	2.782164e+001	-1.802448e+001	2.843877e+001	-1.042540e+001	-1.258445e+002
4781282.496	-1.151823e+001	1.141353e+002	-1.759566e+001	2.391000e+001	-1.751214e+001	2.449077e+001	-1.051254e+001	-1.305801e+002
4805719.237	-1.209105e+001	1.100190e+002	-1.707191e+001	1.915753e+001	-1.699431e+001	1.971333e+001	-1.065586e+001	-1.352938e+002
4830155.979	-1.272164e+001	1.062482e+002	-1.659830e+001	1.385755e+001	-1.652330e+001	1.438940e+001	-1.083759e+001	-1.398930e+002
4854592.721	-1.339939e+001	1.027926e+002	-1.617745e+001	8.241488e+000	-1.610524e+001	8.752476e+000	-1.104479e+001	-1.444195e+002
4879029.463	-1.412040e+001	9.963073e+001	-1.581278e+001	2.431484e+000	-1.573798e+001	2.915831e+000	-1.127628e+001	-1.488644e+002
4903466.205	-1.489149e+001	9.674166e+001	-1.548525e+001	-3.448369e+000	-1.540945e+001	-3.025215e+000	-1.152720e+001	-1.532630e+002
4927902.946	-1.571878e+001	9.415311e+001	-1.518942e+001	-9.397608e+000	-1.511526e+001	-9.047785e+000	-1.180204e+001	-1.576260e+002
4952339.688	-1.661573e+001	9.194664e+001	-1.491961e+001	-1.546625e+001	-1.485095e+001	-1.517617e+001	-1.210319e+001	-1.619411e+002
4976776.430	-1.757714e+001	9.019926e+001	-1.467743e+001	-2.156324e+001	-1.461456e+001	-2.134189e+001	-1.242793e+001	-1.662014e+002
5001213.172	-1.860201e+001	8.906264e+001	-1.446585e+001	-2.773816e+001	-1.441084e+001	-2.753227e+001	-1.277188e+001	-1.703840e+002
5025649.913	-1.968815e+001	8.856458e+001	-1.428180e+001	-3.394249e+001	-1.423210e+001	-3.373965e+001	-1.313924e+001	-1.744667e+002
5050086.655	-2.084310e+001	8.886360e+001	-1.412295e+001	-4.015260e+001	-1.408197e+001	-3.997514e+001	-1.352612e+001	-1.784767e+002
5074523.397	-2.206092e+001	9.013104e+001	-1.399036e+001	-4.636911e+001	-1.395267e+001	-4.618852e+001	-1.393382e+001	1.776027e+002
5098960.139	-2.333937e+001	9.261441e+001	-1.387929e+001	-5.257144e+001	-1.384834e+001	-5.237696e+001	-1.435702e+001	1.737907e+002
5123396.880	-2.464877e+001	9.666642e+001	-1.378976e+001	-5.873341e+001	-1.376520e+001	-5.854760e+001	-1.479611e+001	1.700579e+002
5147833.622	-2.596080e+001	1.027264e+002	-1.371726e+001	-6.486084e+001	-1.369709e+001	-6.465828e+001	-1.525171e+001	1.664206e+002
5172270.364	-2.714927e+001	1.112607e+002	-1.366074e+001	-7.094091e+001	-1.364466e+001	-7.073607e+001	-1.572185e+001	1.628821e+002
5196707.106	-2.803578e+001	1.223920e+002	-1.361598e+001	-7.698065e+001	-1.360541e+001	-7.677347e+001	-1.621443e+001	1.594465e+002
5221143.847	-2.842299e+001	1.354382e+002	-1.358151e+001	-8.287649e+001	-1.357615e+001	-8.275373e+001	-1.671384e+001	1.560755e+002
5245580.589	-2.815822e+001	1.480930e+002	-1.355856e+001	-8.882222e+001	-1.355630e+001	-8.866765e+001	-1.723563e+001	1.527978e+002
5270017.331	-2.741246e+001	1.587074e+002	-1.354572e+001	-9.473310e+001	-1.354533e+001	-9.454253e+001	-1.776842e+001	1.496243e+002
5294454.073	-2.639967e+001	1.666522e+002	-1.353683e+001	-1.006086e+002	-1.353998e+001	-1.004059e+002	-1.832442e+001	1.465804e+002
5318890.815	-2.532678e+001	1.721295e+002	-1.353497e+001	-1.064623e+002	-1.354050e+001	-1.062286e+002	-1.889289e+001	1.436928e+002
5343327.556	-2.426983e+001	1.756333e+002	-1.353606e+001	-1.122966e+002	-1.354347e+001	-1.120251e+002	-1.948071e+001	1.409604e+002
5367764.298	-2.329936e+001	1.776532e+002	-1.354225e+001	-1.181261e+002	-1.355183e+001	-1.178361e+002	-2.007857e+001	1.385142e+002
5392201.040	-2.242377e+001	1.786109e+002	-1.355446e+001	-1.239773e+002	-1.356521e+001	-1.236628e+002	-2.067825e+001	1.363491e+002
5416637.782	-2.165540e+001	1.788827e+002	-1.357479e+001	-1.298186e+002	-1.358510e+001	-1.294728e+002	-2.126982e+001	1.344800e+002
5441074.523	-2.097537e+001	1.786373e+002	-1.360101e+001	-1.356748e+002	-1.361140e+001	-1.352939e+002	-2.183859e+001	1.329055e+002
