!Agilent Technologies,E5061B,MY49101568,A.02.00
!Date: Wed Mar 01 14:27:17 2023
!Data & Calibration Information:
!Freq	S11:SOLT2(OFF)	S21:SOLT2(OFF)	S12:SOLT2(OFF)	S22:SOLT2(OFF)
# Hz S dB R 50
1800000.000	-9.902694e+000	-1.690458e+001	-2.234974e+001	-1.484055e+002	-2.234289e+001	-1.484414e+002	-1.034771e+001	1.955363e+001
1824436.742	-1.003981e+001	-2.111018e+001	-2.201548e+001	-1.524191e+002	-2.202224e+001	-1.524558e+002	-1.050409e+001	1.588660e+001
1848873.484	-1.018215e+001	-2.537720e+001	-2.167519e+001	-1.565544e+002	-2.167975e+001	-1.565329e+002	-1.066643e+001	1.216060e+001
1873310.225	-1.033468e+001	-2.969711e+001	-2.132809e+001	-1.607506e+002	-2.133813e+001	-1.607392e+002	-1.082734e+001	8.438067e+000
1897746.967	-1.048924e+001	-3.406927e+001	-2.097764e+001	-1.650392e+002	-2.099384e+001	-1.650959e+002	-1.098734e+001	4.654076e+000
1922183.709	-1.065292e+001	-3.853686e+001	-2.061679e+001	-1.694513e+002	-2.063640e+001	-1.694583e+002	-1.115070e+001	7.863681e-001
1946620.451	-1.082433e+001	-4.311896e+001	-2.025018e+001	-1.739275e+002	-2.027947e+001	-1.739565e+002	-1.131172e+001	-3.147864e+000
1971057.192	-1.100134e+001	-4.776508e+001	-1.989298e+001	-1.785634e+002	-1.991819e+001	-1.784904e+002	-1.147465e+001	-7.173988e+000
1995493.934	-1.119464e+001	-5.251985e+001	-1.951799e+001	1.766898e+002	-1.954783e+001	1.767672e+002	-1.164254e+001	-1.122892e+001
2019930.676	-1.139735e+001	-5.737637e+001	-1.915095e+001	1.719055e+002	-1.918658e+001	1.720275e+002	-1.180333e+001	-1.536649e+001
2044367.418	-1.160941e+001	-6.232627e+001	-1.878137e+001	1.669881e+002	-1.882447e+001	1.670885e+002	-1.196078e+001	-1.960941e+001
2068804.159	-1.182931e+001	-6.738504e+001	-1.842436e+001	1.620588e+002	-1.845950e+001	1.622368e+002	-1.211266e+001	-2.394574e+001
2093240.901	-1.207485e+001	-7.258663e+001	-1.804017e+001	1.570142e+002	-1.807271e+001	1.571707e+002	-1.227284e+001	-2.837061e+001
2117677.643	-1.233650e+001	-7.793898e+001	-1.766047e+001	1.518010e+002	-1.769605e+001	1.519738e+002	-1.243078e+001	-3.286054e+001
2142114.385	-1.262261e+001	-8.338486e+001	-1.728862e+001	1.463834e+002	-1.732855e+001	1.465941e+002	-1.258030e+001	-3.741052e+001
2166551.127	-1.293255e+001	-8.896118e+001	-1.690655e+001	1.408408e+002	-1.695581e+001	1.410369e+002	-1.273354e+001	-4.207458e+001
2190987.868	-1.326359e+001	-9.463589e+001	-1.654067e+001	1.351028e+002	-1.659582e+001	1.353565e+002	-1.287769e+001	-4.682900e+001
2215424.610	-1.360864e+001	-1.004306e+002	-1.620032e+001	1.291950e+002	-1.625603e+001	1.295380e+002	-1.300966e+001	-5.166986e+001
2239861.352	-1.396514e+001	-1.063688e+002	-1.588106e+001	1.232210e+002	-1.593007e+001	1.236140e+002	-1.312555e+001	-5.662180e+001
2264298.094	-1.435130e+001	-1.125218e+002	-1.556326e+001	1.171410e+002	-1.562489e+001	1.175383e+002	-1.323123e+001	-6.164065e+001
2288734.835	-1.474207e+001	-1.188176e+002	-1.527653e+001	1.109435e+002	-1.533471e+001	1.114690e+002	-1.331312e+001	-6.686181e+001
2313171.577	-1.515035e+001	-1.253906e+002	-1.500386e+001	1.047043e+002	-1.504930e+001	1.053219e+002	-1.338583e+001	-7.226651e+001
2337608.319	-1.557674e+001	-1.321871e+002	-1.474135e+001	9.838109e+001	-1.477624e+001	9.902596e+001	-1.344772e+001	-7.780744e+001
2362045.061	-1.600983e+001	-1.392005e+002	-1.450337e+001	9.192964e+001	-1.453203e+001	9.255783e+001	-1.349505e+001	-8.338262e+001
2386481.802	-1.643101e+001	-1.464531e+002	-1.429890e+001	8.533307e+001	-1.430351e+001	8.598526e+001	-1.352341e+001	-8.914898e+001
2410918.544	-1.682625e+001	-1.540829e+002	-1.412433e+001	7.872761e+001	-1.414147e+001	7.939367e+001	-1.349794e+001	-9.499155e+001
2435355.286	-1.712728e+001	-1.624055e+002	-1.401292e+001	7.232591e+001	-1.400404e+001	7.301553e+001	-1.343208e+001	-1.011805e+002
2459792.028	-1.745064e+001	-1.718361e+002	-1.387294e+001	6.618819e+001	-1.385881e+001	6.675957e+001	-1.335628e+001	-1.077785e+002
2484228.769	-1.778893e+001	1.780750e+002	-1.371670e+001	5.998513e+001	-1.370331e+001	6.063472e+001	-1.327294e+001	-1.147838e+002
2508665.511	-1.817123e+001	1.676099e+002	-1.353944e+001	5.355713e+001	-1.352221e+001	5.418615e+001	-1.323310e+001	-1.219457e+002
2533102.253	-1.850107e+001	1.570760e+002	-1.339433e+001	4.688013e+001	-1.336749e+001	4.743212e+001	-1.320316e+001	-1.290519e+002
2557538.995	-1.876045e+001	1.465827e+002	-1.328969e+001	3.996902e+001	-1.325541e+001	4.053325e+001	-1.316704e+001	-1.361527e+002
2581975.737	-1.888452e+001	1.360468e+002	-1.323475e+001	3.304891e+001	-1.319572e+001	3.361255e+001	-1.310892e+001	-1.432552e+002
2606412.478	-1.885775e+001	1.253924e+002	-1.323341e+001	2.628790e+001	-1.318647e+001	2.671822e+001	-1.303363e+001	-1.503618e+002
2630849.220	-1.870484e+001	1.148258e+002	-1.326933e+001	1.959611e+001	-1.321328e+001	2.003976e+001	-1.293325e+001	-1.576023e+002
2655285.962	-1.845151e+001	1.040404e+002	-1.331791e+001	1.324381e+001	-1.325787e+001	1.353375e+001	-1.282891e+001	-1.649760e+002
2679722.704	-1.818705e+001	9.347871e+001	-1.335785e+001	6.866017e+000	-1.329008e+001	7.262964e+000	-1.273516e+001	-1.726283e+002
2704159.445	-1.788942e+001	8.332714e+001	-1.340544e+001	5.584099e-001	-1.333728e+001	8.171770e-001	-1.268063e+001	1.799075e+002
2728596.187	-1.757251e+001	7.389629e+001	-1.348665e+001	-5.843464e+000	-1.342255e+001	-5.668455e+000	-1.263776e+001	1.726572e+002
2753032.929	-1.723723e+001	6.506747e+001	-1.359251e+001	-1.217488e+001	-1.352710e+001	-1.200215e+001	-1.259957e+001	1.654827e+002
2777469.671	-1.687983e+001	5.675574e+001	-1.372868e+001	-1.838966e+001	-1.366257e+001	-1.826387e+001	-1.256636e+001	1.584871e+002
2801906.412	-1.651235e+001	4.886397e+001	-1.388371e+001	-2.438250e+001	-1.382187e+001	-2.435548e+001	-1.253986e+001	1.516712e+002
2826343.154	-1.615976e+001	4.146024e+001	-1.405966e+001	-3.029941e+001	-1.399905e+001	-3.030122e+001	-1.251405e+001	1.450226e+002
2850779.896	-1.580829e+001	3.446324e+001	-1.425259e+001	-3.602766e+001	-1.419843e+001	-3.608717e+001	-1.249176e+001	1.385782e+002
2875216.638	-1.546420e+001	2.773278e+001	-1.445580e+001	-4.155625e+001	-1.440453e+001	-4.160271e+001	-1.246601e+001	1.322545e+002
2899653.380	-1.514080e+001	2.131582e+001	-1.465654e+001	-4.686887e+001	-1.461383e+001	-4.695137e+001	-1.244924e+001	1.260831e+002
2924090.121	-1.483125e+001	1.517489e+001	-1.486278e+001	-5.200333e+001	-1.482383e+001	-5.211208e+001	-1.243697e+001	1.200593e+002
2948526.863	-1.454614e+001	9.311621e+000	-1.506896e+001	-5.700853e+001	-1.503675e+001	-5.715729e+001	-1.243328e+001	1.142413e+002
2972963.605	-1.427815e+001	3.676197e+000	-1.527357e+001	-6.188412e+001	-1.524288e+001	-6.203528e+001	-1.243530e+001	1.085563e+002
2997400.347	-1.402722e+001	-1.723923e+000	-1.547217e+001	-6.661924e+001	-1.545037e+001	-6.678347e+001	-1.244297e+001	1.030662e+002
3021837.088	-1.378982e+001	-6.935230e+000	-1.566441e+001	-7.121622e+001	-1.565122e+001	-7.137425e+001	-1.245159e+001	9.772764e+001
3046273.830	-1.356695e+001	-1.195327e+001	-1.585506e+001	-7.567259e+001	-1.584848e+001	-7.585686e+001	-1.246641e+001	9.256268e+001
3070710.572	-1.335558e+001	-1.681769e+001	-1.603483e+001	-7.999714e+001	-1.603316e+001	-8.019917e+001	-1.248594e+001	8.750284e+001
3095147.314	-1.316093e+001	-2.154659e+001	-1.619792e+001	-8.425110e+001	-1.620646e+001	-8.443427e+001	-1.250632e+001	8.256426e+001
3119584.055	-1.297792e+001	-2.612771e+001	-1.635373e+001	-8.838536e+001	-1.636697e+001	-8.861569e+001	-1.253923e+001	7.777412e+001
3144020.797	-1.280595e+001	-3.056781e+001	-1.649868e+001	-9.248113e+001	-1.651721e+001	-9.270910e+001	-1.257114e+001	7.313445e+001
3168457.539	-1.264767e+001	-3.489097e+001	-1.663310e+001	-9.652856e+001	-1.665789e+001	-9.674974e+001	-1.260705e+001	6.863167e+001
3192894.281	-1.250096e+001	-3.910675e+001	-1.676327e+001	-1.005335e+002	-1.679083e+001	-1.007451e+002	-1.264966e+001	6.424343e+001
3217331.023	-1.235962e+001	-4.318689e+001	-1.688467e+001	-1.045064e+002	-1.691892e+001	-1.047024e+002	-1.269343e+001	5.997506e+001
3241767.764	-1.222781e+001	-4.717841e+001	-1.699932e+001	-1.084071e+002	-1.703974e+001	-1.085956e+002	-1.273626e+001	5.585583e+001
3266204.506	-1.209905e+001	-5.105285e+001	-1.711525e+001	-1.122501e+002	-1.715918e+001	-1.124103e+002	-1.277753e+001	5.185611e+001
3290641.248	-1.197439e+001	-5.485915e+001	-1.721601e+001	-1.159868e+002	-1.726930e+001	-1.161094e+002	-1.280866e+001	4.793673e+001
3315077.990	-1.185453e+001	-5.863603e+001	-1.729976e+001	-1.195983e+002	-1.735403e+001	-1.197291e+002	-1.284477e+001	4.401106e+001
3339514.731	-1.174598e+001	-6.238016e+001	-1.735870e+001	-1.232814e+002	-1.742280e+001	-1.233563e+002	-1.288873e+001	4.017922e+001
3363951.473	-1.164833e+001	-6.604399e+001	-1.741066e+001	-1.269624e+002	-1.747724e+001	-1.270271e+002	-1.293916e+001	3.641957e+001
3388388.215	-1.155840e+001	-6.964146e+001	-1.745447e+001	-1.306489e+002	-1.752682e+001	-1.306831e+002	-1.299541e+001	3.278421e+001
3412824.957	-1.147599e+001	-7.316401e+001	-1.748995e+001	-1.343691e+002	-1.756291e+001	-1.343707e+002	-1.305169e+001	2.922744e+001
3437261.698	-1.140156e+001	-7.662419e+001	-1.752483e+001	-1.380809e+002	-1.759729e+001	-1.380535e+002	-1.311150e+001	2.578679e+001
3461698.440	-1.133630e+001	-8.003018e+001	-1.754674e+001	-1.418010e+002	-1.762609e+001	-1.417297e+002	-1.317375e+001	2.242069e+001
3486135.182	-1.127424e+001	-8.335451e+001	-1.756743e+001	-1.455014e+002	-1.764933e+001	-1.454270e+002	-1.323690e+001	1.917543e+001
3510571.924	-1.121894e+001	-8.660644e+001	-1.758691e+001	-1.492294e+002	-1.766725e+001	-1.491018e+002	-1.329976e+001	1.602536e+001
3535008.666	-1.116929e+001	-8.979219e+001	-1.759922e+001	-1.529172e+002	-1.767984e+001	-1.528047e+002	-1.335788e+001	1.299163e+001
3559445.407	-1.112116e+001	-9.291309e+001	-1.760453e+001	-1.566263e+002	-1.768784e+001	-1.564591e+002	-1.341296e+001	1.002547e+001
3583882.149	-1.107587e+001	-9.597416e+001	-1.759763e+001	-1.602679e+002	-1.768693e+001	-1.600679e+002	-1.345857e+001	7.130537e+000
3608318.891	-1.103210e+001	-9.898941e+001	-1.758801e+001	-1.639730e+002	-1.767317e+001	-1.637196e+002	-1.350254e+001	4.294341e+000
3632755.633	-1.099158e+001	-1.019722e+002	-1.756105e+001	-1.677419e+002	-1.765349e+001	-1.674158e+002	-1.354406e+001	1.490153e+000
3657192.374	-1.095367e+001	-1.048936e+002	-1.753171e+001	-1.715398e+002	-1.761898e+001	-1.711773e+002	-1.358452e+001	-1.246912e+000
3681629.116	-1.092122e+001	-1.077646e+002	-1.749751e+001	-1.754137e+002	-1.758715e+001	-1.750323e+002	-1.362557e+001	-3.891222e+000
3706065.858	-1.089071e+001	-1.105645e+002	-1.746892e+001	-1.794062e+002	-1.756295e+001	-1.790033e+002	-1.366321e+001	-6.426216e+000
3730502.600	-1.085985e+001	-1.132623e+002	-1.746234e+001	1.765303e+002	-1.755187e+001	1.769760e+002	-1.369039e+001	-8.858656e+000
3754939.341	-1.082510e+001	-1.158694e+002	-1.747741e+001	1.724498e+002	-1.757221e+001	1.729141e+002	-1.369960e+001	-1.115505e+001
3779376.083	-1.077288e+001	-1.183825e+002	-1.753472e+001	1.684787e+002	-1.762827e+001	1.689714e+002	-1.367709e+001	-1.336982e+001
3803812.825	-1.069451e+001	-1.208741e+002	-1.761663e+001	1.648111e+002	-1.771194e+001	1.653255e+002	-1.361475e+001	-1.563196e+001
3828249.567	-1.058747e+001	-1.235215e+002	-1.769556e+001	1.617118e+002	-1.779284e+001	1.623261e+002	-1.350481e+001	-1.816480e+001
3852686.308	-1.047025e+001	-1.264205e+002	-1.771396e+001	1.590789e+002	-1.780504e+001	1.597323e+002	-1.339344e+001	-2.106802e+001
3877123.050	-1.037739e+001	-1.296318e+002	-1.760344e+001	1.565346e+002	-1.769819e+001	1.572682e+002	-1.332326e+001	-2.438589e+001
3901559.792	-1.033152e+001	-1.330025e+002	-1.739882e+001	1.535995e+002	-1.749080e+001	1.543564e+002	-1.331792e+001	-2.780046e+001
3925996.534	-1.033251e+001	-1.362985e+002	-1.716955e+001	1.500048e+002	-1.724733e+001	1.507228e+002	-1.337893e+001	-3.103635e+001
3950433.276	-1.037587e+001	-1.393832e+002	-1.695927e+001	1.457662e+002	-1.702836e+001	1.465416e+002	-1.347296e+001	-3.396930e+001
3974870.017	-1.043339e+001	-1.421925e+002	-1.680299e+001	1.411692e+002	-1.687370e+001	1.419810e+002	-1.356879e+001	-3.647221e+001
3999306.759	-1.048240e+001	-1.447814e+002	-1.670889e+001	1.364938e+002	-1.678049e+001	1.373521e+002	-1.364106e+001	-3.870893e+001
4023743.501	-1.050480e+001	-1.471815e+002	-1.668783e+001	1.319074e+002	-1.674992e+001	1.327885e+002	-1.367099e+001	-4.070817e+001
4048180.243	-1.049829e+001	-1.495513e+002	-1.670768e+001	1.275682e+002	-1.675089e+001	1.285248e+002	-1.365613e+001	-4.275551e+001
4072616.984	-1.046942e+001	-1.520191e+002	-1.673493e+001	1.236187e+002	-1.677449e+001	1.245329e+002	-1.360391e+001	-4.486361e+001
4097053.726	-1.043533e+001	-1.546603e+002	-1.673924e+001	1.199521e+002	-1.678555e+001	1.208560e+002	-1.352872e+001	-4.718471e+001
4121490.468	-1.040418e+001	-1.574353e+002	-1.671838e+001	1.164973e+002	-1.675919e+001	1.173644e+002	-1.345722e+001	-4.971234e+001
4145927.210	-1.038687e+001	-1.603174e+002	-1.666466e+001	1.130855e+002	-1.670937e+001	1.139929e+002	-1.338468e+001	-5.240571e+001
4170363.951	-1.038145e+001	-1.632729e+002	-1.658316e+001	1.097778e+002	-1.662607e+001	1.106737e+002	-1.332342e+001	-5.518890e+001
4194800.693	-1.039709e+001	-1.663176e+002	-1.646746e+001	1.063958e+002	-1.650348e+001	1.072975e+002	-1.328229e+001	-5.810842e+001
4219237.435	-1.043544e+001	-1.693369e+002	-1.632970e+001	1.028483e+002	-1.634922e+001	1.037835e+002	-1.326328e+001	-6.109621e+001
4243674.177	-1.049631e+001	-1.723828e+002	-1.616813e+001	9.920453e+001	-1.619424e+001	1.001042e+002	-1.325272e+001	-6.400043e+001
4268110.919	-1.057579e+001	-1.753706e+002	-1.600273e+001	9.538009e+001	-1.602633e+001	9.630979e+001	-1.325456e+001	-6.692270e+001
4292547.660	-1.067049e+001	-1.783312e+002	-1.582834e+001	9.149635e+001	-1.585742e+001	9.245978e+001	-1.326045e+001	-6.984488e+001
4316984.402	-1.078176e+001	1.787704e+002	-1.565785e+001	8.748066e+001	-1.567351e+001	8.847815e+001	-1.328206e+001	-7.277730e+001
4341421.144	-1.090993e+001	1.759188e+002	-1.548137e+001	8.334860e+001	-1.548314e+001	8.435629e+001	-1.331647e+001	-7.570018e+001
4365857.886	-1.105346e+001	1.731480e+002	-1.530444e+001	7.911030e+001	-1.529317e+001	8.011588e+001	-1.336024e+001	-7.858738e+001
4390294.627	-1.121243e+001	1.704778e+002	-1.513058e+001	7.475781e+001	-1.511634e+001	7.573736e+001	-1.340590e+001	-8.138741e+001
4414731.369	-1.137755e+001	1.678985e+002	-1.496996e+001	7.030886e+001	-1.494741e+001	7.122573e+001	-1.345960e+001	-8.411185e+001
4439168.111	-1.155045e+001	1.654183e+002	-1.481631e+001	6.574067e+001	-1.479111e+001	6.669364e+001	-1.350258e+001	-8.684776e+001
4463604.853	-1.172619e+001	1.630150e+002	-1.467224e+001	6.116650e+001	-1.464323e+001	6.209873e+001	-1.354944e+001	-8.955041e+001
4488041.594	-1.191298e+001	1.606656e+002	-1.452754e+001	5.657533e+001	-1.450250e+001	5.745051e+001	-1.359491e+001	-9.223888e+001
4512478.336	-1.210101e+001	1.584331e+002	-1.439812e+001	5.189029e+001	-1.436520e+001	5.277258e+001	-1.364341e+001	-9.494518e+001
4536915.078	-1.229298e+001	1.563084e+002	-1.427381e+001	4.713279e+001	-1.423886e+001	4.799953e+001	-1.369127e+001	-9.759165e+001
4561351.820	-1.247708e+001	1.542756e+002	-1.416595e+001	4.230506e+001	-1.412712e+001	4.315209e+001	-1.373486e+001	-1.002023e+002
4585788.562	-1.264718e+001	1.522528e+002	-1.408125e+001	3.749451e+001	-1.403856e+001	3.832879e+001	-1.375929e+001	-1.028170e+002
4610225.303	-1.281356e+001	1.501553e+002	-1.400960e+001	3.276113e+001	-1.396355e+001	3.356374e+001	-1.377434e+001	-1.055247e+002
4634662.045	-1.298657e+001	1.479913e+002	-1.394130e+001	2.808431e+001	-1.389445e+001	2.885272e+001	-1.378455e+001	-1.083399e+002
4659098.787	-1.316355e+001	1.457916e+002	-1.388054e+001	2.343351e+001	-1.382737e+001	2.418902e+001	-1.379420e+001	-1.112833e+002
4683535.529	-1.335635e+001	1.435279e+002	-1.382164e+001	1.881677e+001	-1.376840e+001	1.955425e+001	-1.380255e+001	-1.143109e+002
4707972.270	-1.356512e+001	1.411807e+002	-1.376400e+001	1.429763e+001	-1.370973e+001	1.495065e+001	-1.381416e+001	-1.174551e+002
4732409.012	-1.379655e+001	1.387590e+002	-1.370819e+001	9.819651e+000	-1.364868e+001	1.044858e+001	-1.383105e+001	-1.208155e+002
4756845.754	-1.406603e+001	1.362670e+002	-1.364376e+001	5.407182e+000	-1.358596e+001	6.000090e+000	-1.385669e+001	-1.243299e+002
4781282.496	-1.437970e+001	1.337903e+002	-1.356635e+001	1.024551e+000	-1.350881e+001	1.568271e+000	-1.390798e+001	-1.280124e+002
4805719.237	-1.474255e+001	1.314289e+002	-1.347074e+001	-3.388066e+000	-1.341416e+001	-2.876037e+000	-1.398873e+001	-1.318515e+002
4830155.979	-1.514563e+001	1.292393e+002	-1.336628e+001	-7.874195e+000	-1.331016e+001	-7.395564e+000	-1.409877e+001	-1.357655e+002
4854592.721	-1.558649e+001	1.273112e+002	-1.325553e+001	-1.248662e+001	-1.319902e+001	-1.201821e+001	-1.424352e+001	-1.397067e+002
4879029.463	-1.605835e+001	1.256282e+002	-1.314319e+001	-1.718786e+001	-1.309059e+001	-1.674164e+001	-1.441411e+001	-1.436644e+002
4903466.205	-1.655323e+001	1.242190e+002	-1.303734e+001	-2.198890e+001	-1.298404e+001	-2.157471e+001	-1.461125e+001	-1.476151e+002
4927902.946	-1.707228e+001	1.230682e+002	-1.293919e+001	-2.686078e+001	-1.288878e+001	-2.647126e+001	-1.482852e+001	-1.515691e+002
4952339.688	-1.761168e+001	1.221824e+002	-1.285029e+001	-3.182393e+001	-1.280208e+001	-3.141411e+001	-1.506405e+001	-1.555548e+002
4976776.430	-1.817445e+001	1.216081e+002	-1.277302e+001	-3.681522e+001	-1.272756e+001	-3.643154e+001	-1.532450e+001	-1.594801e+002
5001213.172	-1.876205e+001	1.213929e+002	-1.270635e+001	-4.184764e+001	-1.266190e+001	-4.147930e+001	-1.560438e+001	-1.634291e+002
5025649.913	-1.937373e+001	1.215315e+002	-1.265012e+001	-4.689745e+001	-1.261069e+001	-4.654633e+001	-1.589801e+001	-1.673929e+002
5050086.655	-2.000679e+001	1.221218e+002	-1.260706e+001	-5.197339e+001	-1.256933e+001	-5.164320e+001	-1.621519e+001	-1.713328e+002
5074523.397	-2.065972e+001	1.232140e+002	-1.257549e+001	-5.706892e+001	-1.254170e+001	-5.673249e+001	-1.654559e+001	-1.752944e+002
5098960.139	-2.133090e+001	1.249390e+002	-1.255618e+001	-6.214836e+001	-1.252670e+001	-6.182240e+001	-1.689196e+001	-1.792797e+002
5123396.880	-2.201273e+001	1.273799e+002	-1.255264e+001	-6.721185e+001	-1.252598e+001	-6.689492e+001	-1.724921e+001	1.767084e+002
5147833.622	-2.269403e+001	1.307280e+002	-1.256031e+001	-7.221410e+001	-1.253712e+001	-7.190283e+001	-1.761141e+001	1.725926e+002
5172270.364	-2.334021e+001	1.353080e+002	-1.257328e+001	-7.715400e+001	-1.255457e+001	-7.685669e+001	-1.799715e+001	1.683350e+002
5196707.106	-2.386542e+001	1.411860e+002	-1.259209e+001	-8.206564e+001	-1.257809e+001	-8.176052e+001	-1.839806e+001	1.639242e+002
5221143.847	-2.418423e+001	1.482260e+002	-1.261035e+001	-8.688784e+001	-1.260008e+001	-8.661721e+001	-1.883855e+001	1.593780e+002
5245580.589	-2.421886e+001	1.557947e+002	-1.263523e+001	-9.173216e+001	-1.262686e+001	-9.145081e+001	-1.929819e+001	1.546916e+002
5270017.331	-2.395123e+001	1.632037e+002	-1.266028e+001	-9.654712e+001	-1.265813e+001	-9.626210e+001	-1.978811e+001	1.499001e+002
5294454.073	-2.344057e+001	1.697674e+002	-1.269271e+001	-1.013393e+002	-1.269214e+001	-1.010379e+002	-2.030501e+001	1.449154e+002
5318890.815	-2.274561e+001	1.750708e+002	-1.272592e+001	-1.061098e+002	-1.272819e+001	-1.057869e+002	-2.084525e+001	1.397301e+002
5343327.556	-2.195875e+001	1.790766e+002	-1.276250e+001	-1.108400e+002	-1.276955e+001	-1.105005e+002	-2.140968e+001	1.343649e+002
5367764.298	-2.113402e+001	-1.781459e+002	-1.280051e+001	-1.155355e+002	-1.280979e+001	-1.151675e+002	-2.199722e+001	1.286660e+002
5392201.040	-2.032375e+001	-1.764138e+002	-1.284256e+001	-1.202233e+002	-1.285458e+001	-1.198368e+002	-2.260517e+001	1.227979e+002
5416637.782	-1.953806e+001	-1.754964e+002	-1.288486e+001	-1.248586e+002	-1.289876e+001	-1.244511e+002	-2.323095e+001	1.164841e+002
5441074.523	-1.880039e+001	-1.752888e+002	-1.292888e+001	-1.294942e+002	-1.294322e+001	-1.290552e+002	-2.386780e+001	1.098374e+002
