!Agilent Technologies,E5061B,MY49101568,A.02.00
!Date: Wed Mar 01 14:25:57 2023
!Data & Calibration Information:
!Freq	S11:SOLT2(OFF)	S21:SOLT2(OFF)	S12:SOLT2(OFF)	S22:SOLT2(OFF)
# Hz S dB R 50
1800000.000	-1.501499e+001	2.262218e+000	-1.273290e+001	1.745889e+002	-1.269739e+001	1.746916e+002	-1.642687e+001	4.683477e+001
1824436.742	-1.503986e+001	1.687522e+000	-1.266554e+001	1.685032e+002	-1.264359e+001	1.686341e+002	-1.627096e+001	4.671123e+001
1848873.484	-1.500776e+001	8.058332e-001	-1.261924e+001	1.625728e+002	-1.259758e+001	1.626433e+002	-1.607775e+001	4.614041e+001
1873310.225	-1.493479e+001	-3.262162e-001	-1.258259e+001	1.567117e+002	-1.257158e+001	1.568021e+002	-1.585995e+001	4.496068e+001
1897746.967	-1.482536e+001	-1.827387e+000	-1.255893e+001	1.510253e+002	-1.254981e+001	1.510675e+002	-1.564501e+001	4.325839e+001
1922183.709	-1.469733e+001	-3.659744e+000	-1.253891e+001	1.453688e+002	-1.252971e+001	1.454431e+002	-1.544502e+001	4.111849e+001
1946620.451	-1.455834e+001	-5.833406e+000	-1.252449e+001	1.398039e+002	-1.251347e+001	1.398197e+002	-1.524384e+001	3.865577e+001
1971057.192	-1.441315e+001	-8.436409e+000	-1.252528e+001	1.343543e+002	-1.251601e+001	1.343810e+002	-1.506941e+001	3.564784e+001
1995493.934	-1.429283e+001	-1.134601e+001	-1.252221e+001	1.290559e+002	-1.251501e+001	1.291336e+002	-1.493652e+001	3.234677e+001
2019930.676	-1.420219e+001	-1.447048e+001	-1.251131e+001	1.239467e+002	-1.251679e+001	1.239393e+002	-1.481054e+001	2.880725e+001
2044367.418	-1.411699e+001	-1.775009e+001	-1.248610e+001	1.188765e+002	-1.251757e+001	1.190286e+002	-1.475664e+001	2.484384e+001
2068804.159	-1.405152e+001	-2.117102e+001	-1.245103e+001	1.138889e+002	-1.246398e+001	1.141238e+002	-1.473396e+001	2.110005e+001
2093240.901	-1.398756e+001	-2.475744e+001	-1.241339e+001	1.089278e+002	-1.241784e+001	1.091094e+002	-1.469800e+001	1.720982e+001
2117677.643	-1.396139e+001	-2.867492e+001	-1.237907e+001	1.041042e+002	-1.237725e+001	1.042603e+002	-1.469403e+001	1.298019e+001
2142114.385	-1.394246e+001	-3.264739e+001	-1.232668e+001	9.920374e+001	-1.231385e+001	9.936834e+001	-1.469887e+001	8.722994e+000
2166551.127	-1.396120e+001	-3.673201e+001	-1.226081e+001	9.443231e+001	-1.224791e+001	9.446762e+001	-1.472138e+001	4.217596e+000
2190987.868	-1.400301e+001	-4.098146e+001	-1.218578e+001	8.966523e+001	-1.218388e+001	8.961810e+001	-1.476146e+001	-5.083149e-001
2215424.610	-1.405427e+001	-4.540783e+001	-1.210782e+001	8.479271e+001	-1.212255e+001	8.489910e+001	-1.483576e+001	-5.595597e+000
2239861.352	-1.415942e+001	-4.995594e+001	-1.201621e+001	8.005652e+001	-1.202576e+001	8.016539e+001	-1.494896e+001	-1.067159e+001
2264298.094	-1.430161e+001	-5.462616e+001	-1.191108e+001	7.533710e+001	-1.193559e+001	7.546425e+001	-1.508073e+001	-1.612487e+001
2288734.835	-1.448554e+001	-5.926363e+001	-1.178325e+001	7.059218e+001	-1.180697e+001	7.079455e+001	-1.526564e+001	-2.159414e+001
2313171.577	-1.469582e+001	-6.391075e+001	-1.164092e+001	6.574437e+001	-1.166134e+001	6.596244e+001	-1.546418e+001	-2.712755e+001
2337608.319	-1.492452e+001	-6.860840e+001	-1.148842e+001	6.077130e+001	-1.150974e+001	6.100312e+001	-1.567671e+001	-3.287188e+001
2362045.061	-1.519628e+001	-7.352185e+001	-1.134083e+001	5.576953e+001	-1.135798e+001	5.600529e+001	-1.591487e+001	-3.880230e+001
2386481.802	-1.551583e+001	-7.848972e+001	-1.118427e+001	5.064830e+001	-1.120043e+001	5.087215e+001	-1.617109e+001	-4.501066e+001
2410918.544	-1.587042e+001	-8.350503e+001	-1.102134e+001	4.540017e+001	-1.103920e+001	4.560354e+001	-1.645453e+001	-5.139318e+001
2435355.286	-1.626684e+001	-8.868030e+001	-1.086477e+001	4.000370e+001	-1.087940e+001	4.024579e+001	-1.676486e+001	-5.812004e+001
2459792.028	-1.672663e+001	-9.398946e+001	-1.071421e+001	3.452819e+001	-1.073107e+001	3.476819e+001	-1.708968e+001	-6.517000e+001
2484228.769	-1.726303e+001	-9.946597e+001	-1.057228e+001	2.892451e+001	-1.059517e+001	2.921918e+001	-1.744197e+001	-7.264971e+001
2508665.511	-1.787392e+001	-1.051154e+002	-1.044231e+001	2.324921e+001	-1.046112e+001	2.355299e+001	-1.783163e+001	-8.040441e+001
2533102.253	-1.858063e+001	-1.109106e+002	-1.032461e+001	1.749729e+001	-1.034106e+001	1.780009e+001	-1.825247e+001	-8.857363e+001
2557538.995	-1.939185e+001	-1.169694e+002	-1.022425e+001	1.162178e+001	-1.023602e+001	1.194584e+001	-1.868616e+001	-9.707983e+001
2581975.737	-2.036799e+001	-1.234153e+002	-1.014732e+001	5.722414e+000	-1.015808e+001	6.044103e+000	-1.912780e+001	-1.061244e+002
2606412.478	-2.153968e+001	-1.303715e+002	-1.009897e+001	-2.064184e-001	-1.010116e+001	1.323331e-001	-1.956730e+001	-1.156677e+002
2630849.220	-2.299935e+001	-1.375751e+002	-1.006256e+001	-6.081470e+000	-1.006208e+001	-5.747053e+000	-2.001415e+001	-1.258265e+002
2655285.962	-2.484442e+001	-1.452473e+002	-1.004210e+001	-1.189822e+001	-1.003638e+001	-1.158297e+001	-2.046749e+001	-1.365683e+002
2679722.704	-2.721107e+001	-1.536432e+002	-1.002870e+001	-1.770421e+001	-1.002186e+001	-1.740986e+001	-2.091486e+001	-1.477558e+002
2704159.445	-3.032009e+001	-1.635441e+002	-1.002453e+001	-2.355626e+001	-1.001386e+001	-2.322060e+001	-2.135128e+001	-1.592999e+002
2728596.187	-3.498957e+001	-1.794343e+002	-1.003645e+001	-2.938460e+001	-1.002643e+001	-2.910088e+001	-2.173591e+001	-1.706760e+002
2753032.929	-4.165891e+001	1.343189e+002	-1.007006e+001	-3.523527e+001	-1.005540e+001	-3.495254e+001	-2.207059e+001	1.779174e+002
2777469.671	-3.846486e+001	5.446027e+001	-1.012605e+001	-4.098109e+001	-1.010877e+001	-4.074198e+001	-2.229566e+001	1.666822e+002
2801906.412	-3.288667e+001	2.936525e+001	-1.019855e+001	-4.667254e+001	-1.017984e+001	-4.645003e+001	-2.243704e+001	1.557430e+002
2826343.154	-2.937323e+001	1.733793e+001	-1.028047e+001	-5.223955e+001	-1.026480e+001	-5.205636e+001	-2.251542e+001	1.450932e+002
2850779.896	-2.691494e+001	9.028743e+000	-1.037646e+001	-5.770580e+001	-1.036028e+001	-5.754487e+001	-2.253017e+001	1.349522e+002
2875216.638	-2.508031e+001	1.987308e+000	-1.047880e+001	-6.309441e+001	-1.046518e+001	-6.289834e+001	-2.247970e+001	1.252596e+002
2899653.380	-2.363144e+001	-4.417797e+000	-1.058189e+001	-6.830792e+001	-1.057407e+001	-6.815261e+001	-2.241222e+001	1.161290e+002
2924090.121	-2.245462e+001	-1.022556e+001	-1.069104e+001	-7.341334e+001	-1.068024e+001	-7.328059e+001	-2.234186e+001	1.073591e+002
2948526.863	-2.150393e+001	-1.574990e+001	-1.079374e+001	-7.846224e+001	-1.078621e+001	-7.832111e+001	-2.227181e+001	9.910315e+001
2972963.605	-2.069903e+001	-2.105926e+001	-1.089311e+001	-8.339780e+001	-1.089263e+001	-8.327962e+001	-2.221431e+001	9.136282e+001
2997400.347	-2.001763e+001	-2.606296e+001	-1.099409e+001	-8.826334e+001	-1.099420e+001	-8.813641e+001	-2.217227e+001	8.401507e+001
3021837.088	-1.943822e+001	-3.092435e+001	-1.108686e+001	-9.305091e+001	-1.109278e+001	-9.293508e+001	-2.214899e+001	7.708866e+001
3046273.830	-1.893457e+001	-3.565430e+001	-1.117489e+001	-9.774262e+001	-1.118170e+001	-9.763438e+001	-2.214887e+001	7.042621e+001
3070710.572	-1.851049e+001	-4.029443e+001	-1.124994e+001	-1.023756e+002	-1.126147e+001	-1.022639e+002	-2.217564e+001	6.397068e+001
3095147.314	-1.815061e+001	-4.484138e+001	-1.131190e+001	-1.069715e+002	-1.132725e+001	-1.068534e+002	-2.225283e+001	5.764424e+001
3119584.055	-1.786263e+001	-4.928669e+001	-1.135914e+001	-1.115959e+002	-1.137752e+001	-1.114595e+002	-2.241766e+001	5.152060e+001
3144020.797	-1.763242e+001	-5.358624e+001	-1.140231e+001	-1.162029e+002	-1.142017e+001	-1.161007e+002	-2.264911e+001	4.584143e+001
3168457.539	-1.745981e+001	-5.771459e+001	-1.143858e+001	-1.208736e+002	-1.145819e+001	-1.207530e+002	-2.295534e+001	4.048457e+001
3192894.281	-1.733277e+001	-6.166380e+001	-1.147227e+001	-1.255900e+002	-1.149519e+001	-1.254469e+002	-2.333636e+001	3.564908e+001
3217331.023	-1.724894e+001	-6.540517e+001	-1.150592e+001	-1.303292e+002	-1.152952e+001	-1.301859e+002	-2.379886e+001	3.140709e+001
3241767.764	-1.720514e+001	-6.887263e+001	-1.154671e+001	-1.351347e+002	-1.156940e+001	-1.349586e+002	-2.432607e+001	2.790676e+001
3266204.506	-1.717688e+001	-7.209773e+001	-1.159402e+001	-1.398781e+002	-1.161778e+001	-1.397028e+002	-2.486706e+001	2.525671e+001
3290641.248	-1.715239e+001	-7.523590e+001	-1.163782e+001	-1.445339e+002	-1.166309e+001	-1.443696e+002	-2.539699e+001	2.291107e+001
3315077.990	-1.716997e+001	-7.838216e+001	-1.166058e+001	-1.492202e+002	-1.168378e+001	-1.490274e+002	-2.605792e+001	2.057340e+001
3339514.731	-1.724822e+001	-8.133081e+001	-1.167392e+001	-1.540338e+002	-1.169792e+001	-1.538433e+002	-2.693756e+001	1.952581e+001
3363951.473	-1.737195e+001	-8.388852e+001	-1.169555e+001	-1.589850e+002	-1.171950e+001	-1.587921e+002	-2.793567e+001	2.080930e+001
3388388.215	-1.751800e+001	-8.600098e+001	-1.173101e+001	-1.640187e+002	-1.175501e+001	-1.638154e+002	-2.891362e+001	2.493618e+001
3412824.957	-1.767373e+001	-8.763910e+001	-1.178333e+001	-1.691016e+002	-1.180557e+001	-1.688925e+002	-2.960789e+001	3.242112e+001
3437261.698	-1.782220e+001	-8.878974e+001	-1.185137e+001	-1.741995e+002	-1.187296e+001	-1.740042e+002	-2.975526e+001	4.227741e+001
3461698.440	-1.795284e+001	-8.947864e+001	-1.193669e+001	-1.793327e+002	-1.196170e+001	-1.791199e+002	-2.916556e+001	5.197328e+001
3486135.182	-1.802789e+001	-8.968956e+001	-1.204545e+001	1.755741e+002	-1.206869e+001	1.757661e+002	-2.805484e+001	5.916467e+001
3510571.924	-1.803749e+001	-8.959248e+001	-1.217420e+001	1.705489e+002	-1.219632e+001	1.707272e+002	-2.671558e+001	6.307736e+001
3535008.666	-1.797130e+001	-8.932454e+001	-1.232018e+001	1.656080e+002	-1.234311e+001	1.657794e+002	-2.538793e+001	6.424491e+001
3559445.407	-1.783128e+001	-8.905352e+001	-1.247545e+001	1.607982e+002	-1.250294e+001	1.609666e+002	-2.418395e+001	6.346190e+001
3583882.149	-1.761543e+001	-8.889326e+001	-1.264294e+001	1.561044e+002	-1.267219e+001	1.562844e+002	-2.311391e+001	6.145665e+001
3608318.891	-1.736072e+001	-8.892570e+001	-1.280749e+001	1.515218e+002	-1.284154e+001	1.516695e+002	-2.216550e+001	5.890411e+001
3632755.633	-1.705629e+001	-8.913117e+001	-1.297783e+001	1.469317e+002	-1.301543e+001	1.471196e+002	-2.131027e+001	5.587485e+001
3657192.374	-1.670569e+001	-8.959113e+001	-1.315622e+001	1.424833e+002	-1.319648e+001	1.426858e+002	-2.054484e+001	5.246454e+001
3681629.116	-1.632405e+001	-9.028961e+001	-1.334515e+001	1.380584e+002	-1.338929e+001	1.382702e+002	-1.983014e+001	4.883019e+001
3706065.858	-1.589820e+001	-9.134268e+001	-1.355876e+001	1.337565e+002	-1.360488e+001	1.339801e+002	-1.916693e+001	4.479690e+001
3730502.600	-1.544865e+001	-9.285838e+001	-1.379675e+001	1.296549e+002	-1.384744e+001	1.298886e+002	-1.856078e+001	4.031633e+001
3754939.341	-1.499787e+001	-9.489457e+001	-1.405064e+001	1.258558e+002	-1.410469e+001	1.261455e+002	-1.804518e+001	3.545382e+001
3779376.083	-1.456791e+001	-9.755441e+001	-1.430986e+001	1.225814e+002	-1.436948e+001	1.228882e+002	-1.762989e+001	3.019465e+001
3803812.825	-1.420649e+001	-1.007500e+002	-1.452885e+001	1.198722e+002	-1.459600e+001	1.202453e+002	-1.735517e+001	2.472763e+001
3828249.567	-1.393927e+001	-1.043298e+002	-1.466411e+001	1.176884e+002	-1.471901e+001	1.180912e+002	-1.724926e+001	1.948804e+001
3852686.308	-1.380965e+001	-1.078597e+002	-1.464483e+001	1.155630e+002	-1.469597e+001	1.160165e+002	-1.730645e+001	1.496086e+001
3877123.050	-1.378852e+001	-1.107686e+002	-1.449753e+001	1.127966e+002	-1.453634e+001	1.132683e+002	-1.744673e+001	1.187293e+001
3901559.792	-1.378174e+001	-1.127687e+002	-1.432617e+001	1.090364e+002	-1.434381e+001	1.094190e+002	-1.749966e+001	1.038288e+001
3925996.534	-1.370169e+001	-1.141580e+002	-1.421912e+001	1.046079e+002	-1.424280e+001	1.048023e+002	-1.733124e+001	9.363125e+000
3950433.276	-1.350606e+001	-1.154062e+002	-1.421875e+001	9.987741e+001	-1.426209e+001	9.995212e+001	-1.697827e+001	7.827046e+000
3974870.017	-1.323536e+001	-1.169843e+002	-1.430182e+001	9.529594e+001	-1.438093e+001	9.535014e+001	-1.656042e+001	5.296056e+000
3999306.759	-1.292457e+001	-1.191442e+002	-1.445423e+001	9.114868e+001	-1.456501e+001	9.137265e+001	-1.617754e+001	1.749236e+000
4023743.501	-1.265297e+001	-1.218208e+002	-1.459843e+001	8.757196e+001	-1.473346e+001	8.799049e+001	-1.589198e+001	-2.221124e+000
4048180.243	-1.241907e+001	-1.248079e+002	-1.473033e+001	8.442954e+001	-1.484855e+001	8.515837e+001	-1.572142e+001	-6.365279e+000
4072616.984	-1.225571e+001	-1.279527e+002	-1.479662e+001	8.166262e+001	-1.488666e+001	8.254753e+001	-1.563473e+001	-1.034338e+001
4097053.726	-1.215652e+001	-1.309908e+002	-1.478113e+001	7.896548e+001	-1.484213e+001	7.983160e+001	-1.561016e+001	-1.388114e+001
4121490.468	-1.209653e+001	-1.338163e+002	-1.470234e+001	7.609896e+001	-1.474845e+001	7.688480e+001	-1.560344e+001	-1.702172e+001
4145927.210	-1.206056e+001	-1.363768e+002	-1.458184e+001	7.297126e+001	-1.463030e+001	7.363516e+001	-1.559370e+001	-1.980759e+001
4170363.951	-1.202147e+001	-1.386532e+002	-1.444408e+001	6.955055e+001	-1.449562e+001	7.016373e+001	-1.558132e+001	-2.232390e+001
4194800.693	-1.197058e+001	-1.407502e+002	-1.430294e+001	6.581985e+001	-1.436581e+001	6.645548e+001	-1.554107e+001	-2.469231e+001
4219237.435	-1.189812e+001	-1.427567e+002	-1.417729e+001	6.190386e+001	-1.423365e+001	6.257209e+001	-1.548561e+001	-2.690224e+001
4243674.177	-1.180233e+001	-1.447479e+002	-1.407124e+001	5.784846e+001	-1.412232e+001	5.854262e+001	-1.539470e+001	-2.910792e+001
4268110.919	-1.169786e+001	-1.467459e+002	-1.396824e+001	5.374264e+001	-1.402366e+001	5.445852e+001	-1.528516e+001	-3.134517e+001
4292547.660	-1.158138e+001	-1.488145e+002	-1.388039e+001	4.961235e+001	-1.393090e+001	5.032953e+001	-1.516791e+001	-3.364159e+001
4316984.402	-1.145888e+001	-1.508996e+002	-1.379398e+001	4.540103e+001	-1.384699e+001	4.615638e+001	-1.504038e+001	-3.597288e+001
4341421.144	-1.132740e+001	-1.530654e+002	-1.371820e+001	4.117593e+001	-1.376701e+001	4.196380e+001	-1.490908e+001	-3.836692e+001
4365857.886	-1.119519e+001	-1.553054e+002	-1.364748e+001	3.694267e+001	-1.369535e+001	3.773938e+001	-1.477196e+001	-4.081738e+001
4390294.627	-1.106060e+001	-1.576636e+002	-1.358730e+001	3.269706e+001	-1.362843e+001	3.350942e+001	-1.463537e+001	-4.335403e+001
4414731.369	-1.092928e+001	-1.600892e+002	-1.352840e+001	2.844643e+001	-1.357078e+001	2.928491e+001	-1.449580e+001	-4.599246e+001
4439168.111	-1.080432e+001	-1.626252e+002	-1.347597e+001	2.417850e+001	-1.351118e+001	2.507016e+001	-1.436437e+001	-4.870946e+001
4463604.853	-1.068915e+001	-1.652234e+002	-1.342011e+001	1.996775e+001	-1.345605e+001	2.086565e+001	-1.423837e+001	-5.147914e+001
4488041.594	-1.058267e+001	-1.678840e+002	-1.336521e+001	1.573361e+001	-1.339664e+001	1.665289e+001	-1.412247e+001	-5.426810e+001
4512478.336	-1.048507e+001	-1.706138e+002	-1.331194e+001	1.148887e+001	-1.333869e+001	1.244054e+001	-1.401147e+001	-5.711660e+001
4536915.078	-1.039786e+001	-1.734118e+002	-1.326024e+001	7.243729e+000	-1.328269e+001	8.218044e+000	-1.390763e+001	-6.001950e+001
4561351.820	-1.032602e+001	-1.762895e+002	-1.321144e+001	3.033983e+000	-1.322901e+001	4.013794e+000	-1.381572e+001	-6.299244e+001
4585788.562	-1.027125e+001	-1.792160e+002	-1.315983e+001	-1.161232e+000	-1.317234e+001	-1.737387e-001	-1.373531e+001	-6.601016e+001
4610225.303	-1.023512e+001	1.778497e+002	-1.310182e+001	-5.345631e+000	-1.310910e+001	-4.346207e+000	-1.367179e+001	-6.904488e+001
4634662.045	-1.021376e+001	1.748989e+002	-1.303650e+001	-9.547896e+000	-1.304030e+001	-8.536307e+000	-1.362123e+001	-7.207790e+001
4659098.787	-1.020615e+001	1.719288e+002	-1.296774e+001	-1.378202e+001	-1.296296e+001	-1.275295e+001	-1.358413e+001	-7.508418e+001
4683535.529	-1.021306e+001	1.689622e+002	-1.289436e+001	-1.805299e+001	-1.288492e+001	-1.702973e+001	-1.355450e+001	-7.809502e+001
4707972.270	-1.023684e+001	1.659836e+002	-1.282237e+001	-2.231502e+001	-1.280468e+001	-2.134233e+001	-1.353620e+001	-8.106747e+001
4732409.012	-1.027389e+001	1.629921e+002	-1.274639e+001	-2.665620e+001	-1.272337e+001	-2.569017e+001	-1.352653e+001	-8.405531e+001
4756845.754	-1.032549e+001	1.600101e+002	-1.266842e+001	-3.105433e+001	-1.263814e+001	-3.010008e+001	-1.352313e+001	-8.701030e+001
4781282.496	-1.039285e+001	1.570133e+002	-1.259077e+001	-3.548850e+001	-1.255637e+001	-3.455201e+001	-1.352817e+001	-8.996868e+001
4805719.237	-1.047701e+001	1.540147e+002	-1.251529e+001	-3.996785e+001	-1.247532e+001	-3.905533e+001	-1.353943e+001	-9.291445e+001
4830155.979	-1.057744e+001	1.510136e+002	-1.244303e+001	-4.449815e+001	-1.240021e+001	-4.361162e+001	-1.355770e+001	-9.586329e+001
4854592.721	-1.069813e+001	1.480122e+002	-1.237505e+001	-4.905988e+001	-1.232542e+001	-4.820311e+001	-1.358125e+001	-9.880594e+001
4879029.463	-1.083740e+001	1.450172e+002	-1.230891e+001	-5.365982e+001	-1.225692e+001	-5.282020e+001	-1.361506e+001	-1.017444e+002
4903466.205	-1.099762e+001	1.420405e+002	-1.224900e+001	-5.829141e+001	-1.219360e+001	-5.747543e+001	-1.365431e+001	-1.046954e+002
4927902.946	-1.118255e+001	1.390826e+002	-1.219419e+001	-6.293293e+001	-1.213435e+001	-6.214778e+001	-1.370287e+001	-1.076473e+002
4952339.688	-1.138911e+001	1.361726e+002	-1.214075e+001	-6.764331e+001	-1.207839e+001	-6.684613e+001	-1.375878e+001	-1.106097e+002
4976776.430	-1.161983e+001	1.333098e+002	-1.209161e+001	-7.233377e+001	-1.202832e+001	-7.155850e+001	-1.382672e+001	-1.135539e+002
5001213.172	-1.187636e+001	1.305246e+002	-1.204674e+001	-7.702352e+001	-1.198054e+001	-7.629337e+001	-1.390237e+001	-1.164680e+002
5025649.913	-1.215889e+001	1.278220e+002	-1.200674e+001	-8.174152e+001	-1.193930e+001	-8.105097e+001	-1.398546e+001	-1.193845e+002
5050086.655	-1.246622e+001	1.252099e+002	-1.197025e+001	-8.647629e+001	-1.190149e+001	-8.580923e+001	-1.407853e+001	-1.222691e+002
5074523.397	-1.279877e+001	1.227243e+002	-1.193576e+001	-9.122373e+001	-1.186578e+001	-9.059662e+001	-1.417862e+001	-1.251333e+002
5098960.139	-1.315431e+001	1.203536e+002	-1.190633e+001	-9.598651e+001	-1.183550e+001	-9.539792e+001	-1.428463e+001	-1.279737e+002
5123396.880	-1.353422e+001	1.181274e+002	-1.188202e+001	-1.007823e+002	-1.181180e+001	-1.002152e+002	-1.439460e+001	-1.308118e+002
5147833.622	-1.393992e+001	1.160467e+002	-1.186431e+001	-1.055876e+002	-1.179395e+001	-1.050508e+002	-1.450692e+001	-1.336344e+002
5172270.364	-1.437403e+001	1.141569e+002	-1.185150e+001	-1.103746e+002	-1.178385e+001	-1.098766e+002	-1.462868e+001	-1.364672e+002
5196707.106	-1.483389e+001	1.124845e+002	-1.184294e+001	-1.151631e+002	-1.177697e+001	-1.146930e+002	-1.475822e+001	-1.393037e+002
5221143.847	-1.532093e+001	1.110736e+002	-1.183804e+001	-1.199006e+002	-1.177395e+001	-1.194934e+002	-1.489585e+001	-1.421028e+002
5245580.589	-1.582455e+001	1.099417e+002	-1.183462e+001	-1.246814e+002	-1.177358e+001	-1.243014e+002	-1.503892e+001	-1.449047e+002
5270017.331	-1.634406e+001	1.091202e+002	-1.183382e+001	-1.294579e+002	-1.177336e+001	-1.291049e+002	-1.518730e+001	-1.476662e+002
5294454.073	-1.687395e+001	1.086220e+002	-1.183482e+001	-1.342564e+002	-1.177836e+001	-1.339243e+002	-1.533627e+001	-1.504318e+002
5318890.815	-1.741242e+001	1.084611e+002	-1.183952e+001	-1.390582e+002	-1.178666e+001	-1.387302e+002	-1.548963e+001	-1.531809e+002
5343327.556	-1.795327e+001	1.086617e+002	-1.184823e+001	-1.438667e+002	-1.179696e+001	-1.435527e+002	-1.564095e+001	-1.559264e+002
5367764.298	-1.849110e+001	1.092564e+002	-1.186006e+001	-1.486815e+002	-1.181064e+001	-1.483775e+002	-1.579166e+001	-1.586789e+002
5392201.040	-1.901730e+001	1.102371e+002	-1.187321e+001	-1.534955e+002	-1.182864e+001	-1.532071e+002	-1.594543e+001	-1.614742e+002
5416637.782	-1.952474e+001	1.116132e+002	-1.189105e+001	-1.583211e+002	-1.185098e+001	-1.580485e+002	-1.609658e+001	-1.643028e+002
5441074.523	-2.001011e+001	1.134036e+002	-1.191577e+001	-1.631513e+002	-1.187602e+001	-1.628788e+002	-1.624902e+001	-1.671720e+002
