!Agilent Technologies,E5061B,MY49101568,A.02.00
!Date: Wed Mar 01 14:26:56 2023
!Data & Calibration Information:
!Freq	S11:SOLT2(OFF)	S21:SOLT2(OFF)	S12:SOLT2(OFF)	S22:SOLT2(OFF)
# Hz S dB R 50
1800000.000	-9.613679e+000	-1.646238e+001	-2.375386e+001	-1.449701e+002	-2.375111e+001	-1.450282e+002	-1.000498e+001	2.001195e+001
1824436.742	-9.729929e+000	-2.066252e+001	-2.342099e+001	-1.489010e+002	-2.342432e+001	-1.489572e+002	-1.014333e+001	1.635446e+001
1848873.484	-9.849543e+000	-2.493679e+001	-2.308267e+001	-1.529107e+002	-2.308606e+001	-1.529592e+002	-1.028521e+001	1.264688e+001
1873310.225	-9.978427e+000	-2.925531e+001	-2.273098e+001	-1.570276e+002	-2.274260e+001	-1.570459e+002	-1.042353e+001	8.920160e+000
1897746.967	-1.010699e+001	-3.364827e+001	-2.237259e+001	-1.611753e+002	-2.239105e+001	-1.612410e+002	-1.056070e+001	5.126566e+000
1922183.709	-1.023994e+001	-3.814101e+001	-2.201483e+001	-1.654464e+002	-2.202813e+001	-1.655014e+002	-1.070047e+001	1.239284e+000
1946620.451	-1.037859e+001	-4.272225e+001	-2.164791e+001	-1.698515e+002	-2.166840e+001	-1.698394e+002	-1.083400e+001	-2.716579e+000
1971057.192	-1.052422e+001	-4.744044e+001	-2.126956e+001	-1.742803e+002	-2.129720e+001	-1.742491e+002	-1.096754e+001	-6.761335e+000
1995493.934	-1.067849e+001	-5.225736e+001	-2.088903e+001	-1.788561e+002	-2.092369e+001	-1.787757e+002	-1.110494e+001	-1.087397e+001
2019930.676	-1.083906e+001	-5.717827e+001	-2.051509e+001	1.765467e+002	-2.054571e+001	1.766031e+002	-1.123803e+001	-1.503307e+001
2044367.418	-1.101042e+001	-6.221480e+001	-2.012412e+001	1.718263e+002	-2.016285e+001	1.718744e+002	-1.136539e+001	-1.936040e+001
2068804.159	-1.119352e+001	-6.741908e+001	-1.972487e+001	1.670021e+002	-1.977258e+001	1.671028e+002	-1.149147e+001	-2.375978e+001
2093240.901	-1.138668e+001	-7.271428e+001	-1.932862e+001	1.620650e+002	-1.937134e+001	1.621573e+002	-1.161722e+001	-2.822472e+001
2117677.643	-1.159646e+001	-7.817731e+001	-1.893103e+001	1.569095e+002	-1.896922e+001	1.570771e+002	-1.174450e+001	-3.278599e+001
2142114.385	-1.182956e+001	-8.378879e+001	-1.852086e+001	1.515807e+002	-1.857282e+001	1.518172e+002	-1.186330e+001	-3.743103e+001
2166551.127	-1.207932e+001	-8.955834e+001	-1.811741e+001	1.461166e+002	-1.816388e+001	1.464092e+002	-1.198382e+001	-4.223815e+001
2190987.868	-1.234226e+001	-9.547481e+001	-1.772885e+001	1.404824e+002	-1.776985e+001	1.407853e+002	-1.210072e+001	-4.708765e+001
2215424.610	-1.263192e+001	-1.015520e+002	-1.734638e+001	1.346120e+002	-1.739565e+001	1.350111e+002	-1.220702e+001	-5.203430e+001
2239861.352	-1.293101e+001	-1.077938e+002	-1.698857e+001	1.286855e+002	-1.703684e+001	1.290551e+002	-1.230514e+001	-5.705596e+001
2264298.094	-1.324447e+001	-1.141945e+002	-1.664882e+001	1.225721e+002	-1.669543e+001	1.230442e+002	-1.238801e+001	-6.222532e+001
2288734.835	-1.357751e+001	-1.208335e+002	-1.631728e+001	1.163470e+002	-1.636181e+001	1.168846e+002	-1.246464e+001	-6.749875e+001
2313171.577	-1.392187e+001	-1.276929e+002	-1.601403e+001	1.100675e+002	-1.605261e+001	1.106247e+002	-1.252347e+001	-7.288555e+001
2337608.319	-1.428128e+001	-1.348205e+002	-1.572451e+001	1.036808e+002	-1.575364e+001	1.042539e+002	-1.257054e+001	-7.844712e+001
2362045.061	-1.465428e+001	-1.421150e+002	-1.545243e+001	9.712502e+001	-1.547932e+001	9.775154e+001	-1.260964e+001	-8.406748e+001
2386481.802	-1.502599e+001	-1.496366e+002	-1.521296e+001	9.041516e+001	-1.523123e+001	9.109470e+001	-1.262689e+001	-8.982892e+001
2410918.544	-1.536562e+001	-1.574506e+002	-1.501941e+001	8.370883e+001	-1.503028e+001	8.434784e+001	-1.261628e+001	-9.565120e+001
2435355.286	-1.565225e+001	-1.657134e+002	-1.487105e+001	7.711101e+001	-1.485562e+001	7.783424e+001	-1.256915e+001	-1.017756e+002
2459792.028	-1.592335e+001	-1.747002e+002	-1.472496e+001	7.071161e+001	-1.469911e+001	7.131227e+001	-1.250381e+001	-1.081110e+002
2484228.769	-1.620605e+001	1.756357e+002	-1.455486e+001	6.435529e+001	-1.453653e+001	6.501559e+001	-1.242427e+001	-1.148399e+002
2508665.511	-1.650613e+001	1.656541e+002	-1.437265e+001	5.780512e+001	-1.434724e+001	5.840799e+001	-1.238055e+001	-1.217763e+002
2533102.253	-1.679438e+001	1.556909e+002	-1.421882e+001	5.094557e+001	-1.418335e+001	5.152186e+001	-1.234639e+001	-1.286834e+002
2557538.995	-1.702122e+001	1.457099e+002	-1.410489e+001	4.392761e+001	-1.406826e+001	4.453251e+001	-1.230487e+001	-1.356249e+002
2581975.737	-1.715385e+001	1.357039e+002	-1.404628e+001	3.689557e+001	-1.400122e+001	3.745362e+001	-1.225385e+001	-1.425474e+002
2606412.478	-1.718778e+001	1.258081e+002	-1.404200e+001	2.989864e+001	-1.398569e+001	3.041061e+001	-1.218966e+001	-1.494844e+002
2630849.220	-1.712309e+001	1.157875e+002	-1.407269e+001	2.313672e+001	-1.400707e+001	2.355986e+001	-1.210836e+001	-1.565153e+002
2655285.962	-1.699545e+001	1.057911e+002	-1.411605e+001	1.650002e+001	-1.404452e+001	1.693609e+001	-1.202335e+001	-1.637030e+002
2679722.704	-1.680026e+001	9.573535e+001	-1.416670e+001	1.017602e+001	-1.408782e+001	1.038463e+001	-1.195562e+001	-1.709984e+002
2704159.445	-1.662987e+001	8.611546e+001	-1.421695e+001	3.622988e+000	-1.413650e+001	3.825761e+000	-1.190952e+001	-1.782648e+002
2728596.187	-1.641828e+001	7.704673e+001	-1.430657e+001	-2.915355e+000	-1.422081e+001	-2.685385e+000	-1.187313e+001	1.745711e+002
2753032.929	-1.618664e+001	6.838486e+001	-1.441542e+001	-9.343995e+000	-1.433645e+001	-9.204767e+000	-1.185302e+001	1.676246e+002
2777469.671	-1.592723e+001	6.014295e+001	-1.455045e+001	-1.564547e+001	-1.447967e+001	-1.553864e+001	-1.182945e+001	1.607679e+002
2801906.412	-1.565306e+001	5.234716e+001	-1.471594e+001	-2.178671e+001	-1.464563e+001	-2.176088e+001	-1.181791e+001	1.540739e+002
2826343.154	-1.538307e+001	4.492917e+001	-1.489863e+001	-2.780273e+001	-1.483481e+001	-2.779610e+001	-1.180700e+001	1.475432e+002
2850779.896	-1.510269e+001	3.790859e+001	-1.510714e+001	-3.360843e+001	-1.504162e+001	-3.366843e+001	-1.180239e+001	1.411758e+002
2875216.638	-1.482938e+001	3.116856e+001	-1.531697e+001	-3.923352e+001	-1.525931e+001	-3.928244e+001	-1.179572e+001	1.349451e+002
2899653.380	-1.456578e+001	2.470678e+001	-1.553480e+001	-4.463588e+001	-1.547901e+001	-4.476160e+001	-1.179873e+001	1.288767e+002
2924090.121	-1.431336e+001	1.851358e+001	-1.575112e+001	-4.987259e+001	-1.570013e+001	-4.999655e+001	-1.180264e+001	1.229276e+002
2948526.863	-1.407136e+001	1.259396e+001	-1.596843e+001	-5.495393e+001	-1.592218e+001	-5.510992e+001	-1.181628e+001	1.171721e+002
2972963.605	-1.384292e+001	6.904125e+000	-1.618088e+001	-5.989136e+001	-1.614762e+001	-6.006978e+001	-1.183481e+001	1.115749e+002
2997400.347	-1.362572e+001	1.455900e+000	-1.639791e+001	-6.469981e+001	-1.636778e+001	-6.489481e+001	-1.185592e+001	1.061340e+002
3021837.088	-1.341840e+001	-3.800937e+000	-1.660793e+001	-6.936104e+001	-1.658657e+001	-6.955464e+001	-1.187902e+001	1.008649e+002
3046273.830	-1.322172e+001	-8.881576e+000	-1.681079e+001	-7.385079e+001	-1.679459e+001	-7.408391e+001	-1.190728e+001	9.571738e+001
3070710.572	-1.303610e+001	-1.377345e+001	-1.700446e+001	-7.823567e+001	-1.699716e+001	-7.846409e+001	-1.193587e+001	9.071224e+001
3095147.314	-1.285681e+001	-1.852539e+001	-1.718758e+001	-8.249945e+001	-1.718681e+001	-8.274073e+001	-1.196969e+001	8.583956e+001
3119584.055	-1.269076e+001	-2.314536e+001	-1.735866e+001	-8.669763e+001	-1.736767e+001	-8.693915e+001	-1.200826e+001	8.110069e+001
3144020.797	-1.253190e+001	-2.761581e+001	-1.752544e+001	-9.079032e+001	-1.753580e+001	-9.108609e+001	-1.204723e+001	7.651780e+001
3168457.539	-1.238424e+001	-3.194709e+001	-1.767979e+001	-9.486862e+001	-1.769719e+001	-9.513217e+001	-1.208790e+001	7.204353e+001
3192894.281	-1.224390e+001	-3.618266e+001	-1.782522e+001	-9.885163e+001	-1.785030e+001	-9.910894e+001	-1.213122e+001	6.769620e+001
3217331.023	-1.211011e+001	-4.028259e+001	-1.796574e+001	-1.028011e+002	-1.799406e+001	-1.030265e+002	-1.217549e+001	6.347155e+001
3241767.764	-1.198279e+001	-4.429027e+001	-1.810055e+001	-1.066854e+002	-1.813556e+001	-1.069204e+002	-1.221976e+001	5.937349e+001
3266204.506	-1.185947e+001	-4.819449e+001	-1.823098e+001	-1.105073e+002	-1.827184e+001	-1.107133e+002	-1.225924e+001	5.538655e+001
3290641.248	-1.173568e+001	-5.200701e+001	-1.835484e+001	-1.141922e+002	-1.840158e+001	-1.143906e+002	-1.229437e+001	5.147785e+001
3315077.990	-1.161729e+001	-5.580005e+001	-1.845366e+001	-1.177978e+002	-1.850445e+001	-1.179529e+002	-1.232907e+001	4.759752e+001
3339514.731	-1.150795e+001	-5.952324e+001	-1.853573e+001	-1.214111e+002	-1.859180e+001	-1.215438e+002	-1.236795e+001	4.379436e+001
3363951.473	-1.140775e+001	-6.317961e+001	-1.860721e+001	-1.250264e+002	-1.866836e+001	-1.251469e+002	-1.241281e+001	4.007824e+001
3388388.215	-1.131339e+001	-6.677259e+001	-1.866597e+001	-1.286546e+002	-1.873621e+001	-1.287296e+002	-1.245861e+001	3.647062e+001
3412824.957	-1.122498e+001	-7.030366e+001	-1.872510e+001	-1.322435e+002	-1.879379e+001	-1.323010e+002	-1.250489e+001	3.293350e+001
3437261.698	-1.114179e+001	-7.376500e+001	-1.877099e+001	-1.358409e+002	-1.884466e+001	-1.358631e+002	-1.255255e+001	2.948192e+001
3461698.440	-1.106428e+001	-7.715863e+001	-1.881272e+001	-1.394203e+002	-1.888923e+001	-1.394172e+002	-1.259748e+001	2.611852e+001
3486135.182	-1.099242e+001	-8.049632e+001	-1.884569e+001	-1.430240e+002	-1.892580e+001	-1.429567e+002	-1.264502e+001	2.286929e+001
3510571.924	-1.092506e+001	-8.377683e+001	-1.887101e+001	-1.465719e+002	-1.895355e+001	-1.464958e+002	-1.269160e+001	1.966457e+001
3535008.666	-1.086110e+001	-8.698230e+001	-1.889170e+001	-1.501142e+002	-1.897860e+001	-1.499862e+002	-1.273215e+001	1.657677e+001
3559445.407	-1.079778e+001	-9.013948e+001	-1.890317e+001	-1.536277e+002	-1.899135e+001	-1.534976e+002	-1.277005e+001	1.355343e+001
3583882.149	-1.073816e+001	-9.324283e+001	-1.889935e+001	-1.571479e+002	-1.899051e+001	-1.569580e+002	-1.280024e+001	1.056857e+001
3608318.891	-1.067942e+001	-9.630031e+001	-1.888958e+001	-1.606804e+002	-1.897608e+001	-1.604433e+002	-1.282709e+001	7.646095e+000
3632755.633	-1.062328e+001	-9.933034e+001	-1.886417e+001	-1.642920e+002	-1.895084e+001	-1.639625e+002	-1.285064e+001	4.743462e+000
3657192.374	-1.056742e+001	-1.023099e+002	-1.883024e+001	-1.679227e+002	-1.891989e+001	-1.675533e+002	-1.287381e+001	1.905012e+000
3681629.116	-1.051342e+001	-1.052561e+002	-1.879078e+001	-1.716194e+002	-1.888180e+001	-1.712404e+002	-1.289605e+001	-8.836021e-001
3706065.858	-1.046327e+001	-1.081564e+002	-1.875581e+001	-1.754232e+002	-1.884417e+001	-1.750442e+002	-1.291658e+001	-3.596015e+000
3730502.600	-1.041445e+001	-1.109921e+002	-1.873089e+001	-1.793253e+002	-1.882045e+001	-1.788977e+002	-1.292920e+001	-6.231930e+000
3754939.341	-1.036498e+001	-1.137550e+002	-1.873372e+001	1.767400e+002	-1.881759e+001	1.772230e+002	-1.293144e+001	-8.781546e+000
3779376.083	-1.030494e+001	-1.164435e+002	-1.876075e+001	1.728867e+002	-1.884801e+001	1.733984e+002	-1.291392e+001	-1.123942e+001
3803812.825	-1.022751e+001	-1.191297e+002	-1.881477e+001	1.692912e+002	-1.889859e+001	1.698238e+002	-1.286875e+001	-1.372868e+001
3828249.567	-1.013037e+001	-1.218626e+002	-1.887267e+001	1.661066e+002	-1.895595e+001	1.666869e+002	-1.279243e+001	-1.634890e+001
3852686.308	-1.002186e+001	-1.248136e+002	-1.886921e+001	1.634119e+002	-1.895115e+001	1.640195e+002	-1.270834e+001	-1.925730e+001
3877123.050	-9.930618e+000	-1.279762e+002	-1.876868e+001	1.607654e+002	-1.885033e+001	1.614217e+002	-1.264910e+001	-2.241401e+001
3901559.792	-9.870382e+000	-1.312598e+002	-1.858660e+001	1.578193e+002	-1.866136e+001	1.585030e+002	-1.263280e+001	-2.567343e+001
3925996.534	-9.848902e+000	-1.345140e+002	-1.837096e+001	1.542644e+002	-1.844135e+001	1.549950e+002	-1.265904e+001	-2.883712e+001
3950433.276	-9.855159e+000	-1.376621e+002	-1.816887e+001	1.502422e+002	-1.823086e+001	1.509971e+002	-1.271050e+001	-3.179786e+001
3974870.017	-9.874085e+000	-1.406266e+002	-1.801266e+001	1.459237e+002	-1.806822e+001	1.466606e+002	-1.276926e+001	-3.450012e+001
3999306.759	-9.896516e+000	-1.434409e+002	-1.789741e+001	1.414464e+002	-1.796518e+001	1.422151e+002	-1.281438e+001	-3.697075e+001
4023743.501	-9.904773e+000	-1.461207e+002	-1.783937e+001	1.370388e+002	-1.790815e+001	1.377952e+002	-1.283392e+001	-3.929097e+001
4048180.243	-9.896887e+000	-1.487640e+002	-1.781702e+001	1.328089e+002	-1.789072e+001	1.336326e+002	-1.282048e+001	-4.158868e+001
4072616.984	-9.875016e+000	-1.514483e+002	-1.781042e+001	1.288761e+002	-1.787685e+001	1.297405e+002	-1.278219e+001	-4.398142e+001
4097053.726	-9.843946e+000	-1.542163e+002	-1.779837e+001	1.251581e+002	-1.785896e+001	1.261098e+002	-1.272604e+001	-4.646844e+001
4121490.468	-9.818304e+000	-1.570885e+002	-1.775898e+001	1.216035e+002	-1.780754e+001	1.225748e+002	-1.267255e+001	-4.909746e+001
4145927.210	-9.800273e+000	-1.600552e+002	-1.768729e+001	1.181805e+002	-1.773468e+001	1.191377e+002	-1.261875e+001	-5.182737e+001
4170363.951	-9.793754e+000	-1.630745e+002	-1.759545e+001	1.147969e+002	-1.763509e+001	1.157246e+002	-1.256952e+001	-5.462639e+001
4194800.693	-9.803354e+000	-1.661704e+002	-1.746984e+001	1.113501e+002	-1.750989e+001	1.122894e+002	-1.252963e+001	-5.752316e+001
4219237.435	-9.830374e+000	-1.693017e+002	-1.732269e+001	1.078145e+002	-1.735478e+001	1.088100e+002	-1.249961e+001	-6.048994e+001
4243674.177	-9.875021e+000	-1.724240e+002	-1.716136e+001	1.041447e+002	-1.718646e+001	1.051242e+002	-1.248600e+001	-6.344167e+001
4268110.919	-9.935754e+000	-1.755270e+002	-1.699184e+001	1.003454e+002	-1.701326e+001	1.013194e+002	-1.247976e+001	-6.638806e+001
4292547.660	-1.000969e+001	-1.786121e+002	-1.681917e+001	9.645632e+001	-1.683150e+001	9.746298e+001	-1.247756e+001	-6.936460e+001
4316984.402	-1.010148e+001	1.783062e+002	-1.663814e+001	9.245908e+001	-1.664433e+001	9.346756e+001	-1.248488e+001	-7.232018e+001
4341421.144	-1.020920e+001	1.752691e+002	-1.645617e+001	8.836195e+001	-1.645143e+001	8.937281e+001	-1.250094e+001	-7.530142e+001
4365857.886	-1.033293e+001	1.722665e+002	-1.627091e+001	8.414409e+001	-1.626098e+001	8.515293e+001	-1.252389e+001	-7.823734e+001
4390294.627	-1.046989e+001	1.693290e+002	-1.609272e+001	7.981514e+001	-1.607105e+001	8.082426e+001	-1.255408e+001	-8.118171e+001
4414731.369	-1.061963e+001	1.664346e+002	-1.591748e+001	7.543516e+001	-1.589623e+001	7.639583e+001	-1.258267e+001	-8.407568e+001
4439168.111	-1.077841e+001	1.636089e+002	-1.575207e+001	7.090958e+001	-1.572208e+001	7.189053e+001	-1.261820e+001	-8.696907e+001
4463604.853	-1.094973e+001	1.608520e+002	-1.559094e+001	6.635988e+001	-1.555680e+001	6.729888e+001	-1.265359e+001	-8.983516e+001
4488041.594	-1.113240e+001	1.581364e+002	-1.543684e+001	6.177458e+001	-1.540245e+001	6.270569e+001	-1.268814e+001	-9.271632e+001
4512478.336	-1.132302e+001	1.554881e+002	-1.528878e+001	5.711161e+001	-1.524846e+001	5.802624e+001	-1.272714e+001	-9.560577e+001
4536915.078	-1.152513e+001	1.529259e+002	-1.514756e+001	5.237233e+001	-1.510292e+001	5.324315e+001	-1.277229e+001	-9.846006e+001
4561351.820	-1.172886e+001	1.504523e+002	-1.502167e+001	4.756389e+001	-1.497492e+001	4.841027e+001	-1.281013e+001	-1.012741e+002
4585788.562	-1.192969e+001	1.480238e+002	-1.491582e+001	4.272712e+001	-1.486726e+001	4.356323e+001	-1.284202e+001	-1.041073e+002
4610225.303	-1.212995e+001	1.455820e+002	-1.482524e+001	3.794979e+001	-1.477198e+001	3.876390e+001	-1.286408e+001	-1.069888e+002
4634662.045	-1.234020e+001	1.431080e+002	-1.473816e+001	3.320770e+001	-1.468297e+001	3.399155e+001	-1.288360e+001	-1.099495e+002
4659098.787	-1.255639e+001	1.405969e+002	-1.465892e+001	2.849018e+001	-1.459985e+001	2.924638e+001	-1.290250e+001	-1.129911e+002
4683535.529	-1.278575e+001	1.380639e+002	-1.458524e+001	2.379299e+001	-1.452448e+001	2.451854e+001	-1.292043e+001	-1.161046e+002
4707972.270	-1.303132e+001	1.355005e+002	-1.451388e+001	1.917512e+001	-1.445027e+001	1.984823e+001	-1.294216e+001	-1.193219e+002
4732409.012	-1.329583e+001	1.328436e+002	-1.444751e+001	1.457856e+001	-1.438057e+001	1.520430e+001	-1.296405e+001	-1.226713e+002
4756845.754	-1.359218e+001	1.301188e+002	-1.437486e+001	1.005804e+001	-1.430555e+001	1.064272e+001	-1.299388e+001	-1.261740e+002
4781282.496	-1.392733e+001	1.273955e+002	-1.429282e+001	5.543972e+000	-1.422206e+001	6.097664e+000	-1.303961e+001	-1.298419e+002
4805719.237	-1.430862e+001	1.246848e+002	-1.419743e+001	1.042251e+000	-1.412735e+001	1.538411e+000	-1.310648e+001	-1.336338e+002
4830155.979	-1.473380e+001	1.221027e+002	-1.409242e+001	-3.557316e+000	-1.402318e+001	-3.079668e+000	-1.319662e+001	-1.375065e+002
4854592.721	-1.520197e+001	1.196857e+002	-1.398315e+001	-8.238071e+000	-1.391464e+001	-7.802042e+000	-1.331410e+001	-1.414401e+002
4879029.463	-1.571002e+001	1.174166e+002	-1.387490e+001	-1.299825e+001	-1.380977e+001	-1.260650e+001	-1.345159e+001	-1.453887e+002
4903466.205	-1.625595e+001	1.153719e+002	-1.377119e+001	-1.785822e+001	-1.370853e+001	-1.750906e+001	-1.361210e+001	-1.493721e+002
4927902.946	-1.684159e+001	1.135246e+002	-1.367682e+001	-2.278880e+001	-1.361633e+001	-2.245456e+001	-1.379060e+001	-1.533933e+002
4952339.688	-1.746630e+001	1.119197e+002	-1.359110e+001	-2.780071e+001	-1.353394e+001	-2.745628e+001	-1.398473e+001	-1.574491e+002
4976776.430	-1.814339e+001	1.105496e+002	-1.351433e+001	-3.282648e+001	-1.346264e+001	-3.250638e+001	-1.419767e+001	-1.614856e+002
5001213.172	-1.886979e+001	1.095061e+002	-1.344797e+001	-3.789003e+001	-1.339979e+001	-3.759120e+001	-1.442821e+001	-1.655696e+002
5025649.913	-1.965148e+001	1.087980e+002	-1.339741e+001	-4.297238e+001	-1.335076e+001	-4.269373e+001	-1.467532e+001	-1.696659e+002
5050086.655	-2.050430e+001	1.085949e+002	-1.335090e+001	-4.808435e+001	-1.331212e+001	-4.782230e+001	-1.493939e+001	-1.737817e+002
5074523.397	-2.142717e+001	1.089405e+002	-1.332275e+001	-5.320327e+001	-1.328481e+001	-5.294573e+001	-1.521553e+001	-1.779370e+002
5098960.139	-2.243445e+001	1.100920e+002	-1.330261e+001	-5.831842e+001	-1.327056e+001	-5.807404e+001	-1.550596e+001	1.778924e+002
5123396.880	-2.352428e+001	1.122578e+002	-1.329998e+001	-6.341164e+001	-1.327046e+001	-6.316968e+001	-1.580356e+001	1.736712e+002
5147833.622	-2.471534e+001	1.159171e+002	-1.330690e+001	-6.845204e+001	-1.328339e+001	-6.823094e+001	-1.611265e+001	1.693769e+002
5172270.364	-2.594746e+001	1.217844e+002	-1.332191e+001	-7.345039e+001	-1.330366e+001	-7.321545e+001	-1.643066e+001	1.649532e+002
5196707.106	-2.709686e+001	1.306330e+002	-1.334297e+001	-7.839907e+001	-1.332743e+001	-7.816273e+001	-1.676591e+001	1.604021e+002
5221143.847	-2.788784e+001	1.428990e+002	-1.336506e+001	-8.327377e+001	-1.335460e+001	-8.306918e+001	-1.712010e+001	1.557502e+002
5245580.589	-2.800401e+001	1.570122e+002	-1.339126e+001	-8.815626e+001	-1.338655e+001	-8.795366e+001	-1.749123e+001	1.509829e+002
5270017.331	-2.737407e+001	1.702655e+002	-1.342259e+001	-9.301995e+001	-1.342355e+001	-9.278230e+001	-1.787813e+001	1.460664e+002
5294454.073	-2.624627e+001	-1.794715e+002	-1.345908e+001	-9.783746e+001	-1.346349e+001	-9.759799e+001	-1.828307e+001	1.410453e+002
5318890.815	-2.493797e+001	-1.724983e+002	-1.349925e+001	-1.026306e+002	-1.350618e+001	-1.023748e+002	-1.869409e+001	1.358624e+002
5343327.556	-2.362445e+001	-1.681559e+002	-1.354228e+001	-1.073937e+002	-1.355340e+001	-1.071155e+002	-1.912016e+001	1.305520e+002
5367764.298	-2.239614e+001	-1.657447e+002	-1.358949e+001	-1.121184e+002	-1.360073e+001	-1.118108e+002	-1.955491e+001	1.250260e+002
5392201.040	-2.127573e+001	-1.646213e+002	-1.363911e+001	-1.168143e+002	-1.365459e+001	-1.164736e+002	-1.998920e+001	1.193192e+002
5416637.782	-2.025537e+001	-1.644432e+002	-1.368784e+001	-1.214633e+002	-1.370605e+001	-1.211166e+002	-2.043248e+001	1.134172e+002
5441074.523	-1.933915e+001	-1.649528e+002	-1.373967e+001	-1.261103e+002	-1.376057e+001	-1.257189e+002	-2.086382e+001	1.072975e+002
