!Agilent Technologies,E5061B,MY49101568,A.02.00
!Date: Wed Mar 01 14:36:13 2023
!Data & Calibration Information:
!Freq	S11:SOLT2(OFF)	S21:SOLT2(OFF)	S12:SOLT2(OFF)	S22:SOLT2(OFF)
# Hz S dB R 50
1800000.000	-9.475691e+000	-1.835238e+001	-2.453917e+001	-1.335358e+002	-2.452965e+001	-1.335806e+002	-9.877704e+000	1.787141e+001
1824436.742	-9.573287e+000	-2.265987e+001	-2.415567e+001	-1.374200e+002	-2.416251e+001	-1.374446e+002	-1.000015e+001	1.409455e+001
1848873.484	-9.674429e+000	-2.704739e+001	-2.376714e+001	-1.414475e+002	-2.377430e+001	-1.414101e+002	-1.012387e+001	1.026592e+001
1873310.225	-9.782952e+000	-3.149003e+001	-2.336915e+001	-1.455001e+002	-2.337923e+001	-1.455298e+002	-1.024697e+001	6.412436e+000
1897746.967	-9.891174e+000	-3.602323e+001	-2.295964e+001	-1.496694e+002	-2.297838e+001	-1.496985e+002	-1.036798e+001	2.487200e+000
1922183.709	-1.000332e+001	-4.067647e+001	-2.254181e+001	-1.539047e+002	-2.255928e+001	-1.539629e+002	-1.048937e+001	-1.546784e+000
1946620.451	-1.012298e+001	-4.544222e+001	-2.211391e+001	-1.582903e+002	-2.213978e+001	-1.583410e+002	-1.060850e+001	-5.665672e+000
1971057.192	-1.024839e+001	-5.035058e+001	-2.167568e+001	-1.628075e+002	-2.170191e+001	-1.628432e+002	-1.072971e+001	-9.884303e+000
1995493.934	-1.038358e+001	-5.538431e+001	-2.122431e+001	-1.674898e+002	-2.126146e+001	-1.674221e+002	-1.085088e+001	-1.418523e+001
2019930.676	-1.053063e+001	-6.055199e+001	-2.077474e+001	-1.722656e+002	-2.081741e+001	-1.721176e+002	-1.097306e+001	-1.854558e+001
2044367.418	-1.068772e+001	-6.583884e+001	-2.031085e+001	-1.772003e+002	-2.035524e+001	-1.770483e+002	-1.109044e+001	-2.307309e+001
2068804.159	-1.086057e+001	-7.126877e+001	-1.985013e+001	1.777006e+002	-1.989866e+001	1.778913e+002	-1.121260e+001	-2.764702e+001
2093240.901	-1.104335e+001	-7.683101e+001	-1.939191e+001	1.724592e+002	-1.944333e+001	1.726351e+002	-1.133212e+001	-3.226722e+001
2117677.643	-1.124422e+001	-8.255886e+001	-1.894190e+001	1.670239e+002	-1.899436e+001	1.672372e+002	-1.145207e+001	-3.698902e+001
2142114.385	-1.146127e+001	-8.846976e+001	-1.849254e+001	1.614388e+002	-1.854814e+001	1.617150e+002	-1.156260e+001	-4.181878e+001
2166551.127	-1.169851e+001	-9.455694e+001	-1.804646e+001	1.556993e+002	-1.809934e+001	1.560194e+002	-1.167476e+001	-4.677335e+001
2190987.868	-1.195885e+001	-1.008155e+002	-1.760783e+001	1.497848e+002	-1.766070e+001	1.500994e+002	-1.178799e+001	-5.179777e+001
2215424.610	-1.223765e+001	-1.072388e+002	-1.719020e+001	1.436204e+002	-1.724157e+001	1.440437e+002	-1.189569e+001	-5.690623e+001
2239861.352	-1.253940e+001	-1.138723e+002	-1.679107e+001	1.373724e+002	-1.683937e+001	1.378668e+002	-1.199219e+001	-6.211245e+001
2264298.094	-1.286196e+001	-1.207326e+002	-1.640189e+001	1.310083e+002	-1.644590e+001	1.315484e+002	-1.208591e+001	-6.742719e+001
2288734.835	-1.320910e+001	-1.277858e+002	-1.603166e+001	1.244905e+002	-1.607164e+001	1.250581e+002	-1.216796e+001	-7.284060e+001
2313171.577	-1.357924e+001	-1.350370e+002	-1.568049e+001	1.178509e+002	-1.571633e+001	1.184455e+002	-1.224226e+001	-7.833378e+001
2337608.319	-1.396562e+001	-1.425216e+002	-1.535334e+001	1.110725e+002	-1.538116e+001	1.117057e+002	-1.230328e+001	-8.393102e+001
2362045.061	-1.436721e+001	-1.502204e+002	-1.505216e+001	1.042365e+002	-1.507673e+001	1.048575e+002	-1.235456e+001	-8.961013e+001
2386481.802	-1.477122e+001	-1.581494e+002	-1.477834e+001	9.726070e+001	-1.479406e+001	9.790291e+001	-1.238452e+001	-9.542224e+001
2410918.544	-1.517166e+001	-1.663535e+002	-1.453001e+001	9.023695e+001	-1.453670e+001	9.091004e+001	-1.240198e+001	-1.013501e+002
2435355.286	-1.556428e+001	-1.748557e+002	-1.431070e+001	8.319623e+001	-1.430751e+001	8.385184e+001	-1.240056e+001	-1.074095e+002
2459792.028	-1.594038e+001	1.763476e+002	-1.411442e+001	7.608516e+001	-1.410407e+001	7.672472e+001	-1.238435e+001	-1.136177e+002
2484228.769	-1.628706e+001	1.672718e+002	-1.394564e+001	6.892030e+001	-1.392835e+001	6.958480e+001	-1.235880e+001	-1.199897e+002
2508665.511	-1.659256e+001	1.579435e+002	-1.380515e+001	6.175796e+001	-1.378002e+001	6.240999e+001	-1.231832e+001	-1.264624e+002
2533102.253	-1.684857e+001	1.484125e+002	-1.369423e+001	5.462594e+001	-1.366057e+001	5.521043e+001	-1.227034e+001	-1.330692e+002
2557538.995	-1.703856e+001	1.387302e+002	-1.361076e+001	4.747819e+001	-1.357029e+001	4.804128e+001	-1.221746e+001	-1.397969e+002
2581975.737	-1.716216e+001	1.289324e+002	-1.355462e+001	4.034482e+001	-1.350684e+001	4.087656e+001	-1.215910e+001	-1.466214e+002
2606412.478	-1.721236e+001	1.191327e+002	-1.352739e+001	3.326780e+001	-1.347154e+001	3.374399e+001	-1.210127e+001	-1.535480e+002
2630849.220	-1.719316e+001	1.094073e+002	-1.352879e+001	2.624973e+001	-1.346871e+001	2.667257e+001	-1.204600e+001	-1.605469e+002
2655285.962	-1.710818e+001	9.984723e+001	-1.355683e+001	1.931084e+001	-1.349186e+001	1.967470e+001	-1.199679e+001	-1.675568e+002
2679722.704	-1.696825e+001	9.052661e+001	-1.360970e+001	1.245402e+001	-1.354378e+001	1.277590e+001	-1.195229e+001	-1.746025e+002
2704159.445	-1.678424e+001	8.147120e+001	-1.368366e+001	5.709140e+000	-1.361415e+001	5.988426e+000	-1.191292e+001	1.783818e+002
2728596.187	-1.656373e+001	7.274723e+001	-1.377999e+001	-9.064009e-001	-1.370851e+001	-7.000055e-001	-1.188555e+001	1.714041e+002
2753032.929	-1.632314e+001	6.435899e+001	-1.389348e+001	-7.391142e+000	-1.382482e+001	-7.267550e+000	-1.186804e+001	1.644905e+002
2777469.671	-1.606650e+001	5.635017e+001	-1.402714e+001	-1.376399e+001	-1.395892e+001	-1.367972e+001	-1.186297e+001	1.576727e+002
2801906.412	-1.580339e+001	4.866682e+001	-1.417127e+001	-1.998122e+001	-1.410469e+001	-1.995410e+001	-1.186667e+001	1.509905e+002
2826343.154	-1.553941e+001	4.134269e+001	-1.433013e+001	-2.605703e+001	-1.426892e+001	-2.606974e+001	-1.188209e+001	1.444296e+002
2850779.896	-1.527912e+001	3.436012e+001	-1.449902e+001	-3.197053e+001	-1.444193e+001	-3.202676e+001	-1.190518e+001	1.380231e+002
2875216.638	-1.502550e+001	2.766852e+001	-1.467484e+001	-3.777058e+001	-1.462474e+001	-3.782749e+001	-1.193914e+001	1.317542e+002
2899653.380	-1.478344e+001	2.128521e+001	-1.485690e+001	-4.338200e+001	-1.481086e+001	-4.347469e+001	-1.197996e+001	1.256720e+002
2924090.121	-1.454801e+001	1.516689e+001	-1.504036e+001	-4.883673e+001	-1.500090e+001	-4.897126e+001	-1.202827e+001	1.197643e+002
2948526.863	-1.432304e+001	9.306152e+000	-1.522628e+001	-5.415568e+001	-1.519464e+001	-5.432084e+001	-1.207977e+001	1.140309e+002
2972963.605	-1.410945e+001	3.675066e+000	-1.541067e+001	-5.931305e+001	-1.538535e+001	-5.950608e+001	-1.213674e+001	1.084365e+002
2997400.347	-1.390599e+001	-1.740534e+000	-1.559256e+001	-6.436276e+001	-1.557478e+001	-6.455537e+001	-1.219742e+001	1.030087e+002
3021837.088	-1.371166e+001	-6.966062e+000	-1.576800e+001	-6.925194e+001	-1.575773e+001	-6.946314e+001	-1.225982e+001	9.774151e+001
3046273.830	-1.352853e+001	-1.201440e+001	-1.593795e+001	-7.402511e+001	-1.593290e+001	-7.423564e+001	-1.232605e+001	9.259846e+001
3070710.572	-1.335736e+001	-1.690924e+001	-1.609540e+001	-7.870909e+001	-1.609807e+001	-7.891556e+001	-1.239739e+001	8.760224e+001
3095147.314	-1.319557e+001	-2.164350e+001	-1.624559e+001	-8.330389e+001	-1.625338e+001	-8.351181e+001	-1.247076e+001	8.274314e+001
3119584.055	-1.304033e+001	-2.622466e+001	-1.639009e+001	-8.779721e+001	-1.640269e+001	-8.799700e+001	-1.254556e+001	7.803123e+001
3144020.797	-1.289643e+001	-3.068284e+001	-1.652138e+001	-9.219325e+001	-1.653946e+001	-9.241317e+001	-1.262050e+001	7.345456e+001
3168457.539	-1.275987e+001	-3.502436e+001	-1.664350e+001	-9.652909e+001	-1.666781e+001	-9.675321e+001	-1.269714e+001	6.898517e+001
3192894.281	-1.263257e+001	-3.926907e+001	-1.675317e+001	-1.008152e+002	-1.678220e+001	-1.010248e+002	-1.277726e+001	6.461716e+001
3217331.023	-1.251437e+001	-4.340583e+001	-1.685388e+001	-1.050746e+002	-1.688819e+001	-1.052462e+002	-1.286017e+001	6.037379e+001
3241767.764	-1.240380e+001	-4.743217e+001	-1.694731e+001	-1.092885e+002	-1.698473e+001	-1.094618e+002	-1.294435e+001	5.625058e+001
3266204.506	-1.229685e+001	-5.135182e+001	-1.703508e+001	-1.134413e+002	-1.707837e+001	-1.135933e+002	-1.302560e+001	5.225621e+001
3290641.248	-1.219232e+001	-5.521211e+001	-1.711400e+001	-1.174792e+002	-1.716235e+001	-1.176192e+002	-1.310138e+001	4.831626e+001
3315077.990	-1.209559e+001	-5.904381e+001	-1.716633e+001	-1.214610e+002	-1.721869e+001	-1.215619e+002	-1.317832e+001	4.439103e+001
3339514.731	-1.201046e+001	-6.282792e+001	-1.719707e+001	-1.254611e+002	-1.725425e+001	-1.255459e+002	-1.326699e+001	4.053573e+001
3363951.473	-1.193735e+001	-6.654846e+001	-1.721400e+001	-1.295343e+002	-1.727709e+001	-1.295537e+002	-1.336360e+001	3.676487e+001
3388388.215	-1.187338e+001	-7.019050e+001	-1.722412e+001	-1.336018e+002	-1.728761e+001	-1.335965e+002	-1.346681e+001	3.308974e+001
3412824.957	-1.181931e+001	-7.376083e+001	-1.722462e+001	-1.376833e+002	-1.729051e+001	-1.376701e+002	-1.357632e+001	2.953051e+001
3437261.698	-1.177518e+001	-7.727070e+001	-1.721160e+001	-1.418117e+002	-1.728238e+001	-1.417532e+002	-1.369053e+001	2.603300e+001
3461698.440	-1.174051e+001	-8.070242e+001	-1.719630e+001	-1.459613e+002	-1.726508e+001	-1.458627e+002	-1.381272e+001	2.265716e+001
3486135.182	-1.171915e+001	-8.407116e+001	-1.716203e+001	-1.501740e+002	-1.723879e+001	-1.500085e+002	-1.393997e+001	1.937547e+001
3510571.924	-1.170609e+001	-8.736107e+001	-1.712764e+001	-1.544037e+002	-1.720271e+001	-1.542246e+002	-1.407666e+001	1.622775e+001
3535008.666	-1.170258e+001	-9.054670e+001	-1.708711e+001	-1.586958e+002	-1.716280e+001	-1.584824e+002	-1.421539e+001	1.321009e+001
3559445.407	-1.170566e+001	-9.363948e+001	-1.704145e+001	-1.630049e+002	-1.711660e+001	-1.627656e+002	-1.435572e+001	1.032886e+001
3583882.149	-1.171647e+001	-9.664052e+001	-1.698353e+001	-1.673684e+002	-1.706006e+001	-1.670819e+002	-1.449812e+001	7.554236e+000
3608318.891	-1.173203e+001	-9.955343e+001	-1.692076e+001	-1.717737e+002	-1.699664e+001	-1.714610e+002	-1.464351e+001	4.882356e+000
3632755.633	-1.175255e+001	-1.023812e+002	-1.685138e+001	-1.763166e+002	-1.692792e+001	-1.759421e+002	-1.479505e+001	2.342968e+000
3657192.374	-1.177870e+001	-1.051232e+002	-1.677233e+001	1.791196e+002	-1.684766e+001	1.795445e+002	-1.494518e+001	-7.688826e-002
3681629.116	-1.180860e+001	-1.077728e+002	-1.668877e+001	1.744590e+002	-1.676623e+001	1.749110e+002	-1.509955e+001	-2.300053e+000
3706065.858	-1.184652e+001	-1.103388e+002	-1.660219e+001	1.696780e+002	-1.668085e+001	1.701275e+002	-1.525946e+001	-4.347328e+000
3730502.600	-1.189099e+001	-1.127883e+002	-1.651833e+001	1.647374e+002	-1.659184e+001	1.652594e+002	-1.541448e+001	-6.228702e+000
3754939.341	-1.193883e+001	-1.151101e+002	-1.644287e+001	1.597236e+002	-1.651372e+001	1.602387e+002	-1.555865e+001	-7.847917e+000
3779376.083	-1.199200e+001	-1.172898e+002	-1.636791e+001	1.545753e+002	-1.644155e+001	1.551233e+002	-1.569216e+001	-9.270674e+000
3803812.825	-1.204723e+001	-1.193266e+002	-1.630468e+001	1.493112e+002	-1.636904e+001	1.498686e+002	-1.581413e+001	-1.047684e+001
3828249.567	-1.210535e+001	-1.211672e+002	-1.624374e+001	1.438931e+002	-1.631077e+001	1.444652e+002	-1.591452e+001	-1.144202e+001
3852686.308	-1.215029e+001	-1.227632e+002	-1.620859e+001	1.383111e+002	-1.627242e+001	1.389070e+002	-1.598105e+001	-1.211936e+001
3877123.050	-1.217765e+001	-1.241784e+002	-1.618931e+001	1.326513e+002	-1.625324e+001	1.332131e+002	-1.600303e+001	-1.258300e+001
3901559.792	-1.217759e+001	-1.253860e+002	-1.619918e+001	1.268499e+002	-1.626182e+001	1.274322e+002	-1.596796e+001	-1.287610e+001
3925996.534	-1.214417e+001	-1.264407e+002	-1.623060e+001	1.209556e+002	-1.629744e+001	1.215377e+002	-1.587252e+001	-1.310753e+001
3950433.276	-1.206754e+001	-1.273798e+002	-1.629955e+001	1.149529e+002	-1.637094e+001	1.155581e+002	-1.570274e+001	-1.334795e+001
3974870.017	-1.194125e+001	-1.283033e+002	-1.640545e+001	1.089183e+002	-1.647742e+001	1.095571e+002	-1.547372e+001	-1.375414e+001
3999306.759	-1.176089e+001	-1.292730e+002	-1.655425e+001	1.028433e+002	-1.662649e+001	1.035115e+002	-1.517954e+001	-1.440331e+001
4023743.501	-1.153295e+001	-1.304094e+002	-1.674730e+001	9.679037e+001	-1.682256e+001	9.746392e+001	-1.483772e+001	-1.536772e+001
4048180.243	-1.126498e+001	-1.317715e+002	-1.698900e+001	9.077768e+001	-1.706269e+001	9.150954e+001	-1.446378e+001	-1.672518e+001
4072616.984	-1.096523e+001	-1.334399e+002	-1.728176e+001	8.487512e+001	-1.735582e+001	8.564449e+001	-1.407138e+001	-1.848898e+001
4097053.726	-1.064717e+001	-1.354308e+002	-1.762839e+001	7.909714e+001	-1.770388e+001	7.993058e+001	-1.366900e+001	-2.066524e+001
4121490.468	-1.032110e+001	-1.377958e+002	-1.803571e+001	7.358971e+001	-1.810357e+001	7.444685e+001	-1.327521e+001	-2.321366e+001
4145927.210	-9.999092e+000	-1.404971e+002	-1.849677e+001	6.838415e+001	-1.856364e+001	6.929849e+001	-1.289684e+001	-2.613717e+001
4170363.951	-9.694765e+000	-1.435463e+002	-1.901886e+001	6.371648e+001	-1.908460e+001	6.455008e+001	-1.253822e+001	-2.934775e+001
4194800.693	-9.413406e+000	-1.469058e+002	-1.959032e+001	5.959131e+001	-1.964820e+001	6.053215e+001	-1.221891e+001	-3.289595e+001
4219237.435	-9.174482e+000	-1.505145e+002	-2.016373e+001	5.629123e+001	-2.021877e+001	5.724582e+001	-1.194222e+001	-3.662907e+001
4243674.177	-8.977589e+000	-1.542673e+002	-2.071417e+001	5.368716e+001	-2.076934e+001	5.468972e+001	-1.170724e+001	-4.045504e+001
4268110.919	-8.816255e+000	-1.580918e+002	-2.122802e+001	5.170128e+001	-2.126662e+001	5.276271e+001	-1.150990e+001	-4.432182e+001
4292547.660	-8.689217e+000	-1.619799e+002	-2.168139e+001	5.029377e+001	-2.171871e+001	5.139727e+001	-1.133855e+001	-4.820761e+001
4316984.402	-8.595600e+000	-1.659268e+002	-2.205250e+001	4.953216e+001	-2.208125e+001	5.062905e+001	-1.119682e+001	-5.210605e+001
4341421.144	-8.538278e+000	-1.698595e+002	-2.229738e+001	4.913197e+001	-2.232325e+001	5.029806e+001	-1.108617e+001	-5.598796e+001
4365857.886	-8.512050e+000	-1.737380e+002	-2.240631e+001	4.868576e+001	-2.241470e+001	4.982083e+001	-1.100022e+001	-5.975363e+001
4390294.627	-8.500819e+000	-1.774804e+002	-2.243941e+001	4.761575e+001	-2.244021e+001	4.870713e+001	-1.092177e+001	-6.336064e+001
4414731.369	-8.485869e+000	1.788282e+002	-2.249813e+001	4.601677e+001	-2.250191e+001	4.712210e+001	-1.082724e+001	-6.685969e+001
4439168.111	-8.457809e+000	1.750591e+002	-2.266670e+001	4.438343e+001	-2.265361e+001	4.574014e+001	-1.071061e+001	-7.045567e+001
4463604.853	-8.430454e+000	1.709831e+002	-2.291291e+001	4.411396e+001	-2.285967e+001	4.544947e+001	-1.057651e+001	-7.426898e+001
4488041.594	-8.441544e+000	1.665388e+002	-2.303412e+001	4.567434e+001	-2.295959e+001	4.679240e+001	-1.045180e+001	-7.843446e+001
4512478.336	-8.526372e+000	1.618407e+002	-2.278762e+001	4.836685e+001	-2.272408e+001	4.917851e+001	-1.037208e+001	-8.293316e+001
4536915.078	-8.710074e+000	1.571942e+002	-2.209244e+001	4.982984e+001	-2.206166e+001	5.059110e+001	-1.037166e+001	-8.754016e+001
4561351.820	-8.956930e+000	1.528885e+002	-2.125745e+001	4.876014e+001	-2.124747e+001	4.968133e+001	-1.042966e+001	-9.195519e+001
4585788.562	-9.229114e+000	1.489100e+002	-2.050776e+001	4.592206e+001	-2.048966e+001	4.696784e+001	-1.051417e+001	-9.610252e+001
4610225.303	-9.514634e+000	1.451148e+002	-1.986375e+001	4.233338e+001	-1.983163e+001	4.336073e+001	-1.060355e+001	-1.000959e+002
4634662.045	-9.816117e+000	1.415103e+002	-1.929972e+001	3.812625e+001	-1.926034e+001	3.915487e+001	-1.070106e+001	-1.039586e+002
4659098.787	-1.012050e+001	1.380640e+002	-1.882929e+001	3.355771e+001	-1.879149e+001	3.458355e+001	-1.079014e+001	-1.076911e+002
4683535.529	-1.041270e+001	1.346418e+002	-1.847323e+001	2.900633e+001	-1.843237e+001	3.005107e+001	-1.085691e+001	-1.113856e+002
4707972.270	-1.069712e+001	1.309089e+002	-1.820010e+001	2.523750e+001	-1.813138e+001	2.610406e+001	-1.089402e+001	-1.152699e+002
4732409.012	-1.104869e+001	1.267917e+002	-1.784631e+001	2.207364e+001	-1.777032e+001	2.285333e+001	-1.093367e+001	-1.196332e+002
4756845.754	-1.152426e+001	1.225870e+002	-1.733356e+001	1.884441e+001	-1.725184e+001	1.954992e+001	-1.104174e+001	-1.244126e+002
4781282.496	-1.212386e+001	1.187875e+002	-1.672398e+001	1.469488e+001	-1.664021e+001	1.527196e+001	-1.124170e+001	-1.292363e+002
4805719.237	-1.279985e+001	1.157231e+002	-1.613148e+001	9.495175e+000	-1.605282e+001	1.001893e+001	-1.151481e+001	-1.338237e+002
4830155.979	-1.350607e+001	1.133724e+002	-1.561815e+001	3.679188e+000	-1.554444e+001	4.149038e+000	-1.182587e+001	-1.381072e+002
4854592.721	-1.421513e+001	1.116090e+002	-1.518142e+001	-2.438204e+000	-1.511033e+001	-2.004500e+000	-1.216205e+001	-1.421481e+002
4879029.463	-1.492233e+001	1.103690e+002	-1.480758e+001	-8.659209e+000	-1.473744e+001	-8.263461e+000	-1.251354e+001	-1.460128e+002
4903466.205	-1.563005e+001	1.096235e+002	-1.447945e+001	-1.492345e+001	-1.441221e+001	-1.456982e+001	-1.288423e+001	-1.497413e+002
4927902.946	-1.633368e+001	1.094460e+002	-1.418141e+001	-2.123842e+001	-1.411996e+001	-2.091861e+001	-1.327862e+001	-1.533160e+002
4952339.688	-1.700167e+001	1.098545e+002	-1.391708e+001	-2.766511e+001	-1.385425e+001	-2.728975e+001	-1.369908e+001	-1.567693e+002
4976776.430	-1.762082e+001	1.108366e+002	-1.368623e+001	-3.411186e+001	-1.362395e+001	-3.374905e+001	-1.414712e+001	-1.599140e+002
5001213.172	-1.816499e+001	1.122207e+002	-1.348739e+001	-4.060994e+001	-1.342668e+001	-4.028725e+001	-1.460593e+001	-1.627538e+002
5025649.913	-1.863553e+001	1.138493e+002	-1.332011e+001	-4.711435e+001	-1.326617e+001	-4.681969e+001	-1.506899e+001	-1.652992e+002
5050086.655	-1.902237e+001	1.155609e+002	-1.318379e+001	-5.362361e+001	-1.313503e+001	-5.334283e+001	-1.552670e+001	-1.675606e+002
5074523.397	-1.934580e+001	1.172043e+002	-1.307319e+001	-6.009216e+001	-1.303253e+001	-5.981498e+001	-1.597392e+001	-1.695641e+002
5098960.139	-1.962373e+001	1.187208e+002	-1.298866e+001	-6.650925e+001	-1.295047e+001	-6.624187e+001	-1.641171e+001	-1.713389e+002
5123396.880	-1.987799e+001	1.200922e+002	-1.292372e+001	-7.287764e+001	-1.288920e+001	-7.261041e+001	-1.682718e+001	-1.728845e+002
5147833.622	-2.011318e+001	1.213683e+002	-1.287536e+001	-7.920499e+001	-1.284623e+001	-7.892699e+001	-1.722055e+001	-1.742369e+002
5172270.364	-2.034425e+001	1.225543e+002	-1.284247e+001	-8.546407e+001	-1.281620e+001	-8.518060e+001	-1.758520e+001	-1.754229e+002
5196707.106	-2.057080e+001	1.237226e+002	-1.282467e+001	-9.168647e+001	-1.279856e+001	-9.139240e+001	-1.792150e+001	-1.764602e+002
5221143.847	-2.079922e+001	1.249631e+002	-1.281741e+001	-9.781800e+001	-1.279143e+001	-9.753924e+001	-1.822576e+001	-1.773842e+002
5245580.589	-2.102529e+001	1.262445e+002	-1.282000e+001	-1.039483e+002	-1.279665e+001	-1.036676e+002	-1.848592e+001	-1.782267e+002
5270017.331	-2.124360e+001	1.276225e+002	-1.283110e+001	-1.100473e+002	-1.280882e+001	-1.097647e+002	-1.870616e+001	-1.790342e+002
5294454.073	-2.145809e+001	1.291012e+002	-1.285073e+001	-1.161193e+002	-1.282807e+001	-1.158203e+002	-1.888878e+001	-1.798438e+002
5318890.815	-2.165289e+001	1.307292e+002	-1.287517e+001	-1.221717e+002	-1.285611e+001	-1.218633e+002	-1.902130e+001	1.792814e+002
5343327.556	-2.183054e+001	1.324189e+002	-1.290717e+001	-1.282162e+002	-1.288639e+001	-1.279113e+002	-1.911163e+001	1.783734e+002
5367764.298	-2.199160e+001	1.341198e+002	-1.294503e+001	-1.342709e+002	-1.292769e+001	-1.339633e+002	-1.915076e+001	1.772970e+002
5392201.040	-2.214921e+001	1.358579e+002	-1.299404e+001	-1.403380e+002	-1.297609e+001	-1.400308e+002	-1.914242e+001	1.760064e+002
5416637.782	-2.230826e+001	1.376608e+002	-1.305146e+001	-1.464128e+002	-1.303438e+001	-1.460937e+002	-1.909217e+001	1.744007e+002
5441074.523	-2.248060e+001	1.395626e+002	-1.312220e+001	-1.524924e+002	-1.310598e+001	-1.521720e+002	-1.900729e+001	1.724225e+002
