!Agilent Technologies,E5061B,MY49101568,A.02.00
!Date: Wed Mar 01 14:25:34 2023
!Data & Calibration Information:
!Freq	S11:SOLT2(OFF)	S21:SOLT2(OFF)	S12:SOLT2(OFF)	S22:SOLT2(OFF)
# Hz S dB R 50
1800000.000	-1.105503e+001	2.881613e+001	-1.152272e+001	1.387820e+002	-1.147260e+001	1.388411e+002	-1.090262e+001	7.312802e+001
1824436.742	-1.094562e+001	2.444336e+001	-1.172023e+001	1.340274e+002	-1.168041e+001	1.340651e+002	-1.086288e+001	6.843623e+001
1848873.484	-1.087464e+001	2.011134e+001	-1.189553e+001	1.295079e+002	-1.186186e+001	1.294677e+002	-1.085400e+001	6.392815e+001
1873310.225	-1.081256e+001	1.586647e+001	-1.204974e+001	1.250319e+002	-1.202139e+001	1.250177e+002	-1.086303e+001	5.953462e+001
1897746.967	-1.076938e+001	1.166695e+001	-1.217734e+001	1.207247e+002	-1.215231e+001	1.206905e+002	-1.089397e+001	5.525663e+001
1922183.709	-1.073614e+001	7.434963e+000	-1.229122e+001	1.164283e+002	-1.226681e+001	1.163916e+002	-1.093159e+001	5.098417e+001
1946620.451	-1.071524e+001	3.196648e+000	-1.238770e+001	1.122042e+002	-1.236871e+001	1.121479e+002	-1.097654e+001	4.669478e+001
1971057.192	-1.071739e+001	-1.088820e+000	-1.247182e+001	1.081244e+002	-1.245447e+001	1.080524e+002	-1.104911e+001	4.243471e+001
1995493.934	-1.073315e+001	-5.366789e+000	-1.253967e+001	1.040900e+002	-1.253019e+001	1.040238e+002	-1.113317e+001	3.816715e+001
2019930.676	-1.076830e+001	-9.592495e+000	-1.257678e+001	1.002152e+002	-1.258574e+001	1.002430e+002	-1.124801e+001	3.389793e+001
2044367.418	-1.080959e+001	-1.381990e+001	-1.258906e+001	9.635592e+001	-1.258474e+001	9.641214e+001	-1.136387e+001	2.976051e+001
2068804.159	-1.085444e+001	-1.795587e+001	-1.256507e+001	9.247469e+001	-1.256969e+001	9.248262e+001	-1.147135e+001	2.562170e+001
2093240.901	-1.089275e+001	-2.221240e+001	-1.254074e+001	8.852120e+001	-1.254085e+001	8.855939e+001	-1.158863e+001	2.146902e+001
2117677.643	-1.095121e+001	-2.653325e+001	-1.249871e+001	8.459451e+001	-1.250029e+001	8.459231e+001	-1.170646e+001	1.722789e+001
2142114.385	-1.102436e+001	-3.086667e+001	-1.243624e+001	8.069578e+001	-1.243040e+001	8.067166e+001	-1.183763e+001	1.297462e+001
2166551.127	-1.109706e+001	-3.530766e+001	-1.236798e+001	7.668165e+001	-1.236321e+001	7.659787e+001	-1.196363e+001	8.546898e+000
2190987.868	-1.118980e+001	-3.981319e+001	-1.228182e+001	7.270438e+001	-1.229237e+001	7.258219e+001	-1.211423e+001	3.978935e+000
2215424.610	-1.129611e+001	-4.439462e+001	-1.218285e+001	6.861265e+001	-1.221090e+001	6.863873e+001	-1.228501e+001	-7.133419e-001
2239861.352	-1.142652e+001	-4.909405e+001	-1.207556e+001	6.456962e+001	-1.210432e+001	6.463024e+001	-1.247473e+001	-5.459893e+000
2264298.094	-1.159883e+001	-5.381591e+001	-1.194750e+001	6.060330e+001	-1.197589e+001	6.064771e+001	-1.268992e+001	-1.027403e+001
2288734.835	-1.178728e+001	-5.846085e+001	-1.178913e+001	5.652128e+001	-1.181856e+001	5.660919e+001	-1.292925e+001	-1.510763e+001
2313171.577	-1.198974e+001	-6.310661e+001	-1.160814e+001	5.230071e+001	-1.164433e+001	5.242974e+001	-1.318719e+001	-2.002379e+001
2337608.319	-1.220348e+001	-6.788001e+001	-1.142711e+001	4.790619e+001	-1.146330e+001	4.809817e+001	-1.345468e+001	-2.505264e+001
2362045.061	-1.244696e+001	-7.266419e+001	-1.123336e+001	4.345756e+001	-1.127068e+001	4.367084e+001	-1.375687e+001	-3.015441e+001
2386481.802	-1.273722e+001	-7.743258e+001	-1.102224e+001	3.894039e+001	-1.106103e+001	3.914235e+001	-1.409366e+001	-3.534126e+001
2410918.544	-1.303831e+001	-8.222008e+001	-1.080498e+001	3.418550e+001	-1.083551e+001	3.441644e+001	-1.445122e+001	-4.053818e+001
2435355.286	-1.333753e+001	-8.705983e+001	-1.058402e+001	2.913323e+001	-1.061348e+001	2.941491e+001	-1.482294e+001	-4.581928e+001
2459792.028	-1.368535e+001	-9.208666e+001	-1.037982e+001	2.398781e+001	-1.040868e+001	2.423230e+001	-1.521035e+001	-5.130938e+001
2484228.769	-1.406673e+001	-9.724339e+001	-1.018585e+001	1.863685e+001	-1.022179e+001	1.897595e+001	-1.564278e+001	-5.708006e+001
2508665.511	-1.449801e+001	-1.025424e+002	-1.000917e+001	1.319866e+001	-1.003916e+001	1.356480e+001	-1.612144e+001	-6.291301e+001
2533102.253	-1.500406e+001	-1.079500e+002	-9.845923e+000	7.704237e+000	-9.880331e+000	7.999572e+000	-1.663394e+001	-6.891718e+001
2557538.995	-1.558090e+001	-1.135919e+002	-9.711222e+000	2.072990e+000	-9.738902e+000	2.408357e+000	-1.720830e+001	-7.518189e+001
2581975.737	-1.625564e+001	-1.192384e+002	-9.593364e+000	-3.595284e+000	-9.617998e+000	-3.225345e+000	-1.785158e+001	-8.168174e+001
2606412.478	-1.705573e+001	-1.248042e+002	-9.490019e+000	-9.246553e+000	-9.511455e+000	-8.888195e+000	-1.857777e+001	-8.833412e+001
2630849.220	-1.796889e+001	-1.302500e+002	-9.403110e+000	-1.494152e+001	-9.421066e+000	-1.456329e+001	-1.939993e+001	-9.519343e+001
2655285.962	-1.903468e+001	-1.355431e+002	-9.335623e+000	-2.063014e+001	-9.345952e+000	-2.024160e+001	-2.032837e+001	-1.021656e+002
2679722.704	-2.025182e+001	-1.402458e+002	-9.268985e+000	-2.630252e+001	-9.278505e+000	-2.592796e+001	-2.139534e+001	-1.091504e+002
2704159.445	-2.162127e+001	-1.446310e+002	-9.219513e+000	-3.204193e+001	-9.232419e+000	-3.166142e+001	-2.255369e+001	-1.160872e+002
2728596.187	-2.321054e+001	-1.486214e+002	-9.195487e+000	-3.781384e+001	-9.193036e+000	-3.743626e+001	-2.386301e+001	-1.226340e+002
2753032.929	-2.510822e+001	-1.517815e+002	-9.184962e+000	-4.355220e+001	-9.186528e+000	-4.317823e+001	-2.527552e+001	-1.296230e+002
2777469.671	-2.742624e+001	-1.532937e+002	-9.190340e+000	-4.922379e+001	-9.192506e+000	-4.888172e+001	-2.684455e+001	-1.364208e+002
2801906.412	-3.040952e+001	-1.518461e+002	-9.217773e+000	-5.484763e+001	-9.212878e+000	-5.451783e+001	-2.865091e+001	-1.433020e+002
2826343.154	-3.427401e+001	-1.424337e+002	-9.254624e+000	-6.038864e+001	-9.249779e+000	-6.006813e+001	-3.069210e+001	-1.506664e+002
2850779.896	-3.826070e+001	-1.109647e+002	-9.304926e+000	-6.585002e+001	-9.299225e+000	-6.555371e+001	-3.309372e+001	-1.582789e+002
2875216.638	-3.686195e+001	-6.652370e+001	-9.361767e+000	-7.123090e+001	-9.354978e+000	-7.091191e+001	-3.604448e+001	-1.673639e+002
2899653.380	-3.304453e+001	-4.882862e+001	-9.418416e+000	-7.648738e+001	-9.413369e+000	-7.615283e+001	-4.023845e+001	-1.798768e+002
2924090.121	-3.012882e+001	-4.443564e+001	-9.474131e+000	-8.164927e+001	-9.470006e+000	-8.135216e+001	-4.700542e+001	1.595366e+002
2948526.863	-2.801952e+001	-4.455978e+001	-9.531385e+000	-8.674689e+001	-9.526206e+000	-8.646924e+001	-5.361096e+001	6.221700e+001
2972963.605	-2.646689e+001	-4.650084e+001	-9.585192e+000	-9.180216e+001	-9.583104e+000	-9.152270e+001	-4.504764e+001	9.362563e+000
2997400.347	-2.525268e+001	-4.948462e+001	-9.634872e+000	-9.678743e+001	-9.635395e+000	-9.651795e+001	-4.061706e+001	-6.901627e+000
3021837.088	-2.429518e+001	-5.287096e+001	-9.679886e+000	-1.017176e+002	-9.684186e+000	-1.014585e+002	-3.795813e+001	-1.846066e+001
3046273.830	-2.352260e+001	-5.649244e+001	-9.722989e+000	-1.065920e+002	-9.727779e+000	-1.063523e+002	-3.606647e+001	-2.853121e+001
3070710.572	-2.292722e+001	-6.041105e+001	-9.753387e+000	-1.114497e+002	-9.756414e+000	-1.111866e+002	-3.447517e+001	-3.842215e+001
3095147.314	-2.249080e+001	-6.455300e+001	-9.767345e+000	-1.163390e+002	-9.774650e+000	-1.160586e+002	-3.320872e+001	-4.935873e+001
3119584.055	-2.217749e+001	-6.873387e+001	-9.772404e+000	-1.212297e+002	-9.782339e+000	-1.209681e+002	-3.210284e+001	-6.112854e+001
3144020.797	-2.202263e+001	-7.276586e+001	-9.775493e+000	-1.262153e+002	-9.782684e+000	-1.259678e+002	-3.114454e+001	-7.382174e+001
3168457.539	-2.198904e+001	-7.657249e+001	-9.776755e+000	-1.312952e+002	-9.783315e+000	-1.310264e+002	-3.026961e+001	-8.692911e+001
3192894.281	-2.207027e+001	-8.001739e+001	-9.784955e+000	-1.364554e+002	-9.788849e+000	-1.361728e+002	-2.943310e+001	-1.003469e+002
3217331.023	-2.225780e+001	-8.296280e+001	-9.798531e+000	-1.416823e+002	-9.800508e+000	-1.414109e+002	-2.859397e+001	-1.140121e+002
3241767.764	-2.254597e+001	-8.520140e+001	-9.827210e+000	-1.469846e+002	-9.827692e+000	-1.467017e+002	-2.780153e+001	-1.276779e+002
3266204.506	-2.286160e+001	-8.664749e+001	-9.872781e+000	-1.522359e+002	-9.872235e+000	-1.519721e+002	-2.706373e+001	-1.406372e+002
3290641.248	-2.318629e+001	-8.757872e+001	-9.921093e+000	-1.574056e+002	-9.915524e+000	-1.571541e+002	-2.631822e+001	-1.520763e+002
3315077.990	-2.363228e+001	-8.826104e+001	-9.946725e+000	-1.626301e+002	-9.943042e+000	-1.623904e+002	-2.538839e+001	-1.624750e+002
3339514.731	-2.422280e+001	-8.751158e+001	-9.979523e+000	-1.680698e+002	-9.973564e+000	-1.678306e+002	-2.433794e+001	-1.730536e+002
3363951.473	-2.482034e+001	-8.446200e+001	-1.003720e+001	-1.736435e+002	-1.003021e+001	-1.734276e+002	-2.330976e+001	1.761788e+002
3388388.215	-2.522941e+001	-7.906659e+001	-1.012626e+001	-1.792558e+002	-1.011809e+001	-1.790559e+002	-2.236516e+001	1.656412e+002
3412824.957	-2.527595e+001	-7.208213e+001	-1.024294e+001	1.751164e+002	-1.023358e+001	1.753008e+002	-2.148603e+001	1.554978e+002
3437261.698	-2.484528e+001	-6.486334e+001	-1.038864e+001	1.695393e+002	-1.038005e+001	1.696858e+002	-2.067628e+001	1.456711e+002
3461698.440	-2.402103e+001	-5.882757e+001	-1.056382e+001	1.640016e+002	-1.055707e+001	1.641320e+002	-1.994649e+001	1.362446e+002
3486135.182	-2.295483e+001	-5.499921e+001	-1.076647e+001	1.586006e+002	-1.076280e+001	1.586879e+002	-1.928572e+001	1.271961e+002
3510571.924	-2.182269e+001	-5.330837e+001	-1.099676e+001	1.533429e+002	-1.099515e+001	1.534045e+002	-1.870334e+001	1.185171e+002
3535008.666	-2.073003e+001	-5.324748e+001	-1.124312e+001	1.482678e+002	-1.124813e+001	1.483128e+002	-1.819612e+001	1.102320e+002
3559445.407	-1.973684e+001	-5.447830e+001	-1.150057e+001	1.434270e+002	-1.150876e+001	1.434548e+002	-1.775471e+001	1.024550e+002
3583882.149	-1.884549e+001	-5.641845e+001	-1.175858e+001	1.387578e+002	-1.177449e+001	1.387824e+002	-1.736140e+001	9.511297e+001
3608318.891	-1.803413e+001	-5.880755e+001	-1.201997e+001	1.342395e+002	-1.203909e+001	1.342654e+002	-1.699991e+001	8.817011e+001
3632755.633	-1.729514e+001	-6.155143e+001	-1.228178e+001	1.298132e+002	-1.230904e+001	1.298600e+002	-1.665976e+001	8.148158e+001
3657192.374	-1.662258e+001	-6.453015e+001	-1.254357e+001	1.255366e+002	-1.257845e+001	1.256050e+002	-1.635082e+001	7.509230e+001
3681629.116	-1.598812e+001	-6.778721e+001	-1.282054e+001	1.213913e+002	-1.285790e+001	1.214726e+002	-1.606199e+001	6.883941e+001
3706065.858	-1.540908e+001	-7.130154e+001	-1.310743e+001	1.174483e+002	-1.315080e+001	1.175193e+002	-1.580218e+001	6.264980e+001
3730502.600	-1.487317e+001	-7.510592e+001	-1.341418e+001	1.137510e+002	-1.346201e+001	1.138756e+002	-1.559243e+001	5.646921e+001
3754939.341	-1.440554e+001	-7.919427e+001	-1.372607e+001	1.104759e+002	-1.377901e+001	1.106189e+002	-1.543931e+001	5.033235e+001
3779376.083	-1.402284e+001	-8.348536e+001	-1.401399e+001	1.077196e+002	-1.407146e+001	1.078760e+002	-1.536833e+001	4.437249e+001
3803812.825	-1.374122e+001	-8.787733e+001	-1.424161e+001	1.055372e+002	-1.430757e+001	1.057304e+002	-1.539625e+001	3.868061e+001
3828249.567	-1.356744e+001	-9.209245e+001	-1.436012e+001	1.037017e+002	-1.441063e+001	1.039428e+002	-1.552599e+001	3.378500e+001
3852686.308	-1.351173e+001	-9.565146e+001	-1.430066e+001	1.017398e+002	-1.436056e+001	1.020080e+002	-1.570383e+001	2.998763e+001
3877123.050	-1.348292e+001	-9.825832e+001	-1.413696e+001	9.892957e+001	-1.419246e+001	9.918892e+001	-1.580966e+001	2.753940e+001
3901559.792	-1.336973e+001	-9.999816e+001	-1.397876e+001	9.497485e+001	-1.403539e+001	9.520735e+001	-1.571011e+001	2.577550e+001
3925996.534	-1.311056e+001	-1.016031e+002	-1.393279e+001	9.031162e+001	-1.399001e+001	9.047822e+001	-1.541526e+001	2.356326e+001
3950433.276	-1.277005e+001	-1.037358e+002	-1.400817e+001	8.565448e+001	-1.407917e+001	8.575404e+001	-1.505592e+001	2.034003e+001
3974870.017	-1.241374e+001	-1.065225e+002	-1.417075e+001	8.139618e+001	-1.426918e+001	8.151479e+001	-1.474071e+001	1.618912e+001
3999306.759	-1.209758e+001	-1.098354e+002	-1.437542e+001	7.773990e+001	-1.449213e+001	7.798536e+001	-1.452172e+001	1.162123e+001
4023743.501	-1.184597e+001	-1.133910e+002	-1.456272e+001	7.462181e+001	-1.468762e+001	7.512520e+001	-1.440261e+001	6.967882e+000
4048180.243	-1.167213e+001	-1.170431e+002	-1.469691e+001	7.208442e+001	-1.480447e+001	7.273327e+001	-1.437619e+001	2.584477e+000
4072616.984	-1.156516e+001	-1.205235e+002	-1.474191e+001	6.976632e+001	-1.483463e+001	7.046184e+001	-1.439767e+001	-1.375278e+000
4097053.726	-1.149896e+001	-1.236874e+002	-1.470156e+001	6.734726e+001	-1.477608e+001	6.801975e+001	-1.444089e+001	-4.812773e+000
4121490.468	-1.144201e+001	-1.265288e+002	-1.460620e+001	6.460906e+001	-1.466624e+001	6.525547e+001	-1.447761e+001	-7.848916e+000
4145927.210	-1.138436e+001	-1.290714e+002	-1.447420e+001	6.153579e+001	-1.454116e+001	6.216673e+001	-1.448138e+001	-1.062757e+001
4170363.951	-1.131244e+001	-1.314440e+002	-1.433262e+001	5.822327e+001	-1.440582e+001	5.882807e+001	-1.446444e+001	-1.318990e+001
4194800.693	-1.121355e+001	-1.337322e+002	-1.420275e+001	5.459172e+001	-1.427027e+001	5.521575e+001	-1.441465e+001	-1.563072e+001
4219237.435	-1.109698e+001	-1.359867e+002	-1.408314e+001	5.077961e+001	-1.415250e+001	5.146532e+001	-1.433918e+001	-1.810252e+001
4243674.177	-1.096207e+001	-1.382793e+002	-1.398070e+001	4.685049e+001	-1.405079e+001	4.753162e+001	-1.423152e+001	-2.057173e+001
4268110.919	-1.082118e+001	-1.406571e+002	-1.389231e+001	4.290652e+001	-1.396039e+001	4.358272e+001	-1.411690e+001	-2.314786e+001
4292547.660	-1.067343e+001	-1.430865e+002	-1.381050e+001	3.889009e+001	-1.388226e+001	3.962787e+001	-1.399692e+001	-2.581066e+001
4316984.402	-1.052703e+001	-1.455910e+002	-1.373688e+001	3.486042e+001	-1.380330e+001	3.562439e+001	-1.387570e+001	-2.848632e+001
4341421.144	-1.037715e+001	-1.481555e+002	-1.366947e+001	3.078503e+001	-1.373550e+001	3.159090e+001	-1.374932e+001	-3.122568e+001
4365857.886	-1.023122e+001	-1.508176e+002	-1.360908e+001	2.672239e+001	-1.367066e+001	2.755175e+001	-1.362510e+001	-3.401812e+001
4390294.627	-1.008810e+001	-1.535556e+002	-1.355655e+001	2.262370e+001	-1.361414e+001	2.349554e+001	-1.349931e+001	-3.688972e+001
4414731.369	-9.956433e+000	-1.563683e+002	-1.350539e+001	1.857797e+001	-1.355747e+001	1.947216e+001	-1.338245e+001	-3.980978e+001
4439168.111	-9.834422e+000	-1.592613e+002	-1.345669e+001	1.448334e+001	-1.350547e+001	1.544881e+001	-1.326963e+001	-4.280086e+001
4463604.853	-9.725159e+000	-1.621879e+002	-1.340543e+001	1.045819e+001	-1.344940e+001	1.145678e+001	-1.316966e+001	-4.579874e+001
4488041.594	-9.626928e+000	-1.651644e+002	-1.335278e+001	6.417332e+000	-1.339031e+001	7.449467e+000	-1.307531e+001	-4.880150e+001
4512478.336	-9.540197e+000	-1.681876e+002	-1.330135e+001	2.374487e+000	-1.333451e+001	3.415372e+000	-1.298531e+001	-5.185709e+001
4536915.078	-9.464862e+000	-1.712632e+002	-1.324966e+001	-1.673476e+000	-1.327907e+001	-6.079309e-001	-1.290348e+001	-5.493944e+001
4561351.820	-9.406524e+000	-1.743937e+002	-1.319895e+001	-5.687922e+000	-1.322383e+001	-4.616043e+000	-1.283255e+001	-5.806440e+001
4585788.562	-9.367818e+000	-1.775419e+002	-1.314562e+001	-9.660348e+000	-1.316293e+001	-8.577719e+000	-1.277640e+001	-6.121814e+001
4610225.303	-9.346871e+000	1.793281e+002	-1.307982e+001	-1.361972e+001	-1.309066e+001	-1.253134e+001	-1.273740e+001	-6.433442e+001
4634662.045	-9.338607e+000	1.762087e+002	-1.300626e+001	-1.762448e+001	-1.300993e+001	-1.651892e+001	-1.270807e+001	-6.743311e+001
4659098.787	-9.344839e+000	1.731014e+002	-1.292514e+001	-2.165612e+001	-1.292029e+001	-2.054718e+001	-1.268950e+001	-7.048260e+001
4683535.529	-9.363482e+000	1.700084e+002	-1.283618e+001	-2.573315e+001	-1.282721e+001	-2.462987e+001	-1.267703e+001	-7.351524e+001
4707972.270	-9.395019e+000	1.669226e+002	-1.274510e+001	-2.982322e+001	-1.272827e+001	-2.876694e+001	-1.267236e+001	-7.647864e+001
4732409.012	-9.438044e+000	1.638520e+002	-1.264782e+001	-3.400295e+001	-1.262404e+001	-3.295882e+001	-1.267517e+001	-7.942659e+001
4756845.754	-9.493102e+000	1.607864e+002	-1.254647e+001	-3.825960e+001	-1.251808e+001	-3.721996e+001	-1.268182e+001	-8.234963e+001
4781282.496	-9.559561e+000	1.577267e+002	-1.244601e+001	-4.258175e+001	-1.241120e+001	-4.156239e+001	-1.269042e+001	-8.522209e+001
4805719.237	-9.638617e+000	1.546574e+002	-1.234690e+001	-4.698475e+001	-1.230614e+001	-4.598405e+001	-1.270202e+001	-8.808207e+001
4830155.979	-9.731855e+000	1.515879e+002	-1.225217e+001	-5.144139e+001	-1.220626e+001	-5.046010e+001	-1.271453e+001	-9.093116e+001
4854592.721	-9.840179e+000	1.485081e+002	-1.216164e+001	-5.595696e+001	-1.211101e+001	-5.498976e+001	-1.272982e+001	-9.378393e+001
4879029.463	-9.965149e+000	1.454250e+002	-1.207607e+001	-6.050616e+001	-1.202049e+001	-5.957988e+001	-1.274706e+001	-9.663913e+001
4903466.205	-1.010978e+001	1.423458e+002	-1.199661e+001	-6.510491e+001	-1.193722e+001	-6.420189e+001	-1.276934e+001	-9.949539e+001
4927902.946	-1.027466e+001	1.392914e+002	-1.192098e+001	-6.971624e+001	-1.185726e+001	-6.885208e+001	-1.279751e+001	-1.023402e+002
4952339.688	-1.045886e+001	1.362490e+002	-1.185128e+001	-7.440346e+001	-1.178343e+001	-7.353125e+001	-1.282916e+001	-1.052173e+002
4976776.430	-1.066351e+001	1.332596e+002	-1.178518e+001	-7.908835e+001	-1.171392e+001	-7.825239e+001	-1.286408e+001	-1.080662e+002
5001213.172	-1.089043e+001	1.303155e+002	-1.172342e+001	-8.379703e+001	-1.164826e+001	-8.298442e+001	-1.290629e+001	-1.109009e+002
5025649.913	-1.113809e+001	1.274397e+002	-1.166483e+001	-8.852413e+001	-1.158824e+001	-8.775606e+001	-1.295090e+001	-1.137329e+002
5050086.655	-1.140739e+001	1.246077e+002	-1.161513e+001	-9.327797e+001	-1.153541e+001	-9.254781e+001	-1.299997e+001	-1.165667e+002
5074523.397	-1.169983e+001	1.218587e+002	-1.156799e+001	-9.805646e+001	-1.148687e+001	-9.736876e+001	-1.304963e+001	-1.193969e+002
5098960.139	-1.201207e+001	1.191871e+002	-1.152508e+001	-1.028619e+002	-1.144512e+001	-1.022115e+002	-1.310272e+001	-1.222449e+002
5123396.880	-1.234893e+001	1.166019e+002	-1.149233e+001	-1.076771e+002	-1.141071e+001	-1.070723e+002	-1.315942e+001	-1.250955e+002
5147833.622	-1.271075e+001	1.141247e+002	-1.146417e+001	-1.125009e+002	-1.138179e+001	-1.119297e+002	-1.321863e+001	-1.279795e+002
5172270.364	-1.309500e+001	1.117739e+002	-1.144163e+001	-1.173234e+002	-1.136143e+001	-1.167831e+002	-1.328407e+001	-1.308854e+002
5196707.106	-1.350468e+001	1.095812e+002	-1.142216e+001	-1.221381e+002	-1.134105e+001	-1.216425e+002	-1.335666e+001	-1.337767e+002
5221143.847	-1.393306e+001	1.075535e+002	-1.140422e+001	-1.269303e+002	-1.132644e+001	-1.265013e+002	-1.343036e+001	-1.366528e+002
5245580.589	-1.438217e+001	1.056770e+002	-1.139070e+001	-1.317660e+002	-1.131691e+001	-1.313696e+002	-1.350793e+001	-1.395709e+002
5270017.331	-1.485238e+001	1.039760e+002	-1.138259e+001	-1.366121e+002	-1.130853e+001	-1.362560e+002	-1.358400e+001	-1.424965e+002
5294454.073	-1.533945e+001	1.024565e+002	-1.137658e+001	-1.414741e+002	-1.130754e+001	-1.411386e+002	-1.366373e+001	-1.454657e+002
5318890.815	-1.585068e+001	1.011259e+002	-1.137891e+001	-1.463373e+002	-1.131006e+001	-1.460275e+002	-1.374384e+001	-1.484720e+002
5343327.556	-1.637678e+001	9.999243e+001	-1.138244e+001	-1.512177e+002	-1.131734e+001	-1.509349e+002	-1.382427e+001	-1.515135e+002
5367764.298	-1.692219e+001	9.908061e+001	-1.138957e+001	-1.561016e+002	-1.132817e+001	-1.558439e+002	-1.390925e+001	-1.546023e+002
5392201.040	-1.748994e+001	9.838357e+001	-1.140275e+001	-1.609988e+002	-1.134484e+001	-1.607486e+002	-1.399596e+001	-1.577580e+002
5416637.782	-1.808460e+001	9.797357e+001	-1.142136e+001	-1.658883e+002	-1.136594e+001	-1.656643e+002	-1.408826e+001	-1.609624e+002
5441074.523	-1.869676e+001	9.778758e+001	-1.144390e+001	-1.707967e+002	-1.139282e+001	-1.705872e+002	-1.417984e+001	-1.642571e+002
