!Agilent Technologies,E5061B,MY49101568,A.02.00
!Date: Wed Mar 01 14:26:19 2023
!Data & Calibration Information:
!Freq	S11:SOLT2(OFF)	S21:SOLT2(OFF)	S12:SOLT2(OFF)	S22:SOLT2(OFF)
# Hz S dB R 50
1800000.000	-9.877221e+000	-1.573727e+001	-2.286179e+001	-1.526474e+002	-2.280068e+001	-1.526947e+002	-1.032500e+001	2.089181e+001
1824436.742	-9.996553e+000	-1.980991e+001	-2.260224e+001	-1.567115e+002	-2.255132e+001	-1.567939e+002	-1.046358e+001	1.736757e+001
1848873.484	-1.012188e+001	-2.395842e+001	-2.232926e+001	-1.608182e+002	-2.228830e+001	-1.608984e+002	-1.060516e+001	1.378321e+001
1873310.225	-1.025178e+001	-2.815443e+001	-2.205644e+001	-1.649441e+002	-2.201788e+001	-1.650572e+002	-1.074331e+001	1.017084e+001
1897746.967	-1.038213e+001	-3.242470e+001	-2.176275e+001	-1.690707e+002	-2.173597e+001	-1.692591e+002	-1.087925e+001	6.511339e+000
1922183.709	-1.051733e+001	-3.680033e+001	-2.146391e+001	-1.732967e+002	-2.144597e+001	-1.734776e+002	-1.101407e+001	2.738739e+000
1946620.451	-1.065629e+001	-4.126233e+001	-2.115689e+001	-1.775533e+002	-2.114331e+001	-1.778035e+002	-1.114910e+001	-1.092609e+000
1971057.192	-1.080408e+001	-4.586021e+001	-2.083105e+001	1.781540e+002	-2.083050e+001	1.779440e+002	-1.128073e+001	-5.057762e+000
1995493.934	-1.096105e+001	-5.054472e+001	-2.049682e+001	1.737466e+002	-2.051363e+001	1.735773e+002	-1.141240e+001	-9.073387e+000
2019930.676	-1.112470e+001	-5.534417e+001	-2.016402e+001	1.692608e+002	-2.017651e+001	1.691829e+002	-1.154331e+001	-1.317861e+001
2044367.418	-1.129959e+001	-6.025533e+001	-1.980872e+001	1.646549e+002	-1.983337e+001	1.645997e+002	-1.167216e+001	-1.742622e+001
2068804.159	-1.148370e+001	-6.529782e+001	-1.945257e+001	1.600376e+002	-1.948220e+001	1.600001e+002	-1.179590e+001	-2.173696e+001
2093240.901	-1.168368e+001	-7.048479e+001	-1.907572e+001	1.553222e+002	-1.911915e+001	1.552789e+002	-1.192186e+001	-2.614198e+001
2117677.643	-1.189961e+001	-7.577005e+001	-1.870510e+001	1.503131e+002	-1.874855e+001	1.503696e+002	-1.204918e+001	-3.061655e+001
2142114.385	-1.213625e+001	-8.123957e+001	-1.832411e+001	1.452396e+002	-1.836556e+001	1.453297e+002	-1.217062e+001	-3.523026e+001
2166551.127	-1.238842e+001	-8.682666e+001	-1.794176e+001	1.399769e+002	-1.798344e+001	1.401401e+002	-1.229052e+001	-3.995783e+001
2190987.868	-1.265716e+001	-9.257140e+001	-1.757213e+001	1.345543e+002	-1.761614e+001	1.347446e+002	-1.240708e+001	-4.475038e+001
2215424.610	-1.294584e+001	-9.842052e+001	-1.721121e+001	1.288607e+002	-1.725700e+001	1.291521e+002	-1.251552e+001	-4.965406e+001
2239861.352	-1.325663e+001	-1.045056e+002	-1.685573e+001	1.231310e+002	-1.689794e+001	1.234596e+002	-1.261549e+001	-5.467748e+001
2264298.094	-1.357842e+001	-1.107435e+002	-1.652032e+001	1.172131e+002	-1.656163e+001	1.176529e+002	-1.270031e+001	-5.982788e+001
2288734.835	-1.391842e+001	-1.171586e+002	-1.620387e+001	1.112237e+002	-1.623588e+001	1.116635e+002	-1.278037e+001	-6.509223e+001
2313171.577	-1.427850e+001	-1.238499e+002	-1.589346e+001	1.050772e+002	-1.592762e+001	1.055872e+002	-1.284572e+001	-7.049377e+001
2337608.319	-1.464980e+001	-1.307566e+002	-1.560558e+001	9.883635e+001	-1.563138e+001	9.937966e+001	-1.289823e+001	-7.605244e+001
2362045.061	-1.504198e+001	-1.379319e+002	-1.532897e+001	9.251891e+001	-1.535187e+001	9.297595e+001	-1.294434e+001	-8.167330e+001
2386481.802	-1.541684e+001	-1.452807e+002	-1.509822e+001	8.597698e+001	-1.509777e+001	8.646628e+001	-1.297096e+001	-8.746840e+001
2410918.544	-1.579460e+001	-1.529668e+002	-1.488412e+001	7.935655e+001	-1.489719e+001	7.991426e+001	-1.295892e+001	-9.336687e+001
2435355.286	-1.613312e+001	-1.611477e+002	-1.471423e+001	7.283190e+001	-1.472458e+001	7.342464e+001	-1.292044e+001	-9.951082e+001
2459792.028	-1.644339e+001	-1.701438e+002	-1.455681e+001	6.654467e+001	-1.456684e+001	6.713999e+001	-1.285486e+001	-1.060044e+002
2484228.769	-1.678832e+001	-1.797312e+002	-1.437726e+001	6.017582e+001	-1.438187e+001	6.090881e+001	-1.279945e+001	-1.128859e+002
2508665.511	-1.713726e+001	1.703507e+002	-1.420020e+001	5.364663e+001	-1.418357e+001	5.443698e+001	-1.276800e+001	-1.199187e+002
2533102.253	-1.746581e+001	1.602445e+002	-1.404133e+001	4.693556e+001	-1.401095e+001	4.764476e+001	-1.275179e+001	-1.269490e+002
2557538.995	-1.771912e+001	1.500479e+002	-1.392984e+001	4.005667e+001	-1.388680e+001	4.068628e+001	-1.272429e+001	-1.339417e+002
2581975.737	-1.789037e+001	1.397149e+002	-1.385682e+001	3.312606e+001	-1.381013e+001	3.369461e+001	-1.268055e+001	-1.409564e+002
2606412.478	-1.794818e+001	1.293525e+002	-1.383360e+001	2.623114e+001	-1.377739e+001	2.675808e+001	-1.262855e+001	-1.480498e+002
2630849.220	-1.789814e+001	1.188912e+002	-1.384730e+001	1.949175e+001	-1.378358e+001	2.001039e+001	-1.255676e+001	-1.552594e+002
2655285.962	-1.774421e+001	1.083314e+002	-1.389145e+001	1.303014e+001	-1.380997e+001	1.340662e+001	-1.248007e+001	-1.625674e+002
2679722.704	-1.757256e+001	9.778864e+001	-1.391858e+001	6.613414e+000	-1.384218e+001	6.952795e+000	-1.241822e+001	-1.700231e+002
2704159.445	-1.737288e+001	8.777429e+001	-1.396663e+001	1.262990e-001	-1.387210e+001	3.829274e-001	-1.238866e+001	-1.774365e+002
2728596.187	-1.715179e+001	7.824316e+001	-1.402762e+001	-6.372379e+000	-1.394490e+001	-6.110549e+000	-1.236225e+001	1.753184e+002
2753032.929	-1.688262e+001	6.917340e+001	-1.412249e+001	-1.274370e+001	-1.405262e+001	-1.259953e+001	-1.234408e+001	1.682599e+002
2777469.671	-1.658999e+001	6.068040e+001	-1.425215e+001	-1.904844e+001	-1.417715e+001	-1.891186e+001	-1.233180e+001	1.613049e+002
2801906.412	-1.629283e+001	5.265090e+001	-1.440065e+001	-2.523663e+001	-1.432789e+001	-2.509293e+001	-1.232312e+001	1.544929e+002
2826343.154	-1.598260e+001	4.504168e+001	-1.457107e+001	-3.121134e+001	-1.449724e+001	-3.113639e+001	-1.231970e+001	1.478662e+002
2850779.896	-1.567343e+001	3.779579e+001	-1.475696e+001	-3.700995e+001	-1.468820e+001	-3.697562e+001	-1.231293e+001	1.413944e+002
2875216.638	-1.537006e+001	3.091541e+001	-1.495770e+001	-4.269905e+001	-1.488627e+001	-4.263922e+001	-1.231265e+001	1.350628e+002
2899653.380	-1.507439e+001	2.433620e+001	-1.515983e+001	-4.810535e+001	-1.509546e+001	-4.808706e+001	-1.231379e+001	1.289192e+002
2924090.121	-1.479672e+001	1.804000e+001	-1.536125e+001	-5.335607e+001	-1.530286e+001	-5.341651e+001	-1.232446e+001	1.229321e+002
2948526.863	-1.453368e+001	1.202079e+001	-1.556152e+001	-5.848322e+001	-1.550388e+001	-5.855335e+001	-1.234017e+001	1.170801e+002
2972963.605	-1.428691e+001	6.248982e+000	-1.575921e+001	-6.345383e+001	-1.571423e+001	-6.357507e+001	-1.236134e+001	1.114299e+002
2997400.347	-1.405364e+001	7.340098e-001	-1.595779e+001	-6.831060e+001	-1.591681e+001	-6.844298e+001	-1.238389e+001	1.059311e+002
3021837.088	-1.383319e+001	-4.577053e+000	-1.615360e+001	-7.303354e+001	-1.611765e+001	-7.315499e+001	-1.241249e+001	1.005985e+002
3046273.830	-1.362504e+001	-9.684027e+000	-1.634161e+001	-7.763090e+001	-1.631370e+001	-7.776028e+001	-1.244258e+001	9.541441e+001
3070710.572	-1.342686e+001	-1.463064e+001	-1.652131e+001	-8.207458e+001	-1.649573e+001	-8.221753e+001	-1.247423e+001	9.036471e+001
3095147.314	-1.324247e+001	-1.940771e+001	-1.668767e+001	-8.643467e+001	-1.667190e+001	-8.659239e+001	-1.251252e+001	8.545430e+001
3119584.055	-1.307036e+001	-2.405855e+001	-1.684246e+001	-9.073861e+001	-1.683743e+001	-9.090245e+001	-1.255691e+001	8.069569e+001
3144020.797	-1.290835e+001	-2.853792e+001	-1.699567e+001	-9.496112e+001	-1.699140e+001	-9.514262e+001	-1.260360e+001	7.608465e+001
3168457.539	-1.275685e+001	-3.289041e+001	-1.713687e+001	-9.914268e+001	-1.713817e+001	-9.931679e+001	-1.265453e+001	7.160217e+001
3192894.281	-1.261637e+001	-3.711276e+001	-1.727207e+001	-1.032789e+002	-1.727777e+001	-1.034594e+002	-1.270605e+001	6.725962e+001
3217331.023	-1.248433e+001	-4.121874e+001	-1.740227e+001	-1.074047e+002	-1.741078e+001	-1.075496e+002	-1.275989e+001	6.306041e+001
3241767.764	-1.235686e+001	-4.518999e+001	-1.752822e+001	-1.114527e+002	-1.754207e+001	-1.115929e+002	-1.281158e+001	5.898952e+001
3266204.506	-1.223635e+001	-4.907419e+001	-1.765065e+001	-1.154451e+002	-1.766817e+001	-1.155543e+002	-1.285892e+001	5.503250e+001
3290641.248	-1.211459e+001	-5.287322e+001	-1.777143e+001	-1.192971e+002	-1.779239e+001	-1.194086e+002	-1.290139e+001	5.115889e+001
3315077.990	-1.200075e+001	-5.662961e+001	-1.786564e+001	-1.230713e+002	-1.789108e+001	-1.231569e+002	-1.294447e+001	4.732283e+001
3339514.731	-1.189697e+001	-6.032088e+001	-1.794499e+001	-1.268796e+002	-1.797631e+001	-1.269672e+002	-1.299675e+001	4.357789e+001
3363951.473	-1.180293e+001	-6.394100e+001	-1.802063e+001	-1.307294e+002	-1.804962e+001	-1.307840e+002	-1.305223e+001	3.994535e+001
3388388.215	-1.171626e+001	-6.746694e+001	-1.809013e+001	-1.345485e+002	-1.812321e+001	-1.345885e+002	-1.310780e+001	3.642310e+001
3412824.957	-1.163317e+001	-7.092045e+001	-1.815755e+001	-1.383561e+002	-1.819326e+001	-1.383864e+002	-1.316380e+001	3.300953e+001
3437261.698	-1.155723e+001	-7.429347e+001	-1.821800e+001	-1.421546e+002	-1.825742e+001	-1.421575e+002	-1.321686e+001	2.968275e+001
3461698.440	-1.148499e+001	-7.760584e+001	-1.827680e+001	-1.459495e+002	-1.831641e+001	-1.459142e+002	-1.327137e+001	2.646789e+001
3486135.182	-1.141708e+001	-8.084699e+001	-1.833036e+001	-1.496862e+002	-1.837421e+001	-1.496605e+002	-1.331980e+001	2.335538e+001
3510571.924	-1.135370e+001	-8.401547e+001	-1.838347e+001	-1.534019e+002	-1.842770e+001	-1.533760e+002	-1.336653e+001	2.032656e+001
3535008.666	-1.129058e+001	-8.711943e+001	-1.842812e+001	-1.570952e+002	-1.847794e+001	-1.570412e+002	-1.340619e+001	1.739066e+001
3559445.407	-1.122946e+001	-9.015686e+001	-1.846826e+001	-1.606961e+002	-1.851581e+001	-1.606347e+002	-1.343715e+001	1.451087e+001
3583882.149	-1.116916e+001	-9.315050e+001	-1.849411e+001	-1.643045e+002	-1.854993e+001	-1.641975e+002	-1.346046e+001	1.169905e+001
3608318.891	-1.110762e+001	-9.609618e+001	-1.850807e+001	-1.678830e+002	-1.856610e+001	-1.677865e+002	-1.347997e+001	8.915757e+000
3632755.633	-1.105010e+001	-9.901071e+001	-1.851193e+001	-1.715303e+002	-1.857309e+001	-1.713477e+002	-1.349204e+001	6.152283e+000
3657192.374	-1.099164e+001	-1.018778e+002	-1.850563e+001	-1.751981e+002	-1.856919e+001	-1.749555e+002	-1.350305e+001	3.431496e+000
3681629.116	-1.093509e+001	-1.046980e+002	-1.849610e+001	-1.789292e+002	-1.855644e+001	-1.786602e+002	-1.351417e+001	7.709495e-001
3706065.858	-1.087932e+001	-1.074812e+002	-1.848439e+001	1.772696e+002	-1.855055e+001	1.775768e+002	-1.351494e+001	-1.804601e+000
3730502.600	-1.082167e+001	-1.102009e+002	-1.848532e+001	1.734481e+002	-1.855232e+001	1.737445e+002	-1.351130e+001	-4.325556e+000
3754939.341	-1.075768e+001	-1.128526e+002	-1.851149e+001	1.695840e+002	-1.857183e+001	1.699667e+002	-1.348667e+001	-6.801596e+000
3779376.083	-1.068253e+001	-1.154734e+002	-1.855533e+001	1.658677e+002	-1.861813e+001	1.662482e+002	-1.344534e+001	-9.230703e+000
3803812.825	-1.058981e+001	-1.181161e+002	-1.862268e+001	1.624044e+002	-1.867569e+001	1.628207e+002	-1.337654e+001	-1.176543e+001
3828249.567	-1.047832e+001	-1.208789e+002	-1.867666e+001	1.594003e+002	-1.873309e+001	1.597590e+002	-1.328616e+001	-1.444563e+001
3852686.308	-1.036956e+001	-1.238655e+002	-1.865514e+001	1.567422e+002	-1.871505e+001	1.571445e+002	-1.320035e+001	-1.746965e+001
3877123.050	-1.028625e+001	-1.270446e+002	-1.853947e+001	1.540458e+002	-1.860444e+001	1.544912e+002	-1.315338e+001	-2.067666e+001
3901559.792	-1.024247e+001	-1.302725e+002	-1.834983e+001	1.509063e+002	-1.841381e+001	1.514124e+002	-1.315867e+001	-2.390087e+001
3925996.534	-1.023145e+001	-1.334244e+002	-1.814410e+001	1.472610e+002	-1.820782e+001	1.478005e+002	-1.320018e+001	-2.693456e+001
3950433.276	-1.024381e+001	-1.364007e+002	-1.796734e+001	1.431480e+002	-1.802712e+001	1.437050e+002	-1.325629e+001	-2.968962e+001
3974870.017	-1.026164e+001	-1.391857e+002	-1.783446e+001	1.387961e+002	-1.789568e+001	1.393844e+002	-1.330307e+001	-3.219281e+001
3999306.759	-1.027127e+001	-1.417952e+002	-1.775728e+001	1.343212e+002	-1.780894e+001	1.349881e+002	-1.333308e+001	-3.452717e+001
4023743.501	-1.026273e+001	-1.443716e+002	-1.771790e+001	1.300431e+002	-1.777288e+001	1.306990e+002	-1.332672e+001	-3.675240e+001
4048180.243	-1.023756e+001	-1.469298e+002	-1.770732e+001	1.259592e+002	-1.776153e+001	1.266290e+002	-1.329226e+001	-3.901672e+001
4072616.984	-1.020080e+001	-1.495857e+002	-1.769782e+001	1.221452e+002	-1.775029e+001	1.228328e+002	-1.323803e+001	-4.140506e+001
4097053.726	-1.016589e+001	-1.523256e+002	-1.767437e+001	1.185157e+002	-1.772535e+001	1.192457e+002	-1.317371e+001	-4.393205e+001
4121490.468	-1.013546e+001	-1.551686e+002	-1.762901e+001	1.150045e+002	-1.767860e+001	1.157382e+002	-1.311290e+001	-4.655988e+001
4145927.210	-1.011921e+001	-1.580796e+002	-1.754996e+001	1.115525e+002	-1.759203e+001	1.123074e+002	-1.306153e+001	-4.931898e+001
4170363.951	-1.011475e+001	-1.610180e+002	-1.745559e+001	1.081077e+002	-1.749418e+001	1.088865e+002	-1.301477e+001	-5.210742e+001
4194800.693	-1.012653e+001	-1.640134e+002	-1.732858e+001	1.046141e+002	-1.736845e+001	1.054152e+002	-1.297726e+001	-5.497291e+001
4219237.435	-1.015659e+001	-1.670182e+002	-1.718390e+001	1.010228e+002	-1.721700e+001	1.018499e+002	-1.295869e+001	-5.787616e+001
4243674.177	-1.019997e+001	-1.699985e+002	-1.702962e+001	9.729745e+001	-1.705524e+001	9.815045e+001	-1.294775e+001	-6.075317e+001
4268110.919	-1.026208e+001	-1.729361e+002	-1.686395e+001	9.343242e+001	-1.689077e+001	9.430684e+001	-1.294516e+001	-6.360552e+001
4292547.660	-1.033109e+001	-1.758719e+002	-1.670079e+001	8.955271e+001	-1.671474e+001	9.042462e+001	-1.294776e+001	-6.648954e+001
4316984.402	-1.041800e+001	-1.787605e+002	-1.652841e+001	8.552968e+001	-1.653953e+001	8.637221e+001	-1.295828e+001	-6.933205e+001
4341421.144	-1.051746e+001	1.784093e+002	-1.635677e+001	8.138539e+001	-1.635929e+001	8.227802e+001	-1.297447e+001	-7.215962e+001
4365857.886	-1.062965e+001	1.755971e+002	-1.618082e+001	7.720057e+001	-1.618271e+001	7.805610e+001	-1.299394e+001	-7.497805e+001
4390294.627	-1.075350e+001	1.728764e+002	-1.601027e+001	7.287094e+001	-1.601021e+001	7.371923e+001	-1.301809e+001	-7.775398e+001
4414731.369	-1.088595e+001	1.702209e+002	-1.584460e+001	6.847046e+001	-1.583865e+001	6.929165e+001	-1.304950e+001	-8.050167e+001
4439168.111	-1.102153e+001	1.676266e+002	-1.569194e+001	6.395539e+001	-1.567756e+001	6.483169e+001	-1.307406e+001	-8.326783e+001
4463604.853	-1.116498e+001	1.650914e+002	-1.554217e+001	5.941927e+001	-1.552015e+001	6.027288e+001	-1.310411e+001	-8.600279e+001
4488041.594	-1.131705e+001	1.625867e+002	-1.539194e+001	5.486917e+001	-1.536982e+001	5.572334e+001	-1.312971e+001	-8.876634e+001
4512478.336	-1.147388e+001	1.601599e+002	-1.525318e+001	5.022799e+001	-1.522634e+001	5.107875e+001	-1.315722e+001	-9.150874e+001
4536915.078	-1.163510e+001	1.578104e+002	-1.511993e+001	4.550089e+001	-1.508865e+001	4.633344e+001	-1.319077e+001	-9.422365e+001
4561351.820	-1.179373e+001	1.555104e+002	-1.500222e+001	4.074370e+001	-1.496633e+001	4.155730e+001	-1.321670e+001	-9.693362e+001
4585788.562	-1.194848e+001	1.532158e+002	-1.490235e+001	3.597292e+001	-1.486291e+001	3.677533e+001	-1.323344e+001	-9.965735e+001
4610225.303	-1.210296e+001	1.508824e+002	-1.481466e+001	3.122249e+001	-1.476558e+001	3.203453e+001	-1.324606e+001	-1.024667e+002
4634662.045	-1.226407e+001	1.485034e+002	-1.473098e+001	2.654419e+001	-1.468102e+001	2.731987e+001	-1.325307e+001	-1.053512e+002
4659098.787	-1.243716e+001	1.460897e+002	-1.464973e+001	2.186175e+001	-1.459594e+001	2.261858e+001	-1.326326e+001	-1.083247e+002
4683535.529	-1.262002e+001	1.436144e+002	-1.457557e+001	1.722394e+001	-1.451495e+001	1.794380e+001	-1.327586e+001	-1.113902e+002
4707972.270	-1.282040e+001	1.411233e+002	-1.450441e+001	1.264370e+001	-1.443987e+001	1.329169e+001	-1.329257e+001	-1.145327e+002
4732409.012	-1.304286e+001	1.385554e+002	-1.442893e+001	8.096181e+000	-1.436522e+001	8.699115e+000	-1.331476e+001	-1.178201e+002
4756845.754	-1.329265e+001	1.359501e+002	-1.435421e+001	3.573697e+000	-1.428613e+001	4.131357e+000	-1.334954e+001	-1.212551e+002
4781282.496	-1.358144e+001	1.333570e+002	-1.426478e+001	-9.246014e-001	-1.419826e+001	-3.964530e-001	-1.340229e+001	-1.248196e+002
4805719.237	-1.390703e+001	1.308405e+002	-1.416561e+001	-5.451019e+000	-1.410099e+001	-4.962598e+000	-1.347884e+001	-1.284814e+002
4830155.979	-1.426867e+001	1.284354e+002	-1.405862e+001	-1.003779e+001	-1.399579e+001	-9.589594e+000	-1.357874e+001	-1.321830e+002
4854592.721	-1.466152e+001	1.262000e+002	-1.394532e+001	-1.471191e+001	-1.388248e+001	-1.430823e+001	-1.370884e+001	-1.359268e+002
4879029.463	-1.507923e+001	1.241317e+002	-1.383689e+001	-1.948567e+001	-1.377314e+001	-1.909697e+001	-1.386029e+001	-1.396833e+002
4903466.205	-1.552470e+001	1.222350e+002	-1.373163e+001	-2.434224e+001	-1.367042e+001	-2.399312e+001	-1.403106e+001	-1.434331e+002
4927902.946	-1.599552e+001	1.205099e+002	-1.363413e+001	-2.926925e+001	-1.357579e+001	-2.894106e+001	-1.421870e+001	-1.471801e+002
4952339.688	-1.649262e+001	1.189842e+002	-1.354427e+001	-3.428586e+001	-1.348954e+001	-3.394613e+001	-1.442322e+001	-1.509469e+002
4976776.430	-1.702077e+001	1.176215e+002	-1.346545e+001	-3.930751e+001	-1.341282e+001	-3.899177e+001	-1.464642e+001	-1.547001e+002
5001213.172	-1.758389e+001	1.165219e+002	-1.339813e+001	-4.437035e+001	-1.334756e+001	-4.407822e+001	-1.488699e+001	-1.584370e+002
5025649.913	-1.818044e+001	1.156764e+002	-1.333785e+001	-4.945604e+001	-1.329358e+001	-4.918568e+001	-1.514167e+001	-1.621838e+002
5050086.655	-1.881156e+001	1.151279e+002	-1.329220e+001	-5.457402e+001	-1.324883e+001	-5.431077e+001	-1.541511e+001	-1.659327e+002
5074523.397	-1.948848e+001	1.149647e+002	-1.325636e+001	-5.971054e+001	-1.321768e+001	-5.944660e+001	-1.569962e+001	-1.696776e+002
5098960.139	-2.020930e+001	1.152852e+002	-1.323301e+001	-6.483218e+001	-1.319562e+001	-6.457862e+001	-1.599999e+001	-1.734371e+002
5123396.880	-2.093920e+001	1.161819e+002	-1.322132e+001	-7.006029e+001	-1.319086e+001	-6.969649e+001	-1.630808e+001	-1.772167e+002
5147833.622	-2.175691e+001	1.177764e+002	-1.322248e+001	-7.514091e+001	-1.319576e+001	-7.476973e+001	-1.662694e+001	1.789294e+002
5172270.364	-2.262092e+001	1.204606e+002	-1.323003e+001	-8.016313e+001	-1.320600e+001	-7.978761e+001	-1.696502e+001	1.749789e+002
5196707.106	-2.348542e+001	1.245430e+002	-1.324419e+001	-8.513349e+001	-1.322289e+001	-8.476802e+001	-1.732292e+001	1.709568e+002
5221143.847	-2.427902e+001	1.303362e+002	-1.325941e+001	-9.004987e+001	-1.324347e+001	-8.971774e+001	-1.770367e+001	1.668773e+002
5245580.589	-2.488101e+001	1.377988e+002	-1.327812e+001	-9.497246e+001	-1.326698e+001	-9.462353e+001	-1.810888e+001	1.626771e+002
5270017.331	-2.517537e+001	1.465470e+002	-1.330272e+001	-9.986865e+001	-1.329285e+001	-9.951615e+001	-1.853856e+001	1.584683e+002
5294454.073	-2.509549e+001	1.556732e+002	-1.333065e+001	-1.047341e+002	-1.332588e+001	-1.043764e+002	-1.898725e+001	1.541362e+002
5318890.815	-2.464327e+001	1.640412e+002	-1.336142e+001	-1.095917e+002	-1.336167e+001	-1.092194e+002	-1.945750e+001	1.497417e+002
5343327.556	-2.392836e+001	1.709211e+002	-1.339862e+001	-1.144253e+002	-1.340004e+001	-1.140190e+002	-1.995151e+001	1.452282e+002
5367764.298	-2.307260e+001	1.761232e+002	-1.343664e+001	-1.192290e+002	-1.344122e+001	-1.188105e+002	-2.046127e+001	1.406453e+002
5392201.040	-2.216159e+001	1.797524e+002	-1.347762e+001	-1.239892e+002	-1.348465e+001	-1.235576e+002	-2.100226e+001	1.358603e+002
5416637.782	-2.126384e+001	-1.779329e+002	-1.352080e+001	-1.287351e+002	-1.353022e+001	-1.282930e+002	-2.155990e+001	1.309745e+002
5441074.523	-2.040955e+001	-1.766326e+002	-1.356804e+001	-1.334650e+002	-1.357880e+001	-1.329962e+002	-2.212899e+001	1.258548e+002
