!Agilent Technologies,E5061B,MY49101568,A.02.00
!Date: Wed Mar 01 14:34:47 2023
!Data & Calibration Information:
!Freq	S11:SOLT2(OFF)	S21:SOLT2(OFF)	S12:SOLT2(OFF)	S22:SOLT2(OFF)
# Hz S dB R 50
1800000.000	-1.373407e+001	-4.581859e+001	-1.192702e+001	-1.444761e+002	-1.191740e+001	-1.443404e+002	-1.491864e+001	-1.717569e+001
1824436.742	-1.474669e+001	-5.187956e+001	-1.145286e+001	-1.518969e+002	-1.143839e+001	-1.518189e+002	-1.609133e+001	-2.351555e+001
1848873.484	-1.600439e+001	-5.756201e+001	-1.102143e+001	-1.596760e+002	-1.101431e+001	-1.596116e+002	-1.754133e+001	-2.949302e+001
1873310.225	-1.755107e+001	-6.223243e+001	-1.065756e+001	-1.676534e+002	-1.065258e+001	-1.676073e+002	-1.934699e+001	-3.446897e+001
1897746.967	-1.945776e+001	-6.527152e+001	-1.034801e+001	-1.757238e+002	-1.035030e+001	-1.756755e+002	-2.158555e+001	-3.790373e+001
1922183.709	-2.179040e+001	-6.522839e+001	-1.009642e+001	1.761483e+002	-1.010480e+001	1.762318e+002	-2.445658e+001	-3.802479e+001
1946620.451	-2.451465e+001	-5.854826e+001	-9.906901e+000	1.680005e+002	-9.913119e+000	1.680969e+002	-2.813626e+001	-2.937967e+001
1971057.192	-2.678332e+001	-4.014613e+001	-9.780214e+000	1.598934e+002	-9.787073e+000	1.600479e+002	-3.118594e+001	-4.918097e-001
1995493.934	-2.669069e+001	-1.529173e+001	-9.711321e+000	1.519331e+002	-9.708036e+000	1.521925e+002	-2.982037e+001	3.372157e+001
2019930.676	-2.470748e+001	1.475665e-001	-9.686397e+000	1.442132e+002	-9.678721e+000	1.444811e+002	-2.660593e+001	4.701460e+001
2044367.418	-2.254708e+001	5.139015e+000	-9.705384e+000	1.367019e+002	-9.696509e+000	1.369476e+002	-2.408183e+001	4.859999e+001
2068804.159	-2.081799e+001	4.549773e+000	-9.759305e+000	1.294983e+002	-9.751791e+000	1.297577e+002	-2.227747e+001	4.558880e+001
2093240.901	-1.951473e+001	1.299337e+000	-9.839468e+000	1.226714e+002	-9.827777e+000	1.228746e+002	-2.099463e+001	4.078189e+001
2117677.643	-1.858372e+001	-3.120808e+000	-9.926746e+000	1.162233e+002	-9.913747e+000	1.164289e+002	-2.010488e+001	3.503103e+001
2142114.385	-1.791117e+001	-7.712245e+000	-9.987975e+000	1.100998e+002	-9.975015e+000	1.103041e+002	-1.949799e+001	2.928153e+001
2166551.127	-1.734683e+001	-1.232433e+001	-1.002493e+001	1.040416e+002	-1.001551e+001	1.042543e+002	-1.902582e+001	2.362031e+001
2190987.868	-1.688836e+001	-1.739971e+001	-1.006750e+001	9.807935e+001	-1.005525e+001	9.827370e+001	-1.864815e+001	1.771290e+001
2215424.610	-1.656343e+001	-2.277568e+001	-1.010678e+001	9.227146e+001	-1.009642e+001	9.252409e+001	-1.839913e+001	1.143328e+001
2239861.352	-1.635359e+001	-2.806995e+001	-1.012137e+001	8.667378e+001	-1.011508e+001	8.693421e+001	-1.826714e+001	5.099109e+000
2264298.094	-1.620429e+001	-3.328244e+001	-1.011455e+001	8.112135e+001	-1.010784e+001	8.136673e+001	-1.819963e+001	-1.157102e+000
2288734.835	-1.611758e+001	-3.854909e+001	-1.009540e+001	7.557904e+001	-1.009026e+001	7.583393e+001	-1.819321e+001	-7.521275e+000
2313171.577	-1.608579e+001	-4.389395e+001	-1.006509e+001	7.005501e+001	-1.006145e+001	7.030425e+001	-1.823418e+001	-1.407100e+001
2337608.319	-1.610676e+001	-4.932440e+001	-1.002464e+001	6.452522e+001	-1.002135e+001	6.478470e+001	-1.832741e+001	-2.079277e+001
2362045.061	-1.619439e+001	-5.483664e+001	-9.976812e+000	5.902393e+001	-9.978017e+000	5.924583e+001	-1.846607e+001	-2.773503e+001
2386481.802	-1.635226e+001	-6.041750e+001	-9.920399e+000	5.348643e+001	-9.922182e+000	5.373110e+001	-1.866298e+001	-3.498233e+001
2410918.544	-1.657819e+001	-6.598762e+001	-9.853324e+000	4.793437e+001	-9.857548e+000	4.819661e+001	-1.891686e+001	-4.252256e+001
2435355.286	-1.686953e+001	-7.155860e+001	-9.781004e+000	4.233050e+001	-9.782661e+000	4.260022e+001	-1.922886e+001	-5.029563e+001
2459792.028	-1.723027e+001	-7.713838e+001	-9.702967e+000	3.665046e+001	-9.705773e+000	3.694894e+001	-1.958124e+001	-5.842069e+001
2484228.769	-1.766980e+001	-8.275375e+001	-9.624717e+000	3.088342e+001	-9.628674e+000	3.121969e+001	-1.997539e+001	-6.685887e+001
2508665.511	-1.819888e+001	-8.832397e+001	-9.547826e+000	2.508213e+001	-9.549981e+000	2.541918e+001	-2.042816e+001	-7.576346e+001
2533102.253	-1.883096e+001	-9.385048e+001	-9.479260e+000	1.923721e+001	-9.480946e+000	1.953162e+001	-2.091623e+001	-8.503246e+001
2557538.995	-1.958211e+001	-9.927283e+001	-9.413874e+000	1.329840e+001	-9.414615e+000	1.360362e+001	-2.145100e+001	-9.488850e+001
2581975.737	-2.046022e+001	-1.045816e+002	-9.358164e+000	7.306393e+000	-9.358823e+000	7.616030e+000	-2.201818e+001	-1.052472e+002
2606412.478	-2.149916e+001	-1.096096e+002	-9.317326e+000	1.274322e+000	-9.315223e+000	1.578139e+000	-2.260873e+001	-1.162490e+002
2630849.220	-2.275431e+001	-1.142879e+002	-9.290341e+000	-4.785716e+000	-9.287709e+000	-4.480309e+000	-2.320106e+001	-1.278867e+002
2655285.962	-2.426952e+001	-1.182749e+002	-9.278389e+000	-1.083894e+001	-9.272322e+000	-1.053767e+001	-2.377114e+001	-1.402108e+002
2679722.704	-2.613383e+001	-1.209737e+002	-9.276061e+000	-1.686769e+001	-9.269904e+000	-1.657942e+001	-2.431292e+001	-1.532504e+002
2704159.445	-2.845912e+001	-1.212031e+002	-9.283999e+000	-2.288024e+001	-9.277931e+000	-2.258513e+001	-2.479299e+001	-1.667293e+002
2728596.187	-3.135235e+001	-1.166446e+002	-9.305132e+000	-2.886483e+001	-9.299102e+000	-2.858704e+001	-2.520037e+001	1.795211e+002
2753032.929	-3.464765e+001	-1.010119e+002	-9.337532e+000	-3.481126e+001	-9.330811e+000	-3.454892e+001	-2.551716e+001	1.657180e+002
2777469.671	-3.617445e+001	-6.837197e+001	-9.379158e+000	-4.070755e+001	-9.373192e+000	-4.045875e+001	-2.574212e+001	1.520850e+002
2801906.412	-3.399714e+001	-4.037418e+001	-9.428741e+000	-4.654664e+001	-9.422328e+000	-4.630002e+001	-2.589947e+001	1.387756e+002
2826343.154	-3.111516e+001	-2.906095e+001	-9.485564e+000	-5.231902e+001	-9.479453e+000	-5.208918e+001	-2.600459e+001	1.260189e+002
2850779.896	-2.875860e+001	-2.599651e+001	-9.544698e+000	-5.802952e+001	-9.540390e+000	-5.782020e+001	-2.608924e+001	1.138597e+002
2875216.638	-2.694321e+001	-2.655115e+001	-9.608377e+000	-6.370335e+001	-9.604391e+000	-6.346857e+001	-2.619665e+001	1.023546e+002
2899653.380	-2.552738e+001	-2.881172e+001	-9.671357e+000	-6.928933e+001	-9.669664e+000	-6.906355e+001	-2.632589e+001	9.135149e+001
2924090.121	-2.440701e+001	-3.189869e+001	-9.736261e+000	-7.481888e+001	-9.734082e+000	-7.460998e+001	-2.651301e+001	8.083366e+001
2948526.863	-2.351763e+001	-3.554094e+001	-9.795269e+000	-8.031401e+001	-9.797160e+000	-8.010290e+001	-2.675466e+001	7.070688e+001
2972963.605	-2.279860e+001	-3.932224e+001	-9.856651e+000	-8.576190e+001	-9.857763e+000	-8.556145e+001	-2.710285e+001	6.085541e+001
2997400.347	-2.221769e+001	-4.332164e+001	-9.910620e+000	-9.115504e+001	-9.915105e+000	-9.096555e+001	-2.754432e+001	5.114097e+001
3021837.088	-2.175502e+001	-4.742962e+001	-9.958820e+000	-9.651612e+001	-9.963239e+000	-9.632964e+001	-2.808148e+001	4.106052e+001
3046273.830	-2.141128e+001	-5.166108e+001	-9.994958e+000	-1.018882e+002	-1.000092e+001	-1.016989e+002	-2.877941e+001	3.031108e+001
3070710.572	-2.119413e+001	-5.584700e+001	-1.002373e+001	-1.073135e+002	-1.003086e+001	-1.071288e+002	-2.974588e+001	1.843780e+001
3095147.314	-2.109060e+001	-5.985204e+001	-1.005157e+001	-1.127903e+002	-1.006005e+001	-1.126209e+002	-3.102452e+001	5.205853e+000
3119584.055	-2.107243e+001	-6.356136e+001	-1.008380e+001	-1.183032e+002	-1.008892e+001	-1.181355e+002	-3.258325e+001	-1.070591e+001
3144020.797	-2.112719e+001	-6.709372e+001	-1.011119e+001	-1.237936e+002	-1.011638e+001	-1.237136e+002	-3.437987e+001	-3.196998e+001
3168457.539	-2.129204e+001	-7.030727e+001	-1.013776e+001	-1.293985e+002	-1.014334e+001	-1.293256e+002	-3.573528e+001	-6.173555e+001
3192894.281	-2.157094e+001	-7.303705e+001	-1.016605e+001	-1.351004e+002	-1.017090e+001	-1.350511e+002	-3.534813e+001	-9.804933e+001
3217331.023	-2.195028e+001	-7.497252e+001	-1.020654e+001	-1.409140e+002	-1.021048e+001	-1.408781e+002	-3.332199e+001	-1.295451e+002
3241767.764	-2.238770e+001	-7.582272e+001	-1.026583e+001	-1.467837e+002	-1.026931e+001	-1.467711e+002	-3.083369e+001	-1.522965e+002
3266204.506	-2.280749e+001	-7.549994e+001	-1.034652e+001	-1.526173e+002	-1.035046e+001	-1.526226e+002	-2.866588e+001	-1.689916e+002
3290641.248	-2.317876e+001	-7.440463e+001	-1.042834e+001	-1.583398e+002	-1.043290e+001	-1.583645e+002	-2.685541e+001	1.787112e+002
3315077.990	-2.359868e+001	-7.265058e+001	-1.048605e+001	-1.641132e+002	-1.049219e+001	-1.641902e+002	-2.513196e+001	1.694164e+002
3339514.731	-2.400538e+001	-6.887278e+001	-1.055282e+001	-1.701377e+002	-1.055944e+001	-1.702366e+002	-2.348966e+001	1.608053e+002
3363951.473	-2.416913e+001	-6.301065e+001	-1.064920e+001	-1.763089e+002	-1.065825e+001	-1.764380e+002	-2.202334e+001	1.520762e+002
3388388.215	-2.390994e+001	-5.627220e+001	-1.077813e+001	1.774822e+002	-1.079163e+001	1.773133e+002	-2.074480e+001	1.435190e+002
3412824.957	-2.322288e+001	-5.013111e+001	-1.094024e+001	1.712610e+002	-1.095324e+001	1.710703e+002	-1.963265e+001	1.352990e+002
3437261.698	-2.224744e+001	-4.571566e+001	-1.112936e+001	1.650729e+002	-1.115094e+001	1.648613e+002	-1.866395e+001	1.272530e+002
3461698.440	-2.114056e+001	-4.324551e+001	-1.134737e+001	1.589548e+002	-1.137552e+001	1.587055e+002	-1.781196e+001	1.194993e+002
3486135.182	-2.000233e+001	-4.263498e+001	-1.159906e+001	1.529223e+002	-1.163417e+001	1.526324e+002	-1.706398e+001	1.119623e+002
3510571.924	-1.891508e+001	-4.344078e+001	-1.187859e+001	1.470049e+002	-1.192062e+001	1.467219e+002	-1.641768e+001	1.046549e+002
3535008.666	-1.792026e+001	-4.536556e+001	-1.218261e+001	1.413029e+002	-1.223258e+001	1.410093e+002	-1.586556e+001	9.759230e+001
3559445.407	-1.703330e+001	-4.800024e+001	-1.250110e+001	1.358124e+002	-1.255707e+001	1.355206e+002	-1.539336e+001	9.087863e+001
3583882.149	-1.624533e+001	-5.101894e+001	-1.282063e+001	1.305128e+002	-1.288221e+001	1.302476e+002	-1.498396e+001	8.451449e+001
3608318.891	-1.553871e+001	-5.431220e+001	-1.313967e+001	1.253674e+002	-1.321073e+001	1.251247e+002	-1.461480e+001	7.846368e+001
3632755.633	-1.489810e+001	-5.779200e+001	-1.346163e+001	1.203318e+002	-1.352804e+001	1.201923e+002	-1.429281e+001	7.270748e+001
3657192.374	-1.431860e+001	-6.135640e+001	-1.377926e+001	1.154591e+002	-1.385037e+001	1.153455e+002	-1.399048e+001	6.716337e+001
3681629.116	-1.379042e+001	-6.493483e+001	-1.408880e+001	1.106637e+002	-1.416554e+001	1.105749e+002	-1.370901e+001	6.183310e+001
3706065.858	-1.329964e+001	-6.858526e+001	-1.440134e+001	1.059272e+002	-1.448029e+001	1.058597e+002	-1.344487e+001	5.666856e+001
3730502.600	-1.284004e+001	-7.228275e+001	-1.472167e+001	1.012593e+002	-1.480246e+001	1.012152e+002	-1.319414e+001	5.159343e+001
3754939.341	-1.241502e+001	-7.600952e+001	-1.504294e+001	9.668822e+001	-1.513194e+001	9.669737e+001	-1.296743e+001	4.659426e+001
3779376.083	-1.202512e+001	-7.976907e+001	-1.536837e+001	9.223916e+001	-1.546087e+001	9.227162e+001	-1.276246e+001	4.172163e+001
3803812.825	-1.166313e+001	-8.352078e+001	-1.569227e+001	8.787667e+001	-1.578994e+001	8.796669e+001	-1.257517e+001	3.696828e+001
3828249.567	-1.132258e+001	-8.729364e+001	-1.602285e+001	8.357539e+001	-1.612052e+001	8.371410e+001	-1.240028e+001	3.233486e+001
3852686.308	-1.100810e+001	-9.105655e+001	-1.635202e+001	7.942018e+001	-1.645357e+001	7.960281e+001	-1.224487e+001	2.778579e+001
3877123.050	-1.071555e+001	-9.481487e+001	-1.667927e+001	7.534745e+001	-1.678245e+001	7.559584e+001	-1.210004e+001	2.336365e+001
3901559.792	-1.044299e+001	-9.856017e+001	-1.700676e+001	7.137193e+001	-1.711102e+001	7.164515e+001	-1.196530e+001	1.903944e+001
3925996.534	-1.018718e+001	-1.022916e+002	-1.733121e+001	6.744707e+001	-1.743663e+001	6.781038e+001	-1.183951e+001	1.480092e+001
3950433.276	-9.947176e+000	-1.060079e+002	-1.766008e+001	6.361172e+001	-1.776804e+001	6.402307e+001	-1.171785e+001	1.063492e+001
3974870.017	-9.722069e+000	-1.097222e+002	-1.798858e+001	5.985631e+001	-1.809730e+001	6.032402e+001	-1.160247e+001	6.549442e+000
3999306.759	-9.510968e+000	-1.134285e+002	-1.832468e+001	5.616728e+001	-1.843183e+001	5.672750e+001	-1.149493e+001	2.510106e+000
4023743.501	-9.311809e+000	-1.171445e+002	-1.866665e+001	5.259564e+001	-1.877157e+001	5.318663e+001	-1.138687e+001	-1.460691e+000
4048180.243	-9.124889e+000	-1.208672e+002	-1.901812e+001	4.909224e+001	-1.911901e+001	4.975178e+001	-1.128555e+001	-5.408981e+000
4072616.984	-8.950708e+000	-1.246016e+002	-1.937930e+001	4.570914e+001	-1.947900e+001	4.641908e+001	-1.118524e+001	-9.317498e+000
4097053.726	-8.788029e+000	-1.283637e+002	-1.975934e+001	4.246533e+001	-1.985322e+001	4.325523e+001	-1.109110e+001	-1.322302e+001
4121490.468	-8.638131e+000	-1.321443e+002	-2.015540e+001	3.942014e+001	-2.024120e+001	4.027889e+001	-1.100141e+001	-1.712249e+001
4145927.210	-8.503564e+000	-1.359738e+002	-2.056729e+001	3.664101e+001	-2.064706e+001	3.751569e+001	-1.091613e+001	-2.101428e+001
4170363.951	-8.382384e+000	-1.398284e+002	-2.100685e+001	3.418989e+001	-2.107123e+001	3.510015e+001	-1.084099e+001	-2.490321e+001
4194800.693	-8.283817e+000	-1.437223e+002	-2.144499e+001	3.223462e+001	-2.150324e+001	3.317260e+001	-1.077631e+001	-2.882611e+001
4219237.435	-8.206067e+000	-1.476311e+002	-2.186371e+001	3.078009e+001	-2.191600e+001	3.175790e+001	-1.072647e+001	-3.274294e+001
4243674.177	-8.147713e+000	-1.515264e+002	-2.224141e+001	2.982370e+001	-2.228843e+001	3.080562e+001	-1.068680e+001	-3.662079e+001
4268110.919	-8.106580e+000	-1.554061e+002	-2.256838e+001	2.925799e+001	-2.260608e+001	3.026815e+001	-1.065694e+001	-4.045965e+001
4292547.660	-8.084772e+000	-1.592866e+002	-2.283954e+001	2.915032e+001	-2.287160e+001	3.015443e+001	-1.063546e+001	-4.429754e+001
4316984.402	-8.083996e+000	-1.631514e+002	-2.301547e+001	2.944425e+001	-2.303538e+001	3.047531e+001	-1.062773e+001	-4.810560e+001
4341421.144	-8.105300e+000	-1.669573e+002	-2.305743e+001	2.983799e+001	-2.307120e+001	3.098763e+001	-1.063310e+001	-5.185394e+001
4365857.886	-8.140375e+000	-1.706652e+002	-2.297979e+001	2.989576e+001	-2.300163e+001	3.096841e+001	-1.063914e+001	-5.547902e+001
4390294.627	-8.174488e+000	-1.742952e+002	-2.286407e+001	2.924968e+001	-2.287300e+001	3.044451e+001	-1.063982e+001	-5.901444e+001
4414731.369	-8.201705e+000	-1.779778e+002	-2.281445e+001	2.831621e+001	-2.280975e+001	2.945016e+001	-1.061568e+001	-6.256410e+001
4439168.111	-8.229425e+000	1.781473e+002	-2.285015e+001	2.775999e+001	-2.284026e+001	2.891236e+001	-1.057295e+001	-6.634357e+001
4463604.853	-8.283245e+000	1.740096e+002	-2.289126e+001	2.851413e+001	-2.287902e+001	2.964693e+001	-1.053347e+001	-7.040627e+001
4488041.594	-8.396286e+000	1.696215e+002	-2.273756e+001	3.083770e+001	-2.272788e+001	3.204306e+001	-1.053213e+001	-7.484217e+001
4512478.336	-8.599067e+000	1.651691e+002	-2.218390e+001	3.366016e+001	-2.214608e+001	3.490706e+001	-1.060922e+001	-7.948416e+001
4536915.078	-8.903502e+000	1.610211e+002	-2.121056e+001	3.470903e+001	-2.114937e+001	3.594539e+001	-1.078266e+001	-8.401976e+001
4561351.820	-9.259801e+000	1.574660e+002	-2.015082e+001	3.290205e+001	-2.007818e+001	3.400506e+001	-1.101494e+001	-8.806271e+001
4585788.562	-9.616516e+000	1.544238e+002	-1.923390e+001	2.925924e+001	-1.915516e+001	3.022914e+001	-1.125500e+001	-9.169341e+001
4610225.303	-9.967336e+000	1.517400e+002	-1.844530e+001	2.473825e+001	-1.837411e+001	2.565542e+001	-1.149048e+001	-9.503932e+001
4634662.045	-1.029705e+001	1.493441e+002	-1.779366e+001	1.968308e+001	-1.771938e+001	2.053689e+001	-1.171573e+001	-9.814588e+001
4659098.787	-1.059145e+001	1.471088e+002	-1.727316e+001	1.438351e+001	-1.719958e+001	1.522144e+001	-1.190863e+001	-1.010943e+002
4683535.529	-1.086231e+001	1.447062e+002	-1.687324e+001	9.418322e+000	-1.680143e+001	1.023129e+001	-1.205878e+001	-1.041745e+002
4707972.270	-1.118144e+001	1.419610e+002	-1.649357e+001	5.385907e+000	-1.642571e+001	6.182654e+000	-1.220845e+001	-1.078128e+002
4732409.012	-1.163316e+001	1.393076e+002	-1.597228e+001	1.838089e+000	-1.591032e+001	2.554988e+000	-1.246507e+001	-1.118920e+002
4756845.754	-1.221300e+001	1.377310e+002	-1.526457e+001	-2.448219e+000	-1.521300e+001	-1.739866e+000	-1.289913e+001	-1.158086e+002
4781282.496	-1.275524e+001	1.378166e+002	-1.452830e+001	-8.279300e+000	-1.447691e+001	-7.536418e+000	-1.346793e+001	-1.186278e+002
4805719.237	-1.309373e+001	1.389793e+002	-1.390907e+001	-1.527711e+001	-1.385922e+001	-1.450072e+001	-1.403658e+001	-1.200078e+002
4830155.979	-1.321062e+001	1.401291e+002	-1.344097e+001	-2.270641e+001	-1.338750e+001	-2.196328e+001	-1.450260e+001	-1.202692e+002
4854592.721	-1.317207e+001	1.406195e+002	-1.309712e+001	-3.013971e+001	-1.303757e+001	-2.941326e+001	-1.482510e+001	-1.200162e+002
4879029.463	-1.306625e+001	1.403826e+002	-1.282913e+001	-3.743364e+001	-1.277003e+001	-3.671967e+001	-1.501890e+001	-1.196330e+002
4903466.205	-1.293559e+001	1.394885e+002	-1.261456e+001	-4.457593e+001	-1.255509e+001	-4.390973e+001	-1.510712e+001	-1.192686e+002
4927902.946	-1.279428e+001	1.380538e+002	-1.243731e+001	-5.167104e+001	-1.238168e+001	-5.099944e+001	-1.510117e+001	-1.190521e+002
4952339.688	-1.268065e+001	1.362406e+002	-1.228008e+001	-5.862444e+001	-1.224618e+001	-5.802499e+001	-1.500409e+001	-1.191058e+002
4976776.430	-1.256974e+001	1.338116e+002	-1.218076e+001	-6.562551e+001	-1.214442e+001	-6.496234e+001	-1.484169e+001	-1.195512e+002
5001213.172	-1.250243e+001	1.309698e+002	-1.211877e+001	-7.252968e+001	-1.207490e+001	-7.183105e+001	-1.462873e+001	-1.204371e+002
5025649.913	-1.248677e+001	1.278329e+002	-1.208528e+001	-7.931840e+001	-1.203275e+001	-7.861509e+001	-1.438408e+001	-1.217815e+002
5050086.655	-1.252739e+001	1.244858e+002	-1.207587e+001	-8.597296e+001	-1.201682e+001	-8.529366e+001	-1.413045e+001	-1.236049e+002
5074523.397	-1.262032e+001	1.209989e+002	-1.208579e+001	-9.252004e+001	-1.201947e+001	-9.186913e+001	-1.388035e+001	-1.258368e+002
5098960.139	-1.276710e+001	1.174321e+002	-1.211080e+001	-9.896055e+001	-1.204061e+001	-9.836033e+001	-1.364403e+001	-1.284125e+002
5123396.880	-1.296340e+001	1.137979e+002	-1.214810e+001	-1.053118e+002	-1.207553e+001	-1.047595e+002	-1.342161e+001	-1.312925e+002
5147833.622	-1.320698e+001	1.101420e+002	-1.219442e+001	-1.115882e+002	-1.212174e+001	-1.110956e+002	-1.321975e+001	-1.344190e+002
5172270.364	-1.350171e+001	1.064673e+002	-1.225257e+001	-1.177813e+002	-1.217837e+001	-1.173460e+002	-1.303878e+001	-1.377632e+002
5196707.106	-1.383980e+001	1.027789e+002	-1.231686e+001	-1.239352e+002	-1.224500e+001	-1.235517e+002	-1.287596e+001	-1.412962e+002
5221143.847	-1.422973e+001	9.912955e+001	-1.238503e+001	-1.299697e+002	-1.232248e+001	-1.297269e+002	-1.273026e+001	-1.449752e+002
5245580.589	-1.466504e+001	9.539753e+001	-1.246650e+001	-1.360409e+002	-1.240599e+001	-1.358440e+002	-1.260725e+001	-1.488193e+002
5270017.331	-1.515437e+001	9.164057e+001	-1.255404e+001	-1.420639e+002	-1.249798e+001	-1.419367e+002	-1.249903e+001	-1.527889e+002
5294454.073	-1.569827e+001	8.780562e+001	-1.264916e+001	-1.480873e+002	-1.259684e+001	-1.479942e+002	-1.241023e+001	-1.568873e+002
5318890.815	-1.630673e+001	8.389975e+001	-1.275220e+001	-1.540852e+002	-1.270644e+001	-1.540475e+002	-1.233428e+001	-1.611163e+002
5343327.556	-1.698144e+001	7.985059e+001	-1.286320e+001	-1.600887e+002	-1.282512e+001	-1.600941e+002	-1.227380e+001	-1.654775e+002
5367764.298	-1.774789e+001	7.558782e+001	-1.298615e+001	-1.660758e+002	-1.295657e+001	-1.661287e+002	-1.222790e+001	-1.699644e+002
5392201.040	-1.861592e+001	7.105363e+001	-1.312204e+001	-1.720644e+002	-1.309935e+001	-1.721700e+002	-1.219555e+001	-1.745835e+002
5416637.782	-1.961655e+001	6.612119e+001	-1.327138e+001	-1.780196e+002	-1.325664e+001	-1.781616e+002	-1.218353e+001	-1.793339e+002
5441074.523	-2.078214e+001	6.066180e+001	-1.343266e+001	1.760486e+002	-1.342957e+001	1.758761e+002	-1.218846e+001	1.757864e+002
