!Agilent Technologies,E5061B,MY49101568,A.02.00
!Date: Wed Mar 01 14:26:35 2023
!Data & Calibration Information:
!Freq	S11:SOLT2(OFF)	S21:SOLT2(OFF)	S12:SOLT2(OFF)	S22:SOLT2(OFF)
# Hz S dB R 50
1800000.000	-9.935250e+000	-1.671548e+001	-2.229667e+001	-1.495796e+002	-2.229593e+001	-1.495826e+002	-1.038311e+001	1.979018e+001
1824436.742	-1.007394e+001	-2.089031e+001	-2.196339e+001	-1.536468e+002	-2.197086e+001	-1.536665e+002	-1.054388e+001	1.615639e+001
1848873.484	-1.022092e+001	-2.513332e+001	-2.162970e+001	-1.578445e+002	-2.163711e+001	-1.578410e+002	-1.070860e+001	1.246903e+001
1873310.225	-1.037438e+001	-2.941656e+001	-2.128488e+001	-1.620954e+002	-2.129352e+001	-1.620458e+002	-1.087020e+001	8.754604e+000
1897746.967	-1.053099e+001	-3.375804e+001	-2.093865e+001	-1.663890e+002	-2.095266e+001	-1.664276e+002	-1.103294e+001	5.020316e+000
1922183.709	-1.069680e+001	-3.820491e+001	-2.057390e+001	-1.708308e+002	-2.060178e+001	-1.708320e+002	-1.119889e+001	1.167624e+000
1946620.451	-1.087074e+001	-4.272660e+001	-2.021456e+001	-1.753478e+002	-2.023861e+001	-1.753778e+002	-1.136375e+001	-2.726794e+000
1971057.192	-1.105142e+001	-4.734565e+001	-1.985362e+001	-1.799874e+002	-1.988296e+001	-1.799728e+002	-1.152810e+001	-6.708726e+000
1995493.934	-1.124532e+001	-5.204841e+001	-1.949202e+001	1.752448e+002	-1.952022e+001	1.753220e+002	-1.169883e+001	-1.074590e+001
2019930.676	-1.145269e+001	-5.685078e+001	-1.913018e+001	1.703840e+002	-1.916340e+001	1.705089e+002	-1.186069e+001	-1.481050e+001
2044367.418	-1.166418e+001	-6.173211e+001	-1.877021e+001	1.655051e+002	-1.880542e+001	1.656650e+002	-1.201761e+001	-1.905480e+001
2068804.159	-1.188990e+001	-6.676520e+001	-1.839932e+001	1.605406e+002	-1.843699e+001	1.606849e+002	-1.217795e+001	-2.333960e+001
2093240.901	-1.213927e+001	-7.187564e+001	-1.801983e+001	1.554478e+002	-1.806440e+001	1.556011e+002	-1.233755e+001	-2.769121e+001
2117677.643	-1.240559e+001	-7.712842e+001	-1.764904e+001	1.501835e+002	-1.769037e+001	1.503828e+002	-1.249751e+001	-3.213463e+001
2142114.385	-1.269158e+001	-8.249814e+001	-1.727839e+001	1.447930e+002	-1.732083e+001	1.450312e+002	-1.265000e+001	-3.667172e+001
2166551.127	-1.299924e+001	-8.798248e+001	-1.690906e+001	1.392766e+002	-1.695169e+001	1.394879e+002	-1.280251e+001	-4.129453e+001
2190987.868	-1.332988e+001	-9.355235e+001	-1.654856e+001	1.335240e+002	-1.659336e+001	1.337782e+002	-1.295066e+001	-4.599024e+001
2215424.610	-1.367650e+001	-9.921021e+001	-1.621242e+001	1.275744e+002	-1.625564e+001	1.279501e+002	-1.308468e+001	-5.076622e+001
2239861.352	-1.403378e+001	-1.050522e+002	-1.589324e+001	1.216432e+002	-1.593386e+001	1.220154e+002	-1.320714e+001	-5.565620e+001
2264298.094	-1.441165e+001	-1.110484e+002	-1.558145e+001	1.155468e+002	-1.562202e+001	1.159985e+002	-1.331137e+001	-6.069996e+001
2288734.835	-1.479744e+001	-1.172494e+002	-1.530113e+001	1.094036e+002	-1.533429e+001	1.098537e+002	-1.340294e+001	-6.582870e+001
2313171.577	-1.520677e+001	-1.237350e+002	-1.502670e+001	1.032153e+002	-1.505575e+001	1.036668e+002	-1.347436e+001	-7.113919e+001
2337608.319	-1.563408e+001	-1.304125e+002	-1.476525e+001	9.687499e+001	-1.478931e+001	9.735417e+001	-1.353886e+001	-7.662214e+001
2362045.061	-1.606365e+001	-1.372903e+002	-1.452951e+001	9.046132e+001	-1.455220e+001	9.093279e+001	-1.357993e+001	-8.219886e+001
2386481.802	-1.648739e+001	-1.443666e+002	-1.432169e+001	8.384993e+001	-1.434136e+001	8.438136e+001	-1.359746e+001	-8.788780e+001
2410918.544	-1.688161e+001	-1.520391e+002	-1.414527e+001	7.737413e+001	-1.416199e+001	7.788036e+001	-1.358269e+001	-9.381369e+001
2435355.286	-1.721375e+001	-1.602744e+002	-1.401968e+001	7.095029e+001	-1.403058e+001	7.151571e+001	-1.351506e+001	-1.000182e+002
2459792.028	-1.755103e+001	-1.695196e+002	-1.387994e+001	6.476114e+001	-1.389114e+001	6.532119e+001	-1.343500e+001	-1.066435e+002
2484228.769	-1.794713e+001	-1.793749e+002	-1.370790e+001	5.843648e+001	-1.372237e+001	5.920263e+001	-1.336964e+001	-1.136985e+002
2508665.511	-1.831932e+001	1.702508e+002	-1.354896e+001	5.201961e+001	-1.353353e+001	5.277117e+001	-1.334053e+001	-1.208951e+002
2533102.253	-1.867287e+001	1.598349e+002	-1.340767e+001	4.534819e+001	-1.337656e+001	4.599474e+001	-1.332205e+001	-1.279971e+002
2557538.995	-1.894329e+001	1.492593e+002	-1.330077e+001	3.852972e+001	-1.326094e+001	3.913106e+001	-1.329204e+001	-1.351197e+002
2581975.737	-1.909289e+001	1.385752e+002	-1.323934e+001	3.163455e+001	-1.319808e+001	3.218873e+001	-1.324306e+001	-1.422217e+002
2606412.478	-1.907925e+001	1.277931e+002	-1.323757e+001	2.487206e+001	-1.318354e+001	2.535198e+001	-1.316617e+001	-1.493900e+002
2630849.220	-1.894918e+001	1.169071e+002	-1.326420e+001	1.823197e+001	-1.320191e+001	1.869391e+001	-1.307783e+001	-1.567060e+002
2655285.962	-1.871779e+001	1.058993e+002	-1.330568e+001	1.183716e+001	-1.324040e+001	1.217895e+001	-1.298383e+001	-1.641363e+002
2679722.704	-1.844799e+001	9.492991e+001	-1.333623e+001	5.567143e+000	-1.327594e+001	5.897406e+000	-1.289279e+001	-1.717876e+002
2704159.445	-1.816705e+001	8.467947e+001	-1.338119e+001	-8.302980e-001	-1.331490e+001	-5.650469e-001	-1.284952e+001	-1.793190e+002
2728596.187	-1.784169e+001	7.496419e+001	-1.345486e+001	-7.182347e+000	-1.338431e+001	-7.046864e+000	-1.281860e+001	1.733419e+002
2753032.929	-1.749960e+001	6.589498e+001	-1.354999e+001	-1.349511e+001	-1.349259e+001	-1.339604e+001	-1.278236e+001	1.661695e+002
2777469.671	-1.713655e+001	5.744459e+001	-1.368324e+001	-1.973356e+001	-1.361688e+001	-1.961130e+001	-1.275304e+001	1.591047e+002
2801906.412	-1.677621e+001	4.947751e+001	-1.382897e+001	-2.583705e+001	-1.376722e+001	-2.577143e+001	-1.273682e+001	1.522462e+002
2826343.154	-1.640098e+001	4.197275e+001	-1.400767e+001	-3.174761e+001	-1.394381e+001	-3.170519e+001	-1.271165e+001	1.455667e+002
2850779.896	-1.604524e+001	3.481916e+001	-1.418790e+001	-3.749012e+001	-1.413534e+001	-3.747189e+001	-1.268903e+001	1.390732e+002
2875216.638	-1.568615e+001	2.805403e+001	-1.438819e+001	-4.302484e+001	-1.432800e+001	-4.303441e+001	-1.267356e+001	1.326713e+002
2899653.380	-1.535401e+001	2.154730e+001	-1.458395e+001	-4.835970e+001	-1.453647e+001	-4.839260e+001	-1.265504e+001	1.264889e+002
2924090.121	-1.503819e+001	1.536037e+001	-1.478729e+001	-5.354507e+001	-1.474076e+001	-5.360575e+001	-1.265111e+001	1.204478e+002
2948526.863	-1.474255e+001	9.411545e+000	-1.498481e+001	-5.855452e+001	-1.494292e+001	-5.866380e+001	-1.264771e+001	1.145694e+002
2972963.605	-1.446987e+001	3.727977e+000	-1.517779e+001	-6.345301e+001	-1.514448e+001	-6.359233e+001	-1.265679e+001	1.088704e+002
2997400.347	-1.421059e+001	-1.728855e+000	-1.536980e+001	-6.820636e+001	-1.534362e+001	-6.836961e+001	-1.266644e+001	1.033376e+002
3021837.088	-1.397248e+001	-6.986036e+000	-1.555574e+001	-7.284276e+001	-1.553764e+001	-7.300425e+001	-1.268254e+001	9.796489e+001
3046273.830	-1.374170e+001	-1.204856e+001	-1.574164e+001	-7.731912e+001	-1.572800e+001	-7.749529e+001	-1.269666e+001	9.276076e+001
3070710.572	-1.352891e+001	-1.694181e+001	-1.591007e+001	-8.168793e+001	-1.590520e+001	-8.188736e+001	-1.271865e+001	8.767831e+001
3095147.314	-1.333074e+001	-2.169740e+001	-1.606746e+001	-8.597041e+001	-1.607022e+001	-8.617350e+001	-1.274556e+001	8.271539e+001
3119584.055	-1.314714e+001	-2.629591e+001	-1.621645e+001	-9.018147e+001	-1.622519e+001	-9.036783e+001	-1.277688e+001	7.789591e+001
3144020.797	-1.297463e+001	-3.077627e+001	-1.635492e+001	-9.431321e+001	-1.636909e+001	-9.454605e+001	-1.281771e+001	7.325822e+001
3168457.539	-1.281598e+001	-3.511347e+001	-1.648196e+001	-9.840616e+001	-1.650440e+001	-9.864904e+001	-1.285911e+001	6.872772e+001
3192894.281	-1.266847e+001	-3.933621e+001	-1.660140e+001	-1.024702e+002	-1.663066e+001	-1.026787e+002	-1.290633e+001	6.431927e+001
3217331.023	-1.252870e+001	-4.344807e+001	-1.671743e+001	-1.064930e+002	-1.675112e+001	-1.066721e+002	-1.295158e+001	6.004717e+001
3241767.764	-1.239680e+001	-4.743007e+001	-1.682549e+001	-1.104677e+002	-1.686616e+001	-1.106443e+002	-1.300211e+001	5.591932e+001
3266204.506	-1.227222e+001	-5.132380e+001	-1.693284e+001	-1.143895e+002	-1.697948e+001	-1.145331e+002	-1.304770e+001	5.191999e+001
3290641.248	-1.214769e+001	-5.513006e+001	-1.703378e+001	-1.181806e+002	-1.708320e+001	-1.182902e+002	-1.308593e+001	4.798193e+001
3315077.990	-1.202998e+001	-5.892511e+001	-1.710751e+001	-1.218855e+002	-1.716271e+001	-1.219694e+002	-1.312549e+001	4.405781e+001
3339514.731	-1.192502e+001	-6.266247e+001	-1.716241e+001	-1.255973e+002	-1.722244e+001	-1.256846e+002	-1.317742e+001	4.021659e+001
3363951.473	-1.183130e+001	-6.633758e+001	-1.721083e+001	-1.294023e+002	-1.727269e+001	-1.294485e+002	-1.323684e+001	3.649024e+001
3388388.215	-1.174722e+001	-6.992290e+001	-1.724909e+001	-1.331994e+002	-1.731627e+001	-1.331977e+002	-1.330168e+001	3.286151e+001
3412824.957	-1.167113e+001	-7.343923e+001	-1.728088e+001	-1.369871e+002	-1.735280e+001	-1.369657e+002	-1.336840e+001	2.932241e+001
3437261.698	-1.160230e+001	-7.689038e+001	-1.731354e+001	-1.407972e+002	-1.738364e+001	-1.407705e+002	-1.343838e+001	2.591119e+001
3461698.440	-1.154317e+001	-8.026242e+001	-1.733358e+001	-1.446266e+002	-1.741005e+001	-1.445129e+002	-1.350838e+001	2.259270e+001
3486135.182	-1.148837e+001	-8.356077e+001	-1.735518e+001	-1.484518e+002	-1.743116e+001	-1.483273e+002	-1.358132e+001	1.939133e+001
3510571.924	-1.143939e+001	-8.679074e+001	-1.737061e+001	-1.522692e+002	-1.745115e+001	-1.521091e+002	-1.365272e+001	1.629610e+001
3535008.666	-1.139519e+001	-8.993909e+001	-1.738137e+001	-1.560449e+002	-1.746739e+001	-1.558890e+002	-1.371932e+001	1.331300e+001
3559445.407	-1.135473e+001	-9.301032e+001	-1.739619e+001	-1.598648e+002	-1.747787e+001	-1.596396e+002	-1.377933e+001	1.042971e+001
3583882.149	-1.131488e+001	-9.602704e+001	-1.739609e+001	-1.636196e+002	-1.747824e+001	-1.633687e+002	-1.383054e+001	7.617323e+000
3608318.891	-1.127688e+001	-9.897882e+001	-1.738571e+001	-1.673918e+002	-1.747198e+001	-1.671172e+002	-1.387970e+001	4.866417e+000
3632755.633	-1.124369e+001	-1.018926e+002	-1.736608e+001	-1.712692e+002	-1.745513e+001	-1.709199e+002	-1.392783e+001	2.152345e+000
3657192.374	-1.121118e+001	-1.047392e+002	-1.734720e+001	-1.751463e+002	-1.743061e+001	-1.747301e+002	-1.397065e+001	-4.923100e-001
3681629.116	-1.118230e+001	-1.075293e+002	-1.732033e+001	-1.791184e+002	-1.740097e+001	-1.786627e+002	-1.401375e+001	-3.052652e+000
3706065.858	-1.115391e+001	-1.102386e+002	-1.730254e+001	1.768456e+002	-1.738222e+001	1.772915e+002	-1.405259e+001	-5.479063e+000
3730502.600	-1.112640e+001	-1.128339e+002	-1.730360e+001	1.726841e+002	-1.738451e+001	1.731696e+002	-1.407750e+001	-7.771527e+000
3754939.341	-1.108623e+001	-1.153335e+002	-1.733801e+001	1.685575e+002	-1.741301e+001	1.690925e+002	-1.407794e+001	-9.961424e+000
3779376.083	-1.102547e+001	-1.177594e+002	-1.740986e+001	1.645989e+002	-1.748090e+001	1.651540e+002	-1.403989e+001	-1.209779e+001
3803812.825	-1.094124e+001	-1.202043e+002	-1.749825e+001	1.609354e+002	-1.757193e+001	1.615349e+002	-1.395996e+001	-1.433337e+001
3828249.567	-1.081806e+001	-1.228162e+002	-1.759235e+001	1.579254e+002	-1.765698e+001	1.584689e+002	-1.384217e+001	-1.687074e+001
3852686.308	-1.070098e+001	-1.257680e+002	-1.758892e+001	1.553328e+002	-1.765925e+001	1.559357e+002	-1.373089e+001	-1.988693e+001
3877123.050	-1.061299e+001	-1.290011e+002	-1.747013e+001	1.527754e+002	-1.753947e+001	1.533688e+002	-1.367454e+001	-2.323955e+001
3901559.792	-1.058343e+001	-1.323444e+002	-1.726001e+001	1.496759e+002	-1.733088e+001	1.503751e+002	-1.368750e+001	-2.664648e+001
3925996.534	-1.060596e+001	-1.355603e+002	-1.701891e+001	1.458993e+002	-1.709229e+001	1.465642e+002	-1.377181e+001	-2.974109e+001
3950433.276	-1.065983e+001	-1.385106e+002	-1.681495e+001	1.415451e+002	-1.687971e+001	1.422441e+002	-1.388375e+001	-3.249480e+001
3974870.017	-1.072206e+001	-1.411441e+002	-1.667298e+001	1.368187e+002	-1.673964e+001	1.375591e+002	-1.398387e+001	-3.478194e+001
3999306.759	-1.076300e+001	-1.435412e+002	-1.660581e+001	1.320920e+002	-1.666229e+001	1.328666e+002	-1.404874e+001	-3.680002e+001
4023743.501	-1.077361e+001	-1.457783e+002	-1.660391e+001	1.274597e+002	-1.665530e+001	1.282548e+002	-1.405712e+001	-3.861457e+001
4048180.243	-1.075229e+001	-1.480642e+002	-1.663022e+001	1.231886e+002	-1.668128e+001	1.239940e+002	-1.401482e+001	-4.052123e+001
4072616.984	-1.071123e+001	-1.504942e+002	-1.666361e+001	1.192861e+002	-1.671615e+001	1.200770e+002	-1.393929e+001	-4.261483e+001
4097053.726	-1.066877e+001	-1.530790e+002	-1.667127e+001	1.156191e+002	-1.672443e+001	1.164533e+002	-1.385226e+001	-4.497014e+001
4121490.468	-1.062895e+001	-1.558038e+002	-1.665729e+001	1.121475e+002	-1.670549e+001	1.130216e+002	-1.376618e+001	-4.753041e+001
4145927.210	-1.060821e+001	-1.586429e+002	-1.660354e+001	1.087503e+002	-1.665395e+001	1.096643e+002	-1.369258e+001	-5.024452e+001
4170363.951	-1.060517e+001	-1.615426e+002	-1.651633e+001	1.054078e+002	-1.656259e+001	1.062982e+002	-1.363747e+001	-5.303181e+001
4194800.693	-1.062092e+001	-1.644977e+002	-1.640443e+001	1.019953e+002	-1.644478e+001	1.028731e+002	-1.359645e+001	-5.592056e+001
4219237.435	-1.066130e+001	-1.674573e+002	-1.626194e+001	9.844075e+001	-1.629589e+001	9.934221e+001	-1.358025e+001	-5.885073e+001
4243674.177	-1.072196e+001	-1.703713e+002	-1.610614e+001	9.472699e+001	-1.613321e+001	9.564698e+001	-1.357794e+001	-6.173572e+001
4268110.919	-1.080006e+001	-1.732217e+002	-1.594179e+001	9.088790e+001	-1.596562e+001	9.179501e+001	-1.358963e+001	-6.456958e+001
4292547.660	-1.089257e+001	-1.759989e+002	-1.577757e+001	8.688682e+001	-1.579120e+001	8.786565e+001	-1.360565e+001	-6.741339e+001
4316984.402	-1.099614e+001	-1.787547e+002	-1.561035e+001	8.287408e+001	-1.561494e+001	8.379339e+001	-1.363370e+001	-7.021101e+001
4341421.144	-1.111640e+001	1.785669e+002	-1.543775e+001	7.871921e+001	-1.544021e+001	7.962746e+001	-1.366495e+001	-7.297346e+001
4365857.886	-1.125286e+001	1.759820e+002	-1.526295e+001	7.443646e+001	-1.526660e+001	7.531605e+001	-1.370518e+001	-7.566134e+001
4390294.627	-1.139575e+001	1.734968e+002	-1.509558e+001	7.006461e+001	-1.509655e+001	7.092120e+001	-1.374727e+001	-7.832626e+001
4414731.369	-1.154165e+001	1.711526e+002	-1.494085e+001	6.554328e+001	-1.493503e+001	6.642963e+001	-1.379195e+001	-8.093654e+001
4439168.111	-1.168952e+001	1.688629e+002	-1.479277e+001	6.096072e+001	-1.478456e+001	6.189429e+001	-1.383153e+001	-8.355473e+001
4463604.853	-1.183503e+001	1.666511e+002	-1.465895e+001	5.638310e+001	-1.464615e+001	5.730129e+001	-1.386678e+001	-8.611455e+001
4488041.594	-1.198842e+001	1.645127e+002	-1.452297e+001	5.173615e+001	-1.450739e+001	5.263346e+001	-1.390573e+001	-8.865078e+001
4512478.336	-1.213805e+001	1.624440e+002	-1.439941e+001	4.704898e+001	-1.437804e+001	4.794254e+001	-1.394117e+001	-9.121270e+001
4536915.078	-1.228585e+001	1.604688e+002	-1.428208e+001	4.228614e+001	-1.425808e+001	4.317605e+001	-1.397642e+001	-9.374180e+001
4561351.820	-1.242066e+001	1.585208e+002	-1.418557e+001	3.747702e+001	-1.415434e+001	3.835455e+001	-1.400065e+001	-9.623158e+001
4585788.562	-1.254431e+001	1.565577e+002	-1.410488e+001	3.267992e+001	-1.407131e+001	3.354198e+001	-1.400820e+001	-9.874876e+001
4610225.303	-1.266392e+001	1.544931e+002	-1.403826e+001	2.795517e+001	-1.400133e+001	2.882774e+001	-1.400537e+001	-1.014230e+002
4634662.045	-1.279113e+001	1.523270e+002	-1.397545e+001	2.331563e+001	-1.393395e+001	2.414995e+001	-1.400014e+001	-1.041835e+002
4659098.787	-1.292917e+001	1.500990e+002	-1.391273e+001	1.870907e+001	-1.386940e+001	1.952173e+001	-1.399720e+001	-1.070776e+002
4683535.529	-1.308150e+001	1.478169e+002	-1.385384e+001	1.412941e+001	-1.380758e+001	1.490533e+001	-1.399648e+001	-1.100885e+002
4707972.270	-1.325249e+001	1.454466e+002	-1.379738e+001	9.652376e+000	-1.374602e+001	1.035529e+001	-1.400387e+001	-1.132086e+002
4732409.012	-1.345085e+001	1.430038e+002	-1.373618e+001	5.211346e+000	-1.368322e+001	5.859491e+000	-1.402156e+001	-1.165096e+002
4756845.754	-1.368611e+001	1.405619e+002	-1.366415e+001	8.004322e-001	-1.361071e+001	1.422447e+000	-1.405450e+001	-1.199938e+002
4781282.496	-1.395936e+001	1.381622e+002	-1.357991e+001	-3.596947e+000	-1.352526e+001	-2.985016e+000	-1.411672e+001	-1.236246e+002
4805719.237	-1.427294e+001	1.358814e+002	-1.348062e+001	-8.029773e+000	-1.342501e+001	-7.450343e+000	-1.420973e+001	-1.273345e+002
4830155.979	-1.462187e+001	1.337969e+002	-1.336792e+001	-1.253198e+001	-1.331350e+001	-1.199316e+001	-1.433649e+001	-1.310909e+002
4854592.721	-1.499348e+001	1.319423e+002	-1.325124e+001	-1.715568e+001	-1.319623e+001	-1.664140e+001	-1.449586e+001	-1.348415e+002
4879029.463	-1.538303e+001	1.303087e+002	-1.313821e+001	-2.189752e+001	-1.308137e+001	-2.139941e+001	-1.468015e+001	-1.385575e+002
4903466.205	-1.578918e+001	1.288803e+002	-1.302649e+001	-2.672432e+001	-1.297447e+001	-2.625707e+001	-1.488676e+001	-1.422444e+002
4927902.946	-1.620869e+001	1.276519e+002	-1.292577e+001	-3.163153e+001	-1.287484e+001	-3.119324e+001	-1.511494e+001	-1.458913e+002
4952339.688	-1.663688e+001	1.265979e+002	-1.283394e+001	-3.663662e+001	-1.278554e+001	-3.619314e+001	-1.536189e+001	-1.495178e+002
4976776.430	-1.708058e+001	1.258025e+002	-1.275122e+001	-4.165519e+001	-1.270656e+001	-4.122344e+001	-1.562793e+001	-1.531244e+002
5001213.172	-1.754172e+001	1.251688e+002	-1.268370e+001	-4.671235e+001	-1.263834e+001	-4.630278e+001	-1.591253e+001	-1.566872e+002
5025649.913	-1.801881e+001	1.248112e+002	-1.262370e+001	-5.179938e+001	-1.258348e+001	-5.139752e+001	-1.621052e+001	-1.602383e+002
5050086.655	-1.851718e+001	1.247206e+002	-1.257704e+001	-5.689592e+001	-1.254003e+001	-5.653315e+001	-1.652808e+001	-1.637287e+002
5074523.397	-1.902950e+001	1.249534e+002	-1.254117e+001	-6.201268e+001	-1.250714e+001	-6.165403e+001	-1.686042e+001	-1.672205e+002
5098960.139	-1.956337e+001	1.255468e+002	-1.251971e+001	-6.713283e+001	-1.248788e+001	-6.677297e+001	-1.720360e+001	-1.706956e+002
5123396.880	-2.011508e+001	1.265793e+002	-1.250948e+001	-7.223279e+001	-1.248089e+001	-7.187896e+001	-1.756007e+001	-1.741937e+002
5147833.622	-2.068746e+001	1.281782e+002	-1.251326e+001	-7.727898e+001	-1.248713e+001	-7.691707e+001	-1.792324e+001	-1.777711e+002
5172270.364	-2.126642e+001	1.305615e+002	-1.252245e+001	-8.225612e+001	-1.250011e+001	-8.190832e+001	-1.830974e+001	1.785506e+002
5196707.106	-2.181075e+001	1.338495e+002	-1.253505e+001	-8.719479e+001	-1.251549e+001	-8.685499e+001	-1.872720e+001	1.747872e+002
5221143.847	-2.226080e+001	1.381507e+002	-1.254747e+001	-9.207630e+001	-1.253110e+001	-9.176811e+001	-1.918276e+001	1.710033e+002
5245580.589	-2.257114e+001	1.432308e+002	-1.256289e+001	-9.697226e+001	-1.255188e+001	-9.666052e+001	-1.966156e+001	1.671274e+002
5270017.331	-2.271125e+001	1.488139e+002	-1.258639e+001	-1.018518e+002	-1.257457e+001	-1.015298e+002	-2.018227e+001	1.632465e+002
5294454.073	-2.263783e+001	1.545475e+002	-1.260884e+001	-1.067010e+002	-1.260284e+001	-1.063611e+002	-2.072856e+001	1.592924e+002
5318890.815	-2.236642e+001	1.599688e+002	-1.263567e+001	-1.115291e+002	-1.263199e+001	-1.111809e+002	-2.131809e+001	1.552884e+002
5343327.556	-2.193801e+001	1.646870e+002	-1.266559e+001	-1.163276e+002	-1.266481e+001	-1.159754e+002	-2.193777e+001	1.512145e+002
5367764.298	-2.139146e+001	1.685572e+002	-1.269874e+001	-1.211016e+002	-1.269973e+001	-1.207424e+002	-2.260067e+001	1.470327e+002
5392201.040	-2.077724e+001	1.715131e+002	-1.273336e+001	-1.258671e+002	-1.273579e+001	-1.254869e+002	-2.330679e+001	1.427925e+002
5416637.782	-2.013585e+001	1.735771e+002	-1.277113e+001	-1.305997e+002	-1.277460e+001	-1.302022e+002	-2.405884e+001	1.383328e+002
5441074.523	-1.949703e+001	1.748973e+002	-1.280915e+001	-1.353184e+002	-1.281621e+001	-1.348944e+002	-2.485011e+001	1.337277e+002
