!Agilent Technologies,E5061B,MY49101568,A.02.00
!Date: Wed Mar 01 14:25:09 2023
!Data & Calibration Information:
!Freq	S11:SOLT2(OFF)	S21:SOLT2(OFF)	S12:SOLT2(OFF)	S22:SOLT2(OFF)
# Hz S dB R 50
1800000.000	-1.538052e+001	-1.518127e+000	-1.262708e+001	1.781375e+002	-1.261428e+001	1.782218e+002	-1.699660e+001	4.224236e+001
1824436.742	-1.549531e+001	-1.813982e+000	-1.253767e+001	1.720584e+002	-1.252588e+001	1.721378e+002	-1.693913e+001	4.283129e+001
1848873.484	-1.553194e+001	-2.265180e+000	-1.247308e+001	1.660390e+002	-1.245750e+001	1.661809e+002	-1.681862e+001	4.285573e+001
1873310.225	-1.552626e+001	-2.929200e+000	-1.241350e+001	1.601559e+002	-1.240297e+001	1.602637e+002	-1.663687e+001	4.244788e+001
1897746.967	-1.546605e+001	-3.855121e+000	-1.236213e+001	1.543853e+002	-1.235395e+001	1.544581e+002	-1.643922e+001	4.143168e+001
1922183.709	-1.536492e+001	-5.159274e+000	-1.232339e+001	1.486597e+002	-1.230839e+001	1.487194e+002	-1.623418e+001	3.995399e+001
1946620.451	-1.522779e+001	-6.786668e+000	-1.229385e+001	1.429577e+002	-1.229585e+001	1.430197e+002	-1.600003e+001	3.778726e+001
1971057.192	-1.508448e+001	-8.882361e+000	-1.227316e+001	1.374077e+002	-1.226352e+001	1.374762e+002	-1.581560e+001	3.536759e+001
1995493.934	-1.494290e+001	-1.144369e+001	-1.227050e+001	1.319837e+002	-1.226135e+001	1.320344e+002	-1.563466e+001	3.237598e+001
2019930.676	-1.481973e+001	-1.434335e+001	-1.226809e+001	1.267272e+002	-1.225465e+001	1.268010e+002	-1.549420e+001	2.898701e+001
2044367.418	-1.473820e+001	-1.751487e+001	-1.224830e+001	1.216763e+002	-1.223776e+001	1.217099e+002	-1.540599e+001	2.530275e+001
2068804.159	-1.467226e+001	-2.058436e+001	-1.219497e+001	1.166314e+002	-1.219050e+001	1.167171e+002	-1.536121e+001	2.162552e+001
2093240.901	-1.459919e+001	-2.395175e+001	-1.215286e+001	1.115934e+002	-1.215215e+001	1.116255e+002	-1.530104e+001	1.776764e+001
2117677.643	-1.455007e+001	-2.751401e+001	-1.210024e+001	1.065982e+002	-1.210721e+001	1.066537e+002	-1.527306e+001	1.364073e+001
2142114.385	-1.452820e+001	-3.123390e+001	-1.203911e+001	1.016667e+002	-1.205398e+001	1.017005e+002	-1.526367e+001	9.324175e+000
2166551.127	-1.450551e+001	-3.515216e+001	-1.197816e+001	9.665689e+001	-1.199106e+001	9.673410e+001	-1.527263e+001	4.829423e+000
2190987.868	-1.450387e+001	-3.936140e+001	-1.191999e+001	9.169590e+001	-1.192941e+001	9.178932e+001	-1.530094e+001	8.394075e-002
2215424.610	-1.455704e+001	-4.384074e+001	-1.186108e+001	8.682467e+001	-1.186594e+001	8.696361e+001	-1.536761e+001	-4.986072e+000
2239861.352	-1.465733e+001	-4.829816e+001	-1.177443e+001	8.203680e+001	-1.179146e+001	8.215714e+001	-1.546249e+001	-1.026135e+001
2264298.094	-1.479411e+001	-5.297777e+001	-1.168579e+001	7.725080e+001	-1.170452e+001	7.743416e+001	-1.559879e+001	-1.578673e+001
2288734.835	-1.499316e+001	-5.763861e+001	-1.157098e+001	7.252103e+001	-1.158948e+001	7.272525e+001	-1.578123e+001	-2.143079e+001
2313171.577	-1.521688e+001	-6.224081e+001	-1.143888e+001	6.766148e+001	-1.145557e+001	6.788368e+001	-1.599134e+001	-2.717467e+001
2337608.319	-1.546394e+001	-6.688557e+001	-1.129669e+001	6.268767e+001	-1.131693e+001	6.293223e+001	-1.621211e+001	-3.310669e+001
2362045.061	-1.575829e+001	-7.168319e+001	-1.115490e+001	5.769308e+001	-1.117416e+001	5.790057e+001	-1.645915e+001	-3.929673e+001
2386481.802	-1.609502e+001	-7.656457e+001	-1.100727e+001	5.255686e+001	-1.102348e+001	5.278175e+001	-1.673191e+001	-4.574153e+001
2410918.544	-1.648042e+001	-8.143297e+001	-1.085170e+001	4.731404e+001	-1.086572e+001	4.757328e+001	-1.704550e+001	-5.245507e+001
2435355.286	-1.690578e+001	-8.642531e+001	-1.070029e+001	4.192291e+001	-1.071769e+001	4.216836e+001	-1.736012e+001	-5.946886e+001
2459792.028	-1.740341e+001	-9.160476e+001	-1.055978e+001	3.644015e+001	-1.057257e+001	3.671980e+001	-1.771341e+001	-6.690155e+001
2484228.769	-1.796571e+001	-9.691796e+001	-1.042619e+001	3.080164e+001	-1.043764e+001	3.114121e+001	-1.807554e+001	-7.467389e+001
2508665.511	-1.863291e+001	-1.023965e+002	-1.030581e+001	2.513944e+001	-1.031235e+001	2.547628e+001	-1.847724e+001	-8.292384e+001
2533102.253	-1.940167e+001	-1.081401e+002	-1.020239e+001	1.939881e+001	-1.020384e+001	1.970547e+001	-1.889159e+001	-9.164114e+001
2557538.995	-2.030141e+001	-1.139948e+002	-1.011248e+001	1.353877e+001	-1.011259e+001	1.385980e+001	-1.930478e+001	-1.007966e+002
2581975.737	-2.138706e+001	-1.202431e+002	-1.004771e+001	7.641186e+000	-1.004370e+001	7.951824e+000	-1.971705e+001	-1.104972e+002
2606412.478	-2.273783e+001	-1.268535e+002	-1.000241e+001	1.771237e+000	-9.996253e+000	2.085728e+000	-2.011257e+001	-1.208738e+002
2630849.220	-2.442977e+001	-1.337588e+002	-9.976354e+000	-4.102827e+000	-9.966957e+000	-3.791829e+000	-2.048329e+001	-1.317894e+002
2655285.962	-2.668579e+001	-1.414878e+002	-9.972647e+000	-9.888066e+000	-9.955928e+000	-9.600359e+000	-2.081458e+001	-1.433628e+002
2679722.704	-2.974677e+001	-1.489548e+002	-9.959473e+000	-1.565552e+001	-9.946685e+000	-1.541197e+001	-2.115070e+001	-1.552847e+002
2704159.445	-3.437527e+001	-1.592872e+002	-9.968039e+000	-2.143810e+001	-9.945707e+000	-2.121773e+001	-2.142997e+001	-1.673678e+002
2728596.187	-4.363473e+001	1.721880e+002	-9.995093e+000	-2.721993e+001	-9.973001e+000	-2.699357e+001	-2.160779e+001	-1.795315e+002
2753032.929	-4.169636e+001	4.764889e+001	-1.003625e+001	-3.301162e+001	-1.001968e+001	-3.280255e+001	-2.170399e+001	1.689390e+002
2777469.671	-3.387972e+001	2.635081e+001	-1.009690e+001	-3.873897e+001	-1.008189e+001	-3.851861e+001	-2.173998e+001	1.575864e+002
2801906.412	-2.976826e+001	1.727114e+001	-1.017876e+001	-4.432497e+001	-1.016108e+001	-4.416773e+001	-2.169532e+001	1.467924e+002
2826343.154	-2.708690e+001	1.033938e+001	-1.026928e+001	-4.986119e+001	-1.025522e+001	-4.969747e+001	-2.160369e+001	1.365251e+002
2850779.896	-2.511120e+001	4.185815e+000	-1.037811e+001	-5.526822e+001	-1.035887e+001	-5.512990e+001	-2.147304e+001	1.268374e+002
2875216.638	-2.356552e+001	-1.454246e+000	-1.048853e+001	-6.058332e+001	-1.047140e+001	-6.041796e+001	-2.130546e+001	1.177339e+002
2899653.380	-2.231356e+001	-6.914158e+000	-1.060466e+001	-6.573202e+001	-1.058895e+001	-6.556806e+001	-2.112750e+001	1.090807e+002
2924090.121	-2.127140e+001	-1.220828e+001	-1.071952e+001	-7.076445e+001	-1.070632e+001	-7.063964e+001	-2.096784e+001	1.009868e+002
2948526.863	-2.040682e+001	-1.735967e+001	-1.083240e+001	-7.570577e+001	-1.082095e+001	-7.559289e+001	-2.081987e+001	9.325578e+001
2972963.605	-1.967827e+001	-2.234331e+001	-1.094071e+001	-8.056961e+001	-1.093288e+001	-8.045174e+001	-2.069079e+001	8.594360e+001
2997400.347	-1.904878e+001	-2.716184e+001	-1.104874e+001	-8.533457e+001	-1.104414e+001	-8.522667e+001	-2.058374e+001	7.903376e+001
3021837.088	-1.850635e+001	-3.182344e+001	-1.115123e+001	-9.001160e+001	-1.114882e+001	-8.991080e+001	-2.049588e+001	7.246452e+001
3046273.830	-1.803231e+001	-3.643254e+001	-1.124426e+001	-9.459376e+001	-1.124696e+001	-9.450465e+001	-2.042564e+001	6.612248e+001
3070710.572	-1.761995e+001	-4.094252e+001	-1.133028e+001	-9.910492e+001	-1.133289e+001	-9.900173e+001	-2.037832e+001	5.995727e+001
3095147.314	-1.726735e+001	-4.540348e+001	-1.140029e+001	-1.035715e+002	-1.140463e+001	-1.034800e+002	-2.038403e+001	5.387763e+001
3119584.055	-1.696848e+001	-4.982160e+001	-1.145480e+001	-1.080116e+002	-1.145959e+001	-1.079489e+002	-2.044691e+001	4.794520e+001
3144020.797	-1.673063e+001	-5.410247e+001	-1.150291e+001	-1.124937e+002	-1.151058e+001	-1.124455e+002	-2.056471e+001	4.234886e+001
3168457.539	-1.653575e+001	-5.825015e+001	-1.154460e+001	-1.169884e+002	-1.155240e+001	-1.169451e+002	-2.073106e+001	3.700636e+001
3192894.281	-1.638940e+001	-6.230532e+001	-1.157788e+001	-1.215326e+002	-1.159092e+001	-1.214802e+002	-2.095242e+001	3.190265e+001
3217331.023	-1.628090e+001	-6.619843e+001	-1.161063e+001	-1.261082e+002	-1.162456e+001	-1.260435e+002	-2.123278e+001	2.716306e+001
3241767.764	-1.620735e+001	-6.990806e+001	-1.164711e+001	-1.307117e+002	-1.166341e+001	-1.306519e+002	-2.156600e+001	2.286756e+001
3266204.506	-1.615472e+001	-7.338934e+001	-1.168809e+001	-1.352900e+002	-1.170828e+001	-1.352216e+002	-2.190931e+001	1.910316e+001
3290641.248	-1.610329e+001	-7.681919e+001	-1.172642e+001	-1.397790e+002	-1.174739e+001	-1.396954e+002	-2.224469e+001	1.542968e+001
3315077.990	-1.608376e+001	-8.029067e+001	-1.174127e+001	-1.442535e+002	-1.176370e+001	-1.441612e+002	-2.264283e+001	1.155732e+001
3339514.731	-1.612578e+001	-8.366750e+001	-1.174352e+001	-1.488673e+002	-1.176672e+001	-1.487740e+002	-2.319797e+001	7.984801e+000
3363951.473	-1.621020e+001	-8.678975e+001	-1.174948e+001	-1.536337e+002	-1.177359e+001	-1.535319e+002	-2.388383e+001	5.215402e+000
3388388.215	-1.633189e+001	-8.960505e+001	-1.176506e+001	-1.584788e+002	-1.179084e+001	-1.583676e+002	-2.467869e+001	3.542505e+000
3412824.957	-1.648000e+001	-9.208996e+001	-1.179081e+001	-1.633777e+002	-1.181900e+001	-1.632615e+002	-2.554028e+001	3.313660e+000
3437261.698	-1.664265e+001	-9.416371e+001	-1.183288e+001	-1.683319e+002	-1.186329e+001	-1.682118e+002	-2.643539e+001	5.092022e+000
3461698.440	-1.681179e+001	-9.585557e+001	-1.189041e+001	-1.733099e+002	-1.191982e+001	-1.731822e+002	-2.725618e+001	9.096702e+000
3486135.182	-1.697015e+001	-9.710111e+001	-1.196543e+001	-1.782914e+002	-1.199579e+001	-1.781677e+002	-2.781399e+001	1.552746e+001
3510571.924	-1.710359e+001	-9.788892e+001	-1.206090e+001	1.767469e+002	-1.209251e+001	1.768808e+002	-2.789994e+001	2.337779e+001
3535008.666	-1.718679e+001	-9.835410e+001	-1.217543e+001	1.718675e+002	-1.220824e+001	1.719892e+002	-2.745615e+001	3.090365e+001
3559445.407	-1.721037e+001	-9.856541e+001	-1.230365e+001	1.670844e+002	-1.233304e+001	1.672268e+002	-2.665883e+001	3.639220e+001
3583882.149	-1.718565e+001	-9.867363e+001	-1.243429e+001	1.624058e+002	-1.246911e+001	1.625299e+002	-2.568961e+001	3.979249e+001
3608318.891	-1.710678e+001	-9.872937e+001	-1.256964e+001	1.577961e+002	-1.260755e+001	1.579287e+002	-2.469486e+001	4.136203e+001
3632755.633	-1.696866e+001	-9.873781e+001	-1.271348e+001	1.531990e+002	-1.274686e+001	1.533914e+002	-2.374739e+001	4.160305e+001
3657192.374	-1.678078e+001	-9.880453e+001	-1.286211e+001	1.486840e+002	-1.289976e+001	1.488831e+002	-2.281315e+001	4.080249e+001
3681629.116	-1.653669e+001	-9.893938e+001	-1.302256e+001	1.441828e+002	-1.306378e+001	1.443889e+002	-2.193034e+001	3.927812e+001
3706065.858	-1.622147e+001	-9.927767e+001	-1.320754e+001	1.397728e+002	-1.325282e+001	1.399982e+002	-2.107949e+001	3.687669e+001
3730502.600	-1.584465e+001	-1.000151e+002	-1.342306e+001	1.355579e+002	-1.347398e+001	1.357638e+002	-2.027593e+001	3.364242e+001
3754939.341	-1.541772e+001	-1.012704e+002	-1.367142e+001	1.316161e+002	-1.371828e+001	1.318351e+002	-1.956164e+001	2.966213e+001
3779376.083	-1.498697e+001	-1.032374e+002	-1.392730e+001	1.281646e+002	-1.397883e+001	1.284143e+002	-1.896030e+001	2.485143e+001
3803812.825	-1.459135e+001	-1.059893e+002	-1.415789e+001	1.253604e+002	-1.421318e+001	1.256351e+002	-1.852055e+001	1.946944e+001
3828249.567	-1.429627e+001	-1.093208e+002	-1.429233e+001	1.230898e+002	-1.435473e+001	1.234263e+002	-1.828956e+001	1.394961e+001
3852686.308	-1.414397e+001	-1.128743e+002	-1.428171e+001	1.210083e+002	-1.434819e+001	1.213227e+002	-1.827362e+001	9.034789e+000
3877123.050	-1.413526e+001	-1.159972e+002	-1.413087e+001	1.183728e+002	-1.419656e+001	1.187114e+002	-1.842994e+001	5.405939e+000
3901559.792	-1.419837e+001	-1.180853e+002	-1.392756e+001	1.146442e+002	-1.400179e+001	1.150469e+002	-1.856398e+001	3.673071e+000
3925996.534	-1.420251e+001	-1.192051e+002	-1.379205e+001	1.100572e+002	-1.386568e+001	1.105466e+002	-1.850995e+001	3.113482e+000
3950433.276	-1.406117e+001	-1.198897e+002	-1.378127e+001	1.051006e+002	-1.384631e+001	1.056531e+002	-1.820590e+001	2.562260e+000
3974870.017	-1.379292e+001	-1.209508e+002	-1.388048e+001	1.003613e+002	-1.393990e+001	1.009343e+002	-1.774846e+001	9.534943e-001
3999306.759	-1.346778e+001	-1.227330e+002	-1.404856e+001	9.616172e+001	-1.409842e+001	9.672259e+001	-1.728558e+001	-1.860411e+000
4023743.501	-1.316148e+001	-1.252461e+002	-1.422485e+001	9.264657e+001	-1.426924e+001	9.319050e+001	-1.690676e+001	-5.571032e+000
4048180.243	-1.292378e+001	-1.282287e+002	-1.435522e+001	8.970326e+001	-1.440274e+001	9.017065e+001	-1.664024e+001	-9.650243e+000
4072616.984	-1.276860e+001	-1.313202e+002	-1.440278e+001	8.700758e+001	-1.446056e+001	8.748586e+001	-1.649168e+001	-1.373766e+001
4097053.726	-1.268370e+001	-1.342886e+002	-1.436815e+001	8.428657e+001	-1.443163e+001	8.481431e+001	-1.643639e+001	-1.750042e+001
4121490.468	-1.263999e+001	-1.370189e+002	-1.428089e+001	8.134659e+001	-1.434757e+001	8.192453e+001	-1.642049e+001	-2.084788e+001
4145927.210	-1.261407e+001	-1.395023e+002	-1.416356e+001	7.815418e+001	-1.422578e+001	7.878059e+001	-1.642822e+001	-2.380566e+001
4170363.951	-1.259867e+001	-1.417406e+002	-1.402997e+001	7.475063e+001	-1.408881e+001	7.536815e+001	-1.643386e+001	-2.638800e+001
4194800.693	-1.257748e+001	-1.437603e+002	-1.389054e+001	7.106901e+001	-1.394511e+001	7.172869e+001	-1.643023e+001	-2.874156e+001
4219237.435	-1.254172e+001	-1.455960e+002	-1.375383e+001	6.715665e+001	-1.380700e+001	6.782016e+001	-1.639528e+001	-3.082150e+001
4243674.177	-1.248242e+001	-1.473663e+002	-1.363465e+001	6.311585e+001	-1.368669e+001	6.381393e+001	-1.632835e+001	-3.285927e+001
4268110.919	-1.240266e+001	-1.491215e+002	-1.352758e+001	5.899127e+001	-1.357749e+001	5.970219e+001	-1.624171e+001	-3.488864e+001
4292547.660	-1.231054e+001	-1.509225e+002	-1.343100e+001	5.485267e+001	-1.347307e+001	5.555021e+001	-1.614000e+001	-3.693294e+001
4316984.402	-1.220464e+001	-1.527294e+002	-1.334037e+001	5.063669e+001	-1.338032e+001	5.136069e+001	-1.602224e+001	-3.904816e+001
4341421.144	-1.208643e+001	-1.545851e+002	-1.325708e+001	4.636950e+001	-1.329838e+001	4.711389e+001	-1.589062e+001	-4.120665e+001
4365857.886	-1.196232e+001	-1.565440e+002	-1.318367e+001	4.210958e+001	-1.322154e+001	4.286325e+001	-1.575389e+001	-4.345714e+001
4390294.627	-1.182885e+001	-1.585875e+002	-1.311715e+001	3.780874e+001	-1.315380e+001	3.857506e+001	-1.560759e+001	-4.578982e+001
4414731.369	-1.169860e+001	-1.607331e+002	-1.305406e+001	3.353595e+001	-1.308854e+001	3.432012e+001	-1.546708e+001	-4.820956e+001
4439168.111	-1.156907e+001	-1.629900e+002	-1.299618e+001	2.921365e+001	-1.302733e+001	3.005730e+001	-1.532748e+001	-5.074239e+001
4463604.853	-1.144539e+001	-1.653347e+002	-1.293976e+001	2.494805e+001	-1.296992e+001	2.581881e+001	-1.519438e+001	-5.337411e+001
4488041.594	-1.133176e+001	-1.677727e+002	-1.288435e+001	2.068279e+001	-1.291100e+001	2.154827e+001	-1.506898e+001	-5.602858e+001
4512478.336	-1.122331e+001	-1.702757e+002	-1.283416e+001	1.640141e+001	-1.285441e+001	1.729467e+001	-1.495093e+001	-5.876787e+001
4536915.078	-1.112375e+001	-1.728700e+002	-1.278302e+001	1.211485e+001	-1.280254e+001	1.301983e+001	-1.483451e+001	-6.155693e+001
4561351.820	-1.103911e+001	-1.755651e+002	-1.273743e+001	7.849088e+000	-1.275283e+001	8.772908e+000	-1.473008e+001	-6.445394e+001
4585788.562	-1.097417e+001	-1.783370e+002	-1.269093e+001	3.638854e+000	-1.270115e+001	4.562610e+000	-1.464310e+001	-6.743458e+001
4610225.303	-1.092804e+001	1.788703e+002	-1.263884e+001	-5.592144e-001	-1.264290e+001	3.726308e-001	-1.457476e+001	-7.044079e+001
4634662.045	-1.090044e+001	1.760544e+002	-1.257953e+001	-4.773095e+000	-1.257862e+001	-3.827173e+000	-1.452660e+001	-7.345761e+001
4659098.787	-1.088710e+001	1.732390e+002	-1.251555e+001	-9.006490e+000	-1.251025e+001	-8.062763e+000	-1.448905e+001	-7.645710e+001
4683535.529	-1.088882e+001	1.704123e+002	-1.244793e+001	-1.327629e+001	-1.243699e+001	-1.232842e+001	-1.446552e+001	-7.945164e+001
4707972.270	-1.090831e+001	1.675851e+002	-1.237989e+001	-1.753247e+001	-1.236272e+001	-1.663290e+001	-1.445550e+001	-8.241737e+001
4732409.012	-1.094166e+001	1.647645e+002	-1.230540e+001	-2.186835e+001	-1.228600e+001	-2.096745e+001	-1.445643e+001	-8.539331e+001
4756845.754	-1.098975e+001	1.619397e+002	-1.223141e+001	-2.624588e+001	-1.220741e+001	-2.536126e+001	-1.446913e+001	-8.834103e+001
4781282.496	-1.105348e+001	1.591175e+002	-1.215744e+001	-3.067243e+001	-1.212920e+001	-2.979638e+001	-1.449159e+001	-9.126869e+001
4805719.237	-1.113304e+001	1.562882e+002	-1.208610e+001	-3.515280e+001	-1.205269e+001	-3.428892e+001	-1.452205e+001	-9.417392e+001
4830155.979	-1.122990e+001	1.534702e+002	-1.201655e+001	-3.965897e+001	-1.198034e+001	-3.881990e+001	-1.456060e+001	-9.706852e+001
4854592.721	-1.134466e+001	1.506508e+002	-1.195203e+001	-4.421692e+001	-1.191209e+001	-4.339166e+001	-1.460618e+001	-9.996462e+001
4879029.463	-1.147975e+001	1.478447e+002	-1.189170e+001	-4.879510e+001	-1.184712e+001	-4.799639e+001	-1.466240e+001	-1.028373e+002
4903466.205	-1.163742e+001	1.450574e+002	-1.183608e+001	-5.340661e+001	-1.178715e+001	-5.262025e+001	-1.472731e+001	-1.057113e+002
4927902.946	-1.181901e+001	1.423053e+002	-1.178475e+001	-5.803078e+001	-1.173392e+001	-5.727827e+001	-1.480166e+001	-1.085832e+002
4952339.688	-1.202218e+001	1.395969e+002	-1.173684e+001	-6.271017e+001	-1.168401e+001	-6.193471e+001	-1.488881e+001	-1.114698e+002
4976776.430	-1.225268e+001	1.369691e+002	-1.169488e+001	-6.736659e+001	-1.163886e+001	-6.663390e+001	-1.498435e+001	-1.142956e+002
5001213.172	-1.250631e+001	1.344232e+002	-1.165473e+001	-7.204031e+001	-1.159859e+001	-7.132311e+001	-1.509243e+001	-1.171307e+002
5025649.913	-1.278925e+001	1.319835e+002	-1.162087e+001	-7.671512e+001	-1.156346e+001	-7.603381e+001	-1.521179e+001	-1.199174e+002
5050086.655	-1.309495e+001	1.296622e+002	-1.158945e+001	-8.140041e+001	-1.153058e+001	-8.075456e+001	-1.534213e+001	-1.226799e+002
5074523.397	-1.342451e+001	1.274969e+002	-1.156174e+001	-8.610991e+001	-1.150219e+001	-8.548297e+001	-1.548275e+001	-1.253908e+002
5098960.139	-1.377785e+001	1.255074e+002	-1.153609e+001	-9.083065e+001	-1.147903e+001	-9.022556e+001	-1.562888e+001	-1.280582e+002
5123396.880	-1.415352e+001	1.236910e+002	-1.151906e+001	-9.555599e+001	-1.146054e+001	-9.498709e+001	-1.578359e+001	-1.306855e+002
5147833.622	-1.455409e+001	1.220647e+002	-1.150748e+001	-1.002784e+002	-1.144955e+001	-9.975159e+001	-1.594323e+001	-1.333116e+002
5172270.364	-1.497519e+001	1.206758e+002	-1.149928e+001	-1.050110e+002	-1.144326e+001	-1.045010e+002	-1.611166e+001	-1.359076e+002
5196707.106	-1.541895e+001	1.195870e+002	-1.149521e+001	-1.097156e+002	-1.144258e+001	-1.092230e+002	-1.629054e+001	-1.384869e+002
5221143.847	-1.587718e+001	1.188340e+002	-1.149626e+001	-1.143670e+002	-1.144340e+001	-1.139403e+002	-1.648304e+001	-1.409907e+002
5245580.589	-1.633890e+001	1.184373e+002	-1.149608e+001	-1.190659e+002	-1.144535e+001	-1.186462e+002	-1.668065e+001	-1.434402e+002
5270017.331	-1.680107e+001	1.183994e+002	-1.149776e+001	-1.237508e+002	-1.144908e+001	-1.233479e+002	-1.688724e+001	-1.458401e+002
5294454.073	-1.725273e+001	1.187406e+002	-1.150269e+001	-1.284467e+002	-1.145547e+001	-1.280595e+002	-1.709100e+001	-1.481702e+002
5318890.815	-1.768224e+001	1.194563e+002	-1.150853e+001	-1.331451e+002	-1.146494e+001	-1.327629e+002	-1.730046e+001	-1.504440e+002
5343327.556	-1.808619e+001	1.205644e+002	-1.151743e+001	-1.378430e+002	-1.147764e+001	-1.374679e+002	-1.750654e+001	-1.527004e+002
5367764.298	-1.844855e+001	1.219725e+002	-1.152995e+001	-1.425450e+002	-1.148814e+001	-1.421700e+002	-1.771475e+001	-1.548762e+002
5392201.040	-1.876276e+001	1.236815e+002	-1.154152e+001	-1.472461e+002	-1.150586e+001	-1.468794e+002	-1.791707e+001	-1.570729e+002
5416637.782	-1.902541e+001	1.256272e+002	-1.156046e+001	-1.519422e+002	-1.152472e+001	-1.515833e+002	-1.811645e+001	-1.592646e+002
5441074.523	-1.922505e+001	1.276845e+002	-1.158047e+001	-1.566571e+002	-1.154700e+001	-1.563061e+002	-1.831051e+001	-1.614608e+002
