!Agilent Technologies,E5061B,MY49101568,A.02.00
!Date: Wed Mar 01 14:35:17 2023
!Data & Calibration Information:
!Freq	S11:SOLT2(OFF)	S21:SOLT2(OFF)	S12:SOLT2(OFF)	S22:SOLT2(OFF)
# Hz S dB R 50
1800000.000	-9.677025e+000	-2.300607e+001	-2.092838e+001	-1.244095e+002	-2.083196e+001	-1.248398e+002	-1.015219e+001	1.230539e+001
1824436.742	-9.812139e+000	-2.771788e+001	-2.046681e+001	-1.287938e+002	-2.036893e+001	-1.291808e+002	-1.031474e+001	8.107443e+000
1848873.484	-9.960406e+000	-3.257039e+001	-1.999004e+001	-1.333356e+002	-1.989987e+001	-1.337810e+002	-1.048871e+001	3.834765e+000
1873310.225	-1.012047e+001	-3.750238e+001	-1.951090e+001	-1.379669e+002	-1.942403e+001	-1.384304e+002	-1.066694e+001	-5.162791e-001
1897746.967	-1.028342e+001	-4.254867e+001	-1.904148e+001	-1.426346e+002	-1.895250e+001	-1.431535e+002	-1.084350e+001	-4.925955e+000
1922183.709	-1.046765e+001	-4.778156e+001	-1.854422e+001	-1.475379e+002	-1.846981e+001	-1.480320e+002	-1.102797e+001	-9.497201e+000
1946620.451	-1.067278e+001	-5.317245e+001	-1.804412e+001	-1.526123e+002	-1.798560e+001	-1.530266e+002	-1.122027e+001	-1.418278e+001
1971057.192	-1.090023e+001	-5.875741e+001	-1.753320e+001	-1.579384e+002	-1.749207e+001	-1.582939e+002	-1.142761e+001	-1.899324e+001
1995493.934	-1.116751e+001	-6.450901e+001	-1.700242e+001	-1.636091e+002	-1.701509e+001	-1.636331e+002	-1.164013e+001	-2.386464e+001
2019930.676	-1.146458e+001	-7.041288e+001	-1.649926e+001	-1.693972e+002	-1.652453e+001	-1.692467e+002	-1.187625e+001	-2.882404e+001
2044367.418	-1.179112e+001	-7.647202e+001	-1.599736e+001	-1.753277e+002	-1.603169e+001	-1.750877e+002	-1.212284e+001	-3.395859e+001
2068804.159	-1.215604e+001	-8.265436e+001	-1.551808e+001	1.785342e+002	-1.555524e+001	1.788273e+002	-1.239076e+001	-3.909954e+001
2093240.901	-1.258464e+001	-8.895907e+001	-1.504327e+001	1.720790e+002	-1.510600e+001	1.725360e+002	-1.267071e+001	-4.418475e+001
2117677.643	-1.304486e+001	-9.532400e+001	-1.460992e+001	1.655000e+002	-1.467545e+001	1.660642e+002	-1.296842e+001	-4.931251e+001
2142114.385	-1.353830e+001	-1.018802e+002	-1.420366e+001	1.589118e+002	-1.426308e+001	1.595314e+002	-1.325851e+001	-5.446813e+001
2166551.127	-1.408494e+001	-1.086455e+002	-1.380528e+001	1.522551e+002	-1.386146e+001	1.528512e+002	-1.356018e+001	-5.970903e+001
2190987.868	-1.469315e+001	-1.154832e+002	-1.342874e+001	1.453784e+002	-1.348166e+001	1.459981e+002	-1.387332e+001	-6.492127e+001
2215424.610	-1.533034e+001	-1.224080e+002	-1.309995e+001	1.384841e+002	-1.313822e+001	1.390376e+002	-1.417982e+001	-7.002273e+001
2239861.352	-1.604005e+001	-1.293708e+002	-1.279099e+001	1.314226e+002	-1.282604e+001	1.320540e+002	-1.446472e+001	-7.515938e+001
2264298.094	-1.679459e+001	-1.365109e+002	-1.250875e+001	1.243372e+002	-1.253775e+001	1.249978e+002	-1.473214e+001	-8.025827e+001
2288734.835	-1.761016e+001	-1.437721e+002	-1.225306e+001	1.171994e+002	-1.227624e+001	1.178773e+002	-1.497431e+001	-8.535043e+001
2313171.577	-1.845569e+001	-1.511328e+002	-1.202405e+001	1.100367e+002	-1.203917e+001	1.107179e+002	-1.518770e+001	-9.040573e+001
2337608.319	-1.933331e+001	-1.586248e+002	-1.182415e+001	1.028702e+002	-1.183318e+001	1.035386e+002	-1.536173e+001	-9.552231e+001
2362045.061	-2.020654e+001	-1.664026e+002	-1.165065e+001	9.577052e+001	-1.165494e+001	9.630563e+001	-1.550309e+001	-1.006373e+002
2386481.802	-2.105911e+001	-1.743844e+002	-1.150351e+001	8.865049e+001	-1.149937e+001	8.918465e+001	-1.557696e+001	-1.059789e+002
2410918.544	-2.187087e+001	1.770672e+002	-1.137569e+001	8.157582e+001	-1.136465e+001	8.210244e+001	-1.560289e+001	-1.115037e+002
2435355.286	-2.259353e+001	1.678866e+002	-1.126322e+001	7.456161e+001	-1.124494e+001	7.504601e+001	-1.559086e+001	-1.172921e+002
2459792.028	-2.321754e+001	1.581390e+002	-1.116807e+001	6.755994e+001	-1.114692e+001	6.798861e+001	-1.554629e+001	-1.233153e+002
2484228.769	-2.374860e+001	1.478930e+002	-1.108752e+001	6.047027e+001	-1.106222e+001	6.099740e+001	-1.546795e+001	-1.296497e+002
2508665.511	-2.402765e+001	1.369638e+002	-1.102692e+001	5.353077e+001	-1.099703e+001	5.403180e+001	-1.536328e+001	-1.362389e+002
2533102.253	-2.411354e+001	1.257880e+002	-1.098082e+001	4.664002e+001	-1.094751e+001	4.707527e+001	-1.524599e+001	-1.430238e+002
2557538.995	-2.397208e+001	1.146002e+002	-1.095459e+001	3.974864e+001	-1.091856e+001	4.019439e+001	-1.510294e+001	-1.500564e+002
2581975.737	-2.363322e+001	1.037671e+002	-1.094705e+001	3.293024e+001	-1.090747e+001	3.336617e+001	-1.495289e+001	-1.572320e+002
2606412.478	-2.314946e+001	9.341987e+001	-1.095908e+001	2.614151e+001	-1.091412e+001	2.658614e+001	-1.480120e+001	-1.645256e+002
2630849.220	-2.255670e+001	8.365760e+001	-1.099025e+001	1.941329e+001	-1.094684e+001	1.985704e+001	-1.464948e+001	-1.719205e+002
2655285.962	-2.190377e+001	7.456749e+001	-1.103905e+001	1.275492e+001	-1.099573e+001	1.318420e+001	-1.450142e+001	-1.793323e+002
2679722.704	-2.122003e+001	6.601235e+001	-1.110648e+001	6.166496e+000	-1.106092e+001	6.610441e+000	-1.436878e+001	1.732217e+002
2704159.445	-2.052592e+001	5.787015e+001	-1.118803e+001	-2.808478e-001	-1.114516e+001	1.410715e-001	-1.424437e+001	1.658227e+002
2728596.187	-1.985790e+001	5.017312e+001	-1.128175e+001	-6.621972e+000	-1.124268e+001	-6.230648e+000	-1.413197e+001	1.584505e+002
2753032.929	-1.920467e+001	4.285033e+001	-1.139228e+001	-1.282903e+001	-1.135609e+001	-1.248683e+001	-1.403451e+001	1.511731e+002
2777469.671	-1.860342e+001	3.592720e+001	-1.151532e+001	-1.892801e+001	-1.148011e+001	-1.864461e+001	-1.395727e+001	1.440252e+002
2801906.412	-1.804354e+001	2.924949e+001	-1.164505e+001	-2.490107e+001	-1.161502e+001	-2.465216e+001	-1.389522e+001	1.370181e+002
2826343.154	-1.752886e+001	2.286905e+001	-1.178292e+001	-3.077818e+001	-1.175821e+001	-3.053420e+001	-1.385078e+001	1.301737e+002
2850779.896	-1.706443e+001	1.674395e+001	-1.192488e+001	-3.652159e+001	-1.190726e+001	-3.629773e+001	-1.382392e+001	1.234945e+002
2875216.638	-1.664369e+001	1.080722e+001	-1.207056e+001	-4.221929e+001	-1.206007e+001	-4.188987e+001	-1.381078e+001	1.169883e+002
2899653.380	-1.625177e+001	5.094024e+000	-1.221749e+001	-4.770453e+001	-1.221440e+001	-4.738983e+001	-1.381912e+001	1.106872e+002
2924090.121	-1.588933e+001	-4.287282e-001	-1.236484e+001	-5.304686e+001	-1.236888e+001	-5.274471e+001	-1.383542e+001	1.045685e+002
2948526.863	-1.555727e+001	-5.763965e+000	-1.251039e+001	-5.826062e+001	-1.251814e+001	-5.797244e+001	-1.386486e+001	9.859482e+001
2972963.605	-1.525829e+001	-1.094577e+001	-1.264958e+001	-6.339554e+001	-1.266498e+001	-6.311723e+001	-1.391218e+001	9.281912e+001
2997400.347	-1.498348e+001	-1.596565e+001	-1.278727e+001	-6.839013e+001	-1.280618e+001	-6.811786e+001	-1.396387e+001	8.720632e+001
3021837.088	-1.472999e+001	-2.085737e+001	-1.291400e+001	-7.327496e+001	-1.294095e+001	-7.301808e+001	-1.402422e+001	8.173987e+001
3046273.830	-1.449510e+001	-2.564283e+001	-1.303206e+001	-7.802811e+001	-1.306040e+001	-7.781293e+001	-1.409485e+001	7.637112e+001
3070710.572	-1.428360e+001	-3.032396e+001	-1.313615e+001	-8.271624e+001	-1.316642e+001	-8.256630e+001	-1.418598e+001	7.111274e+001
3095147.314	-1.409494e+001	-3.489167e+001	-1.323108e+001	-8.735785e+001	-1.326376e+001	-8.725488e+001	-1.428729e+001	6.600386e+001
3119584.055	-1.392603e+001	-3.932861e+001	-1.331911e+001	-9.195208e+001	-1.335214e+001	-9.188486e+001	-1.439803e+001	6.105982e+001
3144020.797	-1.376611e+001	-4.366732e+001	-1.339807e+001	-9.640944e+001	-1.342148e+001	-9.655442e+001	-1.453579e+001	5.621215e+001
3168457.539	-1.363370e+001	-4.796251e+001	-1.345897e+001	-1.009275e+002	-1.348273e+001	-1.011002e+002	-1.467090e+001	5.147379e+001
3192894.281	-1.352059e+001	-5.216941e+001	-1.350758e+001	-1.054259e+002	-1.353271e+001	-1.056421e+002	-1.482290e+001	4.681081e+001
3217331.023	-1.342971e+001	-5.631940e+001	-1.354302e+001	-1.099657e+002	-1.357002e+001	-1.102256e+002	-1.499947e+001	4.229550e+001
3241767.764	-1.335859e+001	-6.034208e+001	-1.357417e+001	-1.145438e+002	-1.359982e+001	-1.148401e+002	-1.519674e+001	3.793353e+001
3266204.506	-1.330125e+001	-6.426277e+001	-1.360389e+001	-1.190911e+002	-1.363063e+001	-1.194427e+002	-1.540450e+001	3.376700e+001
3290641.248	-1.325037e+001	-6.810253e+001	-1.362709e+001	-1.235795e+002	-1.365486e+001	-1.239188e+002	-1.559556e+001	2.967923e+001
3315077.990	-1.320961e+001	-7.197715e+001	-1.362145e+001	-1.280089e+002	-1.364984e+001	-1.283190e+002	-1.579668e+001	2.546606e+001
3339514.731	-1.319379e+001	-7.587409e+001	-1.358795e+001	-1.325077e+002	-1.361897e+001	-1.327939e+002	-1.603841e+001	2.123368e+001
3363951.473	-1.321195e+001	-7.970733e+001	-1.354458e+001	-1.371519e+002	-1.357788e+001	-1.374064e+002	-1.632535e+001	1.712592e+001
3388388.215	-1.325838e+001	-8.344025e+001	-1.349527e+001	-1.419068e+002	-1.353265e+001	-1.421410e+002	-1.666205e+001	1.322744e+001
3412824.957	-1.333485e+001	-8.705992e+001	-1.344277e+001	-1.467684e+002	-1.348081e+001	-1.469943e+002	-1.704647e+001	9.527963e+000
3437261.698	-1.344227e+001	-9.054931e+001	-1.338761e+001	-1.517411e+002	-1.342596e+001	-1.519851e+002	-1.749111e+001	6.115653e+000
3461698.440	-1.357838e+001	-9.388343e+001	-1.333252e+001	-1.568109e+002	-1.337104e+001	-1.570866e+002	-1.799261e+001	3.047663e+000
3486135.182	-1.375024e+001	-9.698827e+001	-1.328048e+001	-1.620123e+002	-1.332279e+001	-1.622962e+002	-1.854703e+001	4.536328e-001
3510571.924	-1.394797e+001	-9.985939e+001	-1.323505e+001	-1.672952e+002	-1.328048e+001	-1.675827e+002	-1.915232e+001	-1.513132e+000
3535008.666	-1.417119e+001	-1.023484e+002	-1.320659e+001	-1.726820e+002	-1.325281e+001	-1.729934e+002	-1.980038e+001	-2.570639e+000
3559445.407	-1.440692e+001	-1.044753e+002	-1.319133e+001	-1.781294e+002	-1.323834e+001	-1.784353e+002	-2.045095e+001	-2.740082e+000
3583882.149	-1.464913e+001	-1.061965e+002	-1.318654e+001	1.763843e+002	-1.323680e+001	1.760342e+002	-2.109102e+001	-1.707471e+000
3608318.891	-1.488869e+001	-1.075532e+002	-1.318545e+001	1.708550e+002	-1.324107e+001	1.704791e+002	-2.166427e+001	4.499942e-001
3632755.633	-1.510319e+001	-1.085636e+002	-1.319217e+001	1.653298e+002	-1.325487e+001	1.649740e+002	-2.210199e+001	3.540362e+000
3657192.374	-1.530238e+001	-1.090805e+002	-1.320966e+001	1.596968e+002	-1.327319e+001	1.594500e+002	-2.236272e+001	7.408780e+000
3681629.116	-1.546559e+001	-1.091931e+002	-1.323683e+001	1.539982e+002	-1.329981e+001	1.538673e+002	-2.240457e+001	1.190455e+001
3706065.858	-1.557772e+001	-1.088917e+002	-1.327482e+001	1.482053e+002	-1.333861e+001	1.481257e+002	-2.219464e+001	1.669214e+001
3730502.600	-1.561697e+001	-1.081605e+002	-1.333826e+001	1.422761e+002	-1.340265e+001	1.422919e+002	-2.169502e+001	2.100653e+001
3754939.341	-1.555942e+001	-1.072156e+002	-1.342693e+001	1.363164e+002	-1.349134e+001	1.363814e+002	-2.098376e+001	2.420986e+001
3779376.083	-1.539984e+001	-1.062300e+002	-1.354069e+001	1.303216e+002	-1.360800e+001	1.304446e+002	-2.015777e+001	2.597114e+001
3803812.825	-1.513968e+001	-1.053902e+002	-1.368220e+001	1.243264e+002	-1.374851e+001	1.244719e+002	-1.929847e+001	2.648910e+001
3828249.567	-1.478852e+001	-1.048324e+002	-1.385212e+001	1.183235e+002	-1.391570e+001	1.185309e+002	-1.845607e+001	2.582488e+001
3852686.308	-1.436148e+001	-1.047401e+002	-1.405275e+001	1.123579e+002	-1.411825e+001	1.126361e+002	-1.764902e+001	2.422365e+001
3877123.050	-1.388203e+001	-1.052184e+002	-1.428815e+001	1.064841e+002	-1.434825e+001	1.068171e+002	-1.690404e+001	2.194067e+001
3901559.792	-1.338765e+001	-1.062220e+002	-1.454587e+001	1.006878e+002	-1.460395e+001	1.011051e+002	-1.622064e+001	1.913850e+001
3925996.534	-1.289107e+001	-1.077396e+002	-1.482632e+001	9.501764e+001	-1.488670e+001	9.546509e+001	-1.559815e+001	1.596412e+001
3950433.276	-1.239977e+001	-1.096892e+002	-1.513398e+001	8.944473e+001	-1.519618e+001	8.993592e+001	-1.502847e+001	1.248750e+001
3974870.017	-1.192603e+001	-1.120469e+002	-1.547059e+001	8.401517e+001	-1.552764e+001	8.453187e+001	-1.451378e+001	8.814038e+000
3999306.759	-1.147922e+001	-1.147358e+002	-1.583186e+001	7.874071e+001	-1.589522e+001	7.928870e+001	-1.404599e+001	4.946765e+000
4023743.501	-1.106024e+001	-1.177007e+002	-1.621431e+001	7.362896e+001	-1.628173e+001	7.422062e+001	-1.362528e+001	9.670008e-001
4048180.243	-1.066965e+001	-1.209023e+002	-1.662424e+001	6.868283e+001	-1.669300e+001	6.933803e+001	-1.324477e+001	-3.087618e+000
4072616.984	-1.030858e+001	-1.242958e+002	-1.706631e+001	6.394348e+001	-1.712954e+001	6.465946e+001	-1.290085e+001	-7.210998e+000
4097053.726	-9.977952e+000	-1.278442e+002	-1.753164e+001	5.941671e+001	-1.759214e+001	6.018606e+001	-1.258845e+001	-1.136840e+001
4121490.468	-9.679019e+000	-1.315461e+002	-1.802353e+001	5.521627e+001	-1.808303e+001	5.602623e+001	-1.230744e+001	-1.558793e+001
4145927.210	-9.412042e+000	-1.353761e+002	-1.854232e+001	5.133802e+001	-1.860461e+001	5.219939e+001	-1.205572e+001	-1.983739e+001
4170363.951	-9.180119e+000	-1.392807e+002	-1.907204e+001	4.796022e+001	-1.916012e+001	4.880343e+001	-1.182925e+001	-2.411331e+001
4194800.693	-8.978989e+000	-1.433374e+002	-1.964144e+001	4.514102e+001	-1.972643e+001	4.601279e+001	-1.163713e+001	-2.843428e+001
4219237.435	-8.815085e+000	-1.474393e+002	-2.019311e+001	4.298061e+001	-2.027150e+001	4.389069e+001	-1.147926e+001	-3.273818e+001
4243674.177	-8.687310e+000	-1.515338e+002	-2.069747e+001	4.139223e+001	-2.077400e+001	4.234551e+001	-1.134894e+001	-3.698459e+001
4268110.919	-8.586946e+000	-1.556238e+002	-2.116095e+001	4.028177e+001	-2.122805e+001	4.135233e+001	-1.124059e+001	-4.117967e+001
4292547.660	-8.513131e+000	-1.597049e+002	-2.155775e+001	3.971947e+001	-2.162237e+001	4.082891e+001	-1.114795e+001	-4.532972e+001
4316984.402	-8.470259e+000	-1.637884e+002	-2.186599e+001	3.970184e+001	-2.192571e+001	4.083511e+001	-1.107533e+001	-4.944605e+001
4341421.144	-8.457615e+000	-1.678276e+002	-2.203997e+001	4.001572e+001	-2.208090e+001	4.111170e+001	-1.102926e+001	-5.347094e+001
4365857.886	-8.469531e+000	-1.717186e+002	-2.206003e+001	3.994289e+001	-2.209567e+001	4.111906e+001	-1.099858e+001	-5.734943e+001
4390294.627	-8.486605e+000	-1.754933e+002	-2.202807e+001	3.924842e+001	-2.205819e+001	4.042557e+001	-1.095963e+001	-6.106400e+001
4414731.369	-8.491754e+000	-1.792522e+002	-2.205039e+001	3.805039e+001	-2.207585e+001	3.926110e+001	-1.089725e+001	-6.471779e+001
4439168.111	-8.487360e+000	1.768198e+002	-2.218008e+001	3.709463e+001	-2.218632e+001	3.843878e+001	-1.080761e+001	-6.853261e+001
4463604.853	-8.497019e+000	1.725729e+002	-2.234704e+001	3.754280e+001	-2.232090e+001	3.877996e+001	-1.070954e+001	-7.262438e+001
4488041.594	-8.558162e+000	1.679880e+002	-2.234231e+001	3.967823e+001	-2.230133e+001	4.079437e+001	-1.063536e+001	-7.710984e+001
4512478.336	-8.710472e+000	1.632019e+002	-2.193692e+001	4.267991e+001	-2.190915e+001	4.357592e+001	-1.062319e+001	-8.191295e+001
4536915.078	-8.966698e+000	1.585734e+002	-2.110461e+001	4.415417e+001	-2.110218e+001	4.498658e+001	-1.069828e+001	-8.675220e+001
4561351.820	-9.293886e+000	1.544282e+002	-2.015039e+001	4.283782e+001	-2.016183e+001	4.381325e+001	-1.084089e+001	-9.128977e+001
4585788.562	-9.640402e+000	1.507229e+002	-1.931090e+001	3.972400e+001	-1.930558e+001	4.079129e+001	-1.101176e+001	-9.550253e+001
4610225.303	-9.999124e+000	1.473077e+002	-1.858323e+001	3.576833e+001	-1.856126e+001	3.687668e+001	-1.119080e+001	-9.950373e+001
4634662.045	-1.036922e+001	1.441921e+002	-1.795008e+001	3.121243e+001	-1.792179e+001	3.230372e+001	-1.137604e+001	-1.033010e+002
4659098.787	-1.072466e+001	1.413158e+002	-1.743614e+001	2.627259e+001	-1.740628e+001	2.733094e+001	-1.154848e+001	-1.068729e+002
4683535.529	-1.105473e+001	1.384301e+002	-1.705014e+001	2.147633e+001	-1.700623e+001	2.253717e+001	-1.168424e+001	-1.104612e+002
4707972.270	-1.139825e+001	1.352193e+002	-1.671339e+001	1.739612e+001	-1.665566e+001	1.843202e+001	-1.179156e+001	-1.143785e+002
4732409.012	-1.184589e+001	1.316681e+002	-1.628836e+001	1.397939e+001	-1.621385e+001	1.497451e+001	-1.193666e+001	-1.189449e+002
4756845.754	-1.246169e+001	1.284694e+002	-1.569108e+001	1.023018e+001	-1.560287e+001	1.111793e+001	-1.221186e+001	-1.238281e+002
4781282.496	-1.319496e+001	1.264148e+002	-1.502222e+001	5.325030e+000	-1.493413e+001	6.058391e+000	-1.262724e+001	-1.284196e+002
4805719.237	-1.392491e+001	1.257738e+002	-1.441368e+001	-6.665020e-001	-1.434001e+001	-2.570651e-002	-1.311996e+001	-1.322805e+002
4830155.979	-1.455506e+001	1.262482e+002	-1.391156e+001	-7.248136e+000	-1.385464e+001	-6.599735e+000	-1.363741e+001	-1.354821e+002
4854592.721	-1.505769e+001	1.273742e+002	-1.350171e+001	-1.401530e+001	-1.344798e+001	-1.336527e+001	-1.416758e+001	-1.381171e+002
4879029.463	-1.542140e+001	1.287655e+002	-1.316506e+001	-2.082877e+001	-1.311319e+001	-2.013733e+001	-1.468707e+001	-1.402992e+002
4903466.205	-1.566469e+001	1.301860e+002	-1.288139e+001	-2.761205e+001	-1.282994e+001	-2.691627e+001	-1.519702e+001	-1.420130e+002
4927902.946	-1.579910e+001	1.313885e+002	-1.264217e+001	-3.438343e+001	-1.258749e+001	-3.369196e+001	-1.568994e+001	-1.432576e+002
4952339.688	-1.583461e+001	1.322211e+002	-1.244410e+001	-4.122095e+001	-1.238179e+001	-4.045203e+001	-1.615281e+001	-1.440465e+002
4976776.430	-1.581727e+001	1.325892e+002	-1.227860e+001	-4.796532e+001	-1.221721e+001	-4.722031e+001	-1.655646e+001	-1.443148e+002
5001213.172	-1.576582e+001	1.324005e+002	-1.214912e+001	-5.470950e+001	-1.208648e+001	-5.396214e+001	-1.688359e+001	-1.442008e+002
5025649.913	-1.571222e+001	1.316709e+002	-1.205054e+001	-6.139513e+001	-1.198754e+001	-6.066028e+001	-1.712034e+001	-1.439034e+002
5050086.655	-1.567709e+001	1.304997e+002	-1.197838e+001	-6.801732e+001	-1.191723e+001	-6.728761e+001	-1.726767e+001	-1.435881e+002
5074523.397	-1.568294e+001	1.289861e+002	-1.193175e+001	-7.454459e+001	-1.186818e+001	-7.383645e+001	-1.733538e+001	-1.433617e+002
5098960.139	-1.572818e+001	1.272042e+002	-1.190452e+001	-8.100017e+001	-1.184057e+001	-8.030468e+001	-1.733077e+001	-1.433980e+002
5123396.880	-1.582055e+001	1.252603e+002	-1.189400e+001	-8.738627e+001	-1.182895e+001	-8.671127e+001	-1.726918e+001	-1.437335e+002
5147833.622	-1.595972e+001	1.232246e+002	-1.189659e+001	-9.369083e+001	-1.183314e+001	-9.303104e+001	-1.716839e+001	-1.444084e+002
5172270.364	-1.614715e+001	1.211383e+002	-1.191319e+001	-9.993113e+001	-1.184676e+001	-9.928841e+001	-1.703797e+001	-1.454360e+002
5196707.106	-1.637625e+001	1.191303e+002	-1.193316e+001	-1.060885e+002	-1.186957e+001	-1.054811e+002	-1.689646e+001	-1.467772e+002
5221143.847	-1.665756e+001	1.172591e+002	-1.195736e+001	-1.121031e+002	-1.190409e+001	-1.116532e+002	-1.673383e+001	-1.484224e+002
5245580.589	-1.696621e+001	1.153140e+002	-1.199465e+001	-1.181990e+002	-1.194326e+001	-1.177857e+002	-1.656924e+001	-1.503844e+002
5270017.331	-1.731815e+001	1.134388e+002	-1.204014e+001	-1.242678e+002	-1.199094e+001	-1.238920e+002	-1.640007e+001	-1.526069e+002
5294454.073	-1.771165e+001	1.116602e+002	-1.209091e+001	-1.303035e+002	-1.204195e+001	-1.299760e+002	-1.623767e+001	-1.550809e+002
5318890.815	-1.814375e+001	1.099579e+002	-1.214794e+001	-1.363367e+002	-1.210231e+001	-1.360455e+002	-1.607585e+001	-1.578234e+002
5343327.556	-1.862429e+001	1.083157e+002	-1.221057e+001	-1.423864e+002	-1.217055e+001	-1.421188e+002	-1.591656e+001	-1.608048e+002
5367764.298	-1.916287e+001	1.067703e+002	-1.228476e+001	-1.484436e+002	-1.224731e+001	-1.482159e+002	-1.575447e+001	-1.640546e+002
5392201.040	-1.977772e+001	1.052571e+002	-1.237080e+001	-1.545234e+002	-1.233732e+001	-1.543284e+002	-1.560018e+001	-1.675792e+002
5416637.782	-2.048345e+001	1.039207e+002	-1.246929e+001	-1.605969e+002	-1.244209e+001	-1.604327e+002	-1.545479e+001	-1.714074e+002
5441074.523	-2.130152e+001	1.028326e+002	-1.257935e+001	-1.666725e+002	-1.255444e+001	-1.665294e+002	-1.532812e+001	-1.754347e+002
