!Agilent Technologies,E5061B,MY49101568,A.02.00
!Date: Wed Mar 01 14:01:19 2023
!Data & Calibration Information:
!Freq	S11:SOLT2(OFF)	S21:SOLT2(OFF)	S12:SOLT2(OFF)	S22:SOLT2(OFF)
# Hz S dB R 50
1800000.000	-9.705112e+000	-2.353106e+001	-2.089954e+001	-1.247191e+002	-2.087213e+001	-1.248772e+002	-1.016524e+001	1.177682e+001
1824436.742	-9.840696e+000	-2.823921e+001	-2.043264e+001	-1.291098e+002	-2.039788e+001	-1.293102e+002	-1.032970e+001	7.564479e+000
1848873.484	-9.986565e+000	-3.307536e+001	-1.996056e+001	-1.336483e+002	-1.991205e+001	-1.339496e+002	-1.050902e+001	3.247780e+000
1873310.225	-1.014647e+001	-3.799818e+001	-1.948360e+001	-1.383481e+002	-1.942418e+001	-1.387221e+002	-1.069058e+001	-1.106672e+000
1897746.967	-1.032467e+001	-4.306946e+001	-1.897268e+001	-1.432257e+002	-1.894835e+001	-1.435167e+002	-1.087040e+001	-5.553094e+000
1922183.709	-1.051243e+001	-4.829672e+001	-1.847595e+001	-1.482291e+002	-1.846386e+001	-1.484164e+002	-1.105468e+001	-1.012919e+001
1946620.451	-1.072140e+001	-5.368555e+001	-1.796743e+001	-1.533958e+002	-1.797025e+001	-1.535197e+002	-1.125535e+001	-1.483683e+001
1971057.192	-1.095471e+001	-5.925562e+001	-1.745536e+001	-1.587559e+002	-1.746592e+001	-1.588551e+002	-1.146894e+001	-1.965582e+001
1995493.934	-1.121396e+001	-6.497482e+001	-1.694731e+001	-1.643147e+002	-1.698972e+001	-1.641670e+002	-1.168214e+001	-2.456265e+001
2019930.676	-1.150373e+001	-7.087393e+001	-1.645055e+001	-1.700068e+002	-1.649403e+001	-1.697926e+002	-1.192168e+001	-2.952504e+001
2044367.418	-1.183135e+001	-7.688708e+001	-1.594698e+001	-1.759739e+002	-1.600208e+001	-1.757082e+002	-1.217155e+001	-3.468485e+001
2068804.159	-1.220037e+001	-8.304197e+001	-1.547107e+001	1.778389e+002	-1.553250e+001	1.782372e+002	-1.243789e+001	-3.980867e+001
2093240.901	-1.258910e+001	-8.926420e+001	-1.503060e+001	1.716851e+002	-1.509580e+001	1.720813e+002	-1.270338e+001	-4.487357e+001
2117677.643	-1.303422e+001	-9.564075e+001	-1.460226e+001	1.652109e+002	-1.465869e+001	1.656795e+002	-1.299368e+001	-5.004607e+001
2142114.385	-1.352083e+001	-1.021640e+002	-1.419231e+001	1.586407e+002	-1.424762e+001	1.591539e+002	-1.328740e+001	-5.520957e+001
2166551.127	-1.406401e+001	-1.088574e+002	-1.380020e+001	1.519486e+002	-1.384863e+001	1.525124e+002	-1.358610e+001	-6.046615e+001
2190987.868	-1.466636e+001	-1.156318e+002	-1.342706e+001	1.450760e+002	-1.346968e+001	1.456694e+002	-1.389578e+001	-6.566281e+001
2215424.610	-1.528617e+001	-1.225059e+002	-1.309841e+001	1.382378e+002	-1.312293e+001	1.386545e+002	-1.421275e+001	-7.078711e+001
2239861.352	-1.599079e+001	-1.293504e+002	-1.279733e+001	1.311596e+002	-1.281487e+001	1.315670e+002	-1.451239e+001	-7.581588e+001
2264298.094	-1.672832e+001	-1.363343e+002	-1.252357e+001	1.240704e+002	-1.253335e+001	1.244521e+002	-1.478253e+001	-8.081602e+001
2288734.835	-1.750721e+001	-1.435331e+002	-1.226776e+001	1.169960e+002	-1.227280e+001	1.173437e+002	-1.502738e+001	-8.584487e+001
2313171.577	-1.834581e+001	-1.508540e+002	-1.203746e+001	1.098549e+002	-1.203690e+001	1.101700e+002	-1.524770e+001	-9.091263e+001
2337608.319	-1.921719e+001	-1.582459e+002	-1.183682e+001	1.026824e+002	-1.182853e+001	1.029792e+002	-1.542967e+001	-9.600119e+001
2362045.061	-2.008139e+001	-1.658043e+002	-1.166508e+001	9.556193e+001	-1.164618e+001	9.551895e+001	-1.561062e+001	-1.009001e+002
2386481.802	-2.091762e+001	-1.736036e+002	-1.151997e+001	8.843358e+001	-1.149669e+001	8.838570e+001	-1.568543e+001	-1.061314e+002
2410918.544	-2.167737e+001	1.779761e+002	-1.139653e+001	8.144581e+001	-1.136976e+001	8.139517e+001	-1.569114e+001	-1.116752e+002
2435355.286	-2.238861e+001	1.687621e+002	-1.128007e+001	7.446772e+001	-1.124772e+001	7.446247e+001	-1.566045e+001	-1.176133e+002
2459792.028	-2.301375e+001	1.590191e+002	-1.117793e+001	6.748335e+001	-1.114352e+001	6.747892e+001	-1.560762e+001	-1.237352e+002
2484228.769	-2.348184e+001	1.486436e+002	-1.109907e+001	6.049294e+001	-1.105981e+001	6.052934e+001	-1.552475e+001	-1.300820e+002
2508665.511	-2.377986e+001	1.379015e+002	-1.103751e+001	5.354785e+001	-1.099398e+001	5.359248e+001	-1.541613e+001	-1.366582e+002
2533102.253	-2.389979e+001	1.268707e+002	-1.099441e+001	4.661949e+001	-1.095005e+001	4.678803e+001	-1.526641e+001	-1.435528e+002
2557538.995	-2.379621e+001	1.158209e+002	-1.096843e+001	3.973326e+001	-1.092206e+001	3.991747e+001	-1.512323e+001	-1.505664e+002
2581975.737	-2.349609e+001	1.049849e+002	-1.096321e+001	3.287018e+001	-1.091278e+001	3.308155e+001	-1.497486e+001	-1.577363e+002
2606412.478	-2.303446e+001	9.453058e+001	-1.097534e+001	2.609118e+001	-1.092369e+001	2.629974e+001	-1.482089e+001	-1.650587e+002
2630849.220	-2.246564e+001	8.471523e+001	-1.100725e+001	1.936099e+001	-1.095333e+001	1.958034e+001	-1.467162e+001	-1.724558e+002
2655285.962	-2.183230e+001	7.544402e+001	-1.105865e+001	1.271449e+001	-1.100120e+001	1.291339e+001	-1.452573e+001	-1.798819e+002
2679722.704	-2.115514e+001	6.672489e+001	-1.112734e+001	6.153776e+000	-1.107106e+001	6.333610e+000	-1.439222e+001	1.726913e+002
2704159.445	-2.048470e+001	5.854335e+001	-1.121121e+001	-3.120001e-001	-1.115583e+001	-1.591534e-001	-1.427014e+001	1.653052e+002
2728596.187	-1.982177e+001	5.078776e+001	-1.131206e+001	-6.671392e+000	-1.125888e+001	-6.524351e+000	-1.415851e+001	1.579391e+002
2753032.929	-1.918519e+001	4.341410e+001	-1.142529e+001	-1.289048e+001	-1.137402e+001	-1.277396e+001	-1.406419e+001	1.506648e+002
2777469.671	-1.859644e+001	3.632856e+001	-1.154770e+001	-1.902201e+001	-1.150123e+001	-1.890939e+001	-1.398553e+001	1.435017e+002
2801906.412	-1.804381e+001	2.961100e+001	-1.167796e+001	-2.499841e+001	-1.163736e+001	-2.494331e+001	-1.392955e+001	1.364813e+002
2826343.154	-1.753664e+001	2.315146e+001	-1.181823e+001	-3.089303e+001	-1.178228e+001	-3.082429e+001	-1.388799e+001	1.296257e+002
2850779.896	-1.706816e+001	1.694207e+001	-1.196174e+001	-3.663079e+001	-1.193429e+001	-3.657190e+001	-1.386215e+001	1.229288e+002
2875216.638	-1.668585e+001	1.091646e+001	-1.209877e+001	-4.246324e+001	-1.208681e+001	-4.215838e+001	-1.384960e+001	1.164238e+002
2899653.380	-1.630145e+001	5.161782e+000	-1.224527e+001	-4.799958e+001	-1.224401e+001	-4.765724e+001	-1.385682e+001	1.101125e+002
2924090.121	-1.594029e+001	-4.000187e-001	-1.239388e+001	-5.337025e+001	-1.240063e+001	-5.300506e+001	-1.387273e+001	1.039827e+002
2948526.863	-1.559911e+001	-5.763747e+000	-1.254190e+001	-5.855249e+001	-1.255418e+001	-5.822448e+001	-1.390120e+001	9.802864e+001
2972963.605	-1.529211e+001	-1.098194e+001	-1.268267e+001	-6.363169e+001	-1.270310e+001	-6.332630e+001	-1.394196e+001	9.222488e+001
2997400.347	-1.501383e+001	-1.604367e+001	-1.281762e+001	-6.863483e+001	-1.284572e+001	-6.832206e+001	-1.399385e+001	8.658935e+001
3021837.088	-1.475965e+001	-2.095560e+001	-1.294690e+001	-7.352091e+001	-1.297951e+001	-7.322650e+001	-1.405668e+001	8.111073e+001
3046273.830	-1.452970e+001	-2.573855e+001	-1.306809e+001	-7.833666e+001	-1.310655e+001	-7.800787e+001	-1.412293e+001	7.578560e+001
3070710.572	-1.431825e+001	-3.040361e+001	-1.317830e+001	-8.303118e+001	-1.322371e+001	-8.270692e+001	-1.419796e+001	7.058894e+001
3095147.314	-1.413004e+001	-3.496164e+001	-1.327597e+001	-8.768135e+001	-1.332593e+001	-8.732263e+001	-1.428219e+001	6.550111e+001
3119584.055	-1.396005e+001	-3.946167e+001	-1.335669e+001	-9.228207e+001	-1.341420e+001	-9.189433e+001	-1.438184e+001	6.048584e+001
3144020.797	-1.379836e+001	-4.383808e+001	-1.343318e+001	-9.672043e+001	-1.348483e+001	-9.647531e+001	-1.450223e+001	5.561196e+001
3168457.539	-1.366573e+001	-4.815486e+001	-1.349036e+001	-1.012518e+002	-1.354284e+001	-1.010144e+002	-1.463716e+001	5.082607e+001
3192894.281	-1.355250e+001	-5.237444e+001	-1.353592e+001	-1.057683e+002	-1.359304e+001	-1.055362e+002	-1.478078e+001	4.614175e+001
3217331.023	-1.345813e+001	-5.652011e+001	-1.357380e+001	-1.102951e+002	-1.363063e+001	-1.100828e+002	-1.494652e+001	4.159767e+001
3241767.764	-1.338192e+001	-6.055145e+001	-1.360505e+001	-1.148348e+002	-1.366229e+001	-1.146164e+002	-1.512579e+001	3.719568e+001
3266204.506	-1.331692e+001	-6.450358e+001	-1.363254e+001	-1.193204e+002	-1.368818e+001	-1.191106e+002	-1.530567e+001	3.292619e+001
3290641.248	-1.326174e+001	-6.838383e+001	-1.364861e+001	-1.237683e+002	-1.370413e+001	-1.235729e+002	-1.549564e+001	2.872506e+001
3315077.990	-1.322140e+001	-7.223473e+001	-1.364409e+001	-1.282239e+002	-1.370009e+001	-1.280293e+002	-1.570254e+001	2.453294e+001
3339514.731	-1.320616e+001	-7.610203e+001	-1.361969e+001	-1.327291e+002	-1.367723e+001	-1.325285e+002	-1.593871e+001	2.033897e+001
3363951.473	-1.321638e+001	-7.992403e+001	-1.357799e+001	-1.373272e+002	-1.363679e+001	-1.371161e+002	-1.621471e+001	1.620584e+001
3388388.215	-1.325653e+001	-8.368046e+001	-1.352617e+001	-1.420358e+002	-1.358261e+001	-1.418211e+002	-1.653935e+001	1.217460e+001
3412824.957	-1.332737e+001	-8.734427e+001	-1.346845e+001	-1.468507e+002	-1.352216e+001	-1.466826e+002	-1.692040e+001	8.351706e+000
3437261.698	-1.343331e+001	-9.086831e+001	-1.340818e+001	-1.518128e+002	-1.345958e+001	-1.516688e+002	-1.735873e+001	4.781381e+000
3461698.440	-1.357169e+001	-9.418851e+001	-1.335378e+001	-1.569009e+002	-1.340298e+001	-1.568160e+002	-1.786082e+001	1.633054e+000
3486135.182	-1.374588e+001	-9.727247e+001	-1.330848e+001	-1.621230e+002	-1.335675e+001	-1.620574e+002	-1.841287e+001	-9.844916e-001
3510571.924	-1.394318e+001	-1.000592e+002	-1.327554e+001	-1.674330e+002	-1.332511e+001	-1.674132e+002	-1.901514e+001	-2.889152e+000
3535008.666	-1.415714e+001	-1.024997e+002	-1.325703e+001	-1.727821e+002	-1.330713e+001	-1.728205e+002	-1.964608e+001	-3.984732e+000
3559445.407	-1.437823e+001	-1.046156e+002	-1.324813e+001	-1.781661e+002	-1.330086e+001	-1.782616e+002	-2.026929e+001	-4.191380e+000
3583882.149	-1.460046e+001	-1.063958e+002	-1.324488e+001	1.764426e+002	-1.330247e+001	1.762564e+002	-2.088345e+001	-3.404680e+000
3608318.891	-1.481974e+001	-1.078522e+002	-1.324270e+001	1.710595e+002	-1.330509e+001	1.707812e+002	-2.143728e+001	-1.734171e+000
3632755.633	-1.505468e+001	-1.088403e+002	-1.324356e+001	1.653950e+002	-1.329903e+001	1.653701e+002	-2.191839e+001	6.180393e-001
3657192.374	-1.526943e+001	-1.095055e+002	-1.323915e+001	1.597752e+002	-1.329324e+001	1.598018e+002	-2.230287e+001	4.178642e+000
3681629.116	-1.546270e+001	-1.096073e+002	-1.324972e+001	1.539424e+002	-1.329971e+001	1.540520e+002	-2.247903e+001	9.034531e+000
3706065.858	-1.559788e+001	-1.091199e+002	-1.328866e+001	1.479533e+002	-1.333836e+001	1.481172e+002	-2.231214e+001	1.455835e+001
3730502.600	-1.563942e+001	-1.082618e+002	-1.335611e+001	1.419394e+002	-1.340583e+001	1.421399e+002	-2.181262e+001	1.941869e+001
3754939.341	-1.557183e+001	-1.072329e+002	-1.345155e+001	1.359240e+002	-1.350380e+001	1.361642e+002	-2.107822e+001	2.285365e+001
3779376.083	-1.539892e+001	-1.062423e+002	-1.357449e+001	1.299383e+002	-1.362063e+001	1.302637e+002	-2.025845e+001	2.464848e+001
3803812.825	-1.513448e+001	-1.054435e+002	-1.371812e+001	1.239595e+002	-1.376069e+001	1.243408e+002	-1.940256e+001	2.513907e+001
3828249.567	-1.478251e+001	-1.049963e+002	-1.388679e+001	1.180411e+002	-1.392856e+001	1.184097e+002	-1.855408e+001	2.456909e+001
3852686.308	-1.436691e+001	-1.049655e+002	-1.408048e+001	1.121407e+002	-1.412850e+001	1.125147e+002	-1.774082e+001	2.305882e+001
3877123.050	-1.389968e+001	-1.054460e+002	-1.430714e+001	1.062980e+002	-1.435877e+001	1.066919e+002	-1.698832e+001	2.084388e+001
3901559.792	-1.340527e+001	-1.064490e+002	-1.456270e+001	1.005254e+002	-1.461716e+001	1.009414e+002	-1.628964e+001	1.808520e+001
3925996.534	-1.290678e+001	-1.079514e+002	-1.484515e+001	9.484824e+001	-1.489709e+001	9.531164e+001	-1.566265e+001	1.493798e+001
3950433.276	-1.241906e+001	-1.098987e+002	-1.515186e+001	8.929444e+001	-1.520716e+001	8.980059e+001	-1.508674e+001	1.148545e+001
3974870.017	-1.194908e+001	-1.122416e+002	-1.548330e+001	8.389108e+001	-1.554406e+001	8.444202e+001	-1.456945e+001	7.785233e+000
3999306.759	-1.150269e+001	-1.149213e+002	-1.584117e+001	7.863624e+001	-1.590077e+001	7.924709e+001	-1.410503e+001	3.946911e+000
4023743.501	-1.108479e+001	-1.178760e+002	-1.622592e+001	7.354800e+001	-1.628230e+001	7.421726e+001	-1.368254e+001	-1.194700e-002
4048180.243	-1.069638e+001	-1.210610e+002	-1.663086e+001	6.864412e+001	-1.669073e+001	6.936989e+001	-1.329962e+001	-4.049186e+000
4072616.984	-1.034094e+001	-1.244496e+002	-1.706143e+001	6.398289e+001	-1.712200e+001	6.472762e+001	-1.295312e+001	-8.158011e+000
4097053.726	-1.001389e+001	-1.279939e+002	-1.751752e+001	5.953072e+001	-1.757958e+001	6.034104e+001	-1.264099e+001	-1.230519e+001
4121490.468	-9.719372e+000	-1.316844e+002	-1.799728e+001	5.537936e+001	-1.805559e+001	5.621135e+001	-1.235928e+001	-1.648819e+001
4145927.210	-9.455697e+000	-1.354846e+002	-1.850037e+001	5.157995e+001	-1.855632e+001	5.246025e+001	-1.210900e+001	-2.069670e+001
4170363.951	-9.227036e+000	-1.393619e+002	-1.901457e+001	4.821343e+001	-1.907522e+001	4.906618e+001	-1.188600e+001	-2.489759e+001
4194800.693	-9.028175e+000	-1.433490e+002	-1.954194e+001	4.531331e+001	-1.960066e+001	4.628426e+001	-1.169666e+001	-2.916530e+001
4219237.435	-8.863262e+000	-1.473598e+002	-2.005799e+001	4.293362e+001	-2.010458e+001	4.391561e+001	-1.153143e+001	-3.335219e+001
4243674.177	-8.724276e+000	-1.513931e+002	-2.055558e+001	4.098365e+001	-2.059023e+001	4.198820e+001	-1.138624e+001	-3.750849e+001
4268110.919	-8.612782e+000	-1.554379e+002	-2.102446e+001	3.952517e+001	-2.105678e+001	4.050743e+001	-1.125650e+001	-4.163871e+001
4292547.660	-8.530123e+000	-1.595309e+002	-2.145497e+001	3.874121e+001	-2.147896e+001	3.967386e+001	-1.114945e+001	-4.577708e+001
4316984.402	-8.480610e+000	-1.636041e+002	-2.177927e+001	3.852225e+001	-2.180324e+001	3.943111e+001	-1.106823e+001	-4.986797e+001
4341421.144	-8.459679e+000	-1.675996e+002	-2.197990e+001	3.847283e+001	-2.199513e+001	3.932841e+001	-1.100720e+001	-5.385252e+001
4365857.886	-8.454465e+000	-1.714691e+002	-2.207241e+001	3.803479e+001	-2.208210e+001	3.887567e+001	-1.095406e+001	-5.766214e+001
4390294.627	-8.447698e+000	-1.752726e+002	-2.215163e+001	3.711922e+001	-2.217526e+001	3.783867e+001	-1.088302e+001	-6.135479e+001
4414731.369	-8.431338e+000	-1.791657e+002	-2.231882e+001	3.618305e+001	-2.234504e+001	3.688359e+001	-1.078820e+001	-6.511349e+001
4439168.111	-8.412446e+000	1.767293e+002	-2.257428e+001	3.588872e+001	-2.258756e+001	3.685349e+001	-1.067654e+001	-6.912238e+001
4463604.853	-8.426077e+000	1.722952e+002	-2.278288e+001	3.738082e+001	-2.277571e+001	3.835876e+001	-1.057479e+001	-7.343216e+001
4488041.594	-8.498851e+000	1.675760e+002	-2.274703e+001	4.049565e+001	-2.272761e+001	4.140733e+001	-1.050425e+001	-7.805758e+001
4512478.336	-8.655116e+000	1.626858e+002	-2.227816e+001	4.417798e+001	-2.225522e+001	4.495384e+001	-1.049276e+001	-8.296229e+001
4536915.078	-8.916808e+000	1.578691e+002	-2.136731e+001	4.632149e+001	-2.136165e+001	4.709767e+001	-1.056172e+001	-8.797068e+001
4561351.820	-9.270926e+000	1.534394e+002	-2.026830e+001	4.562082e+001	-2.026547e+001	4.645802e+001	-1.071692e+001	-9.279249e+001
4585788.562	-9.680798e+000	1.495634e+002	-1.923696e+001	4.250502e+001	-1.922440e+001	4.333923e+001	-1.092948e+001	-9.723936e+001
4610225.303	-1.011258e+001	1.462563e+002	-1.836188e+001	3.787440e+001	-1.834271e+001	3.871052e+001	-1.116735e+001	-1.012632e+002
4634662.045	-1.052837e+001	1.434555e+002	-1.766993e+001	3.242854e+001	-1.765865e+001	3.321826e+001	-1.139823e+001	-1.048489e+002
4659098.787	-1.090188e+001	1.409564e+002	-1.716114e+001	2.674077e+001	-1.715371e+001	2.755459e+001	-1.159206e+001	-1.081669e+002
4683535.529	-1.122918e+001	1.383879e+002	-1.679772e+001	2.140815e+001	-1.679335e+001	2.235291e+001	-1.172788e+001	-1.115191e+002
4707972.270	-1.156486e+001	1.354566e+002	-1.648520e+001	1.689071e+001	-1.648758e+001	1.804039e+001	-1.182253e+001	-1.152955e+002
4732409.012	-1.200587e+001	1.322005e+002	-1.608255e+001	1.305804e+001	-1.605039e+001	1.432779e+001	-1.197740e+001	-1.197403e+002
4756845.754	-1.258804e+001	1.293773e+002	-1.554499e+001	8.857452e+000	-1.546642e+001	1.013068e+001	-1.225874e+001	-1.243933e+002
4781282.496	-1.324223e+001	1.275933e+002	-1.497414e+001	3.689315e+000	-1.485406e+001	4.809558e+000	-1.265968e+001	-1.286509e+002
4805719.237	-1.387457e+001	1.268524e+002	-1.446021e+001	-2.215542e+000	-1.432215e+001	-1.367712e+000	-1.311492e+001	-1.322248e+002
4830155.979	-1.444065e+001	1.268035e+002	-1.402744e+001	-8.424298e+000	-1.389930e+001	-7.864670e+000	-1.356996e+001	-1.352256e+002
4854592.721	-1.493621e+001	1.272359e+002	-1.365336e+001	-1.472079e+001	-1.354211e+001	-1.432720e+001	-1.401870e+001	-1.379532e+002
4879029.463	-1.535739e+001	1.281050e+002	-1.331597e+001	-2.108839e+001	-1.323103e+001	-2.076397e+001	-1.447459e+001	-1.404161e+002
4903466.205	-1.568457e+001	1.293260e+002	-1.301091e+001	-2.755594e+001	-1.294305e+001	-2.723930e+001	-1.495084e+001	-1.425443e+002
4927902.946	-1.589193e+001	1.306675e+002	-1.274113e+001	-3.416260e+001	-1.268739e+001	-3.382325e+001	-1.543602e+001	-1.441756e+002
4952339.688	-1.595767e+001	1.318231e+002	-1.251702e+001	-4.098593e+001	-1.246200e+001	-4.042445e+001	-1.590998e+001	-1.453694e+002
4976776.430	-1.595520e+001	1.324880e+002	-1.233221e+001	-4.773809e+001	-1.227698e+001	-4.714934e+001	-1.634189e+001	-1.458871e+002
5001213.172	-1.589887e+001	1.325560e+002	-1.218766e+001	-5.451588e+001	-1.213231e+001	-5.387463e+001	-1.669726e+001	-1.459757e+002
5025649.913	-1.583016e+001	1.320569e+002	-1.207757e+001	-6.124591e+001	-1.202063e+001	-6.057792e+001	-1.696813e+001	-1.457799e+002
5050086.655	-1.577907e+001	1.310233e+002	-1.200039e+001	-6.790668e+001	-1.193712e+001	-6.720641e+001	-1.715562e+001	-1.455107e+002
5074523.397	-1.576268e+001	1.296347e+002	-1.194496e+001	-7.448768e+001	-1.188091e+001	-7.377029e+001	-1.725263e+001	-1.452921e+002
5098960.139	-1.579095e+001	1.279709e+002	-1.190918e+001	-8.095493e+001	-1.184547e+001	-8.026304e+001	-1.727257e+001	-1.452645e+002
5123396.880	-1.586424e+001	1.261263e+002	-1.189172e+001	-8.736016e+001	-1.182951e+001	-8.669888e+001	-1.723092e+001	-1.455134e+002
5147833.622	-1.598216e+001	1.241385e+002	-1.188960e+001	-9.369975e+001	-1.182741e+001	-9.306423e+001	-1.714231e+001	-1.460782e+002
5172270.364	-1.614664e+001	1.220768e+002	-1.190252e+001	-9.997243e+001	-1.183650e+001	-9.934528e+001	-1.702644e+001	-1.469757e+002
5196707.106	-1.635804e+001	1.200094e+002	-1.192535e+001	-1.061935e+002	-1.185819e+001	-1.055923e+002	-1.688160e+001	-1.482376e+002
5221143.847	-1.661207e+001	1.179817e+002	-1.195523e+001	-1.123143e+002	-1.189070e+001	-1.117853e+002	-1.672318e+001	-1.498094e+002
5245580.589	-1.691212e+001	1.160014e+002	-1.199531e+001	-1.184265e+002	-1.193205e+001	-1.179344e+002	-1.655850e+001	-1.517170e+002
5270017.331	-1.724986e+001	1.140609e+002	-1.204406e+001	-1.245213e+002	-1.198102e+001	-1.240630e+002	-1.639161e+001	-1.539210e+002
5294454.073	-1.763273e+001	1.122208e+002	-1.209693e+001	-1.305773e+002	-1.203689e+001	-1.301621e+002	-1.622426e+001	-1.563883e+002
5318890.815	-1.806388e+001	1.104621e+002	-1.215943e+001	-1.366175e+002	-1.210051e+001	-1.362445e+002	-1.606129e+001	-1.591263e+002
5343327.556	-1.853669e+001	1.087789e+002	-1.222516e+001	-1.426637e+002	-1.216969e+001	-1.423207e+002	-1.590412e+001	-1.620965e+002
5367764.298	-1.906662e+001	1.072049e+002	-1.229941e+001	-1.487015e+002	-1.224795e+001	-1.484104e+002	-1.574652e+001	-1.653209e+002
5392201.040	-1.966866e+001	1.056879e+002	-1.238480e+001	-1.547754e+002	-1.233801e+001	-1.545048e+002	-1.559791e+001	-1.688126e+002
5416637.782	-2.035631e+001	1.043739e+002	-1.248042e+001	-1.608230e+002	-1.243816e+001	-1.605944e+002	-1.546003e+001	-1.725534e+002
5441074.523	-2.115526e+001	1.032847e+002	-1.258941e+001	-1.668805e+002	-1.255119e+001	-1.666858e+002	-1.533459e+001	-1.765507e+002
