!Agilent Technologies,E5061B,MY49101568,A.02.00
!Date: Wed Mar 01 14:00:18 2023
!Data & Calibration Information:
!Freq	S11:SOLT2(OFF)	S21:SOLT2(OFF)	S12:SOLT2(OFF)	S22:SOLT2(OFF)
# Hz S dB R 50
1800000.000	-9.694134e+000	-2.368651e+001	-2.102037e+001	-1.239668e+002	-2.108867e+001	-1.238646e+002	-1.011128e+001	1.162539e+001
1824436.742	-9.823868e+000	-2.839534e+001	-2.055870e+001	-1.283021e+002	-2.063349e+001	-1.281421e+002	-1.026131e+001	7.441238e+000
1848873.484	-9.963049e+000	-3.323065e+001	-2.008310e+001	-1.328321e+002	-2.016910e+001	-1.325840e+002	-1.042184e+001	3.161937e+000
1873310.225	-1.011262e+001	-3.815703e+001	-1.961367e+001	-1.374167e+002	-1.969695e+001	-1.371920e+002	-1.058451e+001	-1.168520e+000
1897746.967	-1.029030e+001	-4.326212e+001	-1.907866e+001	-1.423778e+002	-1.922364e+001	-1.419246e+002	-1.075241e+001	-5.605042e+000
1922183.709	-1.047128e+001	-4.849862e+001	-1.858293e+001	-1.473039e+002	-1.873037e+001	-1.467634e+002	-1.092539e+001	-1.017765e+001
1946620.451	-1.066625e+001	-5.389334e+001	-1.807491e+001	-1.524135e+002	-1.823546e+001	-1.518100e+002	-1.110777e+001	-1.485832e+001
1971057.192	-1.088861e+001	-5.948045e+001	-1.755552e+001	-1.577617e+002	-1.773291e+001	-1.570044e+002	-1.129853e+001	-1.971483e+001
1995493.934	-1.113655e+001	-6.521836e+001	-1.704458e+001	-1.632866e+002	-1.723768e+001	-1.622822e+002	-1.149728e+001	-2.464244e+001
2019930.676	-1.140508e+001	-7.113469e+001	-1.654793e+001	-1.689009e+002	-1.674083e+001	-1.677673e+002	-1.170977e+001	-2.961438e+001
2044367.418	-1.170787e+001	-7.719776e+001	-1.605202e+001	-1.747174e+002	-1.623236e+001	-1.735722e+002	-1.193578e+001	-3.481623e+001
2068804.159	-1.204858e+001	-8.340597e+001	-1.557115e+001	1.792163e+002	-1.575150e+001	-1.795696e+002	-1.217842e+001	-3.999680e+001
2093240.901	-1.243589e+001	-8.973241e+001	-1.510903e+001	1.729448e+002	-1.527145e+001	1.741321e+002	-1.244708e+001	-4.519917e+001
2117677.643	-1.285448e+001	-9.621224e+001	-1.467280e+001	1.665671e+002	-1.482334e+001	1.677345e+002	-1.271921e+001	-5.044984e+001
2142114.385	-1.331262e+001	-1.028307e+002	-1.426220e+001	1.600636e+002	-1.439150e+001	1.612013e+002	-1.299451e+001	-5.572288e+001
2166551.127	-1.382603e+001	-1.096433e+002	-1.386039e+001	1.533798e+002	-1.397449e+001	1.545337e+002	-1.328160e+001	-6.106408e+001
2190987.868	-1.439513e+001	-1.165891e+002	-1.348158e+001	1.465672e+002	-1.357789e+001	1.476110e+002	-1.358397e+001	-6.635803e+001
2215424.610	-1.503061e+001	-1.235618e+002	-1.313827e+001	1.395115e+002	-1.320564e+001	1.405201e+002	-1.390034e+001	-7.164218e+001
2239861.352	-1.571904e+001	-1.305797e+002	-1.282422e+001	1.323802e+002	-1.288508e+001	1.334587e+002	-1.418432e+001	-7.682124e+001
2264298.094	-1.642198e+001	-1.377946e+002	-1.254442e+001	1.253345e+002	-1.259098e+001	1.263419e+002	-1.444711e+001	-8.197368e+001
2288734.835	-1.714455e+001	-1.453174e+002	-1.228847e+001	1.183535e+002	-1.232028e+001	1.191699e+002	-1.469129e+001	-8.711900e+001
2313171.577	-1.792275e+001	-1.529876e+002	-1.205411e+001	1.112889e+002	-1.207157e+001	1.119004e+002	-1.491974e+001	-9.225339e+001
2337608.319	-1.873588e+001	-1.607455e+002	-1.184907e+001	1.041429e+002	-1.185367e+001	1.046150e+002	-1.511209e+001	-9.738897e+001
2362045.061	-1.955582e+001	-1.685799e+002	-1.167417e+001	9.697875e+001	-1.166214e+001	9.711610e+001	-1.530115e+001	-1.023990e+002
2386481.802	-2.034559e+001	-1.766614e+002	-1.153019e+001	8.985521e+001	-1.151005e+001	9.005635e+001	-1.536029e+001	-1.077674e+002
2410918.544	-2.105168e+001	1.747466e+002	-1.140715e+001	8.282498e+001	-1.138068e+001	8.302589e+001	-1.536885e+001	-1.133117e+002
2435355.286	-2.170208e+001	1.654055e+002	-1.129021e+001	7.585747e+001	-1.125862e+001	7.599431e+001	-1.534999e+001	-1.191351e+002
2459792.028	-2.226113e+001	1.555928e+002	-1.118910e+001	6.885549e+001	-1.115237e+001	6.892444e+001	-1.531280e+001	-1.251407e+002
2484228.769	-2.269670e+001	1.454768e+002	-1.111331e+001	6.182437e+001	-1.106821e+001	6.200790e+001	-1.522239e+001	-1.315126e+002
2508665.511	-2.295374e+001	1.349529e+002	-1.105489e+001	5.487479e+001	-1.100522e+001	5.499588e+001	-1.512049e+001	-1.379969e+002
2533102.253	-2.292598e+001	1.240835e+002	-1.101967e+001	4.813819e+001	-1.096492e+001	4.816852e+001	-1.497061e+001	-1.447456e+002
2557538.995	-2.280488e+001	1.135386e+002	-1.100090e+001	4.126382e+001	-1.094081e+001	4.129815e+001	-1.482485e+001	-1.516734e+002
2581975.737	-2.253380e+001	1.032475e+002	-1.099937e+001	3.441748e+001	-1.093622e+001	3.443691e+001	-1.467236e+001	-1.587268e+002
2606412.478	-2.211199e+001	9.328897e+001	-1.101919e+001	2.766109e+001	-1.095162e+001	2.762595e+001	-1.452159e+001	-1.659329e+002
2630849.220	-2.160524e+001	8.389630e+001	-1.105847e+001	2.094767e+001	-1.098579e+001	2.086452e+001	-1.437553e+001	-1.731982e+002
2655285.962	-2.104384e+001	7.496600e+001	-1.111492e+001	1.430943e+001	-1.104063e+001	1.416215e+001	-1.424046e+001	1.794778e+002
2679722.704	-2.044463e+001	6.656102e+001	-1.119029e+001	7.734502e+000	-1.111423e+001	7.522941e+000	-1.411733e+001	1.721465e+002
2704159.445	-1.984005e+001	5.858345e+001	-1.128238e+001	1.260919e+000	-1.120367e+001	1.023418e+000	-1.399513e+001	1.648765e+002
2728596.187	-1.924230e+001	5.099725e+001	-1.138974e+001	-5.090253e+000	-1.131350e+001	-5.303003e+000	-1.387545e+001	1.576068e+002
2753032.929	-1.865828e+001	4.374574e+001	-1.151100e+001	-1.127773e+001	-1.143628e+001	-1.148281e+001	-1.376372e+001	1.504034e+002
2777469.671	-1.810626e+001	3.674793e+001	-1.164242e+001	-1.737015e+001	-1.157230e+001	-1.757650e+001	-1.367668e+001	1.433301e+002
2801906.412	-1.758310e+001	3.012318e+001	-1.178276e+001	-2.331392e+001	-1.171719e+001	-2.355786e+001	-1.361451e+001	1.363814e+002
2826343.154	-1.710041e+001	2.374082e+001	-1.193298e+001	-2.911534e+001	-1.186812e+001	-2.944930e+001	-1.357023e+001	1.296080e+002
2850779.896	-1.665572e+001	1.757207e+001	-1.208815e+001	-3.479678e+001	-1.202593e+001	-3.515889e+001	-1.354039e+001	1.229915e+002
2875216.638	-1.624427e+001	1.165972e+001	-1.224730e+001	-4.037898e+001	-1.218988e+001	-4.072507e+001	-1.352375e+001	1.165551e+002
2899653.380	-1.587205e+001	5.936697e+000	-1.240721e+001	-4.581706e+001	-1.235572e+001	-4.616138e+001	-1.352192e+001	1.103034e+002
2924090.121	-1.553096e+001	4.211441e-001	-1.256641e+001	-5.112682e+001	-1.252116e+001	-5.146865e+001	-1.353203e+001	1.042429e+002
2948526.863	-1.521881e+001	-4.937010e+000	-1.272100e+001	-5.632877e+001	-1.268358e+001	-5.663501e+001	-1.355023e+001	9.834062e+001
2972963.605	-1.492301e+001	-1.010946e+001	-1.287393e+001	-6.135141e+001	-1.284297e+001	-6.168031e+001	-1.358149e+001	9.260855e+001
2997400.347	-1.465339e+001	-1.514819e+001	-1.301987e+001	-6.627173e+001	-1.299379e+001	-6.662403e+001	-1.362461e+001	8.702621e+001
3021837.088	-1.440781e+001	-2.004560e+001	-1.315841e+001	-7.109996e+001	-1.313724e+001	-7.149381e+001	-1.368068e+001	8.160663e+001
3046273.830	-1.418323e+001	-2.480610e+001	-1.328982e+001	-7.583849e+001	-1.327226e+001	-7.625215e+001	-1.374559e+001	7.633054e+001
3070710.572	-1.397537e+001	-2.945202e+001	-1.340968e+001	-8.048073e+001	-1.339813e+001	-8.088085e+001	-1.380813e+001	7.116308e+001
3095147.314	-1.378785e+001	-3.401375e+001	-1.351461e+001	-8.505690e+001	-1.351136e+001	-8.540553e+001	-1.387341e+001	6.612343e+001
3119584.055	-1.361434e+001	-3.848232e+001	-1.360494e+001	-8.955575e+001	-1.360917e+001	-8.988178e+001	-1.395412e+001	6.117522e+001
3144020.797	-1.345357e+001	-4.286386e+001	-1.368687e+001	-9.395072e+001	-1.370251e+001	-9.420182e+001	-1.401747e+001	5.637444e+001
3168457.539	-1.331360e+001	-4.717902e+001	-1.375222e+001	-9.835714e+001	-1.377318e+001	-9.859539e+001	-1.411991e+001	5.163867e+001
3192894.281	-1.319364e+001	-5.140415e+001	-1.380584e+001	-1.027743e+002	-1.383365e+001	-1.029775e+002	-1.423125e+001	4.699466e+001
3217331.023	-1.308832e+001	-5.554244e+001	-1.384915e+001	-1.072007e+002	-1.388160e+001	-1.073717e+002	-1.436044e+001	4.246230e+001
3241767.764	-1.300072e+001	-5.959281e+001	-1.388518e+001	-1.116217e+002	-1.392136e+001	-1.117674e+002	-1.450251e+001	3.806720e+001
3266204.506	-1.292753e+001	-6.355560e+001	-1.391614e+001	-1.160438e+002	-1.395424e+001	-1.161492e+002	-1.465187e+001	3.377912e+001
3290641.248	-1.285648e+001	-6.745047e+001	-1.393354e+001	-1.203623e+002	-1.397655e+001	-1.204950e+002	-1.480589e+001	2.957772e+001
3315077.990	-1.279795e+001	-7.135083e+001	-1.393282e+001	-1.246739e+002	-1.398053e+001	-1.247901e+002	-1.496676e+001	2.537229e+001
3339514.731	-1.275704e+001	-7.524152e+001	-1.390879e+001	-1.290164e+002	-1.396159e+001	-1.290763e+002	-1.513990e+001	2.113243e+001
3363951.473	-1.273847e+001	-7.911037e+001	-1.386951e+001	-1.334316e+002	-1.392393e+001	-1.334738e+002	-1.535055e+001	1.694379e+001
3388388.215	-1.274841e+001	-8.294397e+001	-1.381606e+001	-1.379702e+002	-1.387362e+001	-1.379175e+002	-1.558490e+001	1.278607e+001
3412824.957	-1.278594e+001	-8.671921e+001	-1.375107e+001	-1.426172e+002	-1.381192e+001	-1.424778e+002	-1.586110e+001	8.729079e+000
3437261.698	-1.285571e+001	-9.039792e+001	-1.368371e+001	-1.474112e+002	-1.374563e+001	-1.471820e+002	-1.618253e+001	4.851301e+000
3461698.440	-1.296034e+001	-9.392124e+001	-1.361630e+001	-1.523556e+002	-1.367934e+001	-1.520273e+002	-1.655567e+001	1.226216e+000
3486135.182	-1.309784e+001	-9.726482e+001	-1.355416e+001	-1.574477e+002	-1.361416e+001	-1.570048e+002	-1.697955e+001	-2.138439e+000
3510571.924	-1.324901e+001	-1.004140e+002	-1.350112e+001	-1.625424e+002	-1.356160e+001	-1.620874e+002	-1.744404e+001	-5.060499e+000
3535008.666	-1.342283e+001	-1.033001e+002	-1.346010e+001	-1.676860e+002	-1.351783e+001	-1.672072e+002	-1.793442e+001	-7.518439e+000
3559445.407	-1.361206e+001	-1.059458e+002	-1.342343e+001	-1.728822e+002	-1.347996e+001	-1.723319e+002	-1.844695e+001	-9.549287e+000
3583882.149	-1.381006e+001	-1.083537e+002	-1.338959e+001	-1.780649e+002	-1.344428e+001	-1.775010e+002	-1.897579e+001	-1.106211e+001
3608318.891	-1.401643e+001	-1.105248e+002	-1.335294e+001	1.767267e+002	-1.340583e+001	1.772918e+002	-1.952645e+001	-1.204347e+001
3632755.633	-1.428266e+001	-1.122542e+002	-1.331322e+001	1.710373e+002	-1.336408e+001	1.720130e+002	-2.011175e+001	-1.240888e+001
3657192.374	-1.452192e+001	-1.137676e+002	-1.326921e+001	1.655651e+002	-1.331235e+001	1.665704e+002	-2.073380e+001	-1.187804e+001
3681629.116	-1.477788e+001	-1.148449e+002	-1.323347e+001	1.598713e+002	-1.327164e+001	1.609228e+002	-2.134912e+001	-9.944321e+000
3706065.858	-1.501934e+001	-1.152490e+002	-1.322519e+001	1.539505e+002	-1.325159e+001	1.550612e+002	-2.186463e+001	-6.279477e+000
3730502.600	-1.521339e+001	-1.150500e+002	-1.324765e+001	1.478979e+002	-1.326094e+001	1.491278e+002	-2.212007e+001	-1.352994e+000
3754939.341	-1.533065e+001	-1.145508e+002	-1.329157e+001	1.419288e+002	-1.329404e+001	1.431509e+002	-2.206054e+001	4.058230e+000
3779376.083	-1.536193e+001	-1.137864e+002	-1.335407e+001	1.359919e+002	-1.335706e+001	1.371319e+002	-2.166793e+001	9.032026e+000
3803812.825	-1.530009e+001	-1.127969e+002	-1.344128e+001	1.299858e+002	-1.344351e+001	1.310469e+002	-2.103532e+001	1.299386e+001
3828249.567	-1.512641e+001	-1.117663e+002	-1.355982e+001	1.239448e+002	-1.356461e+001	1.249008e+002	-2.023129e+001	1.560898e+001
3852686.308	-1.483910e+001	-1.107940e+002	-1.371803e+001	1.177931e+002	-1.371640e+001	1.187627e+002	-1.936559e+001	1.672250e+001
3877123.050	-1.445297e+001	-1.102275e+002	-1.391101e+001	1.116744e+002	-1.390080e+001	1.126562e+002	-1.849425e+001	1.656205e+001
3901559.792	-1.401010e+001	-1.102791e+002	-1.412649e+001	1.056953e+002	-1.412471e+001	1.065904e+002	-1.764454e+001	1.534430e+001
3925996.534	-1.352185e+001	-1.108854e+002	-1.437601e+001	9.978408e+001	-1.438260e+001	1.006231e+002	-1.685527e+001	1.328599e+001
3950433.276	-1.301369e+001	-1.120563e+002	-1.466188e+001	9.395711e+001	-1.467689e+001	9.475612e+001	-1.612795e+001	1.058086e+001
3974870.017	-1.250756e+001	-1.137739e+002	-1.497840e+001	8.828843e+001	-1.500781e+001	8.903443e+001	-1.546535e+001	7.396095e+000
3999306.759	-1.201598e+001	-1.159396e+002	-1.532284e+001	8.275270e+001	-1.536537e+001	8.351708e+001	-1.487549e+001	3.866248e+000
4023743.501	-1.154297e+001	-1.185092e+002	-1.570654e+001	7.737260e+001	-1.574839e+001	7.817192e+001	-1.434670e+001	1.198778e-001
4048180.243	-1.110176e+001	-1.214018e+002	-1.611470e+001	7.217716e+001	-1.615698e+001	7.301987e+001	-1.387345e+001	-3.796600e+000
4072616.984	-1.069486e+001	-1.245831e+002	-1.655198e+001	6.721779e+001	-1.660183e+001	6.809515e+001	-1.344358e+001	-7.865541e+000
4097053.726	-1.032373e+001	-1.279989e+002	-1.701677e+001	6.251308e+001	-1.707353e+001	6.343035e+001	-1.306162e+001	-1.202042e+001
4121490.468	-9.987571e+000	-1.315893e+002	-1.750692e+001	5.810918e+001	-1.757452e+001	5.907312e+001	-1.272176e+001	-1.624873e+001
4145927.210	-9.686274e+000	-1.353622e+002	-1.803130e+001	5.408125e+001	-1.809976e+001	5.510788e+001	-1.241933e+001	-2.052823e+001
4170363.951	-9.426522e+000	-1.392525e+002	-1.856930e+001	5.055722e+001	-1.864885e+001	5.161446e+001	-1.215391e+001	-2.483507e+001
4194800.693	-9.199823e+000	-1.432521e+002	-1.912394e+001	4.748480e+001	-1.918972e+001	4.861111e+001	-1.192778e+001	-2.913410e+001
4219237.435	-9.007866e+000	-1.473069e+002	-1.967552e+001	4.491694e+001	-1.971330e+001	4.612666e+001	-1.173579e+001	-3.339882e+001
4243674.177	-8.851234e+000	-1.513836e+002	-2.020236e+001	4.287770e+001	-2.021541e+001	4.405415e+001	-1.156501e+001	-3.760430e+001
4268110.919	-8.723393e+000	-1.554791e+002	-2.069972e+001	4.134656e+001	-2.070780e+001	4.242311e+001	-1.141047e+001	-4.179507e+001
4292547.660	-8.628562e+000	-1.596199e+002	-2.115679e+001	4.054321e+001	-2.116004e+001	4.144174e+001	-1.128064e+001	-4.598753e+001
4316984.402	-8.567343e+000	-1.637307e+002	-2.150934e+001	4.024047e+001	-2.151831e+001	4.109771e+001	-1.118015e+001	-5.014937e+001
4341421.144	-8.540901e+000	-1.677865e+002	-2.172819e+001	4.025516e+001	-2.173635e+001	4.101097e+001	-1.110710e+001	-5.420128e+001
4365857.886	-8.526803e+000	-1.716946e+002	-2.185028e+001	3.980966e+001	-2.186040e+001	4.060001e+001	-1.103901e+001	-5.807504e+001
4390294.627	-8.518216e+000	-1.755503e+002	-2.194262e+001	3.903618e+001	-2.196497e+001	3.961267e+001	-1.096000e+001	-6.180877e+001
4414731.369	-8.496587e+000	-1.794362e+002	-2.211012e+001	3.802147e+001	-2.215589e+001	3.865983e+001	-1.085288e+001	-6.558557e+001
4439168.111	-8.479047e+000	1.764277e+002	-2.234722e+001	3.781327e+001	-2.241197e+001	3.854304e+001	-1.073092e+001	-6.959342e+001
4463604.853	-8.483744e+000	1.720238e+002	-2.256337e+001	3.899837e+001	-2.263831e+001	4.001004e+001	-1.060959e+001	-7.391790e+001
4488041.594	-8.541411e+000	1.673122e+002	-2.257083e+001	4.182232e+001	-2.261765e+001	4.306527e+001	-1.052334e+001	-7.856472e+001
4512478.336	-8.678346e+000	1.623938e+002	-2.217644e+001	4.533046e+001	-2.218473e+001	4.675195e+001	-1.049159e+001	-8.352555e+001
4536915.078	-8.914365e+000	1.575160e+002	-2.135704e+001	4.754513e+001	-2.131506e+001	4.897446e+001	-1.054126e+001	-8.857580e+001
4561351.820	-9.241970e+000	1.529058e+002	-2.033079e+001	4.731694e+001	-2.023829e+001	4.851011e+001	-1.067482e+001	-9.349212e+001
4585788.562	-9.635476e+000	1.488420e+002	-1.932645e+001	4.451338e+001	-1.922155e+001	4.554876e+001	-1.086448e+001	-9.803044e+001
4610225.303	-1.005082e+001	1.452658e+002	-1.847884e+001	4.027240e+001	-1.837756e+001	4.106338e+001	-1.107722e+001	-1.021532e+002
4634662.045	-1.047197e+001	1.421191e+002	-1.777760e+001	3.525036e+001	-1.769585e+001	3.584542e+001	-1.129051e+001	-1.059350e+002
4659098.787	-1.086133e+001	1.393004e+002	-1.725433e+001	2.986364e+001	-1.718248e+001	3.042158e+001	-1.147425e+001	-1.094593e+002
4683535.529	-1.121733e+001	1.364717e+002	-1.686570e+001	2.477028e+001	-1.680640e+001	2.526551e+001	-1.161050e+001	-1.129609e+002
4707972.270	-1.158477e+001	1.332390e+002	-1.652519e+001	2.053522e+001	-1.650063e+001	2.101882e+001	-1.169490e+001	-1.168200e+002
4732409.012	-1.204400e+001	1.296709e+002	-1.611286e+001	1.686104e+001	-1.608382e+001	1.734393e+001	-1.182282e+001	-1.213175e+002
4756845.754	-1.265915e+001	1.264365e+002	-1.555937e+001	1.281100e+001	-1.552870e+001	1.329986e+001	-1.205838e+001	-1.261262e+002
4781282.496	-1.338015e+001	1.242136e+002	-1.496592e+001	7.734708e+000	-1.493772e+001	8.221524e+000	-1.240875e+001	-1.306840e+002
4805719.237	-1.409446e+001	1.231691e+002	-1.444513e+001	1.798883e+000	-1.440865e+001	2.323158e+000	-1.282458e+001	-1.347445e+002
4830155.979	-1.475126e+001	1.228724e+002	-1.401994e+001	-4.399899e+000	-1.396815e+001	-3.840743e+000	-1.325899e+001	-1.384261e+002
4854592.721	-1.535797e+001	1.230916e+002	-1.365461e+001	-1.062044e+001	-1.359330e+001	-1.012226e+001	-1.370617e+001	-1.418055e+002
4879029.463	-1.591301e+001	1.238216e+002	-1.333027e+001	-1.683405e+001	-1.326032e+001	-1.637365e+001	-1.417589e+001	-1.450151e+002
4903466.205	-1.641174e+001	1.251142e+002	-1.302497e+001	-2.310017e+001	-1.295347e+001	-2.269097e+001	-1.468208e+001	-1.479550e+002
4927902.946	-1.679996e+001	1.269420e+002	-1.274573e+001	-2.949962e+001	-1.268213e+001	-2.915330e+001	-1.521559e+001	-1.504532e+002
4952339.688	-1.705710e+001	1.289017e+002	-1.250529e+001	-3.601836e+001	-1.245610e+001	-3.573861e+001	-1.575675e+001	-1.523517e+002
4976776.430	-1.717925e+001	1.307689e+002	-1.229904e+001	-4.260722e+001	-1.225387e+001	-4.233847e+001	-1.630445e+001	-1.537865e+002
5001213.172	-1.719699e+001	1.321575e+002	-1.213174e+001	-4.922736e+001	-1.209129e+001	-4.895529e+001	-1.682459e+001	-1.546476e+002
5025649.913	-1.715827e+001	1.330030e+002	-1.199699e+001	-5.583459e+001	-1.196068e+001	-5.554440e+001	-1.729483e+001	-1.550318e+002
5050086.655	-1.709332e+001	1.332137e+002	-1.189524e+001	-6.240244e+001	-1.186090e+001	-6.208957e+001	-1.770119e+001	-1.550300e+002
5074523.397	-1.703623e+001	1.329131e+002	-1.182039e+001	-6.892620e+001	-1.178674e+001	-6.857229e+001	-1.803077e+001	-1.547660e+002
5098960.139	-1.700749e+001	1.322015e+002	-1.176964e+001	-7.538355e+001	-1.173414e+001	-7.499581e+001	-1.828025e+001	-1.543441e+002
5123396.880	-1.701336e+001	1.312652e+002	-1.173453e+001	-8.175601e+001	-1.169994e+001	-8.136421e+001	-1.844418e+001	-1.538960e+002
5147833.622	-1.706272e+001	1.301177e+002	-1.171625e+001	-8.804588e+001	-1.168210e+001	-8.768478e+001	-1.853018e+001	-1.535557e+002
5172270.364	-1.715066e+001	1.288570e+002	-1.171185e+001	-9.429670e+001	-1.168117e+001	-9.394006e+001	-1.853880e+001	-1.534074e+002
5196707.106	-1.727670e+001	1.275374e+002	-1.171898e+001	-1.004887e+002	-1.169033e+001	-1.001593e+002	-1.849376e+001	-1.535337e+002
5221143.847	-1.744274e+001	1.262647e+002	-1.173768e+001	-1.065931e+002	-1.170251e+001	-1.062563e+002	-1.843196e+001	-1.539801e+002
5245580.589	-1.764121e+001	1.249902e+002	-1.176256e+001	-1.126854e+002	-1.172790e+001	-1.123505e+002	-1.831788e+001	-1.547411e+002
5270017.331	-1.787289e+001	1.237774e+002	-1.179683e+001	-1.187535e+002	-1.176041e+001	-1.184042e+002	-1.817932e+001	-1.558668e+002
5294454.073	-1.813592e+001	1.227023e+002	-1.183610e+001	-1.247732e+002	-1.180089e+001	-1.244523e+002	-1.801894e+001	-1.572966e+002
5318890.815	-1.842514e+001	1.217015e+002	-1.188021e+001	-1.307729e+002	-1.184444e+001	-1.304730e+002	-1.784956e+001	-1.590281e+002
5343327.556	-1.874131e+001	1.207932e+002	-1.192996e+001	-1.367767e+002	-1.189663e+001	-1.364914e+002	-1.766758e+001	-1.611056e+002
5367764.298	-1.909112e+001	1.199318e+002	-1.198791e+001	-1.427907e+002	-1.195459e+001	-1.425302e+002	-1.747927e+001	-1.634777e+002
5392201.040	-1.948436e+001	1.191254e+002	-1.205488e+001	-1.488451e+002	-1.202403e+001	-1.485941e+002	-1.727575e+001	-1.662095e+002
5416637.782	-1.993417e+001	1.184668e+002	-1.213439e+001	-1.548934e+002	-1.210402e+001	-1.546644e+002	-1.708062e+001	-1.692957e+002
5441074.523	-2.044408e+001	1.180610e+002	-1.222082e+001	-1.609310e+002	-1.219794e+001	-1.607536e+002	-1.689047e+001	-1.727536e+002
