!Agilent Technologies,E5061B,MY49101568,A.02.00
!Date: Wed Mar 01 13:51:25 2023
!Data & Calibration Information:
!Freq	S11:SOLT2(OFF)	S21:SOLT2(OFF)	S12:SOLT2(OFF)	S22:SOLT2(OFF)
# Hz S dB R 50
1800000.000	-1.517304e+001	2.110908e+000	-1.278309e+001	1.747442e+002	-1.275810e+001	1.748483e+002	-1.671587e+001	4.783679e+001
1824436.742	-1.517482e+001	1.585375e+000	-1.273046e+001	1.686089e+002	-1.270311e+001	1.687408e+002	-1.654447e+001	4.782101e+001
1848873.484	-1.512892e+001	6.595231e-001	-1.269232e+001	1.626296e+002	-1.266904e+001	1.627664e+002	-1.633004e+001	4.716830e+001
1873310.225	-1.503698e+001	-5.773255e-001	-1.267587e+001	1.568057e+002	-1.264944e+001	1.569198e+002	-1.610076e+001	4.592243e+001
1897746.967	-1.492452e+001	-2.148062e+000	-1.265916e+001	1.511225e+002	-1.263427e+001	1.512046e+002	-1.587643e+001	4.414314e+001
1922183.709	-1.480452e+001	-4.203990e+000	-1.265244e+001	1.455978e+002	-1.263059e+001	1.456026e+002	-1.566061e+001	4.182768e+001
1946620.451	-1.468316e+001	-6.606775e+000	-1.265051e+001	1.402276e+002	-1.263578e+001	1.401553e+002	-1.547167e+001	3.903791e+001
1971057.192	-1.459537e+001	-9.266538e+000	-1.263031e+001	1.350366e+002	-1.262187e+001	1.349079e+002	-1.534266e+001	3.601759e+001
1995493.934	-1.451165e+001	-1.197821e+001	-1.259250e+001	1.298141e+002	-1.259826e+001	1.299251e+002	-1.527086e+001	3.270307e+001
2019930.676	-1.443006e+001	-1.480311e+001	-1.254603e+001	1.246367e+002	-1.255626e+001	1.247716e+002	-1.517970e+001	2.945716e+001
2044367.418	-1.432022e+001	-1.788931e+001	-1.250459e+001	1.193934e+002	-1.250808e+001	1.196046e+002	-1.510444e+001	2.593283e+001
2068804.159	-1.423052e+001	-2.129210e+001	-1.247527e+001	1.142865e+002	-1.247704e+001	1.144517e+002	-1.502572e+001	2.212992e+001
2093240.901	-1.416229e+001	-2.499251e+001	-1.244882e+001	1.093452e+002	-1.244979e+001	1.094098e+002	-1.497391e+001	1.805316e+001
2117677.643	-1.412502e+001	-2.887119e+001	-1.240916e+001	1.044508e+002	-1.241239e+001	1.045306e+002	-1.496196e+001	1.377172e+001
2142114.385	-1.411415e+001	-3.284594e+001	-1.235291e+001	9.960446e+001	-1.235790e+001	9.968740e+001	-1.497178e+001	9.342344e+000
2166551.127	-1.410428e+001	-3.695758e+001	-1.229092e+001	9.471288e+001	-1.230206e+001	9.484471e+001	-1.499498e+001	4.677948e+000
2190987.868	-1.412849e+001	-4.129603e+001	-1.222445e+001	8.990044e+001	-1.223716e+001	9.002721e+001	-1.504057e+001	-1.733893e-001
2215424.610	-1.419687e+001	-4.581445e+001	-1.214799e+001	8.512844e+001	-1.217161e+001	8.534195e+001	-1.512301e+001	-5.331038e+000
2239861.352	-1.429615e+001	-5.046495e+001	-1.206293e+001	8.039980e+001	-1.208273e+001	8.064536e+001	-1.523609e+001	-1.060635e+001
2264298.094	-1.444356e+001	-5.518701e+001	-1.195717e+001	7.571071e+001	-1.196905e+001	7.598783e+001	-1.539012e+001	-1.603513e+001
2288734.835	-1.464449e+001	-5.988565e+001	-1.182698e+001	7.103643e+001	-1.183202e+001	7.131127e+001	-1.558453e+001	-2.153834e+001
2313171.577	-1.485773e+001	-6.450318e+001	-1.167329e+001	6.620746e+001	-1.168030e+001	6.644577e+001	-1.577819e+001	-2.715227e+001
2337608.319	-1.508953e+001	-6.921041e+001	-1.151450e+001	6.124754e+001	-1.153115e+001	6.144891e+001	-1.598551e+001	-3.295452e+001
2362045.061	-1.536077e+001	-7.413684e+001	-1.136228e+001	5.622593e+001	-1.137498e+001	5.637933e+001	-1.621626e+001	-3.897149e+001
2386481.802	-1.567113e+001	-7.907115e+001	-1.119790e+001	5.107653e+001	-1.121513e+001	5.123943e+001	-1.647284e+001	-4.532504e+001
2410918.544	-1.601771e+001	-8.409447e+001	-1.103207e+001	4.579231e+001	-1.105099e+001	4.598398e+001	-1.675490e+001	-5.187324e+001
2435355.286	-1.640776e+001	-8.928063e+001	-1.087044e+001	4.037544e+001	-1.089181e+001	4.057541e+001	-1.705136e+001	-5.872150e+001
2459792.028	-1.685318e+001	-9.464904e+001	-1.071883e+001	3.485269e+001	-1.074158e+001	3.508111e+001	-1.737251e+001	-6.593489e+001
2484228.769	-1.736067e+001	-1.001973e+002	-1.057536e+001	2.918695e+001	-1.059717e+001	2.950525e+001	-1.772545e+001	-7.351303e+001
2508665.511	-1.794532e+001	-1.060040e+002	-1.044851e+001	2.345563e+001	-1.046637e+001	2.378117e+001	-1.809181e+001	-8.140027e+001
2533102.253	-1.863134e+001	-1.120996e+002	-1.033795e+001	1.766429e+001	-1.035022e+001	1.799544e+001	-1.848268e+001	-8.972869e+001
2557538.995	-1.944458e+001	-1.184598e+002	-1.024554e+001	1.180197e+001	-1.025296e+001	1.212782e+001	-1.888766e+001	-9.848349e+001
2581975.737	-2.041257e+001	-1.251386e+002	-1.017085e+001	5.901159e+000	-1.017537e+001	6.230357e+000	-1.929600e+001	-1.077373e+002
2606412.478	-2.157873e+001	-1.322254e+002	-1.011552e+001	-1.497453e-002	-1.011636e+001	3.185203e-001	-1.971152e+001	-1.174594e+002
2630849.220	-2.299435e+001	-1.398238e+002	-1.008291e+001	-5.925489e+000	-1.007987e+001	-5.593580e+000	-2.011333e+001	-1.277132e+002
2655285.962	-2.476949e+001	-1.480000e+002	-1.006234e+001	-1.179649e+001	-1.005448e+001	-1.146737e+001	-2.051855e+001	-1.384375e+002
2679722.704	-2.703164e+001	-1.571971e+002	-1.005415e+001	-1.764085e+001	-1.004251e+001	-1.734333e+001	-2.091821e+001	-1.495563e+002
2704159.445	-2.993715e+001	-1.688092e+002	-1.005687e+001	-2.351922e+001	-1.004518e+001	-2.321112e+001	-2.127639e+001	-1.607362e+002
2728596.187	-3.392256e+001	1.723247e+002	-1.008255e+001	-2.937720e+001	-1.006854e+001	-2.910512e+001	-2.158852e+001	-1.719244e+002
2753032.929	-3.857134e+001	1.288926e+002	-1.012890e+001	-3.516104e+001	-1.011368e+001	-3.491489e+001	-2.181126e+001	1.768743e+002
2777469.671	-3.686993e+001	6.651290e+001	-1.019132e+001	-4.088943e+001	-1.017445e+001	-4.064605e+001	-2.196633e+001	1.658164e+002
2801906.412	-3.235325e+001	3.699407e+001	-1.026911e+001	-4.648030e+001	-1.024949e+001	-4.627981e+001	-2.206650e+001	1.549742e+002
2826343.154	-2.911446e+001	2.235583e+001	-1.035203e+001	-5.197609e+001	-1.033462e+001	-5.178951e+001	-2.209679e+001	1.444229e+002
2850779.896	-2.676147e+001	1.221892e+001	-1.044224e+001	-5.736408e+001	-1.042635e+001	-5.720784e+001	-2.210033e+001	1.342882e+002
2875216.638	-2.500368e+001	4.104948e+000	-1.053349e+001	-6.270474e+001	-1.051826e+001	-6.251197e+001	-2.209575e+001	1.245679e+002
2899653.380	-2.361015e+001	-2.874233e+000	-1.062886e+001	-6.792151e+001	-1.061635e+001	-6.776806e+001	-2.208038e+001	1.155378e+002
2924090.121	-2.250160e+001	-9.093497e+000	-1.072730e+001	-7.309386e+001	-1.071661e+001	-7.295270e+001	-2.207739e+001	1.070589e+002
2948526.863	-2.157673e+001	-1.481004e+001	-1.083015e+001	-7.817498e+001	-1.082155e+001	-7.804653e+001	-2.207078e+001	9.915048e+001
2972963.605	-2.079375e+001	-2.009178e+001	-1.093675e+001	-8.316675e+001	-1.093160e+001	-8.305030e+001	-2.205590e+001	9.181851e+001
2997400.347	-2.011173e+001	-2.513540e+001	-1.104430e+001	-8.803405e+001	-1.104177e+001	-8.792968e+001	-2.202547e+001	8.483525e+001
3021837.088	-1.951566e+001	-3.006774e+001	-1.114479e+001	-9.277427e+001	-1.114749e+001	-9.267520e+001	-2.199027e+001	7.807127e+001
3046273.830	-1.900781e+001	-3.496123e+001	-1.122956e+001	-9.743090e+001	-1.123718e+001	-9.732495e+001	-2.199215e+001	7.138232e+001
3070710.572	-1.857540e+001	-3.969650e+001	-1.130617e+001	-1.020291e+002	-1.131465e+001	-1.019310e+002	-2.203995e+001	6.492291e+001
3095147.314	-1.822437e+001	-4.434498e+001	-1.136596e+001	-1.066437e+002	-1.137891e+001	-1.065240e+002	-2.215451e+001	5.868610e+001
3119584.055	-1.792636e+001	-4.885138e+001	-1.141763e+001	-1.112317e+002	-1.143461e+001	-1.111137e+002	-2.232420e+001	5.271057e+001
3144020.797	-1.769427e+001	-5.323386e+001	-1.146000e+001	-1.158261e+002	-1.147682e+001	-1.157339e+002	-2.256339e+001	4.698733e+001
3168457.539	-1.751637e+001	-5.742839e+001	-1.149740e+001	-1.204690e+002	-1.151503e+001	-1.203617e+002	-2.287852e+001	4.171435e+001
3192894.281	-1.738210e+001	-6.145817e+001	-1.152951e+001	-1.251526e+002	-1.154943e+001	-1.250263e+002	-2.326710e+001	3.680649e+001
3217331.023	-1.729485e+001	-6.526494e+001	-1.156301e+001	-1.298714e+002	-1.158345e+001	-1.297455e+002	-2.373199e+001	3.245707e+001
3241767.764	-1.724105e+001	-6.886573e+001	-1.159776e+001	-1.346032e+002	-1.161989e+001	-1.344774e+002	-2.424278e+001	2.879434e+001
3266204.506	-1.721164e+001	-7.220827e+001	-1.163993e+001	-1.393423e+002	-1.166074e+001	-1.391932e+002	-2.480520e+001	2.584265e+001
3290641.248	-1.720010e+001	-7.546556e+001	-1.167381e+001	-1.440207e+002	-1.169633e+001	-1.438747e+002	-2.538648e+001	2.322534e+001
3315077.990	-1.723049e+001	-7.864728e+001	-1.169465e+001	-1.487378e+002	-1.171765e+001	-1.485803e+002	-2.609022e+001	2.102654e+001
3339514.731	-1.731199e+001	-8.158963e+001	-1.171038e+001	-1.535797e+002	-1.173340e+001	-1.534059e+002	-2.698361e+001	2.003948e+001
3363951.473	-1.743263e+001	-8.418979e+001	-1.173380e+001	-1.585307e+002	-1.175645e+001	-1.583502e+002	-2.798187e+001	2.130394e+001
3388388.215	-1.758072e+001	-8.633645e+001	-1.176915e+001	-1.635550e+002	-1.179242e+001	-1.633700e+002	-2.895326e+001	2.545409e+001
3412824.957	-1.773766e+001	-8.803985e+001	-1.182042e+001	-1.686198e+002	-1.184320e+001	-1.684328e+002	-2.965916e+001	3.284276e+001
3437261.698	-1.789055e+001	-8.926604e+001	-1.188702e+001	-1.737152e+002	-1.190974e+001	-1.735338e+002	-2.982179e+001	4.252049e+001
3461698.440	-1.801805e+001	-8.997591e+001	-1.197428e+001	-1.788128e+002	-1.199752e+001	-1.786372e+002	-2.926327e+001	5.207278e+001
3486135.182	-1.810183e+001	-9.023211e+001	-1.208124e+001	1.760930e+002	-1.210637e+001	1.762607e+002	-2.816549e+001	5.933419e+001
3510571.924	-1.811843e+001	-9.015111e+001	-1.220813e+001	1.710601e+002	-1.223525e+001	1.712274e+002	-2.683558e+001	6.322729e+001
3535008.666	-1.805071e+001	-8.988817e+001	-1.235566e+001	1.661477e+002	-1.238590e+001	1.663032e+002	-2.551004e+001	6.424341e+001
3559445.407	-1.790140e+001	-8.965209e+001	-1.251965e+001	1.613827e+002	-1.254887e+001	1.615331e+002	-2.431133e+001	6.328658e+001
3583882.149	-1.769019e+001	-8.964141e+001	-1.268378e+001	1.567936e+002	-1.271496e+001	1.569367e+002	-2.328792e+001	6.111131e+001
3608318.891	-1.744840e+001	-8.988657e+001	-1.283729e+001	1.523247e+002	-1.287328e+001	1.524636e+002	-2.241713e+001	5.845106e+001
3632755.633	-1.718455e+001	-9.022415e+001	-1.298300e+001	1.478417e+002	-1.302229e+001	1.480066e+002	-2.163595e+001	5.565456e+001
3657192.374	-1.688861e+001	-9.054400e+001	-1.313042e+001	1.433007e+002	-1.317234e+001	1.434971e+002	-2.089572e+001	5.282126e+001
3681629.116	-1.653333e+001	-9.097755e+001	-1.330289e+001	1.387600e+002	-1.335140e+001	1.389500e+002	-2.014783e+001	4.955271e+001
3706065.858	-1.611139e+001	-9.178841e+001	-1.350774e+001	1.343330e+002	-1.356368e+001	1.345536e+002	-1.944537e+001	4.562928e+001
3730502.600	-1.565823e+001	-9.310917e+001	-1.374021e+001	1.301227e+002	-1.379938e+001	1.303468e+002	-1.881448e+001	4.128746e+001
3754939.341	-1.518604e+001	-9.500317e+001	-1.400364e+001	1.262379e+002	-1.406466e+001	1.264802e+002	-1.825745e+001	3.637853e+001
3779376.083	-1.473591e+001	-9.756082e+001	-1.427087e+001	1.228587e+002	-1.433309e+001	1.231785e+002	-1.782600e+001	3.103958e+001
3803812.825	-1.436205e+001	-1.006857e+002	-1.449173e+001	1.200648e+002	-1.457317e+001	1.204464e+002	-1.752346e+001	2.548993e+001
3828249.567	-1.407626e+001	-1.042555e+002	-1.463626e+001	1.178280e+002	-1.471130e+001	1.182686e+002	-1.740418e+001	2.010489e+001
3852686.308	-1.393711e+001	-1.078087e+002	-1.462619e+001	1.156989e+002	-1.468705e+001	1.161325e+002	-1.746096e+001	1.558942e+001
3877123.050	-1.389716e+001	-1.106989e+002	-1.449951e+001	1.128909e+002	-1.455282e+001	1.133402e+002	-1.756845e+001	1.241368e+001
3901559.792	-1.387843e+001	-1.126904e+002	-1.433890e+001	1.091287e+002	-1.438094e+001	1.096081e+002	-1.761268e+001	1.062736e+001
3925996.534	-1.379349e+001	-1.140044e+002	-1.423094e+001	1.046303e+002	-1.426282e+001	1.050328e+002	-1.746920e+001	9.635843e+000
3950433.276	-1.358684e+001	-1.152637e+002	-1.423936e+001	9.990881e+001	-1.427428e+001	1.001808e+002	-1.712131e+001	8.114352e+000
3974870.017	-1.330164e+001	-1.168299e+002	-1.433340e+001	9.529842e+001	-1.438576e+001	9.555184e+001	-1.670476e+001	5.590064e+000
3999306.759	-1.297496e+001	-1.189810e+002	-1.449754e+001	9.109379e+001	-1.457197e+001	9.141797e+001	-1.629695e+001	2.124212e+000
4023743.501	-1.267417e+001	-1.217419e+002	-1.467766e+001	8.753888e+001	-1.476371e+001	8.792190e+001	-1.597881e+001	-1.924467e+000
4048180.243	-1.242309e+001	-1.248946e+002	-1.483930e+001	8.451990e+001	-1.492313e+001	8.504738e+001	-1.576311e+001	-6.280465e+000
4072616.984	-1.225636e+001	-1.282049e+002	-1.491911e+001	8.195859e+001	-1.499862e+001	8.259349e+001	-1.565866e+001	-1.057826e+001
4097053.726	-1.215881e+001	-1.314906e+002	-1.491632e+001	7.956422e+001	-1.498381e+001	8.021424e+001	-1.563643e+001	-1.456932e+001
4121490.468	-1.211883e+001	-1.344845e+002	-1.482330e+001	7.697587e+001	-1.488529e+001	7.764731e+001	-1.566617e+001	-1.809871e+001
4145927.210	-1.210853e+001	-1.371389e+002	-1.467193e+001	7.401652e+001	-1.472785e+001	7.467927e+001	-1.571544e+001	-2.106372e+001
4170363.951	-1.210311e+001	-1.394428e+002	-1.449759e+001	7.071813e+001	-1.455968e+001	7.133973e+001	-1.574773e+001	-2.364530e+001
4194800.693	-1.207797e+001	-1.414730e+002	-1.432577e+001	6.700724e+001	-1.438673e+001	6.762556e+001	-1.574775e+001	-2.587567e+001
4219237.435	-1.202724e+001	-1.433795e+002	-1.417122e+001	6.302942e+001	-1.422952e+001	6.369670e+001	-1.571502e+001	-2.797687e+001
4243674.177	-1.195224e+001	-1.452233e+002	-1.403302e+001	5.894432e+001	-1.409188e+001	5.962940e+001	-1.564683e+001	-3.005642e+001
4268110.919	-1.185676e+001	-1.470668e+002	-1.391320e+001	5.474175e+001	-1.396609e+001	5.544908e+001	-1.555580e+001	-3.210974e+001
4292547.660	-1.174100e+001	-1.489384e+002	-1.380398e+001	5.045555e+001	-1.385536e+001	5.119059e+001	-1.543881e+001	-3.418223e+001
4316984.402	-1.160955e+001	-1.508700e+002	-1.370969e+001	4.611111e+001	-1.375913e+001	4.685001e+001	-1.530021e+001	-3.633684e+001
4341421.144	-1.146327e+001	-1.529027e+002	-1.363255e+001	4.172785e+001	-1.368064e+001	4.250624e+001	-1.514940e+001	-3.860921e+001
4365857.886	-1.131212e+001	-1.550833e+002	-1.356917e+001	3.736499e+001	-1.361456e+001	3.813833e+001	-1.498687e+001	-4.100855e+001
4390294.627	-1.116050e+001	-1.573864e+002	-1.351371e+001	3.301734e+001	-1.355729e+001	3.382898e+001	-1.482640e+001	-4.354661e+001
4414731.369	-1.101637e+001	-1.598189e+002	-1.346559e+001	2.871806e+001	-1.350681e+001	2.954960e+001	-1.467068e+001	-4.620654e+001
4439168.111	-1.087959e+001	-1.623527e+002	-1.341979e+001	2.441129e+001	-1.345634e+001	2.530301e+001	-1.452446e+001	-4.896794e+001
4463604.853	-1.075303e+001	-1.649661e+002	-1.337281e+001	2.015113e+001	-1.340463e+001	2.106824e+001	-1.438660e+001	-5.176996e+001
4488041.594	-1.063879e+001	-1.676428e+002	-1.332501e+001	1.591336e+001	-1.335368e+001	1.685215e+001	-1.426145e+001	-5.463894e+001
4512478.336	-1.053684e+001	-1.703882e+002	-1.327573e+001	1.167425e+001	-1.330101e+001	1.262794e+001	-1.414319e+001	-5.755206e+001
4536915.078	-1.044603e+001	-1.732026e+002	-1.322811e+001	7.439557e+000	-1.324597e+001	8.405164e+000	-1.403502e+001	-6.049429e+001
4561351.820	-1.036958e+001	-1.760658e+002	-1.318088e+001	3.209497e+000	-1.319314e+001	4.189500e+000	-1.393492e+001	-6.349504e+001
4585788.562	-1.031004e+001	-1.789930e+002	-1.312968e+001	-1.007108e+000	-1.313726e+001	-2.510293e-002	-1.384701e+001	-6.653682e+001
4610225.303	-1.026689e+001	1.780578e+002	-1.307599e+001	-5.215780e+000	-1.307805e+001	-4.223536e+000	-1.377436e+001	-6.961137e+001
4634662.045	-1.024132e+001	1.750851e+002	-1.301629e+001	-9.421241e+000	-1.301332e+001	-8.427529e+000	-1.371420e+001	-7.268288e+001
4659098.787	-1.022926e+001	1.721014e+002	-1.295253e+001	-1.367083e+001	-1.294455e+001	-1.267078e+001	-1.366754e+001	-7.577334e+001
4683535.529	-1.023552e+001	1.691121e+002	-1.288494e+001	-1.792569e+001	-1.287160e+001	-1.692650e+001	-1.363082e+001	-7.884774e+001
4707972.270	-1.025681e+001	1.661295e+002	-1.281299e+001	-2.218791e+001	-1.279565e+001	-2.122231e+001	-1.360827e+001	-8.189630e+001
4732409.012	-1.029296e+001	1.631335e+002	-1.273990e+001	-2.650765e+001	-1.271636e+001	-2.556451e+001	-1.359480e+001	-8.493861e+001
4756845.754	-1.034497e+001	1.601424e+002	-1.266413e+001	-3.088661e+001	-1.263467e+001	-2.994766e+001	-1.358882e+001	-8.797296e+001
4781282.496	-1.041228e+001	1.571600e+002	-1.258735e+001	-3.530514e+001	-1.255266e+001	-3.440084e+001	-1.359135e+001	-9.098015e+001
4805719.237	-1.049510e+001	1.541663e+002	-1.251213e+001	-3.978617e+001	-1.247221e+001	-3.888599e+001	-1.360170e+001	-9.397098e+001
4830155.979	-1.059501e+001	1.511760e+002	-1.244017e+001	-4.430102e+001	-1.239497e+001	-4.342973e+001	-1.361693e+001	-9.696252e+001
4854592.721	-1.071220e+001	1.481979e+002	-1.237014e+001	-4.886428e+001	-1.232187e+001	-4.800808e+001	-1.364113e+001	-9.994366e+001
4879029.463	-1.084938e+001	1.452236e+002	-1.230513e+001	-5.346483e+001	-1.225250e+001	-5.263201e+001	-1.367037e+001	-1.029239e+002
4903466.205	-1.100659e+001	1.422715e+002	-1.224333e+001	-5.809217e+001	-1.218697e+001	-5.728809e+001	-1.370742e+001	-1.058973e+002
4927902.946	-1.118729e+001	1.393358e+002	-1.218641e+001	-6.274444e+001	-1.212646e+001	-6.195836e+001	-1.375358e+001	-1.088777e+002
4952339.688	-1.138844e+001	1.364425e+002	-1.213428e+001	-6.744488e+001	-1.207086e+001	-6.666658e+001	-1.380769e+001	-1.118614e+002
4976776.430	-1.161553e+001	1.336019e+002	-1.208659e+001	-7.213677e+001	-1.202107e+001	-7.139439e+001	-1.386878e+001	-1.148381e+002
5001213.172	-1.186715e+001	1.308326e+002	-1.204085e+001	-7.684745e+001	-1.197330e+001	-7.613816e+001	-1.393999e+001	-1.177884e+002
5025649.913	-1.214173e+001	1.281427e+002	-1.200012e+001	-8.157921e+001	-1.193173e+001	-8.089310e+001	-1.401975e+001	-1.207257e+002
5050086.655	-1.244213e+001	1.255506e+002	-1.196439e+001	-8.632249e+001	-1.189325e+001	-8.567002e+001	-1.410646e+001	-1.236566e+002
5074523.397	-1.276534e+001	1.230750e+002	-1.193029e+001	-9.108532e+001	-1.186023e+001	-9.046843e+001	-1.420242e+001	-1.265553e+002
5098960.139	-1.311253e+001	1.207224e+002	-1.190040e+001	-9.586377e+001	-1.183115e+001	-9.527774e+001	-1.430227e+001	-1.294335e+002
5123396.880	-1.348161e+001	1.184999e+002	-1.187730e+001	-1.006674e+002	-1.180681e+001	-1.001153e+002	-1.440478e+001	-1.322837e+002
5147833.622	-1.387765e+001	1.164038e+002	-1.186048e+001	-1.054860e+002	-1.179247e+001	-1.049720e+002	-1.451021e+001	-1.351646e+002
5172270.364	-1.430037e+001	1.144746e+002	-1.185331e+001	-1.103081e+002	-1.178491e+001	-1.098221e+002	-1.462174e+001	-1.380579e+002
5196707.106	-1.475248e+001	1.127465e+002	-1.185031e+001	-1.151090e+002	-1.178324e+001	-1.146479e+002	-1.474104e+001	-1.409812e+002
5221143.847	-1.523238e+001	1.112865e+002	-1.185245e+001	-1.198535e+002	-1.178781e+001	-1.194637e+002	-1.487100e+001	-1.438749e+002
5245580.589	-1.573502e+001	1.101143e+002	-1.185605e+001	-1.246080e+002	-1.179351e+001	-1.242453e+002	-1.501349e+001	-1.467813e+002
5270017.331	-1.625487e+001	1.092807e+002	-1.185963e+001	-1.293539e+002	-1.180038e+001	-1.290145e+002	-1.516503e+001	-1.496526e+002
5294454.073	-1.678394e+001	1.088020e+002	-1.186410e+001	-1.341042e+002	-1.180715e+001	-1.337792e+002	-1.532352e+001	-1.524879e+002
5318890.815	-1.731416e+001	1.086780e+002	-1.186758e+001	-1.388577e+002	-1.181358e+001	-1.385415e+002	-1.548349e+001	-1.552784e+002
5343327.556	-1.783783e+001	1.089266e+002	-1.187210e+001	-1.436228e+002	-1.182175e+001	-1.433296e+002	-1.564114e+001	-1.580453e+002
5367764.298	-1.835460e+001	1.095227e+002	-1.187951e+001	-1.484092e+002	-1.183138e+001	-1.481374e+002	-1.579809e+001	-1.607840e+002
5392201.040	-1.885514e+001	1.104527e+002	-1.189093e+001	-1.532239e+002	-1.184330e+001	-1.529500e+002	-1.595214e+001	-1.635405e+002
5416637.782	-1.933545e+001	1.117330e+002	-1.190422e+001	-1.580459e+002	-1.186241e+001	-1.577797e+002	-1.610005e+001	-1.663430e+002
5441074.523	-1.979330e+001	1.133333e+002	-1.192337e+001	-1.628957e+002	-1.188509e+001	-1.626288e+002	-1.624467e+001	-1.691961e+002
