!Agilent Technologies,E5061B,MY49101568,A.02.00
!Date: Wed Mar 01 13:51:49 2023
!Data & Calibration Information:
!Freq	S11:SOLT2(OFF)	S21:SOLT2(OFF)	S12:SOLT2(OFF)	S22:SOLT2(OFF)
# Hz S dB R 50
1800000.000	-9.898026e+000	-1.604903e+001	-2.322708e+001	-1.502692e+002	-2.318787e+001	-1.502871e+002	-1.039248e+001	2.081962e+001
1824436.742	-1.001564e+001	-2.016513e+001	-2.294262e+001	-1.542550e+002	-2.291173e+001	-1.543240e+002	-1.053308e+001	1.721860e+001
1848873.484	-1.013734e+001	-2.436974e+001	-2.265239e+001	-1.583137e+002	-2.262377e+001	-1.583898e+002	-1.067887e+001	1.356670e+001
1873310.225	-1.026413e+001	-2.862130e+001	-2.234514e+001	-1.623876e+002	-2.232875e+001	-1.625547e+002	-1.082067e+001	9.893540e+000
1897746.967	-1.039355e+001	-3.292656e+001	-2.202906e+001	-1.665492e+002	-2.202244e+001	-1.667040e+002	-1.096048e+001	6.160308e+000
1922183.709	-1.052773e+001	-3.735157e+001	-2.170961e+001	-1.707708e+002	-2.170314e+001	-1.709275e+002	-1.109894e+001	2.315576e+000
1946620.451	-1.066363e+001	-4.185503e+001	-2.138048e+001	-1.750792e+002	-2.138028e+001	-1.752278e+002	-1.123494e+001	-1.592763e+000
1971057.192	-1.080990e+001	-4.649335e+001	-2.103105e+001	-1.794716e+002	-2.105150e+001	-1.795561e+002	-1.136669e+001	-5.603649e+000
1995493.934	-1.095403e+001	-5.121529e+001	-2.070272e+001	1.760819e+002	-2.071025e+001	1.759709e+002	-1.150508e+001	-9.669577e+000
2019930.676	-1.111332e+001	-5.607950e+001	-2.035349e+001	1.716155e+002	-2.037779e+001	1.715468e+002	-1.163212e+001	-1.381077e+001
2044367.418	-1.128046e+001	-6.107192e+001	-1.998507e+001	1.670314e+002	-2.001825e+001	1.670124e+002	-1.175434e+001	-1.816499e+001
2068804.159	-1.146361e+001	-6.620773e+001	-1.960364e+001	1.623945e+002	-1.964380e+001	1.623757e+002	-1.187981e+001	-2.256422e+001
2093240.901	-1.165508e+001	-7.148118e+001	-1.921446e+001	1.576973e+002	-1.924713e+001	1.575989e+002	-1.201228e+001	-2.705630e+001
2117677.643	-1.186657e+001	-7.684962e+001	-1.882727e+001	1.526484e+002	-1.886107e+001	1.525836e+002	-1.214034e+001	-3.159763e+001
2142114.385	-1.209594e+001	-8.235279e+001	-1.844046e+001	1.474383e+002	-1.847649e+001	1.474388e+002	-1.226064e+001	-3.624652e+001
2166551.127	-1.233965e+001	-8.800470e+001	-1.805146e+001	1.421207e+002	-1.808979e+001	1.421138e+002	-1.237508e+001	-4.100519e+001
2190987.868	-1.260303e+001	-9.378810e+001	-1.766636e+001	1.365566e+002	-1.771125e+001	1.366132e+002	-1.248935e+001	-4.585292e+001
2215424.610	-1.288544e+001	-9.971922e+001	-1.729424e+001	1.308111e+002	-1.734457e+001	1.309742e+002	-1.259119e+001	-5.080030e+001
2239861.352	-1.317972e+001	-1.058172e+002	-1.694277e+001	1.249569e+002	-1.699349e+001	1.251911e+002	-1.268113e+001	-5.587875e+001
2264298.094	-1.348922e+001	-1.121053e+002	-1.660996e+001	1.189851e+002	-1.665025e+001	1.192846e+002	-1.276250e+001	-6.105872e+001
2288734.835	-1.381250e+001	-1.185654e+002	-1.628741e+001	1.128823e+002	-1.632898e+001	1.132311e+002	-1.282769e+001	-6.634755e+001
2313171.577	-1.414471e+001	-1.252985e+002	-1.598890e+001	1.067238e+002	-1.602041e+001	1.071017e+002	-1.287911e+001	-7.178419e+001
2337608.319	-1.450001e+001	-1.322425e+002	-1.570113e+001	1.004382e+002	-1.572769e+001	1.008472e+002	-1.291798e+001	-7.737394e+001
2362045.061	-1.485877e+001	-1.394083e+002	-1.543106e+001	9.401374e+001	-1.545326e+001	9.442548e+001	-1.294629e+001	-8.302477e+001
2386481.802	-1.520688e+001	-1.467979e+002	-1.520184e+001	8.745561e+001	-1.521924e+001	8.792498e+001	-1.294343e+001	-8.880765e+001
2410918.544	-1.552025e+001	-1.546616e+002	-1.501193e+001	8.101040e+001	-1.502437e+001	8.147322e+001	-1.290431e+001	-9.478013e+001
2435355.286	-1.582725e+001	-1.632661e+002	-1.482434e+001	7.479316e+001	-1.483776e+001	7.530996e+001	-1.283346e+001	-1.011624e+002
2459792.028	-1.616965e+001	-1.724204e+002	-1.461517e+001	6.849579e+001	-1.461170e+001	6.907468e+001	-1.278441e+001	-1.078745e+002
2484228.769	-1.654523e+001	1.782053e+002	-1.439989e+001	6.187719e+001	-1.438317e+001	6.252407e+001	-1.275513e+001	-1.147244e+002
2508665.511	-1.689469e+001	1.686886e+002	-1.421708e+001	5.506193e+001	-1.418934e+001	5.567307e+001	-1.272958e+001	-1.215214e+002
2533102.253	-1.718876e+001	1.590254e+002	-1.407899e+001	4.815290e+001	-1.404012e+001	4.867832e+001	-1.269331e+001	-1.283293e+002
2557538.995	-1.741665e+001	1.490951e+002	-1.397434e+001	4.120101e+001	-1.393158e+001	4.166912e+001	-1.264205e+001	-1.352609e+002
2581975.737	-1.756800e+001	1.390991e+002	-1.391584e+001	3.420128e+001	-1.386016e+001	3.467200e+001	-1.258585e+001	-1.422277e+002
2606412.478	-1.762620e+001	1.289957e+002	-1.389499e+001	2.726328e+001	-1.383108e+001	2.770545e+001	-1.251844e+001	-1.492468e+002
2630849.220	-1.758964e+001	1.188216e+002	-1.390981e+001	2.044533e+001	-1.384177e+001	2.082175e+001	-1.244144e+001	-1.563128e+002
2655285.962	-1.747558e+001	1.085995e+002	-1.394835e+001	1.384505e+001	-1.387685e+001	1.415370e+001	-1.235848e+001	-1.634905e+002
2679722.704	-1.732376e+001	9.845619e+001	-1.399279e+001	7.321949e+000	-1.392053e+001	7.568190e+000	-1.229160e+001	-1.707619e+002
2704159.445	-1.713663e+001	8.869334e+001	-1.405707e+001	7.855003e-001	-1.397352e+001	9.633945e-001	-1.224946e+001	-1.779822e+002
2728596.187	-1.692102e+001	7.941972e+001	-1.414646e+001	-5.725011e+000	-1.406832e+001	-5.593683e+000	-1.220800e+001	1.749352e+002
2753032.929	-1.666267e+001	7.054852e+001	-1.426893e+001	-1.211136e+001	-1.418565e+001	-1.201491e+001	-1.217560e+001	1.679708e+002
2777469.671	-1.638585e+001	6.208337e+001	-1.440842e+001	-1.833369e+001	-1.432918e+001	-1.827989e+001	-1.214728e+001	1.610980e+002
2801906.412	-1.609442e+001	5.399823e+001	-1.456778e+001	-2.438642e+001	-1.449573e+001	-2.438999e+001	-1.212677e+001	1.543692e+002
2826343.154	-1.580084e+001	4.630702e+001	-1.474610e+001	-3.027210e+001	-1.466930e+001	-3.031758e+001	-1.211332e+001	1.477614e+002
2850779.896	-1.551084e+001	3.897917e+001	-1.492780e+001	-3.599331e+001	-1.485481e+001	-3.608636e+001	-1.210784e+001	1.413018e+002
2875216.638	-1.523537e+001	3.200863e+001	-1.511519e+001	-4.160694e+001	-1.504225e+001	-4.169654e+001	-1.211316e+001	1.349720e+002
2899653.380	-1.496948e+001	2.534530e+001	-1.530798e+001	-4.703516e+001	-1.524106e+001	-4.719599e+001	-1.213345e+001	1.288553e+002
2924090.121	-1.471782e+001	1.903759e+001	-1.550937e+001	-5.234989e+001	-1.544725e+001	-5.254210e+001	-1.215445e+001	1.229272e+002
2948526.863	-1.447571e+001	1.300819e+001	-1.571216e+001	-5.752976e+001	-1.565674e+001	-5.773786e+001	-1.218255e+001	1.171952e+002
2972963.605	-1.424345e+001	7.255766e+000	-1.592130e+001	-6.254913e+001	-1.587456e+001	-6.277558e+001	-1.220980e+001	1.116375e+002
2997400.347	-1.401634e+001	1.735442e+000	-1.613237e+001	-6.738197e+001	-1.609242e+001	-6.763218e+001	-1.223612e+001	1.062474e+002
3021837.088	-1.379997e+001	-3.588427e+000	-1.633654e+001	-7.205535e+001	-1.630256e+001	-7.232459e+001	-1.226675e+001	1.009794e+002
3046273.830	-1.359453e+001	-8.756656e+000	-1.653036e+001	-7.659102e+001	-1.649957e+001	-7.686644e+001	-1.230061e+001	9.582299e+001
3070710.572	-1.340319e+001	-1.373454e+001	-1.671097e+001	-8.100702e+001	-1.668845e+001	-8.130594e+001	-1.233966e+001	9.081412e+001
3095147.314	-1.322307e+001	-1.854800e+001	-1.688409e+001	-8.534610e+001	-1.686651e+001	-8.564189e+001	-1.238220e+001	8.594983e+001
3119584.055	-1.305321e+001	-2.321954e+001	-1.704491e+001	-8.961112e+001	-1.703398e+001	-8.990514e+001	-1.242895e+001	8.122030e+001
3144020.797	-1.289500e+001	-2.774216e+001	-1.719756e+001	-9.378512e+001	-1.719149e+001	-9.411914e+001	-1.248120e+001	7.664086e+001
3168457.539	-1.274477e+001	-3.213380e+001	-1.734005e+001	-9.793433e+001	-1.734039e+001	-9.825603e+001	-1.253424e+001	7.219030e+001
3192894.281	-1.260623e+001	-3.638846e+001	-1.747844e+001	-1.019843e+002	-1.748643e+001	-1.023399e+002	-1.258881e+001	6.784125e+001
3217331.023	-1.247112e+001	-4.052702e+001	-1.761032e+001	-1.060257e+002	-1.762269e+001	-1.063884e+002	-1.264310e+001	6.363775e+001
3241767.764	-1.234338e+001	-4.455507e+001	-1.773600e+001	-1.100422e+002	-1.775240e+001	-1.103399e+002	-1.269636e+001	5.957252e+001
3266204.506	-1.222080e+001	-4.847063e+001	-1.785528e+001	-1.139656e+002	-1.787746e+001	-1.142476e+002	-1.274915e+001	5.559101e+001
3290641.248	-1.210084e+001	-5.231707e+001	-1.796776e+001	-1.177849e+002	-1.799589e+001	-1.180524e+002	-1.279482e+001	5.169150e+001
3315077.990	-1.198577e+001	-5.611014e+001	-1.806101e+001	-1.215372e+002	-1.809562e+001	-1.218066e+002	-1.284375e+001	4.785597e+001
3339514.731	-1.188014e+001	-5.983105e+001	-1.814197e+001	-1.252880e+002	-1.817845e+001	-1.255451e+002	-1.289657e+001	4.409865e+001
3363951.473	-1.178285e+001	-6.347684e+001	-1.821362e+001	-1.290806e+002	-1.825358e+001	-1.292991e+002	-1.295371e+001	4.044131e+001
3388388.215	-1.169165e+001	-6.705208e+001	-1.827788e+001	-1.328469e+002	-1.832350e+001	-1.330577e+002	-1.301051e+001	3.688652e+001
3412824.957	-1.160743e+001	-7.054004e+001	-1.833905e+001	-1.366103e+002	-1.838746e+001	-1.368022e+002	-1.306711e+001	3.342257e+001
3437261.698	-1.152778e+001	-7.396328e+001	-1.839217e+001	-1.403479e+002	-1.844751e+001	-1.405294e+002	-1.312417e+001	3.006818e+001
3461698.440	-1.145437e+001	-7.731985e+001	-1.844291e+001	-1.441183e+002	-1.850190e+001	-1.442362e+002	-1.318005e+001	2.680067e+001
3486135.182	-1.138476e+001	-8.059830e+001	-1.848816e+001	-1.478269e+002	-1.855101e+001	-1.479355e+002	-1.323337e+001	2.360923e+001
3510571.924	-1.131891e+001	-8.381524e+001	-1.853207e+001	-1.515214e+002	-1.860051e+001	-1.516149e+002	-1.328161e+001	2.053827e+001
3535008.666	-1.125530e+001	-8.695985e+001	-1.857206e+001	-1.551905e+002	-1.864327e+001	-1.552431e+002	-1.332309e+001	1.754722e+001
3559445.407	-1.119045e+001	-9.004103e+001	-1.860580e+001	-1.587975e+002	-1.867960e+001	-1.588151e+002	-1.335817e+001	1.461915e+001
3583882.149	-1.112757e+001	-9.307465e+001	-1.862849e+001	-1.623563e+002	-1.870426e+001	-1.623331e+002	-1.338224e+001	1.172635e+001
3608318.891	-1.106369e+001	-9.607111e+001	-1.863516e+001	-1.658796e+002	-1.871593e+001	-1.658327e+002	-1.340062e+001	8.864271e+000
3632755.633	-1.100143e+001	-9.906085e+001	-1.862215e+001	-1.694266e+002	-1.870413e+001	-1.693310e+002	-1.341966e+001	5.992096e+000
3657192.374	-1.094324e+001	-1.020128e+002	-1.859576e+001	-1.730440e+002	-1.867718e+001	-1.729154e+002	-1.343962e+001	3.172156e+000
3681629.116	-1.089188e+001	-1.048943e+002	-1.856518e+001	-1.768116e+002	-1.864693e+001	-1.766220e+002	-1.346182e+001	4.359952e-001
3706065.858	-1.084285e+001	-1.077285e+002	-1.853400e+001	1.793176e+002	-1.862522e+001	1.795492e+002	-1.347732e+001	-2.192091e+000
3730502.600	-1.078797e+001	-1.104892e+002	-1.852641e+001	1.754377e+002	-1.861076e+001	1.756718e+002	-1.348390e+001	-4.769889e+000
3754939.341	-1.073325e+001	-1.131718e+002	-1.853796e+001	1.714687e+002	-1.862574e+001	1.717777e+002	-1.347480e+001	-7.236457e+000
3779376.083	-1.066342e+001	-1.158005e+002	-1.858097e+001	1.676380e+002	-1.866450e+001	1.680143e+002	-1.344118e+001	-9.691339e+000
3803812.825	-1.057703e+001	-1.184274e+002	-1.864384e+001	1.640528e+002	-1.872496e+001	1.644297e+002	-1.338260e+001	-1.217090e+001
3828249.567	-1.046987e+001	-1.211927e+002	-1.869135e+001	1.609705e+002	-1.877867e+001	1.614032e+002	-1.329287e+001	-1.487812e+001
3852686.308	-1.035969e+001	-1.241375e+002	-1.868668e+001	1.582353e+002	-1.876807e+001	1.586716e+002	-1.321033e+001	-1.785022e+001
3877123.050	-1.027302e+001	-1.272981e+002	-1.858349e+001	1.555158e+002	-1.865830e+001	1.560412e+002	-1.315760e+001	-2.108328e+001
3901559.792	-1.022230e+001	-1.305595e+002	-1.839407e+001	1.524567e+002	-1.846827e+001	1.529534e+002	-1.316126e+001	-2.433298e+001
3925996.534	-1.020773e+001	-1.337381e+002	-1.818879e+001	1.488344e+002	-1.825771e+001	1.493757e+002	-1.319728e+001	-2.742963e+001
3950433.276	-1.022034e+001	-1.367602e+002	-1.799850e+001	1.447089e+002	-1.806969e+001	1.452881e+002	-1.325376e+001	-3.025723e+001
3974870.017	-1.024340e+001	-1.396038e+002	-1.784846e+001	1.403156e+002	-1.792885e+001	1.409173e+002	-1.330896e+001	-3.280993e+001
3999306.759	-1.025830e+001	-1.422440e+002	-1.776066e+001	1.358048e+002	-1.782662e+001	1.364260e+002	-1.334975e+001	-3.519851e+001
4023743.501	-1.026106e+001	-1.447823e+002	-1.771342e+001	1.313275e+002	-1.777765e+001	1.319851e+002	-1.335879e+001	-3.741305e+001
4048180.243	-1.024343e+001	-1.472826e+002	-1.771155e+001	1.270142e+002	-1.776992e+001	1.277270e+002	-1.333403e+001	-3.961766e+001
4072616.984	-1.021113e+001	-1.498195e+002	-1.772265e+001	1.229553e+002	-1.778803e+001	1.236779e+002	-1.327883e+001	-4.184003e+001
4097053.726	-1.016087e+001	-1.524464e+002	-1.775086e+001	1.192171e+002	-1.780320e+001	1.200128e+002	-1.319918e+001	-4.425559e+001
4121490.468	-1.010818e+001	-1.552542e+002	-1.775152e+001	1.158310e+002	-1.780022e+001	1.166198e+002	-1.311017e+001	-4.686428e+001
4145927.210	-1.006640e+001	-1.581991e+002	-1.771037e+001	1.125989e+002	-1.775682e+001	1.134115e+002	-1.302638e+001	-4.965831e+001
4170363.951	-1.004537e+001	-1.612459e+002	-1.762366e+001	1.094442e+002	-1.766359e+001	1.102423e+002	-1.295844e+001	-5.257577e+001
4194800.693	-1.004529e+001	-1.643574e+002	-1.749160e+001	1.062046e+002	-1.753143e+001	1.069968e+002	-1.291064e+001	-5.558524e+001
4219237.435	-1.006760e+001	-1.674662e+002	-1.734012e+001	1.027745e+002	-1.737237e+001	1.036002e+002	-1.287985e+001	-5.861457e+001
4243674.177	-1.011002e+001	-1.705736e+002	-1.716633e+001	9.923049e+001	-1.719099e+001	1.000646e+002	-1.286343e+001	-6.164977e+001
4268110.919	-1.016923e+001	-1.736624e+002	-1.698210e+001	9.553537e+001	-1.700400e+001	9.639118e+001	-1.285586e+001	-6.467450e+001
4292547.660	-1.024878e+001	-1.767262e+002	-1.678546e+001	9.172621e+001	-1.679955e+001	9.255442e+001	-1.286238e+001	-6.768648e+001
4316984.402	-1.034785e+001	-1.797351e+002	-1.658066e+001	8.772471e+001	-1.658956e+001	8.858921e+001	-1.287976e+001	-7.069507e+001
4341421.144	-1.046368e+001	1.773334e+002	-1.637771e+001	8.356382e+001	-1.637857e+001	8.441521e+001	-1.290895e+001	-7.363742e+001
4365857.886	-1.059475e+001	1.745109e+002	-1.617630e+001	7.922901e+001	-1.617881e+001	8.007912e+001	-1.294426e+001	-7.650134e+001
4390294.627	-1.073118e+001	1.717625e+002	-1.599254e+001	7.481767e+001	-1.598875e+001	7.564485e+001	-1.297955e+001	-7.932982e+001
4414731.369	-1.087531e+001	1.691137e+002	-1.581969e+001	7.028650e+001	-1.580813e+001	7.111171e+001	-1.301558e+001	-8.210451e+001
4439168.111	-1.102387e+001	1.665213e+002	-1.565805e+001	6.568586e+001	-1.564096e+001	6.652047e+001	-1.304884e+001	-8.486687e+001
4463604.853	-1.117870e+001	1.639905e+002	-1.550285e+001	6.106028e+001	-1.548254e+001	6.191212e+001	-1.308000e+001	-8.763298e+001
4488041.594	-1.133688e+001	1.615153e+002	-1.535782e+001	5.640736e+001	-1.533263e+001	5.723902e+001	-1.310943e+001	-9.037679e+001
4512478.336	-1.150062e+001	1.590900e+002	-1.521898e+001	5.173620e+001	-1.519057e+001	5.253868e+001	-1.313759e+001	-9.313249e+001
4536915.078	-1.166906e+001	1.567333e+002	-1.508677e+001	4.697345e+001	-1.505382e+001	4.776861e+001	-1.316793e+001	-9.587051e+001
4561351.820	-1.183840e+001	1.544306e+002	-1.496730e+001	4.217781e+001	-1.493024e+001	4.297246e+001	-1.319524e+001	-9.861736e+001
4585788.562	-1.200579e+001	1.521475e+002	-1.485933e+001	3.738168e+001	-1.481895e+001	3.815119e+001	-1.321431e+001	-1.013838e+002
4610225.303	-1.217423e+001	1.498761e+002	-1.476443e+001	3.257054e+001	-1.471855e+001	3.332646e+001	-1.323166e+001	-1.041857e+002
4634662.045	-1.234461e+001	1.475572e+002	-1.467844e+001	2.779095e+001	-1.463088e+001	2.851125e+001	-1.324111e+001	-1.070444e+002
4659098.787	-1.251933e+001	1.452179e+002	-1.460206e+001	2.303410e+001	-1.454925e+001	2.373384e+001	-1.325236e+001	-1.099868e+002
4683535.529	-1.270534e+001	1.428261e+002	-1.453044e+001	1.830517e+001	-1.447281e+001	1.897300e+001	-1.326293e+001	-1.130131e+002
4707972.270	-1.290295e+001	1.403804e+002	-1.446456e+001	1.364866e+001	-1.440452e+001	1.425346e+001	-1.327283e+001	-1.161154e+002
4732409.012	-1.312237e+001	1.378554e+002	-1.440057e+001	9.037522e+000	-1.433681e+001	9.584457e+000	-1.328632e+001	-1.193747e+002
4756845.754	-1.336963e+001	1.352847e+002	-1.432936e+001	4.453651e+000	-1.426842e+001	4.991936e+000	-1.330809e+001	-1.227779e+002
4781282.496	-1.364984e+001	1.326922e+002	-1.425551e+001	-7.466598e-002	-1.419209e+001	4.252221e-001	-1.334563e+001	-1.263154e+002
4805719.237	-1.396884e+001	1.301419e+002	-1.417027e+001	-4.613633e+000	-1.410424e+001	-4.148621e+000	-1.340417e+001	-1.299707e+002
4830155.979	-1.432938e+001	1.276850e+002	-1.407368e+001	-9.189522e+000	-1.400798e+001	-8.742993e+000	-1.348842e+001	-1.337288e+002
4854592.721	-1.472584e+001	1.253715e+002	-1.397165e+001	-1.382155e+001	-1.390428e+001	-1.341503e+001	-1.359818e+001	-1.375313e+002
4879029.463	-1.515733e+001	1.232590e+002	-1.386358e+001	-1.855309e+001	-1.380064e+001	-1.818783e+001	-1.373189e+001	-1.413507e+002
4903466.205	-1.561878e+001	1.213411e+002	-1.375759e+001	-2.338474e+001	-1.369670e+001	-2.305046e+001	-1.389022e+001	-1.451666e+002
4927902.946	-1.610574e+001	1.196035e+002	-1.366167e+001	-2.828007e+001	-1.360025e+001	-2.800186e+001	-1.406907e+001	-1.489693e+002
4952339.688	-1.661825e+001	1.180981e+002	-1.357052e+001	-3.330195e+001	-1.351364e+001	-3.299198e+001	-1.426415e+001	-1.527949e+002
4976776.430	-1.716034e+001	1.168018e+002	-1.349332e+001	-3.834072e+001	-1.343904e+001	-3.806315e+001	-1.447382e+001	-1.565739e+002
5001213.172	-1.773234e+001	1.157147e+002	-1.342711e+001	-4.340467e+001	-1.337443e+001	-4.314438e+001	-1.470037e+001	-1.603678e+002
5025649.913	-1.834597e+001	1.149133e+002	-1.336996e+001	-4.850109e+001	-1.332323e+001	-4.826578e+001	-1.493904e+001	-1.641693e+002
5050086.655	-1.899805e+001	1.144294e+002	-1.332642e+001	-5.360485e+001	-1.328181e+001	-5.338989e+001	-1.519349e+001	-1.679607e+002
5074523.397	-1.969575e+001	1.143745e+002	-1.329189e+001	-5.872438e+001	-1.325123e+001	-5.852323e+001	-1.546361e+001	-1.717724e+002
5098960.139	-2.043716e+001	1.147933e+002	-1.327264e+001	-6.385383e+001	-1.323458e+001	-6.365929e+001	-1.574355e+001	-1.755810e+002
5123396.880	-2.122970e+001	1.158179e+002	-1.326334e+001	-6.896264e+001	-1.323125e+001	-6.878487e+001	-1.603581e+001	-1.794026e+002
5147833.622	-2.206994e+001	1.176403e+002	-1.326836e+001	-7.403726e+001	-1.323986e+001	-7.386095e+001	-1.633237e+001	1.767039e+002
5172270.364	-2.296076e+001	1.205350e+002	-1.328268e+001	-7.904866e+001	-1.325901e+001	-7.887136e+001	-1.663837e+001	1.727116e+002
5196707.106	-2.386439e+001	1.249878e+002	-1.330160e+001	-8.398703e+001	-1.328160e+001	-8.381966e+001	-1.696142e+001	1.685892e+002
5221143.847	-2.468076e+001	1.313995e+002	-1.332194e+001	-8.885625e+001	-1.330651e+001	-8.872143e+001	-1.731101e+001	1.643982e+002
5245580.589	-2.527334e+001	1.396625e+002	-1.334203e+001	-9.371151e+001	-1.332997e+001	-9.356785e+001	-1.768794e+001	1.600568e+002
5270017.331	-2.549241e+001	1.492398e+002	-1.336401e+001	-9.855331e+001	-1.335473e+001	-9.840120e+001	-1.808921e+001	1.556672e+002
5294454.073	-2.526349e+001	1.588258e+002	-1.338623e+001	-1.033799e+002	-1.338340e+001	-1.032358e+002	-1.851431e+001	1.512268e+002
5318890.815	-2.466335e+001	1.671667e+002	-1.341222e+001	-1.082198e+002	-1.341221e+001	-1.080442e+002	-1.896433e+001	1.467110e+002
5343327.556	-2.384169e+001	1.737145e+002	-1.344288e+001	-1.130327e+002	-1.344449e+001	-1.128445e+002	-1.943219e+001	1.421511e+002
5367764.298	-2.291134e+001	1.784211e+002	-1.347648e+001	-1.178305e+002	-1.348262e+001	-1.176267e+002	-1.991819e+001	1.374977e+002
5392201.040	-2.196125e+001	-1.784481e+002	-1.351293e+001	-1.226156e+002	-1.352287e+001	-1.223841e+002	-2.041830e+001	1.327215e+002
5416637.782	-2.105286e+001	-1.765406e+002	-1.355506e+001	-1.273759e+002	-1.356694e+001	-1.271142e+002	-2.093367e+001	1.278432e+002
5441074.523	-2.019364e+001	-1.755774e+002	-1.359901e+001	-1.320879e+002	-1.361233e+001	-1.318221e+002	-2.146345e+001	1.227920e+002
