!Agilent Technologies,E5061B,MY49101568,A.02.00
!Date: Wed Mar 01 14:02:45 2023
!Data & Calibration Information:
!Freq	S11:SOLT2(OFF)	S21:SOLT2(OFF)	S12:SOLT2(OFF)	S22:SOLT2(OFF)
# Hz S dB R 50
1800000.000	-9.486870e+000	-1.743747e+001	-2.438028e+001	-1.340205e+002	-2.437058e+001	-1.340439e+002	-9.870137e+000	1.897624e+001
1824436.742	-9.591800e+000	-2.173083e+001	-2.400553e+001	-1.379883e+002	-2.399459e+001	-1.379825e+002	-1.000112e+001	1.519491e+001
1848873.484	-9.699316e+000	-2.612035e+001	-2.360881e+001	-1.420282e+002	-2.361544e+001	-1.420503e+002	-1.013284e+001	1.137162e+001
1873310.225	-9.814422e+000	-3.054940e+001	-2.322036e+001	-1.461593e+002	-2.322560e+001	-1.461899e+002	-1.026385e+001	7.517327e+000
1897746.967	-9.929468e+000	-3.507688e+001	-2.282029e+001	-1.503225e+002	-2.282866e+001	-1.504079e+002	-1.039163e+001	3.593804e+000
1922183.709	-1.005022e+001	-3.972318e+001	-2.240638e+001	-1.546425e+002	-2.241906e+001	-1.546924e+002	-1.052053e+001	-4.442180e-001
1946620.451	-1.017480e+001	-4.449210e+001	-2.198741e+001	-1.590205e+002	-2.200464e+001	-1.590524e+002	-1.064776e+001	-4.570537e+000
1971057.192	-1.030820e+001	-4.940562e+001	-2.155090e+001	-1.635279e+002	-2.157460e+001	-1.635632e+002	-1.077664e+001	-8.803806e+000
1995493.934	-1.045159e+001	-5.443767e+001	-2.110621e+001	-1.682177e+002	-2.113283e+001	-1.681564e+002	-1.090984e+001	-1.311457e+001
2019930.676	-1.060496e+001	-5.960312e+001	-2.065238e+001	-1.730243e+002	-2.068868e+001	-1.729436e+002	-1.104269e+001	-1.749005e+001
2044367.418	-1.077169e+001	-6.489643e+001	-2.019979e+001	-1.780272e+002	-2.023315e+001	-1.779123e+002	-1.116950e+001	-2.201790e+001
2068804.159	-1.095141e+001	-7.031941e+001	-1.974638e+001	1.768250e+002	-1.978469e+001	1.769763e+002	-1.129864e+001	-2.658549e+001
2093240.901	-1.114436e+001	-7.587889e+001	-1.929365e+001	1.716347e+002	-1.933319e+001	1.717306e+002	-1.142927e+001	-3.124527e+001
2117677.643	-1.135405e+001	-8.161496e+001	-1.884384e+001	1.661749e+002	-1.889339e+001	1.663547e+002	-1.155797e+001	-3.599172e+001
2142114.385	-1.158030e+001	-8.752993e+001	-1.839757e+001	1.605946e+002	-1.844750e+001	1.608114e+002	-1.168182e+001	-4.085045e+001
2166551.127	-1.182861e+001	-9.361148e+001	-1.795932e+001	1.548210e+002	-1.800596e+001	1.550982e+002	-1.180398e+001	-4.582259e+001
2190987.868	-1.209655e+001	-9.986873e+001	-1.752587e+001	1.488451e+002	-1.757420e+001	1.491868e+002	-1.192602e+001	-5.086998e+001
2215424.610	-1.238619e+001	-1.063030e+002	-1.711106e+001	1.426782e+002	-1.715806e+001	1.431133e+002	-1.204213e+001	-5.601758e+001
2239861.352	-1.269920e+001	-1.129108e+002	-1.671995e+001	1.364201e+002	-1.676064e+001	1.368915e+002	-1.214893e+001	-6.124677e+001
2264298.094	-1.302239e+001	-1.197341e+002	-1.634058e+001	1.300487e+002	-1.638567e+001	1.305573e+002	-1.224425e+001	-6.661268e+001
2288734.835	-1.337193e+001	-1.268032e+002	-1.597710e+001	1.235784e+002	-1.601701e+001	1.241245e+002	-1.233127e+001	-7.208203e+001
2313171.577	-1.374632e+001	-1.340935e+002	-1.563214e+001	1.169555e+002	-1.566735e+001	1.175274e+002	-1.241035e+001	-7.765437e+001
2337608.319	-1.413755e+001	-1.415965e+002	-1.530949e+001	1.101999e+002	-1.533866e+001	1.108037e+002	-1.247723e+001	-8.332510e+001
2362045.061	-1.453973e+001	-1.493050e+002	-1.500987e+001	1.033762e+002	-1.503707e+001	1.039484e+002	-1.253014e+001	-8.906951e+001
2386481.802	-1.494084e+001	-1.572683e+002	-1.474161e+001	9.642267e+001	-1.476088e+001	9.702981e+001	-1.256157e+001	-9.494138e+001
2410918.544	-1.533885e+001	-1.655182e+002	-1.450195e+001	8.942133e+001	-1.451128e+001	9.007178e+001	-1.257406e+001	-1.009663e+002
2435355.286	-1.572018e+001	-1.741042e+002	-1.428067e+001	8.240647e+001	-1.428190e+001	8.304543e+001	-1.257253e+001	-1.071524e+002
2459792.028	-1.609012e+001	1.770160e+002	-1.408661e+001	7.530339e+001	-1.407727e+001	7.594685e+001	-1.255559e+001	-1.134628e+002
2484228.769	-1.642689e+001	1.678848e+002	-1.391787e+001	6.815333e+001	-1.390296e+001	6.880170e+001	-1.252626e+001	-1.199266e+002
2508665.511	-1.671729e+001	1.585057e+002	-1.378062e+001	6.100290e+001	-1.375720e+001	6.163106e+001	-1.248409e+001	-1.265091e+002
2533102.253	-1.695312e+001	1.489043e+002	-1.367192e+001	5.389351e+001	-1.364060e+001	5.445128e+001	-1.243163e+001	-1.331903e+002
2557538.995	-1.712379e+001	1.391334e+002	-1.359037e+001	4.676469e+001	-1.355256e+001	4.728895e+001	-1.237070e+001	-1.400206e+002
2581975.737	-1.722646e+001	1.292958e+002	-1.353709e+001	3.964275e+001	-1.348934e+001	4.014356e+001	-1.230758e+001	-1.469411e+002
2606412.478	-1.725550e+001	1.194593e+002	-1.351170e+001	3.257783e+001	-1.345658e+001	3.303964e+001	-1.224159e+001	-1.539506e+002
2630849.220	-1.721296e+001	1.097265e+002	-1.351253e+001	2.557100e+001	-1.345623e+001	2.597899e+001	-1.217839e+001	-1.610189e+002
2655285.962	-1.711024e+001	1.001576e+002	-1.354048e+001	1.863752e+001	-1.347608e+001	1.899492e+001	-1.211963e+001	-1.681053e+002
2679722.704	-1.695532e+001	9.083975e+001	-1.359313e+001	1.178896e+001	-1.352852e+001	1.208360e+001	-1.206783e+001	-1.752053e+002
2704159.445	-1.675700e+001	8.183283e+001	-1.367128e+001	5.052755e+000	-1.360261e+001	5.297882e+000	-1.202027e+001	1.777467e+002
2728596.187	-1.652738e+001	7.315234e+001	-1.376788e+001	-1.554463e+000	-1.370132e+001	-1.377910e+000	-1.198529e+001	1.707439e+002
2753032.929	-1.627457e+001	6.481720e+001	-1.388440e+001	-8.027702e+000	-1.381479e+001	-7.917214e+000	-1.195349e+001	1.638167e+002
2777469.671	-1.600793e+001	5.681209e+001	-1.401732e+001	-1.437962e+001	-1.394941e+001	-1.431455e+001	-1.193855e+001	1.569972e+002
2801906.412	-1.574275e+001	4.917605e+001	-1.416313e+001	-2.058323e+001	-1.409820e+001	-2.057635e+001	-1.193227e+001	1.502869e+002
2826343.154	-1.547863e+001	4.189126e+001	-1.432085e+001	-2.664251e+001	-1.426140e+001	-2.668737e+001	-1.193763e+001	1.437335e+002
2850779.896	-1.521777e+001	3.494522e+001	-1.449116e+001	-3.253773e+001	-1.443356e+001	-3.263184e+001	-1.195377e+001	1.373408e+002
2875216.638	-1.496346e+001	2.827770e+001	-1.466564e+001	-3.834854e+001	-1.461491e+001	-3.842413e+001	-1.197638e+001	1.310851e+002
2899653.380	-1.472187e+001	2.192232e+001	-1.484882e+001	-4.394683e+001	-1.480129e+001	-4.407146e+001	-1.200921e+001	1.250279e+002
2924090.121	-1.449043e+001	1.583172e+001	-1.503352e+001	-4.940577e+001	-1.499315e+001	-4.956534e+001	-1.204818e+001	1.191528e+002
2948526.863	-1.426965e+001	9.986562e+000	-1.521974e+001	-5.471819e+001	-1.518534e+001	-5.488382e+001	-1.209232e+001	1.134371e+002
2972963.605	-1.405821e+001	4.373228e+000	-1.540344e+001	-5.988603e+001	-1.537646e+001	-6.007476e+001	-1.214291e+001	1.078892e+002
2997400.347	-1.385981e+001	-1.042634e+000	-1.558345e+001	-6.493373e+001	-1.556400e+001	-6.512760e+001	-1.219688e+001	1.025153e+002
3021837.088	-1.367158e+001	-6.244022e+000	-1.576127e+001	-6.983758e+001	-1.574747e+001	-7.005660e+001	-1.225561e+001	9.728216e+001
3046273.830	-1.349317e+001	-1.126825e+001	-1.593217e+001	-7.463705e+001	-1.592691e+001	-7.485036e+001	-1.231404e+001	9.221515e+001
3070710.572	-1.332363e+001	-1.613879e+001	-1.609456e+001	-7.930192e+001	-1.609570e+001	-7.952777e+001	-1.237780e+001	8.727164e+001
3095147.314	-1.316473e+001	-2.085460e+001	-1.625030e+001	-8.388098e+001	-1.625794e+001	-8.409543e+001	-1.244233e+001	8.247736e+001
3119584.055	-1.301190e+001	-2.544978e+001	-1.639109e+001	-8.833966e+001	-1.640582e+001	-8.857010e+001	-1.251020e+001	7.778904e+001
3144020.797	-1.287125e+001	-2.991167e+001	-1.652510e+001	-9.272525e+001	-1.654033e+001	-9.296763e+001	-1.258201e+001	7.324422e+001
3168457.539	-1.273956e+001	-3.426161e+001	-1.664468e+001	-9.706772e+001	-1.666817e+001	-9.729910e+001	-1.265594e+001	6.880778e+001
3192894.281	-1.261695e+001	-3.851343e+001	-1.675488e+001	-1.013674e+002	-1.678234e+001	-1.015768e+002	-1.273271e+001	6.449104e+001
3217331.023	-1.250223e+001	-4.264569e+001	-1.685566e+001	-1.056322e+002	-1.688817e+001	-1.058040e+002	-1.281246e+001	6.029741e+001
3241767.764	-1.239488e+001	-4.667934e+001	-1.694947e+001	-1.098341e+002	-1.698720e+001	-1.100105e+002	-1.289319e+001	5.621296e+001
3266204.506	-1.229259e+001	-5.062214e+001	-1.703588e+001	-1.139906e+002	-1.707806e+001	-1.141222e+002	-1.297170e+001	5.223890e+001
3290641.248	-1.219482e+001	-5.448618e+001	-1.710877e+001	-1.180551e+002	-1.715597e+001	-1.181708e+002	-1.304938e+001	4.832345e+001
3315077.990	-1.210193e+001	-5.831296e+001	-1.716484e+001	-1.220520e+002	-1.721875e+001	-1.221643e+002	-1.312810e+001	4.447861e+001
3339514.731	-1.202085e+001	-6.207552e+001	-1.720269e+001	-1.260793e+002	-1.725907e+001	-1.261492e+002	-1.321419e+001	4.068392e+001
3363951.473	-1.194996e+001	-6.579287e+001	-1.722487e+001	-1.301102e+002	-1.728624e+001	-1.301341e+002	-1.330546e+001	3.696258e+001
3388388.215	-1.188927e+001	-6.944467e+001	-1.723270e+001	-1.341777e+002	-1.729730e+001	-1.341616e+002	-1.340674e+001	3.331089e+001
3412824.957	-1.184089e+001	-7.303139e+001	-1.723113e+001	-1.382850e+002	-1.729937e+001	-1.382362e+002	-1.351681e+001	2.977132e+001
3437261.698	-1.180286e+001	-7.655045e+001	-1.721774e+001	-1.424313e+002	-1.728801e+001	-1.423379e+002	-1.363427e+001	2.633192e+001
3461698.440	-1.177556e+001	-7.997061e+001	-1.720090e+001	-1.466167e+002	-1.727135e+001	-1.464941e+002	-1.375740e+001	2.300237e+001
3486135.182	-1.175700e+001	-8.330973e+001	-1.717941e+001	-1.508550e+002	-1.725365e+001	-1.506912e+002	-1.388720e+001	1.981491e+001
3510571.924	-1.174704e+001	-8.655551e+001	-1.715266e+001	-1.551213e+002	-1.722683e+001	-1.549403e+002	-1.402324e+001	1.676305e+001
3535008.666	-1.174357e+001	-8.970259e+001	-1.712435e+001	-1.594111e+002	-1.719933e+001	-1.591651e+002	-1.415326e+001	1.383300e+001
3559445.407	-1.174540e+001	-9.276350e+001	-1.708840e+001	-1.636775e+002	-1.716393e+001	-1.634154e+002	-1.428397e+001	1.101101e+001
3583882.149	-1.175183e+001	-9.574638e+001	-1.704149e+001	-1.679743e+002	-1.711824e+001	-1.676701e+002	-1.441171e+001	8.273343e+000
3608318.891	-1.176059e+001	-9.865465e+001	-1.698119e+001	-1.723123e+002	-1.705843e+001	-1.719746e+002	-1.454392e+001	5.618439e+000
3632755.633	-1.177762e+001	-1.014974e+002	-1.691126e+001	-1.767718e+002	-1.698513e+001	-1.763339e+002	-1.468160e+001	3.034739e+000
3657192.374	-1.180177e+001	-1.042923e+002	-1.682067e+001	1.787108e+002	-1.689810e+001	1.791959e+002	-1.483084e+001	5.902876e-001
3681629.116	-1.183542e+001	-1.069570e+002	-1.673050e+001	1.740335e+002	-1.680463e+001	1.745450e+002	-1.498948e+001	-1.679042e+000
3706065.858	-1.187631e+001	-1.095131e+002	-1.664493e+001	1.691887e+002	-1.671583e+001	1.697304e+002	-1.514863e+001	-3.694932e+000
3730502.600	-1.192074e+001	-1.119392e+002	-1.656538e+001	1.642214e+002	-1.663423e+001	1.648196e+002	-1.529878e+001	-5.501543e+000
3754939.341	-1.196630e+001	-1.142316e+002	-1.649159e+001	1.591625e+002	-1.656149e+001	1.597819e+002	-1.543533e+001	-7.100841e+000
3779376.083	-1.201088e+001	-1.164149e+002	-1.642897e+001	1.540377e+002	-1.649340e+001	1.546712e+002	-1.555677e+001	-8.516664e+000
3803812.825	-1.206248e+001	-1.184376e+002	-1.636899e+001	1.487839e+002	-1.643044e+001	1.494694e+002	-1.566275e+001	-9.758902e+000
3828249.567	-1.210865e+001	-1.202750e+002	-1.631994e+001	1.434047e+002	-1.637575e+001	1.440827e+002	-1.575152e+001	-1.075434e+001
3852686.308	-1.214655e+001	-1.219193e+002	-1.628320e+001	1.378765e+002	-1.634081e+001	1.385658e+002	-1.580578e+001	-1.152345e+001
3877123.050	-1.216506e+001	-1.233571e+002	-1.627031e+001	1.322361e+002	-1.632649e+001	1.329287e+002	-1.581747e+001	-1.209646e+001
3901559.792	-1.215906e+001	-1.246128e+002	-1.628051e+001	1.264690e+002	-1.633331e+001	1.272059e+002	-1.577847e+001	-1.253348e+001
3925996.534	-1.211783e+001	-1.257314e+002	-1.631560e+001	1.206092e+002	-1.636901e+001	1.213594e+002	-1.568270e+001	-1.289029e+001
3950433.276	-1.203431e+001	-1.267334e+002	-1.638816e+001	1.146544e+002	-1.643690e+001	1.154194e+002	-1.552320e+001	-1.326890e+001
3974870.017	-1.190249e+001	-1.277223e+002	-1.649577e+001	1.086261e+002	-1.654387e+001	1.094287e+002	-1.529860e+001	-1.375949e+001
3999306.759	-1.172055e+001	-1.287935e+002	-1.664638e+001	1.026171e+002	-1.669211e+001	1.034202e+002	-1.501609e+001	-1.450442e+001
4023743.501	-1.149332e+001	-1.300165e+002	-1.684166e+001	9.661261e+001	-1.688394e+001	9.744063e+001	-1.468960e+001	-1.556578e+001
4048180.243	-1.122869e+001	-1.314899e+002	-1.708293e+001	9.069508e+001	-1.712512e+001	9.151706e+001	-1.432921e+001	-1.698932e+001
4072616.984	-1.093497e+001	-1.332434e+002	-1.737311e+001	8.486482e+001	-1.741617e+001	8.569785e+001	-1.394933e+001	-1.880889e+001
4097053.726	-1.062469e+001	-1.353239e+002	-1.771744e+001	7.920952e+001	-1.775812e+001	8.007680e+001	-1.356526e+001	-2.103145e+001
4121490.468	-1.031110e+001	-1.377519e+002	-1.811544e+001	7.384262e+001	-1.815422e+001	7.470229e+001	-1.318877e+001	-2.361998e+001
4145927.210	-1.000388e+001	-1.405194e+002	-1.856343e+001	6.882143e+001	-1.859863e+001	6.968289e+001	-1.282859e+001	-2.655331e+001
4170363.951	-9.716158e+000	-1.435727e+002	-1.904342e+001	6.428857e+001	-1.909259e+001	6.506221e+001	-1.249275e+001	-2.974814e+001
4194800.693	-9.456451e+000	-1.469036e+002	-1.955713e+001	6.028805e+001	-1.960977e+001	6.104461e+001	-1.219253e+001	-3.321197e+001
4219237.435	-9.229748e+000	-1.504131e+002	-2.006701e+001	5.681434e+001	-2.013066e+001	5.761326e+001	-1.192878e+001	-3.683183e+001
4243674.177	-9.034801e+000	-1.540389e+002	-2.056832e+001	5.381219e+001	-2.063672e+001	5.467376e+001	-1.169799e+001	-4.052059e+001
4268110.919	-8.866329e+000	-1.577789e+002	-2.106327e+001	5.134300e+001	-2.113895e+001	5.229308e+001	-1.149127e+001	-4.428488e+001
4292547.660	-8.728167e+000	-1.616245e+002	-2.153439e+001	4.951797e+001	-2.160623e+001	5.060831e+001	-1.131143e+001	-4.812656e+001
4316984.402	-8.625851e+000	-1.655511e+002	-2.193255e+001	4.840464e+001	-2.199716e+001	4.961208e+001	-1.116502e+001	-5.201169e+001
4341421.144	-8.562108e+000	-1.694635e+002	-2.220453e+001	4.766423e+001	-2.225770e+001	4.894157e+001	-1.104829e+001	-5.585103e+001
4365857.886	-8.522421e+000	-1.732728e+002	-2.236317e+001	4.667269e+001	-2.241080e+001	4.804436e+001	-1.095168e+001	-5.955674e+001
4390294.627	-8.486466e+000	-1.770027e+002	-2.250428e+001	4.517960e+001	-2.253077e+001	4.667827e+001	-1.085390e+001	-6.313342e+001
4414731.369	-8.444017e+000	1.792223e+002	-2.272278e+001	4.364324e+001	-2.272290e+001	4.515041e+001	-1.073623e+001	-6.668775e+001
4439168.111	-8.397995e+000	1.752361e+002	-2.302488e+001	4.279845e+001	-2.300939e+001	4.424929e+001	-1.059511e+001	-7.040690e+001
4463604.853	-8.371245e+000	1.709643e+002	-2.332674e+001	4.347527e+001	-2.328745e+001	4.490135e+001	-1.045315e+001	-7.440893e+001
4488041.594	-8.389905e+000	1.663813e+002	-2.343178e+001	4.595748e+001	-2.336897e+001	4.718507e+001	-1.033399e+001	-7.873201e+001
4512478.336	-8.480753e+000	1.615819e+002	-2.313382e+001	4.932937e+001	-2.308502e+001	5.029798e+001	-1.025770e+001	-8.332902e+001
4536915.078	-8.660456e+000	1.567738e+002	-2.239155e+001	5.152935e+001	-2.236697e+001	5.245178e+001	-1.025027e+001	-8.807683e+001
4561351.820	-8.920696e+000	1.522308e+002	-2.143929e+001	5.109822e+001	-2.142714e+001	5.213001e+001	-1.031219e+001	-9.271981e+001
4585788.562	-9.230344e+000	1.480359e+002	-2.052208e+001	4.848183e+001	-2.050108e+001	4.958001e+001	-1.042051e+001	-9.712885e+001
4610225.303	-9.566236e+000	1.442286e+002	-1.973416e+001	4.439898e+001	-1.969320e+001	4.549941e+001	-1.055603e+001	-1.012440e+002
4634662.045	-9.909469e+000	1.407420e+002	-1.908992e+001	3.951677e+001	-1.904266e+001	4.059580e+001	-1.069524e+001	-1.050942e+002
4659098.787	-1.023638e+001	1.374998e+002	-1.860276e+001	3.427106e+001	-1.854535e+001	3.535911e+001	-1.081764e+001	-1.087306e+002
4683535.529	-1.053621e+001	1.342460e+002	-1.826099e+001	2.926623e+001	-1.818756e+001	3.029516e+001	-1.090492e+001	-1.122884e+002
4707972.270	-1.083672e+001	1.307375e+002	-1.797120e+001	2.493663e+001	-1.789119e+001	2.584992e+001	-1.096012e+001	-1.160420e+002
4732409.012	-1.119580e+001	1.268470e+002	-1.762636e+001	2.128479e+001	-1.754192e+001	2.207888e+001	-1.101895e+001	-1.202385e+002
4756845.754	-1.166286e+001	1.229856e+002	-1.715704e+001	1.745535e+001	-1.706595e+001	1.821712e+001	-1.113878e+001	-1.247835e+002
4781282.496	-1.222189e+001	1.195106e+002	-1.663572e+001	1.289697e+001	-1.653883e+001	1.358760e+001	-1.133476e+001	-1.293018e+002
4805719.237	-1.282953e+001	1.165839e+002	-1.614939e+001	7.666535e+000	-1.605111e+001	8.219917e+000	-1.157554e+001	-1.335866e+002
4830155.979	-1.346091e+001	1.140791e+002	-1.571593e+001	2.113649e+000	-1.562554e+001	2.571313e+000	-1.183745e+001	-1.377197e+002
4854592.721	-1.411842e+001	1.119349e+002	-1.532922e+001	-3.567032e+000	-1.524214e+001	-3.164129e+000	-1.211607e+001	-1.417946e+002
4879029.463	-1.481443e+001	1.102228e+002	-1.496327e+001	-9.357057e+000	-1.488593e+001	-9.035224e+000	-1.242553e+001	-1.458050e+002
4903466.205	-1.553703e+001	1.090864e+002	-1.462233e+001	-1.531939e+001	-1.455058e+001	-1.502988e+001	-1.276902e+001	-1.497332e+002
4927902.946	-1.627322e+001	1.086360e+002	-1.430459e+001	-2.146215e+001	-1.424028e+001	-2.118171e+001	-1.315099e+001	-1.535213e+002
4952339.688	-1.698551e+001	1.089234e+002	-1.401607e+001	-2.779428e+001	-1.396268e+001	-2.747732e+001	-1.356388e+001	-1.570801e+002
4976776.430	-1.764220e+001	1.098621e+002	-1.376874e+001	-3.420851e+001	-1.371781e+001	-3.391746e+001	-1.400155e+001	-1.603408e+002
5001213.172	-1.821778e+001	1.112529e+002	-1.355856e+001	-4.070044e+001	-1.351359e+001	-4.040833e+001	-1.445330e+001	-1.632963e+002
5025649.913	-1.871018e+001	1.129208e+002	-1.338712e+001	-4.719720e+001	-1.334331e+001	-4.691904e+001	-1.490735e+001	-1.659670e+002
5050086.655	-1.912196e+001	1.146930e+002	-1.324532e+001	-5.369229e+001	-1.320625e+001	-5.342292e+001	-1.535930e+001	-1.683606e+002
5074523.397	-1.946618e+001	1.164139e+002	-1.313258e+001	-6.014668e+001	-1.309710e+001	-5.987670e+001	-1.580343e+001	-1.704927e+002
5098960.139	-1.975961e+001	1.180416e+002	-1.304507e+001	-6.656264e+001	-1.301045e+001	-6.630206e+001	-1.623137e+001	-1.723917e+002
5123396.880	-2.001988e+001	1.195282e+002	-1.297781e+001	-7.293182e+001	-1.294622e+001	-7.267117e+001	-1.664319e+001	-1.740876e+002
5147833.622	-2.026229e+001	1.208937e+002	-1.292929e+001	-7.923462e+001	-1.289936e+001	-7.899235e+001	-1.703024e+001	-1.755770e+002
5172270.364	-2.049393e+001	1.221964e+002	-1.289639e+001	-8.549784e+001	-1.286829e+001	-8.525569e+001	-1.739086e+001	-1.768995e+002
5196707.106	-2.072173e+001	1.234551e+002	-1.287662e+001	-9.170009e+001	-1.284997e+001	-9.146381e+001	-1.772082e+001	-1.781060e+002
5221143.847	-2.094017e+001	1.247338e+002	-1.286767e+001	-9.785806e+001	-1.284342e+001	-9.762220e+001	-1.802302e+001	-1.792006e+002
5245580.589	-2.116063e+001	1.260874e+002	-1.287017e+001	-1.039888e+002	-1.284637e+001	-1.037375e+002	-1.829044e+001	1.797789e+002
5270017.331	-2.137514e+001	1.275361e+002	-1.288063e+001	-1.100821e+002	-1.285886e+001	-1.098325e+002	-1.851332e+001	1.788040e+002
5294454.073	-2.157631e+001	1.290292e+002	-1.289914e+001	-1.161571e+002	-1.287833e+001	-1.158904e+002	-1.870232e+001	1.778120e+002
5318890.815	-2.176501e+001	1.306576e+002	-1.292469e+001	-1.222109e+002	-1.290480e+001	-1.219334e+002	-1.884720e+001	1.768030e+002
5343327.556	-2.193480e+001	1.323297e+002	-1.295740e+001	-1.282610e+002	-1.293614e+001	-1.279758e+002	-1.895120e+001	1.757400e+002
5367764.298	-2.209126e+001	1.340202e+002	-1.299723e+001	-1.343111e+002	-1.297680e+001	-1.340236e+002	-1.900652e+001	1.745490e+002
5392201.040	-2.224723e+001	1.357210e+002	-1.304558e+001	-1.403805e+002	-1.302639e+001	-1.400736e+002	-1.901335e+001	1.731374e+002
5416637.782	-2.240937e+001	1.374786e+002	-1.310556e+001	-1.464528e+002	-1.308622e+001	-1.461296e+002	-1.898081e+001	1.714643e+002
5441074.523	-2.258051e+001	1.393951e+002	-1.317504e+001	-1.525205e+002	-1.315669e+001	-1.521939e+002	-1.891613e+001	1.694437e+002
