!Agilent Technologies,E5061B,MY49101568,A.02.00
!Date: Wed Mar 01 14:00:49 2023
!Data & Calibration Information:
!Freq	S11:SOLT2(OFF)	S21:SOLT2(OFF)	S12:SOLT2(OFF)	S22:SOLT2(OFF)
# Hz S dB R 50
1800000.000	-1.366551e+001	-4.706483e+001	-1.187373e+001	-1.449802e+002	-1.189935e+001	-1.448507e+002	-1.477397e+001	-1.887220e+001
1824436.742	-1.469862e+001	-5.313693e+001	-1.138824e+001	-1.525652e+002	-1.141104e+001	-1.523672e+002	-1.594389e+001	-2.537861e+001
1848873.484	-1.597517e+001	-5.864568e+001	-1.096893e+001	-1.604829e+002	-1.098742e+001	-1.602331e+002	-1.739201e+001	-3.145741e+001
1873310.225	-1.752186e+001	-6.305598e+001	-1.062080e+001	-1.685691e+002	-1.063173e+001	-1.682672e+002	-1.918267e+001	-3.655328e+001
1897746.967	-1.936799e+001	-6.567549e+001	-1.033698e+001	-1.766057e+002	-1.034063e+001	-1.763537e+002	-2.139137e+001	-4.002385e+001
1922183.709	-2.158281e+001	-6.534244e+001	-1.010554e+001	1.753176e+002	-1.010198e+001	1.755761e+002	-2.419232e+001	-4.057050e+001
1946620.451	-2.412269e+001	-5.893158e+001	-9.925366e+000	1.672546e+002	-9.914735e+000	1.674718e+002	-2.780431e+001	-3.313882e+001
1971057.192	-2.625330e+001	-4.270054e+001	-9.800041e+000	1.592797e+002	-9.786396e+000	1.594434e+002	-3.112427e+001	-6.548606e+000
1995493.934	-2.648300e+001	-1.988304e+001	-9.717693e+000	1.514269e+002	-9.712002e+000	1.515898e+002	-3.015375e+001	2.940462e+001
2019930.676	-2.474331e+001	-3.749750e+000	-9.689308e+000	1.437286e+002	-9.683595e+000	1.438667e+002	-2.689337e+001	4.449082e+001
2044367.418	-2.263869e+001	2.021690e+000	-9.705912e+000	1.362177e+002	-9.700776e+000	1.363445e+002	-2.429924e+001	4.676332e+001
2068804.159	-2.092531e+001	1.932387e+000	-9.761356e+000	1.290492e+002	-9.760164e+000	1.291633e+002	-2.242857e+001	4.391632e+001
2093240.901	-1.964096e+001	-8.109532e-001	-9.833826e+000	1.222800e+002	-9.834542e+000	1.223398e+002	-2.113481e+001	3.922687e+001
2117677.643	-1.868455e+001	-4.859233e+000	-9.911510e+000	1.158075e+002	-9.912770e+000	1.158539e+002	-2.020899e+001	3.377983e+001
2142114.385	-1.797261e+001	-9.334697e+000	-9.976666e+000	1.096265e+002	-9.977783e+000	1.096713e+002	-1.954745e+001	2.806218e+001
2166551.127	-1.739483e+001	-1.390658e+001	-1.001788e+001	1.035834e+002	-1.002052e+001	1.036253e+002	-1.904893e+001	2.238737e+001
2190987.868	-1.692436e+001	-1.891089e+001	-1.005897e+001	9.761673e+001	-1.006389e+001	9.766706e+001	-1.865495e+001	1.646943e+001
2215424.610	-1.658001e+001	-2.419363e+001	-1.009652e+001	9.178835e+001	-1.010245e+001	9.189873e+001	-1.838263e+001	1.025551e+001
2239861.352	-1.635058e+001	-2.956738e+001	-1.012469e+001	8.616960e+001	-1.013321e+001	8.627776e+001	-1.821917e+001	3.831898e+000
2264298.094	-1.621465e+001	-3.487746e+001	-1.012768e+001	8.067001e+001	-1.013803e+001	8.080883e+001	-1.815370e+001	-2.533318e+000
2288734.835	-1.613809e+001	-4.004541e+001	-1.010604e+001	7.520311e+001	-1.011429e+001	7.533717e+001	-1.815572e+001	-8.863188e+000
2313171.577	-1.609830e+001	-4.526429e+001	-1.007118e+001	6.969287e+001	-1.007917e+001	6.982895e+001	-1.818929e+001	-1.528261e+001
2337608.319	-1.611146e+001	-5.063102e+001	-1.002955e+001	6.416234e+001	-1.003919e+001	6.430422e+001	-1.826628e+001	-2.189840e+001
2362045.061	-1.618772e+001	-5.612473e+001	-9.982678e+000	5.865381e+001	-9.993070e+000	5.879486e+001	-1.839720e+001	-2.876682e+001
2386481.802	-1.633811e+001	-6.173133e+001	-9.930074e+000	5.313208e+001	-9.940691e+000	5.328139e+001	-1.857634e+001	-3.598327e+001
2410918.544	-1.657705e+001	-6.728943e+001	-9.866542e+000	4.763458e+001	-9.878459e+000	4.780684e+001	-1.883090e+001	-4.354792e+001
2435355.286	-1.686337e+001	-7.270061e+001	-9.783888e+000	4.206052e+001	-9.797958e+000	4.224157e+001	-1.914358e+001	-5.120359e+001
2459792.028	-1.720627e+001	-7.819881e+001	-9.702544e+000	3.635989e+001	-9.714183e+000	3.657670e+001	-1.949390e+001	-5.904818e+001
2484228.769	-1.763073e+001	-8.381187e+001	-9.626896e+000	3.056892e+001	-9.633543e+000	3.084724e+001	-1.988705e+001	-6.736573e+001
2508665.511	-1.814632e+001	-8.940118e+001	-9.552083e+000	2.476024e+001	-9.557300e+000	2.504332e+001	-2.033003e+001	-7.609215e+001
2533102.253	-1.876521e+001	-9.493030e+001	-9.483649e+000	1.891245e+001	-9.486679e+000	1.917749e+001	-2.083171e+001	-8.524527e+001
2557538.995	-1.950292e+001	-1.003851e+002	-9.418925e+000	1.297354e+001	-9.420983e+000	1.325875e+001	-2.137099e+001	-9.494453e+001
2581975.737	-2.037069e+001	-1.056190e+002	-9.366853e+000	6.979032e+000	-9.365165e+000	7.278881e+000	-2.195387e+001	-1.051686e+002
2606412.478	-2.140585e+001	-1.106451e+002	-9.324288e+000	9.579436e-001	-9.321918e+000	1.252384e+000	-2.256157e+001	-1.160240e+002
2630849.220	-2.264670e+001	-1.152771e+002	-9.298569e+000	-5.108010e+000	-9.291065e+000	-4.805329e+000	-2.318317e+001	-1.275139e+002
2655285.962	-2.413293e+001	-1.192640e+002	-9.283201e+000	-1.117277e+001	-9.276236e+000	-1.087119e+001	-2.380428e+001	-1.397255e+002
2679722.704	-2.595175e+001	-1.220838e+002	-9.284751e+000	-1.723136e+001	-9.275528e+000	-1.692691e+001	-2.438945e+001	-1.526368e+002
2704159.445	-2.823864e+001	-1.227789e+002	-9.296947e+000	-2.324582e+001	-9.288362e+000	-2.294412e+001	-2.490482e+001	-1.660482e+002
2728596.187	-3.112693e+001	-1.186874e+002	-9.323865e+000	-2.923265e+001	-9.311942e+000	-2.892843e+001	-2.535277e+001	1.799631e+002
2753032.929	-3.448324e+001	-1.036656e+002	-9.358225e+000	-3.515128e+001	-9.346090e+000	-3.486354e+001	-2.570167e+001	1.657872e+002
2777469.671	-3.619207e+001	-7.113931e+001	-9.399360e+000	-4.104837e+001	-9.387878e+000	-4.074693e+001	-2.596113e+001	1.515269e+002
2801906.412	-3.408946e+001	-4.235155e+001	-9.449667e+000	-4.686699e+001	-9.439878e+000	-4.658935e+001	-2.612800e+001	1.379143e+002
2826343.154	-3.116672e+001	-3.036350e+001	-9.506280e+000	-5.263421e+001	-9.496525e+000	-5.236668e+001	-2.623135e+001	1.246655e+002
2850779.896	-2.878040e+001	-2.714211e+001	-9.567045e+000	-5.834733e+001	-9.558555e+000	-5.807363e+001	-2.630113e+001	1.120180e+002
2875216.638	-2.696081e+001	-2.766041e+001	-9.632208e+000	-6.403571e+001	-9.622361e+000	-6.372503e+001	-2.637875e+001	1.000787e+002
2899653.380	-2.553344e+001	-2.980074e+001	-9.697575e+000	-6.962207e+001	-9.689636e+000	-6.932160e+001	-2.646320e+001	8.880456e+001
2924090.121	-2.440086e+001	-3.282999e+001	-9.763241e+000	-7.515279e+001	-9.757349e+000	-7.485780e+001	-2.660008e+001	7.804811e+001
2948526.863	-2.348599e+001	-3.638093e+001	-9.826199e+000	-8.062890e+001	-9.821964e+000	-8.031771e+001	-2.677004e+001	6.761714e+001
2972963.605	-2.275232e+001	-4.020614e+001	-9.885784e+000	-8.606311e+001	-9.882800e+000	-8.576070e+001	-2.704785e+001	5.746986e+001
2997400.347	-2.216975e+001	-4.423597e+001	-9.940110e+000	-9.147797e+001	-9.939787e+000	-9.116368e+001	-2.741462e+001	4.739590e+001
3021837.088	-2.171519e+001	-4.828365e+001	-9.990140e+000	-9.687330e+001	-9.990999e+000	-9.655238e+001	-2.790854e+001	3.735917e+001
3046273.830	-2.136634e+001	-5.233250e+001	-1.003601e+001	-1.022503e+002	-1.003849e+001	-1.019215e+002	-2.851374e+001	2.696657e+001
3070710.572	-2.111641e+001	-5.637253e+001	-1.007507e+001	-1.076234e+002	-1.007736e+001	-1.072829e+002	-2.926659e+001	1.588043e+001
3095147.314	-2.096500e+001	-6.042059e+001	-1.010461e+001	-1.130164e+002	-1.010776e+001	-1.126697e+002	-3.020281e+001	3.379343e+000
3119584.055	-2.092046e+001	-6.434197e+001	-1.012660e+001	-1.184692e+002	-1.012995e+001	-1.181128e+002	-3.135034e+001	-1.161156e+001
3144020.797	-2.098778e+001	-6.806735e+001	-1.014724e+001	-1.239861e+002	-1.014751e+001	-1.236737e+002	-3.271261e+001	-3.086722e+001
3168457.539	-2.115719e+001	-7.142805e+001	-1.016785e+001	-1.296021e+002	-1.016731e+001	-1.292942e+002	-3.388922e+001	-5.577912e+001
3192894.281	-2.143214e+001	-7.423950e+001	-1.019623e+001	-1.353273e+002	-1.019344e+001	-1.350098e+002	-3.419377e+001	-8.648905e+001
3217331.023	-2.179943e+001	-7.632860e+001	-1.023493e+001	-1.411269e+002	-1.022976e+001	-1.408071e+002	-3.313595e+001	-1.173051e+002
3241767.764	-2.223103e+001	-7.742625e+001	-1.028893e+001	-1.469726e+002	-1.028244e+001	-1.466616e+002	-3.122110e+001	-1.422005e+002
3266204.506	-2.268887e+001	-7.745258e+001	-1.035855e+001	-1.528172e+002	-1.034863e+001	-1.525146e+002	-2.919022e+001	-1.609476e+002
3290641.248	-2.313300e+001	-7.654624e+001	-1.042972e+001	-1.586265e+002	-1.041999e+001	-1.583572e+002	-2.729781e+001	-1.751659e+002
3315077.990	-2.358464e+001	-7.441287e+001	-1.050066e+001	-1.645072e+002	-1.048811e+001	-1.642398e+002	-2.555919e+001	1.735652e+002
3339514.731	-2.397087e+001	-7.059698e+001	-1.057852e+001	-1.705038e+002	-1.056465e+001	-1.702653e+002	-2.394733e+001	1.635595e+002
3363951.473	-2.416274e+001	-6.498159e+001	-1.067412e+001	-1.766306e+002	-1.065996e+001	-1.764071e+002	-2.248218e+001	1.542586e+002
3388388.215	-2.397576e+001	-5.823694e+001	-1.079684e+001	1.771637e+002	-1.077988e+001	1.773427e+002	-2.115975e+001	1.453805e+002
3412824.957	-2.335003e+001	-5.171124e+001	-1.095182e+001	1.708947e+002	-1.093702e+001	1.710458e+002	-1.999465e+001	1.366953e+002
3437261.698	-2.237085e+001	-4.677880e+001	-1.114300e+001	1.646280e+002	-1.113023e+001	1.647365e+002	-1.896270e+001	1.282656e+002
3461698.440	-2.121577e+001	-4.405125e+001	-1.137339e+001	1.584379e+002	-1.136313e+001	1.585114e+002	-1.807301e+001	1.200516e+002
3486135.182	-2.003611e+001	-4.339645e+001	-1.164012e+001	1.523775e+002	-1.163446e+001	1.524362e+002	-1.731460e+001	1.120688e+002
3510571.924	-1.893684e+001	-4.433707e+001	-1.193208e+001	1.465303e+002	-1.193273e+001	1.465422e+002	-1.666037e+001	1.044307e+002
3535008.666	-1.794662e+001	-4.636817e+001	-1.224523e+001	1.409227e+002	-1.225108e+001	1.409070e+002	-1.611255e+001	9.716284e+001
3559445.407	-1.707783e+001	-4.903635e+001	-1.256136e+001	1.355587e+002	-1.257680e+001	1.355015e+002	-1.564490e+001	9.030405e+001
3583882.149	-1.630704e+001	-5.204939e+001	-1.287350e+001	1.303619e+002	-1.289845e+001	1.302996e+002	-1.523618e+001	8.388246e+001
3608318.891	-1.562195e+001	-5.523692e+001	-1.317820e+001	1.253300e+002	-1.321150e+001	1.252489e+002	-1.486935e+001	7.786464e+001
3632755.633	-1.500248e+001	-5.851392e+001	-1.346645e+001	1.203372e+002	-1.351835e+001	1.202719e+002	-1.452347e+001	7.213224e+001
3657192.374	-1.442580e+001	-6.183906e+001	-1.375724e+001	1.154057e+002	-1.381895e+001	1.153039e+002	-1.418817e+001	6.668431e+001
3681629.116	-1.387353e+001	-6.528722e+001	-1.406003e+001	1.104439e+002	-1.413108e+001	1.103496e+002	-1.386614e+001	6.131052e+001
3706065.858	-1.335773e+001	-6.888098e+001	-1.437918e+001	1.055872e+002	-1.445896e+001	1.055316e+002	-1.357251e+001	5.600169e+001
3730502.600	-1.288471e+001	-7.257709e+001	-1.470781e+001	1.008671e+002	-1.479696e+001	1.008220e+002	-1.330563e+001	5.077244e+001
3754939.341	-1.245263e+001	-7.633289e+001	-1.503796e+001	9.630314e+001	-1.513700e+001	9.629608e+001	-1.307208e+001	4.567691e+001
3779376.083	-1.205752e+001	-8.010026e+001	-1.536674e+001	9.185875e+001	-1.547398e+001	9.188788e+001	-1.286080e+001	4.072894e+001
3803812.825	-1.169166e+001	-8.385667e+001	-1.569320e+001	8.751975e+001	-1.580888e+001	8.758391e+001	-1.266898e+001	3.591868e+001
3828249.567	-1.135200e+001	-8.761374e+001	-1.601935e+001	8.326859e+001	-1.614297e+001	8.337266e+001	-1.249194e+001	3.123707e+001
3852686.308	-1.103476e+001	-9.136084e+001	-1.634680e+001	7.911459e+001	-1.647415e+001	7.926423e+001	-1.233054e+001	2.667392e+001
3877123.050	-1.073938e+001	-9.510578e+001	-1.667427e+001	7.503864e+001	-1.680610e+001	7.524929e+001	-1.218047e+001	2.222588e+001
3901559.792	-1.046338e+001	-9.883636e+001	-1.699941e+001	7.103024e+001	-1.713484e+001	7.131172e+001	-1.203972e+001	1.789156e+001
3925996.534	-1.020703e+001	-1.025533e+002	-1.732641e+001	6.712878e+001	-1.746365e+001	6.743756e+001	-1.190415e+001	1.364171e+001
3950433.276	-9.965429e+000	-1.062673e+002	-1.765652e+001	6.330413e+001	-1.779574e+001	6.363962e+001	-1.177657e+001	9.469198e+000
3974870.017	-9.740038e+000	-1.099825e+002	-1.798855e+001	5.957095e+001	-1.813313e+001	5.995930e+001	-1.165735e+001	5.354141e+000
3999306.759	-9.528255e+000	-1.136756e+002	-1.832238e+001	5.592811e+001	-1.846850e+001	5.635671e+001	-1.154011e+001	1.316907e+000
4023743.501	-9.329264e+000	-1.173839e+002	-1.866542e+001	5.235159e+001	-1.881592e+001	5.285859e+001	-1.142926e+001	-2.689315e+000
4048180.243	-9.142752e+000	-1.210854e+002	-1.901240e+001	4.891217e+001	-1.916489e+001	4.945391e+001	-1.132411e+001	-6.635430e+000
4072616.984	-8.968505e+000	-1.248165e+002	-1.937323e+001	4.557229e+001	-1.952493e+001	4.621102e+001	-1.122348e+001	-1.056518e+001
4097053.726	-8.808353e+000	-1.285599e+002	-1.974501e+001	4.238938e+001	-1.989718e+001	4.309189e+001	-1.112652e+001	-1.446455e+001
4121490.468	-8.662180e+000	-1.323220e+002	-2.012735e+001	3.941249e+001	-2.027940e+001	4.019174e+001	-1.103567e+001	-1.834287e+001
4145927.210	-8.529828e+000	-1.361122e+002	-2.051823e+001	3.670167e+001	-2.066980e+001	3.749841e+001	-1.095109e+001	-2.221083e+001
4170363.951	-8.413348e+000	-1.399196e+002	-2.091975e+001	3.432150e+001	-2.105787e+001	3.517832e+001	-1.087746e+001	-2.605114e+001
4194800.693	-8.314416e+000	-1.437414e+002	-2.131305e+001	3.225651e+001	-2.145159e+001	3.322685e+001	-1.081101e+001	-2.990547e+001
4219237.435	-8.231170e+000	-1.475667e+002	-2.169512e+001	3.052693e+001	-2.182129e+001	3.156834e+001	-1.075308e+001	-3.371788e+001
4243674.177	-8.163383e+000	-1.514094e+002	-2.206368e+001	2.915061e+001	-2.217386e+001	3.022607e+001	-1.070006e+001	-3.752857e+001
4268110.919	-8.110749e+000	-1.552674e+002	-2.241287e+001	2.817391e+001	-2.250994e+001	2.927602e+001	-1.065191e+001	-4.133136e+001
4292547.660	-8.079628e+000	-1.591560e+002	-2.272390e+001	2.781492e+001	-2.280655e+001	2.889001e+001	-1.061637e+001	-4.515882e+001
4316984.402	-8.072589e+000	-1.630234e+002	-2.292499e+001	2.788944e+001	-2.300154e+001	2.893641e+001	-1.059552e+001	-4.895082e+001
4341421.144	-8.086024e+000	-1.668219e+002	-2.300976e+001	2.809969e+001	-2.306651e+001	2.911072e+001	-1.058865e+001	-5.265509e+001
4365857.886	-8.106831e+000	-1.705408e+002	-2.300674e+001	2.791565e+001	-2.306090e+001	2.888877e+001	-1.057718e+001	-5.626043e+001
4390294.627	-8.130535e+000	-1.742546e+002	-2.299708e+001	2.741050e+001	-2.305870e+001	2.810942e+001	-1.054766e+001	-5.981500e+001
4414731.369	-8.150734e+000	-1.780518e+002	-2.303199e+001	2.686695e+001	-2.315387e+001	2.747341e+001	-1.049716e+001	-6.349720e+001
4439168.111	-8.192033e+000	1.779375e+002	-2.308429e+001	2.723665e+001	-2.329275e+001	2.777571e+001	-1.043921e+001	-6.744067e+001
4463604.853	-8.253344e+000	1.737245e+002	-2.312960e+001	2.856876e+001	-2.335665e+001	2.975532e+001	-1.040214e+001	-7.169183e+001
4488041.594	-8.371297e+000	1.692474e+002	-2.296991e+001	3.151221e+001	-2.314575e+001	3.319840e+001	-1.040805e+001	-7.622945e+001
4512478.336	-8.584577e+000	1.647237e+002	-2.235248e+001	3.479975e+001	-2.247909e+001	3.686973e+001	-1.048298e+001	-8.098783e+001
4536915.078	-8.899229e+000	1.603978e+002	-2.132958e+001	3.646434e+001	-2.135959e+001	3.856992e+001	-1.065802e+001	-8.573197e+001
4561351.820	-9.297121e+000	1.566765e+002	-2.013264e+001	3.505028e+001	-2.011220e+001	3.707034e+001	-1.091611e+001	-9.008428e+001
4585788.562	-9.719745e+000	1.536208e+002	-1.905529e+001	3.133481e+001	-1.897836e+001	3.306132e+001	-1.122365e+001	-9.388308e+001
4610225.303	-1.012529e+001	1.512481e+002	-1.816150e+001	2.606959e+001	-1.805800e+001	2.755926e+001	-1.153434e+001	-9.708101e+001
4634662.045	-1.047644e+001	1.492984e+002	-1.747175e+001	2.015280e+001	-1.735684e+001	2.134333e+001	-1.180794e+001	-9.977729e+001
4659098.787	-1.076438e+001	1.474788e+002	-1.695850e+001	1.417182e+001	-1.686011e+001	1.519311e+001	-1.201172e+001	-1.023007e+002
4683535.529	-1.100748e+001	1.453449e+002	-1.659923e+001	8.776519e+000	-1.650501e+001	9.679676e+000	-1.215136e+001	-1.050638e+002
4707972.270	-1.131621e+001	1.428178e+002	-1.623226e+001	4.456097e+000	-1.615583e+001	5.050407e+000	-1.229676e+001	-1.083236e+002
4732409.012	-1.173386e+001	1.404697e+002	-1.575032e+001	4.339591e-001	-1.568077e+001	9.602610e-001	-1.254233e+001	-1.120545e+002
4756845.754	-1.224302e+001	1.391988e+002	-1.511291e+001	-4.280435e+000	-1.506502e+001	-3.789744e+000	-1.293656e+001	-1.154810e+002
4781282.496	-1.267774e+001	1.392466e+002	-1.447946e+001	-1.030025e+001	-1.444640e+001	-9.780517e+000	-1.340965e+001	-1.178874e+002
4805719.237	-1.292921e+001	1.398433e+002	-1.396960e+001	-1.714603e+001	-1.394521e+001	-1.651076e+001	-1.384020e+001	-1.193122e+002
4830155.979	-1.303605e+001	1.402357e+002	-1.357640e+001	-2.413300e+001	-1.354961e+001	-2.333005e+001	-1.419543e+001	-1.202731e+002
4854592.721	-1.305581e+001	1.401695e+002	-1.326353e+001	-3.103915e+001	-1.321422e+001	-3.014078e+001	-1.449416e+001	-1.209067e+002
4879029.463	-1.303371e+001	1.397627e+002	-1.298517e+001	-3.785673e+001	-1.291796e+001	-3.696198e+001	-1.473655e+001	-1.212415e+002
4903466.205	-1.296579e+001	1.390072e+002	-1.274065e+001	-4.471353e+001	-1.265956e+001	-4.386949e+001	-1.490678e+001	-1.212386e+002
4927902.946	-1.286166e+001	1.378340e+002	-1.252898e+001	-5.163925e+001	-1.244375e+001	-5.085247e+001	-1.498073e+001	-1.210653e+002
4952339.688	-1.273934e+001	1.361311e+002	-1.236186e+001	-5.866912e+001	-1.226422e+001	-5.792661e+001	-1.494464e+001	-1.208765e+002
4976776.430	-1.263409e+001	1.339071e+002	-1.223923e+001	-6.563618e+001	-1.214457e+001	-6.492555e+001	-1.480850e+001	-1.211290e+002
5001213.172	-1.256246e+001	1.312294e+002	-1.215766e+001	-7.253788e+001	-1.206514e+001	-7.185366e+001	-1.460585e+001	-1.218505e+002
5025649.913	-1.253783e+001	1.282231e+002	-1.210965e+001	-7.934403e+001	-1.201855e+001	-7.867653e+001	-1.437064e+001	-1.230994e+002
5050086.655	-1.256395e+001	1.249583e+002	-1.208965e+001	-8.606191e+001	-1.199849e+001	-8.538367e+001	-1.412058e+001	-1.248292e+002
5074523.397	-1.264557e+001	1.215204e+002	-1.209237e+001	-9.265811e+001	-1.199940e+001	-9.198843e+001	-1.387300e+001	-1.269788e+002
5098960.139	-1.277967e+001	1.179700e+002	-1.211299e+001	-9.914784e+001	-1.201874e+001	-9.850001e+001	-1.363476e+001	-1.294890e+002
5123396.880	-1.296489e+001	1.143430e+002	-1.214849e+001	-1.055597e+002	-1.205250e+001	-1.049217e+002	-1.341455e+001	-1.323119e+002
5147833.622	-1.320180e+001	1.106746e+002	-1.219700e+001	-1.118728e+002	-1.209918e+001	-1.112698e+002	-1.321307e+001	-1.353908e+002
5172270.364	-1.348712e+001	1.069781e+002	-1.225576e+001	-1.181168e+002	-1.215544e+001	-1.175521e+002	-1.302929e+001	-1.386832e+002
5196707.106	-1.382015e+001	1.032588e+002	-1.232419e+001	-1.243105e+002	-1.222254e+001	-1.237771e+002	-1.286609e+001	-1.421863e+002
5221143.847	-1.420355e+001	9.950630e+001	-1.240175e+001	-1.304236e+002	-1.230136e+001	-1.299865e+002	-1.271747e+001	-1.458369e+002
5245580.589	-1.463674e+001	9.573785e+001	-1.248680e+001	-1.365218e+002	-1.238807e+001	-1.361256e+002	-1.259084e+001	-1.496652e+002
5270017.331	-1.512338e+001	9.192756e+001	-1.258158e+001	-1.425863e+002	-1.248312e+001	-1.422370e+002	-1.248232e+001	-1.536251e+002
5294454.073	-1.566901e+001	8.805982e+001	-1.268282e+001	-1.486244e+002	-1.258767e+001	-1.483270e+002	-1.239091e+001	-1.577303e+002
5318890.815	-1.627679e+001	8.410094e+001	-1.278990e+001	-1.546475e+002	-1.269930e+001	-1.543855e+002	-1.231619e+001	-1.619499e+002
5343327.556	-1.695900e+001	8.001153e+001	-1.290822e+001	-1.606541e+002	-1.282270e+001	-1.604306e+002	-1.225695e+001	-1.663010e+002
5367764.298	-1.772671e+001	7.571223e+001	-1.303590e+001	-1.666560e+002	-1.295757e+001	-1.664683e+002	-1.221359e+001	-1.707798e+002
5392201.040	-1.860098e+001	7.111509e+001	-1.317753e+001	-1.726511e+002	-1.310356e+001	-1.724893e+002	-1.218571e+001	-1.753963e+002
5416637.782	-1.961040e+001	6.613413e+001	-1.333125e+001	-1.786109e+002	-1.326558e+001	-1.784923e+002	-1.217478e+001	1.798592e+002
5441074.523	-2.078166e+001	6.062303e+001	-1.349723e+001	1.754535e+002	-1.343864e+001	1.755537e+002	-1.218255e+001	1.749995e+002
