!Agilent Technologies,E5061B,MY49101568,A.02.00
!Date: Wed Mar 01 13:52:47 2023
!Data & Calibration Information:
!Freq	S11:SOLT2(OFF)	S21:SOLT2(OFF)	S12:SOLT2(OFF)	S22:SOLT2(OFF)
# Hz S dB R 50
1800000.000	-9.719808e+000	-1.655299e+001	-2.381007e+001	-1.448549e+002	-2.381133e+001	-1.449291e+002	-1.017544e+001	2.019742e+001
1824436.742	-9.833276e+000	-2.075711e+001	-2.347732e+001	-1.487783e+002	-2.348019e+001	-1.488508e+002	-1.031646e+001	1.651194e+001
1848873.484	-9.952420e+000	-2.504044e+001	-2.313460e+001	-1.527804e+002	-2.314403e+001	-1.528216e+002	-1.046043e+001	1.275810e+001
1873310.225	-1.007884e+001	-2.936430e+001	-2.278809e+001	-1.568985e+002	-2.279699e+001	-1.569270e+002	-1.060167e+001	8.999684e+000
1897746.967	-1.020454e+001	-3.375753e+001	-2.243024e+001	-1.610483e+002	-2.244468e+001	-1.611373e+002	-1.074073e+001	5.193254e+000
1922183.709	-1.033691e+001	-3.826658e+001	-2.206187e+001	-1.653477e+002	-2.208394e+001	-1.653916e+002	-1.088021e+001	1.275778e+000
1946620.451	-1.047207e+001	-4.284548e+001	-2.169879e+001	-1.697374e+002	-2.172092e+001	-1.697222e+002	-1.101542e+001	-2.713421e+000
1971057.192	-1.061254e+001	-4.756242e+001	-2.132705e+001	-1.741567e+002	-2.136328e+001	-1.742251e+002	-1.114960e+001	-6.762571e+000
1995493.934	-1.075929e+001	-5.237825e+001	-2.096102e+001	-1.787405e+002	-2.099125e+001	-1.787211e+002	-1.128515e+001	-1.091320e+001
2019930.676	-1.091216e+001	-5.731929e+001	-2.058853e+001	1.766692e+002	-2.062430e+001	1.767269e+002	-1.141483e+001	-1.511050e+001
2044367.418	-1.107574e+001	-6.240952e+001	-2.019465e+001	1.720580e+002	-2.023364e+001	1.721421e+002	-1.153486e+001	-1.953736e+001
2068804.159	-1.125658e+001	-6.762464e+001	-1.978533e+001	1.672235e+002	-1.983030e+001	1.673861e+002	-1.166014e+001	-2.399001e+001
2093240.901	-1.144667e+001	-7.295892e+001	-1.937838e+001	1.622973e+002	-1.942350e+001	1.624205e+002	-1.178927e+001	-2.851110e+001
2117677.643	-1.165465e+001	-7.845525e+001	-1.896974e+001	1.571738e+002	-1.901272e+001	1.573300e+002	-1.191467e+001	-3.311918e+001
2142114.385	-1.187854e+001	-8.407725e+001	-1.856577e+001	1.518556e+002	-1.861701e+001	1.520327e+002	-1.203280e+001	-3.781834e+001
2166551.127	-1.212149e+001	-8.985270e+001	-1.815829e+001	1.463887e+002	-1.820190e+001	1.466138e+002	-1.215021e+001	-4.266253e+001
2190987.868	-1.237812e+001	-9.575158e+001	-1.776622e+001	1.407089e+002	-1.781021e+001	1.409704e+002	-1.226196e+001	-4.754697e+001
2215424.610	-1.265622e+001	-1.018017e+002	-1.738838e+001	1.348129e+002	-1.744120e+001	1.351763e+002	-1.236300e+001	-5.252966e+001
2239861.352	-1.294302e+001	-1.080170e+002	-1.703772e+001	1.288445e+002	-1.707612e+001	1.292349e+002	-1.245481e+001	-5.761038e+001
2264298.094	-1.324531e+001	-1.144363e+002	-1.669247e+001	1.227326e+002	-1.673368e+001	1.231912e+002	-1.253094e+001	-6.280962e+001
2288734.835	-1.356003e+001	-1.210526e+002	-1.637129e+001	1.165362e+002	-1.641087e+001	1.170182e+002	-1.259431e+001	-6.808264e+001
2313171.577	-1.388194e+001	-1.279170e+002	-1.607236e+001	1.102841e+002	-1.610729e+001	1.108200e+002	-1.263591e+001	-7.356048e+001
2337608.319	-1.422222e+001	-1.350704e+002	-1.578176e+001	1.039424e+002	-1.580972e+001	1.044415e+002	-1.267282e+001	-7.910624e+001
2362045.061	-1.457794e+001	-1.423974e+002	-1.550628e+001	9.743970e+001	-1.553639e+001	9.794853e+001	-1.269569e+001	-8.478473e+001
2386481.802	-1.491479e+001	-1.499464e+002	-1.527325e+001	9.081211e+001	-1.529934e+001	9.132388e+001	-1.269267e+001	-9.054368e+001
2410918.544	-1.522677e+001	-1.578644e+002	-1.508112e+001	8.422832e+001	-1.511214e+001	8.478584e+001	-1.264658e+001	-9.646252e+001
2435355.286	-1.551944e+001	-1.663840e+002	-1.489651e+001	7.780860e+001	-1.492360e+001	7.849204e+001	-1.257753e+001	-1.027645e+002
2459792.028	-1.582554e+001	-1.754566e+002	-1.470172e+001	7.139881e+001	-1.470854e+001	7.215748e+001	-1.251756e+001	-1.093731e+002
2484228.769	-1.614321e+001	1.750656e+002	-1.450397e+001	6.481319e+001	-1.448911e+001	6.557202e+001	-1.247162e+001	-1.161710e+002
2508665.511	-1.645519e+001	1.654867e+002	-1.432568e+001	5.798603e+001	-1.429707e+001	5.866629e+001	-1.243721e+001	-1.229346e+002
2533102.253	-1.673358e+001	1.558236e+002	-1.418344e+001	5.101849e+001	-1.415386e+001	5.160439e+001	-1.239220e+001	-1.296876e+002
2557538.995	-1.693395e+001	1.460532e+002	-1.408948e+001	4.398397e+001	-1.404999e+001	4.456745e+001	-1.233318e+001	-1.365452e+002
2581975.737	-1.706010e+001	1.362483e+002	-1.403916e+001	3.694126e+001	-1.399261e+001	3.749792e+001	-1.226654e+001	-1.434314e+002
2606412.478	-1.710426e+001	1.264008e+002	-1.402678e+001	2.995231e+001	-1.396967e+001	3.044981e+001	-1.219674e+001	-1.503593e+002
2630849.220	-1.706149e+001	1.165708e+002	-1.405312e+001	2.308413e+001	-1.399255e+001	2.353721e+001	-1.211214e+001	-1.573335e+002
2655285.962	-1.694853e+001	1.066552e+002	-1.410153e+001	1.643116e+001	-1.403688e+001	1.682799e+001	-1.202176e+001	-1.644237e+002
2679722.704	-1.679648e+001	9.687759e+001	-1.415790e+001	9.859731e+000	-1.409006e+001	1.019419e+001	-1.195006e+001	-1.715871e+002
2704159.445	-1.662253e+001	8.740200e+001	-1.422842e+001	3.322142e+000	-1.415460e+001	3.593144e+000	-1.189829e+001	-1.787312e+002
2728596.187	-1.641327e+001	7.841807e+001	-1.433448e+001	-3.203577e+000	-1.425914e+001	-2.967472e+000	-1.185178e+001	1.742715e+002
2753032.929	-1.617424e+001	6.981458e+001	-1.446521e+001	-9.593301e+000	-1.438714e+001	-9.415726e+000	-1.181762e+001	1.673712e+002
2777469.671	-1.591838e+001	6.157515e+001	-1.461951e+001	-1.583507e+001	-1.454668e+001	-1.571299e+001	-1.178389e+001	1.606102e+002
2801906.412	-1.564891e+001	5.370774e+001	-1.479349e+001	-2.189119e+001	-1.471973e+001	-2.182421e+001	-1.175926e+001	1.539607e+002
2826343.154	-1.537460e+001	4.617779e+001	-1.497651e+001	-2.775270e+001	-1.490639e+001	-2.775248e+001	-1.174188e+001	1.474226e+002
2850779.896	-1.510398e+001	3.896808e+001	-1.517174e+001	-3.346018e+001	-1.510316e+001	-3.351004e+001	-1.173434e+001	1.410186e+002
2875216.638	-1.484723e+001	3.210520e+001	-1.537133e+001	-3.905127e+001	-1.530635e+001	-3.911342e+001	-1.173709e+001	1.347653e+002
2899653.380	-1.460426e+001	2.557302e+001	-1.557405e+001	-4.449177e+001	-1.551513e+001	-4.459032e+001	-1.175042e+001	1.287024e+002
2924090.121	-1.436690e+001	1.932788e+001	-1.578464e+001	-4.977509e+001	-1.573298e+001	-4.991111e+001	-1.177235e+001	1.228358e+002
2948526.863	-1.413926e+001	1.337434e+001	-1.600341e+001	-5.491868e+001	-1.595972e+001	-5.507919e+001	-1.179611e+001	1.171455e+002
2972963.605	-1.391774e+001	7.687956e+000	-1.622665e+001	-5.988975e+001	-1.618923e+001	-6.009668e+001	-1.182238e+001	1.116445e+002
2997400.347	-1.370444e+001	2.211300e+000	-1.644871e+001	-6.470124e+001	-1.641887e+001	-6.491137e+001	-1.184797e+001	1.062809e+002
3021837.088	-1.349653e+001	-3.073700e+000	-1.666443e+001	-6.930320e+001	-1.664182e+001	-6.953857e+001	-1.187460e+001	1.010537e+002
3046273.830	-1.330163e+001	-8.197701e+000	-1.686734e+001	-7.377701e+001	-1.685401e+001	-7.401771e+001	-1.190344e+001	9.594385e+001
3070710.572	-1.311521e+001	-1.314736e+001	-1.706220e+001	-7.814773e+001	-1.705461e+001	-7.840987e+001	-1.193996e+001	9.097338e+001
3095147.314	-1.294096e+001	-1.794109e+001	-1.724661e+001	-8.241795e+001	-1.724554e+001	-8.267096e+001	-1.197778e+001	8.612397e+001
3119584.055	-1.277626e+001	-2.257578e+001	-1.741694e+001	-8.659458e+001	-1.742732e+001	-8.686407e+001	-1.201980e+001	8.142017e+001
3144020.797	-1.261836e+001	-2.708233e+001	-1.758192e+001	-9.067944e+001	-1.759608e+001	-9.096534e+001	-1.206483e+001	7.685851e+001
3168457.539	-1.247140e+001	-3.145856e+001	-1.773667e+001	-9.473324e+001	-1.776074e+001	-9.501199e+001	-1.211162e+001	7.241804e+001
3192894.281	-1.233080e+001	-3.570181e+001	-1.788559e+001	-9.872574e+001	-1.791254e+001	-9.898606e+001	-1.215981e+001	6.809574e+001
3217331.023	-1.219628e+001	-3.983440e+001	-1.802654e+001	-1.026586e+002	-1.805909e+001	-1.028811e+002	-1.220632e+001	6.388458e+001
3241767.764	-1.206603e+001	-4.386528e+001	-1.815967e+001	-1.065245e+002	-1.819917e+001	-1.067377e+002	-1.225345e+001	5.977485e+001
3266204.506	-1.194182e+001	-4.780205e+001	-1.828564e+001	-1.103013e+002	-1.833199e+001	-1.105029e+002	-1.229880e+001	5.578240e+001
3290641.248	-1.182004e+001	-5.165813e+001	-1.840387e+001	-1.139920e+002	-1.845397e+001	-1.141704e+002	-1.233808e+001	5.187050e+001
3315077.990	-1.170279e+001	-5.545682e+001	-1.850433e+001	-1.176148e+002	-1.855915e+001	-1.177752e+002	-1.238067e+001	4.800938e+001
3339514.731	-1.159270e+001	-5.919141e+001	-1.858507e+001	-1.212381e+002	-1.864419e+001	-1.213696e+002	-1.242495e+001	4.420876e+001
3363951.473	-1.148896e+001	-6.287216e+001	-1.865847e+001	-1.248362e+002	-1.872224e+001	-1.249635e+002	-1.246997e+001	4.049675e+001
3388388.215	-1.139313e+001	-6.647306e+001	-1.872183e+001	-1.284500e+002	-1.878773e+001	-1.285409e+002	-1.252076e+001	3.687537e+001
3412824.957	-1.130363e+001	-7.001070e+001	-1.877554e+001	-1.320685e+002	-1.884851e+001	-1.321024e+002	-1.256810e+001	3.334803e+001
3437261.698	-1.121784e+001	-7.348554e+001	-1.882609e+001	-1.356603e+002	-1.889925e+001	-1.356579e+002	-1.261735e+001	2.990077e+001
3461698.440	-1.113931e+001	-7.688863e+001	-1.886626e+001	-1.392470e+002	-1.894664e+001	-1.392160e+002	-1.266807e+001	2.653056e+001
3486135.182	-1.106528e+001	-8.024876e+001	-1.890208e+001	-1.428276e+002	-1.898512e+001	-1.427705e+002	-1.271700e+001	2.324718e+001
3510571.924	-1.099496e+001	-8.352776e+001	-1.893074e+001	-1.463864e+002	-1.901227e+001	-1.462842e+002	-1.276338e+001	2.005277e+001
3535008.666	-1.092763e+001	-8.674472e+001	-1.895472e+001	-1.499353e+002	-1.903786e+001	-1.498104e+002	-1.280579e+001	1.694725e+001
3559445.407	-1.086196e+001	-8.990220e+001	-1.897205e+001	-1.534477e+002	-1.905805e+001	-1.532729e+002	-1.284203e+001	1.392410e+001
3583882.149	-1.079633e+001	-9.301758e+001	-1.897929e+001	-1.569262e+002	-1.906633e+001	-1.567091e+002	-1.286846e+001	1.094768e+001
3608318.891	-1.073161e+001	-9.609268e+001	-1.896787e+001	-1.603524e+002	-1.905457e+001	-1.601296e+002	-1.289216e+001	7.977829e+000
3632755.633	-1.066801e+001	-9.915730e+001	-1.893707e+001	-1.638633e+002	-1.902669e+001	-1.635669e+002	-1.291346e+001	5.021619e+000
3657192.374	-1.060844e+001	-1.021890e+002	-1.889124e+001	-1.674199e+002	-1.897938e+001	-1.670823e+002	-1.293700e+001	2.104790e+000
3681629.116	-1.055615e+001	-1.051741e+002	-1.883872e+001	-1.711103e+002	-1.893499e+001	-1.707789e+002	-1.296381e+001	-7.315419e-001
3706065.858	-1.050702e+001	-1.080910e+002	-1.879630e+001	-1.749756e+002	-1.888065e+001	-1.745621e+002	-1.298786e+001	-3.518430e+000
3730502.600	-1.046060e+001	-1.109479e+002	-1.876560e+001	-1.789384e+002	-1.885176e+001	-1.784772e+002	-1.300871e+001	-6.168093e+000
3754939.341	-1.040840e+001	-1.137325e+002	-1.875925e+001	1.771453e+002	-1.884861e+001	1.776194e+002	-1.301373e+001	-8.718895e+000
3779376.083	-1.035156e+001	-1.164341e+002	-1.878534e+001	1.731959e+002	-1.886896e+001	1.738049e+002	-1.299746e+001	-1.123909e+001
3803812.825	-1.027550e+001	-1.191384e+002	-1.882946e+001	1.696041e+002	-1.893322e+001	1.701604e+002	-1.295225e+001	-1.369108e+001
3828249.567	-1.017621e+001	-1.218732e+002	-1.889061e+001	1.664237e+002	-1.897410e+001	1.670327e+002	-1.288096e+001	-1.636468e+001
3852686.308	-1.006847e+001	-1.248087e+002	-1.889216e+001	1.636461e+002	-1.897622e+001	1.642994e+002	-1.279846e+001	-1.926237e+001
3877123.050	-9.974678e+000	-1.279642e+002	-1.879423e+001	1.609751e+002	-1.888103e+001	1.616905e+002	-1.273598e+001	-2.242099e+001
3901559.792	-9.914097e+000	-1.312463e+002	-1.861294e+001	1.580132e+002	-1.868663e+001	1.587262e+002	-1.272233e+001	-2.570605e+001
3925996.534	-9.889895e+000	-1.345282e+002	-1.839307e+001	1.544932e+002	-1.846719e+001	1.552537e+002	-1.274517e+001	-2.889036e+001
3950433.276	-9.893805e+000	-1.376718e+002	-1.819137e+001	1.504736e+002	-1.825654e+001	1.512497e+002	-1.279545e+001	-3.188066e+001
3974870.017	-9.913070e+000	-1.406610e+002	-1.802813e+001	1.461654e+002	-1.808641e+001	1.469217e+002	-1.285344e+001	-3.463367e+001
3999306.759	-9.935521e+000	-1.434774e+002	-1.791065e+001	1.416800e+002	-1.797852e+001	1.424038e+002	-1.290272e+001	-3.712085e+001
4023743.501	-9.949453e+000	-1.461577e+002	-1.784539e+001	1.371311e+002	-1.790870e+001	1.379172e+002	-1.293122e+001	-3.947849e+001
4048180.243	-9.948781e+000	-1.487404e+002	-1.782442e+001	1.327293e+002	-1.788881e+001	1.335332e+002	-1.292732e+001	-4.172901e+001
4072616.984	-9.927390e+000	-1.513264e+002	-1.783766e+001	1.285744e+002	-1.789533e+001	1.294604e+002	-1.289127e+001	-4.399332e+001
4097053.726	-9.890350e+000	-1.539886e+002	-1.786114e+001	1.247578e+002	-1.791602e+001	1.256646e+002	-1.282734e+001	-4.636033e+001
4121490.468	-9.844538e+000	-1.567942e+002	-1.786551e+001	1.212924e+002	-1.791319e+001	1.222137e+002	-1.274776e+001	-4.892296e+001
4145927.210	-9.805875e+000	-1.597576e+002	-1.783012e+001	1.180393e+002	-1.787475e+001	1.189765e+002	-1.266660e+001	-5.166454e+001
4170363.951	-9.780680e+000	-1.628290e+002	-1.774758e+001	1.149006e+002	-1.778742e+001	1.157693e+002	-1.259700e+001	-5.453357e+001
4194800.693	-9.779126e+000	-1.659820e+002	-1.762392e+001	1.116256e+002	-1.766136e+001	1.125926e+002	-1.253811e+001	-5.754168e+001
4219237.435	-9.793774e+000	-1.691629e+002	-1.747734e+001	1.082598e+002	-1.750716e+001	1.092373e+002	-1.249859e+001	-6.057798e+001
4243674.177	-9.829276e+000	-1.723611e+002	-1.731057e+001	1.047612e+002	-1.733382e+001	1.057284e+002	-1.247084e+001	-6.362896e+001
4268110.919	-9.881806e+000	-1.755808e+002	-1.712728e+001	1.011600e+002	-1.714544e+001	1.021319e+002	-1.245217e+001	-6.672151e+001
4292547.660	-9.955847e+000	-1.787848e+002	-1.692951e+001	9.740874e+001	-1.694262e+001	9.838394e+001	-1.244598e+001	-6.982109e+001
4316984.402	-1.005018e+001	1.780351e+002	-1.672361e+001	9.349039e+001	-1.672649e+001	9.447159e+001	-1.245482e+001	-7.292714e+001
4341421.144	-1.016615e+001	1.749061e+002	-1.650853e+001	8.940560e+001	-1.650922e+001	9.039680e+001	-1.247324e+001	-7.600392e+001
4365857.886	-1.029874e+001	1.718580e+002	-1.630545e+001	8.513647e+001	-1.629754e+001	8.609325e+001	-1.250400e+001	-7.902215e+001
4390294.627	-1.044677e+001	1.688793e+002	-1.610730e+001	8.075972e+001	-1.609470e+001	8.171174e+001	-1.253705e+001	-8.199655e+001
4414731.369	-1.060360e+001	1.659939e+002	-1.592310e+001	7.627791e+001	-1.590559e+001	7.721354e+001	-1.257258e+001	-8.492754e+001
4439168.111	-1.077346e+001	1.631736e+002	-1.574650e+001	7.166316e+001	-1.572662e+001	7.265724e+001	-1.260751e+001	-8.786042e+001
4463604.853	-1.094797e+001	1.604061e+002	-1.558229e+001	6.707931e+001	-1.555813e+001	6.803960e+001	-1.264332e+001	-9.075665e+001
4488041.594	-1.113086e+001	1.577120e+002	-1.542951e+001	6.242833e+001	-1.539586e+001	6.335776e+001	-1.267848e+001	-9.365467e+001
4512478.336	-1.132470e+001	1.550764e+002	-1.528239e+001	5.772734e+001	-1.524374e+001	5.863854e+001	-1.271661e+001	-9.655422e+001
4536915.078	-1.152795e+001	1.525016e+002	-1.514110e+001	5.297393e+001	-1.509925e+001	5.387868e+001	-1.275473e+001	-9.944153e+001
4561351.820	-1.173513e+001	1.500105e+002	-1.501401e+001	4.816620e+001	-1.496790e+001	4.903580e+001	-1.279213e+001	-1.023132e+002
4585788.562	-1.194457e+001	1.475753e+002	-1.489974e+001	4.332715e+001	-1.484869e+001	4.418602e+001	-1.282571e+001	-1.052015e+002
4610225.303	-1.215550e+001	1.451398e+002	-1.479803e+001	3.850248e+001	-1.474252e+001	3.933779e+001	-1.285452e+001	-1.081114e+002
4634662.045	-1.237137e+001	1.427232e+002	-1.470644e+001	3.369404e+001	-1.464899e+001	3.448792e+001	-1.287861e+001	-1.110652e+002
4659098.787	-1.259233e+001	1.402721e+002	-1.462580e+001	2.891008e+001	-1.456443e+001	2.965246e+001	-1.289883e+001	-1.140794e+002
4683535.529	-1.282328e+001	1.378046e+002	-1.455102e+001	2.415017e+001	-1.448648e+001	2.486826e+001	-1.291732e+001	-1.171881e+002
4707972.270	-1.306938e+001	1.352896e+002	-1.448074e+001	1.947108e+001	-1.441446e+001	2.010882e+001	-1.293691e+001	-1.203592e+002
4732409.012	-1.333265e+001	1.327030e+002	-1.441388e+001	1.481287e+001	-1.434710e+001	1.542872e+001	-1.295511e+001	-1.236802e+002
4756845.754	-1.362507e+001	1.300466e+002	-1.434605e+001	1.021839e+001	-1.427804e+001	1.079532e+001	-1.298019e+001	-1.271406e+002
4781282.496	-1.395145e+001	1.273783e+002	-1.426875e+001	5.645536e+000	-1.420052e+001	6.177796e+000	-1.301839e+001	-1.307420e+002
4805719.237	-1.431781e+001	1.247239e+002	-1.418617e+001	1.076270e+000	-1.411595e+001	1.573695e+000	-1.307222e+001	-1.344823e+002
4830155.979	-1.473197e+001	1.221337e+002	-1.409316e+001	-3.525076e+000	-1.402414e+001	-3.071745e+000	-1.314993e+001	-1.383031e+002
4854592.721	-1.518804e+001	1.196819e+002	-1.399283e+001	-8.202088e+000	-1.392553e+001	-7.772690e+000	-1.324833e+001	-1.422203e+002
4879029.463	-1.568916e+001	1.174027e+002	-1.389138e+001	-1.295285e+001	-1.382642e+001	-1.256701e+001	-1.337185e+001	-1.461744e+002
4903466.205	-1.622936e+001	1.153125e+002	-1.379287e+001	-1.778717e+001	-1.373140e+001	-1.743728e+001	-1.351521e+001	-1.501583e+002
4927902.946	-1.681063e+001	1.134321e+002	-1.370201e+001	-2.269563e+001	-1.364169e+001	-2.238468e+001	-1.367956e+001	-1.541593e+002
4952339.688	-1.743197e+001	1.118028e+002	-1.362011e+001	-2.770197e+001	-1.356172e+001	-2.738204e+001	-1.386084e+001	-1.582006e+002
4976776.430	-1.810079e+001	1.104179e+002	-1.354792e+001	-3.272368e+001	-1.349327e+001	-3.242739e+001	-1.405825e+001	-1.622435e+002
5001213.172	-1.882221e+001	1.093240e+002	-1.348697e+001	-3.777699e+001	-1.343759e+001	-3.749640e+001	-1.426873e+001	-1.662978e+002
5025649.913	-1.960233e+001	1.085647e+002	-1.343633e+001	-4.284413e+001	-1.339079e+001	-4.259534e+001	-1.449677e+001	-1.703887e+002
5050086.655	-2.045189e+001	1.082855e+002	-1.339789e+001	-4.792482e+001	-1.335672e+001	-4.769479e+001	-1.473842e+001	-1.745099e+002
5074523.397	-2.137526e+001	1.085793e+002	-1.336941e+001	-5.303357e+001	-1.333187e+001	-5.280490e+001	-1.499774e+001	-1.786506e+002
5098960.139	-2.238134e+001	1.096546e+002	-1.335210e+001	-5.812425e+001	-1.332034e+001	-5.790864e+001	-1.526683e+001	1.771817e+002
5123396.880	-2.347319e+001	1.117579e+002	-1.335029e+001	-6.321135e+001	-1.332282e+001	-6.300672e+001	-1.554729e+001	1.729903e+002
5147833.622	-2.465750e+001	1.152979e+002	-1.336072e+001	-6.826179e+001	-1.333852e+001	-6.805199e+001	-1.583103e+001	1.687365e+002
5172270.364	-2.590338e+001	1.209511e+002	-1.338098e+001	-7.324341e+001	-1.336310e+001	-7.303965e+001	-1.612245e+001	1.643575e+002
5196707.106	-2.709238e+001	1.296119e+002	-1.340754e+001	-7.814973e+001	-1.339285e+001	-7.794145e+001	-1.642348e+001	1.598409e+002
5221143.847	-2.796424e+001	1.418703e+002	-1.343475e+001	-8.297214e+001	-1.342648e+001	-8.280504e+001	-1.674380e+001	1.552157e+002
5245580.589	-2.813510e+001	1.564457e+002	-1.346255e+001	-8.779097e+001	-1.345883e+001	-8.760730e+001	-1.708288e+001	1.504214e+002
5270017.331	-2.749435e+001	1.702098e+002	-1.349119e+001	-9.258996e+001	-1.349144e+001	-9.238798e+001	-1.744304e+001	1.454919e+002
5294454.073	-2.631301e+001	-1.792378e+002	-1.352102e+001	-9.737268e+001	-1.352545e+001	-9.715694e+001	-1.782181e+001	1.404771e+002
5318890.815	-2.495109e+001	-1.722048e+002	-1.355388e+001	-1.021259e+002	-1.356292e+001	-1.019059e+002	-1.821466e+001	1.353526e+002
5343327.556	-2.360871e+001	-1.679996e+002	-1.359126e+001	-1.068833e+002	-1.360327e+001	-1.066323e+002	-1.862245e+001	1.301328e+002
5367764.298	-2.236784e+001	-1.656845e+002	-1.363303e+001	-1.116138e+002	-1.364768e+001	-1.113364e+002	-1.903690e+001	1.247635e+002
5392201.040	-2.123623e+001	-1.647145e+002	-1.367625e+001	-1.163128e+002	-1.369375e+001	-1.160181e+002	-1.945740e+001	1.192354e+002
5416637.782	-2.022010e+001	-1.646074e+002	-1.372355e+001	-1.209798e+002	-1.374523e+001	-1.206583e+002	-1.987353e+001	1.135977e+002
5441074.523	-1.930648e+001	-1.651583e+002	-1.377484e+001	-1.256236e+002	-1.379633e+001	-1.252690e+002	-2.029252e+001	1.077194e+002
