!Agilent Technologies,E5061B,MY49101568,A.02.00
!Date: Wed Mar 01 13:52:28 2023
!Data & Calibration Information:
!Freq	S11:SOLT2(OFF)	S21:SOLT2(OFF)	S12:SOLT2(OFF)	S22:SOLT2(OFF)
# Hz S dB R 50
1800000.000	-1.002251e+001	-1.699767e+001	-2.236998e+001	-1.484458e+002	-2.236613e+001	-1.484534e+002	-1.053827e+001	1.973817e+001
1824436.742	-1.015776e+001	-2.119416e+001	-2.203239e+001	-1.524874e+002	-2.203699e+001	-1.525229e+002	-1.069728e+001	1.605193e+001
1848873.484	-1.030036e+001	-2.547826e+001	-2.169522e+001	-1.565878e+002	-2.170289e+001	-1.566533e+002	-1.086365e+001	1.230749e+001
1873310.225	-1.045004e+001	-2.979369e+001	-2.134454e+001	-1.608284e+002	-2.135832e+001	-1.608450e+002	-1.102814e+001	8.548329e+000
1897746.967	-1.060347e+001	-3.416676e+001	-2.099503e+001	-1.651368e+002	-2.100978e+001	-1.651406e+002	-1.119138e+001	4.739617e+000
1922183.709	-1.076521e+001	-3.865086e+001	-2.063679e+001	-1.695385e+002	-2.066000e+001	-1.695642e+002	-1.135659e+001	8.536380e-001
1946620.451	-1.093200e+001	-4.320377e+001	-2.027978e+001	-1.740437e+002	-2.029831e+001	-1.740533e+002	-1.151989e+001	-3.119617e+000
1971057.192	-1.110758e+001	-4.787100e+001	-1.991978e+001	-1.786616e+002	-1.994253e+001	-1.786097e+002	-1.168244e+001	-7.168763e+000
1995493.934	-1.129165e+001	-5.262761e+001	-1.955745e+001	1.766239e+002	-1.957839e+001	1.766775e+002	-1.185136e+001	-1.126899e+001
2019930.676	-1.148544e+001	-5.753435e+001	-1.919380e+001	1.719120e+002	-1.923439e+001	1.719727e+002	-1.200856e+001	-1.540588e+001
2044367.418	-1.169437e+001	-6.254460e+001	-1.881493e+001	1.671310e+002	-1.885648e+001	1.671701e+002	-1.216206e+001	-1.976982e+001
2068804.159	-1.192142e+001	-6.766567e+001	-1.843154e+001	1.621799e+002	-1.848195e+001	1.622927e+002	-1.231764e+001	-2.417846e+001
2093240.901	-1.216173e+001	-7.283519e+001	-1.805284e+001	1.570337e+002	-1.809091e+001	1.571740e+002	-1.248200e+001	-2.862801e+001
2117677.643	-1.242612e+001	-7.817967e+001	-1.766521e+001	1.517747e+002	-1.771883e+001	1.519734e+002	-1.263825e+001	-3.316735e+001
2142114.385	-1.270163e+001	-8.362754e+001	-1.729673e+001	1.463749e+002	-1.733859e+001	1.466227e+002	-1.278978e+001	-3.780144e+001
2166551.127	-1.300782e+001	-8.918329e+001	-1.692084e+001	1.407873e+002	-1.696309e+001	1.410988e+002	-1.293861e+001	-4.254168e+001
2190987.868	-1.332365e+001	-9.483501e+001	-1.656656e+001	1.350463e+002	-1.660322e+001	1.353785e+002	-1.307952e+001	-4.731749e+001
2215424.610	-1.366116e+001	-1.006638e+002	-1.621907e+001	1.291808e+002	-1.626608e+001	1.295459e+002	-1.320639e+001	-5.218398e+001
2239861.352	-1.400967e+001	-1.066088e+002	-1.589691e+001	1.231960e+002	-1.594185e+001	1.236011e+002	-1.331877e+001	-5.717894e+001
2264298.094	-1.437727e+001	-1.127129e+002	-1.559078e+001	1.170859e+002	-1.563756e+001	1.175318e+002	-1.341307e+001	-6.227102e+001
2288734.835	-1.475433e+001	-1.189914e+002	-1.530421e+001	1.108822e+002	-1.534644e+001	1.113810e+002	-1.349085e+001	-6.749604e+001
2313171.577	-1.514068e+001	-1.255050e+002	-1.503805e+001	1.046457e+002	-1.507524e+001	1.052616e+002	-1.354430e+001	-7.290685e+001
2337608.319	-1.554197e+001	-1.323423e+002	-1.478125e+001	9.834878e+001	-1.480506e+001	9.901122e+001	-1.359208e+001	-7.850257e+001
2362045.061	-1.594590e+001	-1.393103e+002	-1.454956e+001	9.191181e+001	-1.456380e+001	9.257604e+001	-1.362026e+001	-8.413222e+001
2386481.802	-1.632138e+001	-1.465925e+002	-1.435907e+001	8.539991e+001	-1.435919e+001	8.606551e+001	-1.361393e+001	-8.989845e+001
2410918.544	-1.663920e+001	-1.544734e+002	-1.421428e+001	7.905458e+001	-1.418994e+001	7.968905e+001	-1.356351e+001	-9.593766e+001
2435355.286	-1.695712e+001	-1.633605e+002	-1.405551e+001	7.298861e+001	-1.402432e+001	7.349177e+001	-1.348733e+001	-1.023605e+002
2459792.028	-1.735356e+001	-1.730644e+002	-1.384674e+001	6.691242e+001	-1.383287e+001	6.727662e+001	-1.342059e+001	-1.091530e+002
2484228.769	-1.778630e+001	1.771307e+002	-1.363457e+001	6.040036e+001	-1.363208e+001	6.087148e+001	-1.337739e+001	-1.161361e+002
2508665.511	-1.817803e+001	1.673615e+002	-1.346668e+001	5.362049e+001	-1.345490e+001	5.413162e+001	-1.333910e+001	-1.231098e+002
2533102.253	-1.849195e+001	1.573329e+002	-1.334029e+001	4.677220e+001	-1.332029e+001	4.726097e+001	-1.329264e+001	-1.300652e+002
2557538.995	-1.870557e+001	1.470979e+002	-1.325747e+001	3.987311e+001	-1.322554e+001	4.034594e+001	-1.323072e+001	-1.370963e+002
2581975.737	-1.881800e+001	1.367162e+002	-1.320801e+001	3.295473e+001	-1.317064e+001	3.344750e+001	-1.315589e+001	-1.441607e+002
2606412.478	-1.880505e+001	1.262577e+002	-1.320556e+001	2.611773e+001	-1.315720e+001	2.655547e+001	-1.307106e+001	-1.512690e+002
2630849.220	-1.867461e+001	1.157876e+002	-1.323945e+001	1.943225e+001	-1.318299e+001	1.982653e+001	-1.296653e+001	-1.584418e+002
2655285.962	-1.846209e+001	1.052054e+002	-1.328608e+001	1.292647e+001	-1.322770e+001	1.329490e+001	-1.285614e+001	-1.657614e+002
2679722.704	-1.820395e+001	9.477303e+001	-1.333652e+001	6.534162e+000	-1.327741e+001	6.870830e+000	-1.276378e+001	-1.732021e+002
2704159.445	-1.792005e+001	8.487493e+001	-1.340543e+001	1.135271e-001	-1.334534e+001	3.709352e-001	-1.269514e+001	1.795250e+002
2728596.187	-1.760937e+001	7.554311e+001	-1.350434e+001	-6.288362e+000	-1.343518e+001	-6.065646e+000	-1.264099e+001	1.723032e+002
2753032.929	-1.726146e+001	6.668802e+001	-1.362977e+001	-1.255852e+001	-1.356300e+001	-1.238112e+001	-1.258767e+001	1.652711e+002
2777469.671	-1.690238e+001	5.829946e+001	-1.377649e+001	-1.867738e+001	-1.371101e+001	-1.856303e+001	-1.253976e+001	1.583600e+002
2801906.412	-1.653572e+001	5.036915e+001	-1.394778e+001	-2.462197e+001	-1.388074e+001	-2.454288e+001	-1.249462e+001	1.515743e+002
2826343.154	-1.617295e+001	4.274087e+001	-1.411816e+001	-3.035361e+001	-1.405556e+001	-3.035116e+001	-1.245691e+001	1.448871e+002
2850779.896	-1.582512e+001	3.551054e+001	-1.430119e+001	-3.594558e+001	-1.424422e+001	-3.599845e+001	-1.243064e+001	1.383802e+002
2875216.638	-1.550085e+001	2.864303e+001	-1.448764e+001	-4.144959e+001	-1.443473e+001	-4.148607e+001	-1.241587e+001	1.320196e+002
2899653.380	-1.519647e+001	2.211958e+001	-1.467817e+001	-4.679221e+001	-1.463074e+001	-4.687976e+001	-1.241662e+001	1.258754e+002
2924090.121	-1.491101e+001	1.592036e+001	-1.487748e+001	-5.200932e+001	-1.483662e+001	-5.212644e+001	-1.242380e+001	1.199277e+002
2948526.863	-1.463836e+001	1.001901e+001	-1.508208e+001	-5.708626e+001	-1.504539e+001	-5.720785e+001	-1.243388e+001	1.141550e+002
2972963.605	-1.437756e+001	4.390847e+000	-1.529111e+001	-6.200286e+001	-1.526110e+001	-6.216468e+001	-1.244783e+001	1.086039e+002
2997400.347	-1.412579e+001	-1.025192e+000	-1.549965e+001	-6.672756e+001	-1.547897e+001	-6.691436e+001	-1.245590e+001	1.032059e+002
3021837.088	-1.388586e+001	-6.267798e+000	-1.570106e+001	-7.127180e+001	-1.568656e+001	-7.147550e+001	-1.246778e+001	9.792037e+001
3046273.830	-1.366183e+001	-1.134958e+001	-1.588843e+001	-7.569768e+001	-1.588270e+001	-7.590191e+001	-1.248496e+001	9.276740e+001
3070710.572	-1.345350e+001	-1.625591e+001	-1.606410e+001	-8.000462e+001	-1.606621e+001	-8.021203e+001	-1.250814e+001	8.772394e+001
3095147.314	-1.325706e+001	-2.103250e+001	-1.622938e+001	-8.423511e+001	-1.623561e+001	-8.445407e+001	-1.253993e+001	8.281983e+001
3119584.055	-1.307548e+001	-2.565347e+001	-1.638333e+001	-8.840371e+001	-1.640103e+001	-8.859941e+001	-1.257133e+001	7.806350e+001
3144020.797	-1.290614e+001	-3.013029e+001	-1.653015e+001	-9.246097e+001	-1.654850e+001	-9.269340e+001	-1.261087e+001	7.345857e+001
3168457.539	-1.274544e+001	-3.448812e+001	-1.666567e+001	-9.649947e+001	-1.669351e+001	-9.672787e+001	-1.265363e+001	6.896550e+001
3192894.281	-1.259709e+001	-3.871399e+001	-1.679320e+001	-1.004890e+002	-1.682599e+001	-1.006932e+002	-1.270013e+001	6.460061e+001
3217331.023	-1.245680e+001	-4.284344e+001	-1.691573e+001	-1.044240e+002	-1.695103e+001	-1.046250e+002	-1.274604e+001	6.033831e+001
3241767.764	-1.232456e+001	-4.685551e+001	-1.703076e+001	-1.083312e+002	-1.707040e+001	-1.084977e+002	-1.279380e+001	5.621898e+001
3266204.506	-1.219443e+001	-5.077148e+001	-1.713864e+001	-1.121421e+002	-1.718427e+001	-1.122914e+002	-1.283814e+001	5.220472e+001
3290641.248	-1.207025e+001	-5.461376e+001	-1.723802e+001	-1.158731e+002	-1.728982e+001	-1.160004e+002	-1.287908e+001	4.826579e+001
3315077.990	-1.194963e+001	-5.840588e+001	-1.731722e+001	-1.195276e+002	-1.737171e+001	-1.196397e+002	-1.292208e+001	4.436402e+001
3339514.731	-1.184123e+001	-6.215686e+001	-1.738081e+001	-1.232105e+002	-1.743891e+001	-1.232900e+002	-1.297131e+001	4.053044e+001
3363951.473	-1.174283e+001	-6.583218e+001	-1.743338e+001	-1.269062e+002	-1.749521e+001	-1.269618e+002	-1.302531e+001	3.678704e+001
3388388.215	-1.165036e+001	-6.943945e+001	-1.747738e+001	-1.305886e+002	-1.754392e+001	-1.306482e+002	-1.308393e+001	3.314185e+001
3412824.957	-1.156710e+001	-7.298576e+001	-1.751228e+001	-1.343184e+002	-1.758353e+001	-1.343215e+002	-1.314481e+001	2.959675e+001
3437261.698	-1.149110e+001	-7.645413e+001	-1.754271e+001	-1.380185e+002	-1.761776e+001	-1.379948e+002	-1.320779e+001	2.614893e+001
3461698.440	-1.142184e+001	-7.985499e+001	-1.756969e+001	-1.417472e+002	-1.764692e+001	-1.416989e+002	-1.327393e+001	2.277889e+001
3486135.182	-1.135940e+001	-8.319022e+001	-1.759370e+001	-1.454815e+002	-1.766979e+001	-1.453852e+002	-1.333859e+001	1.951893e+001
3510571.924	-1.130258e+001	-8.646079e+001	-1.760703e+001	-1.491917e+002	-1.769180e+001	-1.490644e+002	-1.340191e+001	1.637254e+001
3535008.666	-1.124895e+001	-8.964788e+001	-1.762975e+001	-1.529187e+002	-1.770833e+001	-1.527564e+002	-1.346147e+001	1.333148e+001
3559445.407	-1.119802e+001	-9.276255e+001	-1.764042e+001	-1.566174e+002	-1.772194e+001	-1.563897e+002	-1.351202e+001	1.037395e+001
3583882.149	-1.114588e+001	-9.582655e+001	-1.764462e+001	-1.602074e+002	-1.772988e+001	-1.600234e+002	-1.355497e+001	7.486285e+000
3608318.891	-1.109481e+001	-9.886977e+001	-1.763617e+001	-1.638019e+002	-1.772260e+001	-1.635594e+002	-1.358972e+001	4.598914e+000
3632755.633	-1.104648e+001	-1.018894e+002	-1.760538e+001	-1.674559e+002	-1.769105e+001	-1.671590e+002	-1.362926e+001	1.710880e+000
3657192.374	-1.100707e+001	-1.048736e+002	-1.755736e+001	-1.711776e+002	-1.764451e+001	-1.708462e+002	-1.366998e+001	-1.134588e+000
3681629.116	-1.097409e+001	-1.077923e+002	-1.751256e+001	-1.750693e+002	-1.759536e+001	-1.747065e+002	-1.371963e+001	-3.855729e+000
3706065.858	-1.094731e+001	-1.106269e+002	-1.746879e+001	-1.790841e+002	-1.756056e+001	-1.787015e+002	-1.376559e+001	-6.447652e+000
3730502.600	-1.091943e+001	-1.133529e+002	-1.745308e+001	1.768006e+002	-1.754395e+001	1.772590e+002	-1.379901e+001	-8.917868e+000
3754939.341	-1.088675e+001	-1.159678e+002	-1.746487e+001	1.726752e+002	-1.755502e+001	1.731336e+002	-1.381787e+001	-1.122342e+001
3779376.083	-1.083728e+001	-1.184741e+002	-1.752011e+001	1.686659e+002	-1.761072e+001	1.692146e+002	-1.379423e+001	-1.345681e+001
3803812.825	-1.076325e+001	-1.209612e+002	-1.760316e+001	1.649103e+002	-1.770212e+001	1.654559e+002	-1.373525e+001	-1.564539e+001
3828249.567	-1.065343e+001	-1.235956e+002	-1.768300e+001	1.618017e+002	-1.776448e+001	1.623982e+002	-1.363424e+001	-1.825000e+001
3852686.308	-1.053675e+001	-1.264948e+002	-1.769432e+001	1.591262e+002	-1.777706e+001	1.598092e+002	-1.352268e+001	-2.118491e+001
3877123.050	-1.044488e+001	-1.297407e+002	-1.757536e+001	1.565600e+002	-1.767710e+001	1.573078e+002	-1.345041e+001	-2.447276e+001
3901559.792	-1.040048e+001	-1.330744e+002	-1.738121e+001	1.535274e+002	-1.746913e+001	1.544054e+002	-1.344319e+001	-2.793802e+001
3925996.534	-1.039632e+001	-1.363214e+002	-1.717215e+001	1.499377e+002	-1.722930e+001	1.507009e+002	-1.350718e+001	-3.117089e+001
3950433.276	-1.043473e+001	-1.394228e+002	-1.695999e+001	1.457608e+002	-1.701043e+001	1.465424e+002	-1.359994e+001	-3.412441e+001
3974870.017	-1.048843e+001	-1.422935e+002	-1.679366e+001	1.412529e+002	-1.683536e+001	1.419548e+002	-1.370612e+001	-3.671678e+001
3999306.759	-1.054064e+001	-1.448977e+002	-1.669543e+001	1.365642e+002	-1.673315e+001	1.372346e+002	-1.378812e+001	-3.895729e+001
4023743.501	-1.057880e+001	-1.473261e+002	-1.664207e+001	1.318605e+002	-1.669484e+001	1.325493e+002	-1.383071e+001	-4.093801e+001
4048180.243	-1.058773e+001	-1.496426e+002	-1.664691e+001	1.273264e+002	-1.670352e+001	1.280212e+002	-1.382895e+001	-4.282833e+001
4072616.984	-1.057074e+001	-1.519621e+002	-1.668238e+001	1.230561e+002	-1.674696e+001	1.238243e+002	-1.377626e+001	-4.478769e+001
4097053.726	-1.052905e+001	-1.543901e+002	-1.673352e+001	1.191257e+002	-1.679058e+001	1.199873e+002	-1.369184e+001	-4.695189e+001
4121490.468	-1.047647e+001	-1.570161e+002	-1.676677e+001	1.155954e+002	-1.682291e+001	1.164810e+002	-1.358565e+001	-4.932748e+001
4145927.210	-1.043102e+001	-1.598310e+002	-1.675942e+001	1.122957e+002	-1.681311e+001	1.132224e+002	-1.348223e+001	-5.197388e+001
4170363.951	-1.039976e+001	-1.627954e+002	-1.671492e+001	1.091737e+002	-1.675822e+001	1.100499e+002	-1.339336e+001	-5.480472e+001
4194800.693	-1.039376e+001	-1.658514e+002	-1.662312e+001	1.059662e+002	-1.665638e+001	1.068938e+002	-1.332436e+001	-5.779384e+001
4219237.435	-1.041000e+001	-1.689558e+002	-1.649878e+001	1.026730e+002	-1.652743e+001	1.035863e+002	-1.327423e+001	-6.081953e+001
4243674.177	-1.044792e+001	-1.720748e+002	-1.635223e+001	9.928132e+001	-1.637680e+001	1.002038e+002	-1.323758e+001	-6.389202e+001
4268110.919	-1.050908e+001	-1.752136e+002	-1.618337e+001	9.576243e+001	-1.620382e+001	9.667980e+001	-1.321845e+001	-6.698396e+001
4292547.660	-1.059474e+001	-1.783492e+002	-1.599316e+001	9.213328e+001	-1.600598e+001	9.307058e+001	-1.321365e+001	-7.013718e+001
4316984.402	-1.070752e+001	1.785590e+002	-1.579087e+001	8.831453e+001	-1.579606e+001	8.926316e+001	-1.323150e+001	-7.327547e+001
4341421.144	-1.084619e+001	1.755549e+002	-1.557658e+001	8.429064e+001	-1.557679e+001	8.522871e+001	-1.326813e+001	-7.636387e+001
4365857.886	-1.100536e+001	1.726838e+002	-1.536895e+001	8.005191e+001	-1.536197e+001	8.099882e+001	-1.331733e+001	-7.937291e+001
4390294.627	-1.117688e+001	1.699542e+002	-1.517489e+001	7.565969e+001	-1.516229e+001	7.659194e+001	-1.337435e+001	-8.228188e+001
4414731.369	-1.135716e+001	1.673347e+002	-1.499279e+001	7.116258e+001	-1.497480e+001	7.207301e+001	-1.343149e+001	-8.510963e+001
4439168.111	-1.154014e+001	1.648309e+002	-1.482705e+001	6.654229e+001	-1.480269e+001	6.748559e+001	-1.348459e+001	-8.791001e+001
4463604.853	-1.173085e+001	1.624146e+002	-1.466987e+001	6.194303e+001	-1.464439e+001	6.285300e+001	-1.353620e+001	-9.066000e+001
4488041.594	-1.192184e+001	1.600835e+002	-1.452360e+001	5.727837e+001	-1.449284e+001	5.817910e+001	-1.358725e+001	-9.340145e+001
4512478.336	-1.212133e+001	1.578383e+002	-1.438288e+001	5.257670e+001	-1.435126e+001	5.344691e+001	-1.363591e+001	-9.612752e+001
4536915.078	-1.232080e+001	1.556838e+002	-1.425498e+001	4.783808e+001	-1.421839e+001	4.867057e+001	-1.368502e+001	-9.884683e+001
4561351.820	-1.251828e+001	1.536276e+002	-1.413800e+001	4.301574e+001	-1.409858e+001	4.384138e+001	-1.372844e+001	-1.015453e+002
4585788.562	-1.270617e+001	1.516184e+002	-1.403809e+001	3.819613e+001	-1.399424e+001	3.900330e+001	-1.376710e+001	-1.042374e+002
4610225.303	-1.289131e+001	1.496036e+002	-1.395168e+001	3.338487e+001	-1.390299e+001	3.417347e+001	-1.379485e+001	-1.069767e+002
4634662.045	-1.307776e+001	1.475426e+002	-1.387268e+001	2.863096e+001	-1.382202e+001	2.939009e+001	-1.381551e+001	-1.097830e+002
4659098.787	-1.326852e+001	1.454430e+002	-1.380026e+001	2.392143e+001	-1.374669e+001	2.462311e+001	-1.383409e+001	-1.126906e+002
4683535.529	-1.346838e+001	1.433077e+002	-1.373227e+001	1.921749e+001	-1.367759e+001	1.990639e+001	-1.385329e+001	-1.156945e+002
4707972.270	-1.368303e+001	1.411438e+002	-1.366566e+001	1.458184e+001	-1.361121e+001	1.521669e+001	-1.387216e+001	-1.188127e+002
4732409.012	-1.391551e+001	1.388679e+002	-1.360668e+001	9.999582e+000	-1.354818e+001	1.060515e+001	-1.389224e+001	-1.220765e+002
4756845.754	-1.417744e+001	1.365857e+002	-1.354058e+001	5.432468e+000	-1.348047e+001	6.001528e+000	-1.392786e+001	-1.254826e+002
4781282.496	-1.447503e+001	1.342957e+002	-1.346745e+001	8.873872e-001	-1.340749e+001	1.417253e+000	-1.397621e+001	-1.290366e+002
4805719.237	-1.481330e+001	1.320901e+002	-1.338387e+001	-3.655594e+000	-1.332599e+001	-3.162244e+000	-1.404883e+001	-1.327111e+002
4830155.979	-1.518494e+001	1.300025e+002	-1.329750e+001	-8.247011e+000	-1.323930e+001	-7.777576e+000	-1.414256e+001	-1.364862e+002
4854592.721	-1.559433e+001	1.281008e+002	-1.320489e+001	-1.289457e+001	-1.314855e+001	-1.245801e+001	-1.426234e+001	-1.403104e+002
4879029.463	-1.603382e+001	1.263932e+002	-1.311229e+001	-1.760853e+001	-1.305793e+001	-1.720467e+001	-1.440847e+001	-1.441887e+002
4903466.205	-1.650246e+001	1.249090e+002	-1.302224e+001	-2.240625e+001	-1.296829e+001	-2.202461e+001	-1.457735e+001	-1.480840e+002
4927902.946	-1.699769e+001	1.236771e+002	-1.293801e+001	-2.725570e+001	-1.288671e+001	-2.689915e+001	-1.476760e+001	-1.520003e+002
4952339.688	-1.751771e+001	1.226696e+002	-1.286168e+001	-3.219754e+001	-1.281262e+001	-3.182733e+001	-1.497715e+001	-1.559487e+002
4976776.430	-1.806380e+001	1.219762e+002	-1.279495e+001	-3.716050e+001	-1.274760e+001	-3.679511e+001	-1.520579e+001	-1.598870e+002
5001213.172	-1.864422e+001	1.216135e+002	-1.273520e+001	-4.213328e+001	-1.269227e+001	-4.179316e+001	-1.545474e+001	-1.638452e+002
5025649.913	-1.925071e+001	1.216336e+002	-1.268429e+001	-4.713193e+001	-1.264496e+001	-4.681168e+001	-1.572416e+001	-1.678377e+002
5050086.655	-1.988352e+001	1.221030e+002	-1.264590e+001	-5.215857e+001	-1.260834e+001	-5.185034e+001	-1.601075e+001	-1.718186e+002
5074523.397	-2.054152e+001	1.231312e+002	-1.261440e+001	-5.720891e+001	-1.258186e+001	-5.689877e+001	-1.631784e+001	-1.758189e+002
5098960.139	-2.121075e+001	1.247527e+002	-1.259713e+001	-6.225997e+001	-1.256796e+001	-6.196446e+001	-1.664188e+001	-1.798035e+002
5123396.880	-2.188598e+001	1.271341e+002	-1.259278e+001	-6.730536e+001	-1.256898e+001	-6.700836e+001	-1.696868e+001	1.761673e+002
5147833.622	-2.256255e+001	1.303356e+002	-1.260312e+001	-7.231199e+001	-1.258043e+001	-7.201696e+001	-1.730781e+001	1.721002e+002
5172270.364	-2.321247e+001	1.346411e+002	-1.262364e+001	-7.722285e+001	-1.260519e+001	-7.694617e+001	-1.765092e+001	1.678537e+002
5196707.106	-2.377192e+001	1.403559e+002	-1.264673e+001	-8.208312e+001	-1.263081e+001	-8.179281e+001	-1.801463e+001	1.634419e+002
5221143.847	-2.413370e+001	1.473705e+002	-1.266880e+001	-8.684981e+001	-1.265913e+001	-8.659296e+001	-1.840544e+001	1.588642e+002
5245580.589	-2.419959e+001	1.551106e+002	-1.269320e+001	-9.161674e+001	-1.268629e+001	-9.134614e+001	-1.882552e+001	1.540922e+002
5270017.331	-2.393882e+001	1.627658e+002	-1.271413e+001	-9.636469e+001	-1.270984e+001	-9.609484e+001	-1.928492e+001	1.492237e+002
5294454.073	-2.340084e+001	1.694770e+002	-1.273639e+001	-1.011048e+002	-1.273761e+001	-1.008269e+002	-1.977413e+001	1.442216e+002
5318890.815	-2.269050e+001	1.748230e+002	-1.276276e+001	-1.058397e+002	-1.276525e+001	-1.055443e+002	-2.029005e+001	1.391208e+002
5343327.556	-2.188411e+001	1.787249e+002	-1.278951e+001	-1.105796e+002	-1.279807e+001	-1.102499e+002	-2.083010e+001	1.338231e+002
5367764.298	-2.106085e+001	-1.785728e+002	-1.282359e+001	-1.152799e+002	-1.283290e+001	-1.149370e+002	-2.138993e+001	1.283824e+002
5392201.040	-2.024710e+001	-1.769396e+002	-1.286009e+001	-1.199695e+002	-1.287132e+001	-1.196040e+002	-2.196631e+001	1.227193e+002
5416637.782	-1.947355e+001	-1.761229e+002	-1.289883e+001	-1.246387e+002	-1.291212e+001	-1.242522e+002	-2.255430e+001	1.168390e+002
5441074.523	-1.874549e+001	-1.759452e+002	-1.294144e+001	-1.292791e+002	-1.295583e+001	-1.288645e+002	-2.315416e+001	1.106346e+002
