!Agilent Technologies,E5061B,MY49101568,A.02.00
!Date: Wed Mar 01 13:52:12 2023
!Data & Calibration Information:
!Freq	S11:SOLT2(OFF)	S21:SOLT2(OFF)	S12:SOLT2(OFF)	S22:SOLT2(OFF)
# Hz S dB R 50
1800000.000	-1.005661e+001	-1.680743e+001	-2.229267e+001	-1.496285e+002	-2.229203e+001	-1.496437e+002	-1.057999e+001	1.996481e+001
1824436.742	-1.019611e+001	-2.099440e+001	-2.196276e+001	-1.536860e+002	-2.196699e+001	-1.537268e+002	-1.074204e+001	1.629509e+001
1848873.484	-1.033973e+001	-2.526121e+001	-2.162180e+001	-1.578453e+002	-2.163220e+001	-1.578843e+002	-1.090905e+001	1.258621e+001
1873310.225	-1.049507e+001	-2.955414e+001	-2.127411e+001	-1.621157e+002	-2.129260e+001	-1.621164e+002	-1.107660e+001	8.849835e+000
1897746.967	-1.065004e+001	-3.389151e+001	-2.092992e+001	-1.664334e+002	-2.094295e+001	-1.664717e+002	-1.124394e+001	5.070571e+000
1922183.709	-1.081643e+001	-3.834134e+001	-2.056877e+001	-1.709019e+002	-2.059091e+001	-1.709187e+002	-1.141112e+001	1.206418e+000
1946620.451	-1.098591e+001	-4.286089e+001	-2.021394e+001	-1.754387e+002	-2.023354e+001	-1.754561e+002	-1.157928e+001	-2.724459e+000
1971057.192	-1.116661e+001	-4.747436e+001	-1.985132e+001	1.798780e+002	-1.988996e+001	1.799331e+002	-1.174264e+001	-6.721949e+000
1995493.934	-1.135166e+001	-5.217731e+001	-1.949831e+001	1.751519e+002	-1.952156e+001	1.752391e+002	-1.191530e+001	-1.079820e+001
2019930.676	-1.154909e+001	-5.701456e+001	-1.915016e+001	1.703491e+002	-1.918108e+001	1.704523e+002	-1.207646e+001	-1.489772e+001
2044367.418	-1.176023e+001	-6.196845e+001	-1.877167e+001	1.655299e+002	-1.881422e+001	1.656721e+002	-1.223206e+001	-1.922347e+001
2068804.159	-1.198751e+001	-6.701197e+001	-1.840128e+001	1.606034e+002	-1.843631e+001	1.607574e+002	-1.239118e+001	-2.359299e+001
2093240.901	-1.223881e+001	-7.217418e+001	-1.800571e+001	1.555129e+002	-1.805978e+001	1.556481e+002	-1.255429e+001	-2.798735e+001
2117677.643	-1.250390e+001	-7.742239e+001	-1.763333e+001	1.501957e+002	-1.768104e+001	1.504106e+002	-1.271715e+001	-3.248418e+001
2142114.385	-1.278400e+001	-8.275738e+001	-1.726755e+001	1.447750e+002	-1.730526e+001	1.450423e+002	-1.287177e+001	-3.707051e+001
2166551.127	-1.308893e+001	-8.820884e+001	-1.689512e+001	1.391578e+002	-1.693843e+001	1.394893e+002	-1.302340e+001	-4.172751e+001
2190987.868	-1.340741e+001	-9.376371e+001	-1.654874e+001	1.334278e+002	-1.657526e+001	1.337866e+002	-1.316853e+001	-4.647879e+001
2215424.610	-1.374408e+001	-9.942651e+001	-1.620864e+001	1.274952e+002	-1.623877e+001	1.279169e+002	-1.330119e+001	-5.128953e+001
2239861.352	-1.409249e+001	-1.052376e+002	-1.589439e+001	1.215232e+002	-1.591533e+001	1.219545e+002	-1.341720e+001	-5.621608e+001
2264298.094	-1.445083e+001	-1.112274e+002	-1.559939e+001	1.154558e+002	-1.560590e+001	1.158825e+002	-1.351913e+001	-6.126629e+001
2288734.835	-1.481836e+001	-1.174663e+002	-1.531390e+001	1.093528e+002	-1.532252e+001	1.097039e+002	-1.359958e+001	-6.640970e+001
2313171.577	-1.521052e+001	-1.239552e+002	-1.504421e+001	1.032110e+002	-1.506003e+001	1.034765e+002	-1.365600e+001	-7.170467e+001
2337608.319	-1.561735e+001	-1.307460e+002	-1.478022e+001	9.696898e+001	-1.480987e+001	9.720577e+001	-1.369323e+001	-7.721073e+001
2362045.061	-1.603625e+001	-1.376658e+002	-1.453978e+001	9.059086e+001	-1.457451e+001	9.088143e+001	-1.371937e+001	-8.287496e+001
2386481.802	-1.643704e+001	-1.448672e+002	-1.433221e+001	8.408850e+001	-1.437576e+001	8.443180e+001	-1.370601e+001	-8.864525e+001
2410918.544	-1.680154e+001	-1.526009e+002	-1.416022e+001	7.766202e+001	-1.422144e+001	7.812864e+001	-1.364497e+001	-9.466953e+001
2435355.286	-1.715533e+001	-1.611142e+002	-1.399958e+001	7.139663e+001	-1.405357e+001	7.209644e+001	-1.356396e+001	-1.012325e+002
2459792.028	-1.753792e+001	-1.703238e+002	-1.382416e+001	6.513312e+001	-1.383916e+001	6.601998e+001	-1.351170e+001	-1.081759e+002
2484228.769	-1.793673e+001	1.798518e+002	-1.364046e+001	5.879189e+001	-1.362392e+001	5.950917e+001	-1.349148e+001	-1.151468e+002
2508665.511	-1.834507e+001	1.700331e+002	-1.346698e+001	5.208989e+001	-1.344542e+001	5.275212e+001	-1.346759e+001	-1.220930e+002
2533102.253	-1.868524e+001	1.598847e+002	-1.333321e+001	4.533469e+001	-1.331414e+001	4.586925e+001	-1.342598e+001	-1.290240e+002
2557538.995	-1.892675e+001	1.495989e+002	-1.324304e+001	3.844320e+001	-1.321377e+001	3.895478e+001	-1.337172e+001	-1.360755e+002
2581975.737	-1.905735e+001	1.391227e+002	-1.319260e+001	3.156308e+001	-1.315773e+001	3.204773e+001	-1.330250e+001	-1.431749e+002
2606412.478	-1.906251e+001	1.285199e+002	-1.318850e+001	2.472925e+001	-1.313924e+001	2.519915e+001	-1.322064e+001	-1.503334e+002
2630849.220	-1.895496e+001	1.178159e+002	-1.321130e+001	1.802677e+001	-1.316091e+001	1.845910e+001	-1.312210e+001	-1.575268e+002
2655285.962	-1.874400e+001	1.069909e+002	-1.325597e+001	1.155846e+001	-1.320315e+001	1.196482e+001	-1.301340e+001	-1.649136e+002
2679722.704	-1.850078e+001	9.631600e+001	-1.330184e+001	5.149282e+000	-1.324124e+001	5.512832e+000	-1.293455e+001	-1.724123e+002
2704159.445	-1.821483e+001	8.618530e+001	-1.336575e+001	-1.270493e+000	-1.330012e+001	-9.797547e-001	-1.287458e+001	-1.797681e+002
2728596.187	-1.790246e+001	7.660684e+001	-1.345290e+001	-7.673915e+000	-1.338764e+001	-7.421887e+000	-1.282445e+001	1.729892e+002
2753032.929	-1.754592e+001	6.756585e+001	-1.357448e+001	-1.394594e+001	-1.350559e+001	-1.374103e+001	-1.277496e+001	1.658939e+002
2777469.671	-1.717428e+001	5.905953e+001	-1.371797e+001	-2.007044e+001	-1.364949e+001	-1.993001e+001	-1.273269e+001	1.589523e+002
2801906.412	-1.679645e+001	5.093462e+001	-1.387662e+001	-2.602629e+001	-1.381398e+001	-2.590241e+001	-1.269116e+001	1.521119e+002
2826343.154	-1.642339e+001	4.319011e+001	-1.404512e+001	-3.177773e+001	-1.398264e+001	-3.173161e+001	-1.266149e+001	1.453860e+002
2850779.896	-1.606879e+001	3.584794e+001	-1.422066e+001	-3.740079e+001	-1.416211e+001	-3.740473e+001	-1.264015e+001	1.388228e+002
2875216.638	-1.573161e+001	2.888477e+001	-1.440301e+001	-4.291048e+001	-1.434500e+001	-4.293925e+001	-1.263359e+001	1.324363e+002
2899653.380	-1.541664e+001	2.228461e+001	-1.458981e+001	-4.826335e+001	-1.453696e+001	-4.831758e+001	-1.263284e+001	1.262300e+002
2924090.121	-1.512137e+001	1.601578e+001	-1.478097e+001	-5.348940e+001	-1.473415e+001	-5.359801e+001	-1.264442e+001	1.202482e+002
2948526.863	-1.484077e+001	1.004157e+001	-1.497632e+001	-5.859243e+001	-1.493831e+001	-5.872925e+001	-1.265833e+001	1.144777e+002
2972963.605	-1.457253e+001	4.366944e+000	-1.517993e+001	-6.352826e+001	-1.514939e+001	-6.369325e+001	-1.267207e+001	1.088968e+002
2997400.347	-1.431487e+001	-1.090343e+000	-1.538136e+001	-6.828334e+001	-1.535694e+001	-6.847020e+001	-1.268494e+001	1.034454e+002
3021837.088	-1.407050e+001	-6.377286e+000	-1.557490e+001	-7.286720e+001	-1.555748e+001	-7.306271e+001	-1.269887e+001	9.813177e+001
3046273.830	-1.384144e+001	-1.148432e+001	-1.575613e+001	-7.732772e+001	-1.574547e+001	-7.751879e+001	-1.271850e+001	9.293262e+001
3070710.572	-1.362806e+001	-1.644933e+001	-1.592500e+001	-8.166824e+001	-1.592336e+001	-8.187263e+001	-1.274356e+001	8.787271e+001
3095147.314	-1.343303e+001	-2.124149e+001	-1.608058e+001	-8.593905e+001	-1.608684e+001	-8.614154e+001	-1.277778e+001	8.294007e+001
3119584.055	-1.324679e+001	-2.588726e+001	-1.623040e+001	-9.013313e+001	-1.624136e+001	-9.034135e+001	-1.281607e+001	7.815195e+001
3144020.797	-1.307562e+001	-3.039330e+001	-1.636550e+001	-9.425087e+001	-1.638460e+001	-9.449459e+001	-1.286045e+001	7.351226e+001
3168457.539	-1.291674e+001	-3.476829e+001	-1.649415e+001	-9.833724e+001	-1.651892e+001	-9.857552e+001	-1.290536e+001	6.901613e+001
3192894.281	-1.276724e+001	-3.900976e+001	-1.661268e+001	-1.023807e+002	-1.664582e+001	-1.025921e+002	-1.295752e+001	6.462275e+001
3217331.023	-1.262779e+001	-4.315551e+001	-1.672922e+001	-1.063825e+002	-1.676698e+001	-1.065613e+002	-1.301087e+001	6.036384e+001
3241767.764	-1.249446e+001	-4.717342e+001	-1.683569e+001	-1.103528e+002	-1.687861e+001	-1.105052e+002	-1.306252e+001	5.622644e+001
3266204.506	-1.236800e+001	-5.109921e+001	-1.693785e+001	-1.142371e+002	-1.698451e+001	-1.143599e+002	-1.311148e+001	5.219476e+001
3290641.248	-1.224470e+001	-5.495317e+001	-1.703221e+001	-1.180377e+002	-1.708157e+001	-1.181304e+002	-1.315966e+001	4.824742e+001
3315077.990	-1.212863e+001	-5.875931e+001	-1.710441e+001	-1.217587e+002	-1.716047e+001	-1.218434e+002	-1.320767e+001	4.434005e+001
3339514.731	-1.202287e+001	-6.251515e+001	-1.716002e+001	-1.255097e+002	-1.722012e+001	-1.255699e+002	-1.326383e+001	4.050716e+001
3363951.473	-1.192629e+001	-6.618316e+001	-1.720525e+001	-1.293136e+002	-1.726816e+001	-1.293274e+002	-1.332905e+001	3.676888e+001
3388388.215	-1.184245e+001	-6.979400e+001	-1.724581e+001	-1.330861e+002	-1.731328e+001	-1.330939e+002	-1.339571e+001	3.314530e+001
3412824.957	-1.176470e+001	-7.332226e+001	-1.727919e+001	-1.368940e+002	-1.734820e+001	-1.368592e+002	-1.346662e+001	2.961277e+001
3437261.698	-1.169452e+001	-7.678130e+001	-1.730656e+001	-1.407121e+002	-1.737731e+001	-1.406349e+002	-1.353867e+001	2.618171e+001
3461698.440	-1.163196e+001	-8.017327e+001	-1.733178e+001	-1.445359e+002	-1.740406e+001	-1.444216e+002	-1.361422e+001	2.285023e+001
3486135.182	-1.157628e+001	-8.348031e+001	-1.734958e+001	-1.483657e+002	-1.742691e+001	-1.482231e+002	-1.368847e+001	1.965038e+001
3510571.924	-1.152532e+001	-8.671325e+001	-1.736898e+001	-1.521963e+002	-1.744643e+001	-1.520190e+002	-1.376227e+001	1.655712e+001
3535008.666	-1.147975e+001	-8.985525e+001	-1.738651e+001	-1.560089e+002	-1.746860e+001	-1.558184e+002	-1.382974e+001	1.358964e+001
3559445.407	-1.143349e+001	-9.293281e+001	-1.740279e+001	-1.597821e+002	-1.748347e+001	-1.595604e+002	-1.389006e+001	1.070167e+001
3583882.149	-1.138959e+001	-9.594820e+001	-1.741442e+001	-1.635222e+002	-1.749484e+001	-1.632628e+002	-1.393844e+001	7.879487e+000
3608318.891	-1.134485e+001	-9.893401e+001	-1.740471e+001	-1.672120e+002	-1.748812e+001	-1.669113e+002	-1.397669e+001	5.064311e+000
3632755.633	-1.130251e+001	-1.018977e+002	-1.738112e+001	-1.709483e+002	-1.746392e+001	-1.705834e+002	-1.402049e+001	2.245486e+000
3657192.374	-1.126999e+001	-1.048074e+002	-1.734269e+001	-1.747829e+002	-1.742462e+001	-1.743733e+002	-1.407046e+001	-5.040781e-001
3681629.116	-1.124451e+001	-1.076516e+002	-1.729980e+001	-1.787677e+002	-1.738324e+001	-1.783161e+002	-1.412352e+001	-3.109392e+000
3706065.858	-1.121913e+001	-1.103843e+002	-1.727482e+001	1.771411e+002	-1.735174e+001	1.775889e+002	-1.417530e+001	-5.577406e+000
3730502.600	-1.119638e+001	-1.130095e+002	-1.726592e+001	1.729373e+002	-1.734577e+001	1.734404e+002	-1.420586e+001	-7.898996e+000
3754939.341	-1.116074e+001	-1.154984e+002	-1.729671e+001	1.687504e+002	-1.737362e+001	1.692646e+002	-1.421741e+001	-1.005763e+001
3779376.083	-1.110645e+001	-1.179286e+002	-1.735775e+001	1.647108e+002	-1.743983e+001	1.652615e+002	-1.418257e+001	-1.216589e+001
3803812.825	-1.101425e+001	-1.203534e+002	-1.745740e+001	1.611073e+002	-1.754285e+001	1.615574e+002	-1.410210e+001	-1.433635e+001
3828249.567	-1.090310e+001	-1.229104e+002	-1.755099e+001	1.578757e+002	-1.761386e+001	1.585584e+002	-1.398732e+001	-1.697179e+001
3852686.308	-1.077944e+001	-1.258552e+002	-1.755449e+001	1.552904e+002	-1.762765e+001	1.559404e+002	-1.387092e+001	-1.993953e+001
3877123.050	-1.068402e+001	-1.290987e+002	-1.744568e+001	1.528032e+002	-1.751129e+001	1.533898e+002	-1.381149e+001	-2.331207e+001
3901559.792	-1.065634e+001	-1.324359e+002	-1.722917e+001	1.496581e+002	-1.729523e+001	1.503761e+002	-1.382926e+001	-2.676725e+001
3925996.534	-1.067614e+001	-1.356629e+002	-1.699229e+001	1.459020e+002	-1.705256e+001	1.466125e+002	-1.391114e+001	-2.993401e+001
3950433.276	-1.073078e+001	-1.386004e+002	-1.679118e+001	1.415199e+002	-1.684060e+001	1.422347e+002	-1.402528e+001	-3.268136e+001
3974870.017	-1.079341e+001	-1.412547e+002	-1.664436e+001	1.368249e+002	-1.669763e+001	1.374769e+002	-1.413534e+001	-3.496207e+001
3999306.759	-1.084259e+001	-1.436471e+002	-1.656467e+001	1.320254e+002	-1.660868e+001	1.326293e+002	-1.421621e+001	-3.695077e+001
4023743.501	-1.086277e+001	-1.458375e+002	-1.655169e+001	1.272580e+002	-1.660601e+001	1.278814e+002	-1.423131e+001	-3.865831e+001
4048180.243	-1.084816e+001	-1.479996e+002	-1.658851e+001	1.227595e+002	-1.665032e+001	1.233732e+002	-1.419036e+001	-4.038309e+001
4072616.984	-1.079903e+001	-1.502392e+002	-1.665880e+001	1.186064e+002	-1.672326e+001	1.193217e+002	-1.409402e+001	-4.230901e+001
4097053.726	-1.073283e+001	-1.526922e+002	-1.671928e+001	1.148899e+002	-1.679191e+001	1.156901e+002	-1.396783e+001	-4.453087e+001
4121490.468	-1.066367e+001	-1.553906e+002	-1.675474e+001	1.115776e+002	-1.682652e+001	1.124353e+002	-1.383663e+001	-4.709281e+001
4145927.210	-1.060835e+001	-1.582879e+002	-1.673941e+001	1.084880e+002	-1.680182e+001	1.094333e+002	-1.372330e+001	-4.995713e+001
4170363.951	-1.058673e+001	-1.613142e+002	-1.665895e+001	1.054518e+002	-1.671411e+001	1.064234e+002	-1.364284e+001	-5.297647e+001
4194800.693	-1.059088e+001	-1.644030e+002	-1.653893e+001	1.022829e+002	-1.657887e+001	1.032818e+002	-1.359198e+001	-5.607996e+001
4219237.435	-1.062164e+001	-1.674913e+002	-1.638834e+001	9.895546e+001	-1.641542e+001	9.992845e+001	-1.356653e+001	-5.917155e+001
4243674.177	-1.067902e+001	-1.705480e+002	-1.621329e+001	9.545777e+001	-1.623218e+001	9.640536e+001	-1.356157e+001	-6.224655e+001
4268110.919	-1.076057e+001	-1.735651e+002	-1.602057e+001	9.178914e+001	-1.603804e+001	9.273124e+001	-1.357015e+001	-6.529729e+001
4292547.660	-1.086447e+001	-1.765278e+002	-1.582106e+001	8.796894e+001	-1.582970e+001	8.888402e+001	-1.359649e+001	-6.832819e+001
4316984.402	-1.099126e+001	-1.793832e+002	-1.560986e+001	8.394072e+001	-1.561674e+001	8.483963e+001	-1.364028e+001	-7.128234e+001
4341421.144	-1.113660e+001	1.779013e+002	-1.540324e+001	7.970984e+001	-1.540343e+001	8.060691e+001	-1.369521e+001	-7.415779e+001
4365857.886	-1.129233e+001	1.753525e+002	-1.520733e+001	7.528198e+001	-1.520891e+001	7.616598e+001	-1.375439e+001	-7.688139e+001
4390294.627	-1.145143e+001	1.729373e+002	-1.502782e+001	7.074544e+001	-1.502436e+001	7.163621e+001	-1.381501e+001	-7.952987e+001
4414731.369	-1.161016e+001	1.706359e+002	-1.486444e+001	6.615222e+001	-1.485791e+001	6.702164e+001	-1.386810e+001	-8.211251e+001
4439168.111	-1.176613e+001	1.684300e+002	-1.471466e+001	6.145227e+001	-1.470357e+001	6.236598e+001	-1.391463e+001	-8.467835e+001
4463604.853	-1.192187e+001	1.663051e+002	-1.457539e+001	5.676908e+001	-1.456104e+001	5.768198e+001	-1.395529e+001	-8.721464e+001
4488041.594	-1.207288e+001	1.642384e+002	-1.444696e+001	5.206902e+001	-1.442826e+001	5.295279e+001	-1.399240e+001	-8.972677e+001
4512478.336	-1.222325e+001	1.622336e+002	-1.432578e+001	4.732719e+001	-1.430217e+001	4.819900e+001	-1.402539e+001	-9.224968e+001
4536915.078	-1.236911e+001	1.602823e+002	-1.421304e+001	4.255405e+001	-1.418453e+001	4.340857e+001	-1.405594e+001	-9.478537e+001
4561351.820	-1.251025e+001	1.583749e+002	-1.411037e+001	3.775254e+001	-1.408003e+001	3.858535e+001	-1.407985e+001	-9.729374e+001
4585788.562	-1.263989e+001	1.564714e+002	-1.402457e+001	3.292275e+001	-1.399161e+001	3.375448e+001	-1.409144e+001	-9.983237e+001
4610225.303	-1.276367e+001	1.545151e+002	-1.395113e+001	2.814520e+001	-1.391659e+001	2.895549e+001	-1.409200e+001	-1.024369e+002
4634662.045	-1.288727e+001	1.524902e+002	-1.388521e+001	2.339187e+001	-1.384600e+001	2.418171e+001	-1.408957e+001	-1.051502e+002
4659098.787	-1.301533e+001	1.503729e+002	-1.382691e+001	1.869140e+001	-1.378607e+001	1.945744e+001	-1.408183e+001	-1.079664e+002
4683535.529	-1.315451e+001	1.481684e+002	-1.377501e+001	1.403695e+001	-1.372834e+001	1.477855e+001	-1.407811e+001	-1.109149e+002
4707972.270	-1.331113e+001	1.458808e+002	-1.372566e+001	9.485323e+000	-1.367806e+001	1.016588e+001	-1.407189e+001	-1.139690e+002
4732409.012	-1.349249e+001	1.434917e+002	-1.367417e+001	4.972430e+000	-1.362364e+001	5.634291e+000	-1.407381e+001	-1.172375e+002
4756845.754	-1.371022e+001	1.410540e+002	-1.361345e+001	5.311316e-001	-1.356238e+001	1.160588e+000	-1.409190e+001	-1.206776e+002
4781282.496	-1.396529e+001	1.386432e+002	-1.354392e+001	-3.883319e+000	-1.348950e+001	-3.276842e+000	-1.413412e+001	-1.242565e+002
4805719.237	-1.426381e+001	1.363298e+002	-1.345769e+001	-8.296727e+000	-1.340131e+001	-7.730294e+000	-1.420822e+001	-1.279720e+002
4830155.979	-1.460027e+001	1.341680e+002	-1.335831e+001	-1.277449e+001	-1.330138e+001	-1.223486e+001	-1.431330e+001	-1.317514e+002
4854592.721	-1.496982e+001	1.322375e+002	-1.324886e+001	-1.733501e+001	-1.319417e+001	-1.683577e+001	-1.445011e+001	-1.355447e+002
4879029.463	-1.535816e+001	1.305333e+002	-1.313890e+001	-2.200495e+001	-1.308390e+001	-2.152710e+001	-1.461606e+001	-1.393480e+002
4903466.205	-1.576615e+001	1.290997e+002	-1.302854e+001	-2.680182e+001	-1.297698e+001	-2.634510e+001	-1.481068e+001	-1.430791e+002
4927902.946	-1.618367e+001	1.278743e+002	-1.292624e+001	-3.168519e+001	-1.287602e+001	-3.126153e+001	-1.502689e+001	-1.467725e+002
4952339.688	-1.661102e+001	1.268624e+002	-1.283451e+001	-3.666881e+001	-1.278473e+001	-3.624206e+001	-1.526196e+001	-1.504414e+002
4976776.430	-1.705141e+001	1.260562e+002	-1.275383e+001	-4.168537e+001	-1.270746e+001	-4.127711e+001	-1.551211e+001	-1.540441e+002
5001213.172	-1.750425e+001	1.254435e+002	-1.268556e+001	-4.673993e+001	-1.264111e+001	-4.634660e+001	-1.578104e+001	-1.576295e+002
5025649.913	-1.797469e+001	1.251001e+002	-1.262863e+001	-5.181363e+001	-1.258766e+001	-5.144889e+001	-1.606374e+001	-1.611862e+002
5050086.655	-1.846314e+001	1.250062e+002	-1.258368e+001	-5.690690e+001	-1.254461e+001	-5.655113e+001	-1.636059e+001	-1.647240e+002
5074523.397	-1.896808e+001	1.252326e+002	-1.254957e+001	-6.201407e+001	-1.251440e+001	-6.166892e+001	-1.667285e+001	-1.682480e+002
5098960.139	-1.949011e+001	1.258209e+002	-1.252901e+001	-6.712840e+001	-1.249752e+001	-6.679093e+001	-1.699666e+001	-1.717393e+002
5123396.880	-2.002937e+001	1.268194e+002	-1.252266e+001	-7.221247e+001	-1.249314e+001	-7.187678e+001	-1.732704e+001	-1.752483e+002
5147833.622	-2.058868e+001	1.283595e+002	-1.252872e+001	-7.724983e+001	-1.250250e+001	-7.693044e+001	-1.766512e+001	-1.788375e+002
5172270.364	-2.115926e+001	1.306237e+002	-1.254318e+001	-8.221459e+001	-1.251890e+001	-8.190693e+001	-1.801795e+001	1.774656e+002
5196707.106	-2.170439e+001	1.338283e+002	-1.256032e+001	-8.712542e+001	-1.253977e+001	-8.680929e+001	-1.839548e+001	1.736093e+002
5221143.847	-2.217412e+001	1.380694e+002	-1.257780e+001	-9.193880e+001	-1.256188e+001	-9.166008e+001	-1.880725e+001	1.696597e+002
5245580.589	-2.249230e+001	1.432164e+002	-1.259315e+001	-9.677262e+001	-1.257967e+001	-9.647937e+001	-1.926099e+001	1.656379e+002
5270017.331	-2.261479e+001	1.489283e+002	-1.260835e+001	-1.015730e+002	-1.260043e+001	-1.012805e+002	-1.975525e+001	1.615603e+002
5294454.073	-2.251769e+001	1.546754e+002	-1.262532e+001	-1.063811e+002	-1.261836e+001	-1.060796e+002	-2.028810e+001	1.574897e+002
5318890.815	-2.222283e+001	1.599433e+002	-1.264490e+001	-1.112014e+002	-1.264037e+001	-1.108782e+002	-2.085102e+001	1.534217e+002
5343327.556	-2.177265e+001	1.645066e+002	-1.266603e+001	-1.160004e+002	-1.266647e+001	-1.156747e+002	-2.144906e+001	1.493623e+002
5367764.298	-2.122303e+001	1.681679e+002	-1.269305e+001	-1.207830e+002	-1.269421e+001	-1.204432e+002	-2.208284e+001	1.452265e+002
5392201.040	-2.062017e+001	1.709051e+002	-1.272316e+001	-1.255676e+002	-1.272705e+001	-1.251924e+002	-2.274520e+001	1.410168e+002
5416637.782	-1.999689e+001	1.728365e+002	-1.275750e+001	-1.303222e+002	-1.276138e+001	-1.299349e+002	-2.344401e+001	1.367444e+002
5441074.523	-1.937186e+001	1.740557e+002	-1.279346e+001	-1.350523e+002	-1.280002e+001	-1.346468e+002	-2.417701e+001	1.322778e+002
