!Agilent Technologies,E5061B,MY49101568,A.02.00
!Date: Wed Mar 01 14:01:47 2023
!Data & Calibration Information:
!Freq	S11:SOLT2(OFF)	S21:SOLT2(OFF)	S12:SOLT2(OFF)	S22:SOLT2(OFF)
# Hz S dB R 50
1800000.000	-9.459037e+000	-1.845513e+001	-2.435230e+001	-1.322760e+002	-2.433162e+001	-1.322311e+002	-9.875740e+000	1.793354e+001
1824436.742	-9.559615e+000	-2.275421e+001	-2.397263e+001	-1.363216e+002	-2.395988e+001	-1.363127e+002	-1.000231e+001	1.416016e+001
1848873.484	-9.662786e+000	-2.713329e+001	-2.358465e+001	-1.404771e+002	-2.357124e+001	-1.404492e+002	-1.013268e+001	1.033274e+001
1873310.225	-9.773510e+000	-3.156496e+001	-2.319609e+001	-1.447343e+002	-2.319138e+001	-1.446752e+002	-1.025824e+001	6.477535e+000
1897746.967	-9.882297e+000	-3.606768e+001	-2.280358e+001	-1.489583e+002	-2.279508e+001	-1.489874e+002	-1.038225e+001	2.558620e+000
1922183.709	-9.996040e+000	-4.071099e+001	-2.240028e+001	-1.533280e+002	-2.239893e+001	-1.533390e+002	-1.050423e+001	-1.466951e+000
1946620.451	-1.011276e+001	-4.546066e+001	-2.198476e+001	-1.577676e+002	-2.199123e+001	-1.577645e+002	-1.062411e+001	-5.583529e+000
1971057.192	-1.023622e+001	-5.035373e+001	-2.156425e+001	-1.622961e+002	-2.157528e+001	-1.623205e+002	-1.074235e+001	-9.800392e+000
1995493.934	-1.037122e+001	-5.536641e+001	-2.113505e+001	-1.669553e+002	-2.115310e+001	-1.669062e+002	-1.086604e+001	-1.410243e+001
2019930.676	-1.051400e+001	-6.052161e+001	-2.069848e+001	-1.717213e+002	-2.072381e+001	-1.716817e+002	-1.098703e+001	-1.845454e+001
2044367.418	-1.066620e+001	-6.580128e+001	-2.025312e+001	-1.766393e+002	-2.028608e+001	-1.765713e+002	-1.110150e+001	-2.298801e+001
2068804.159	-1.083089e+001	-7.122514e+001	-1.980529e+001	1.783254e+002	-1.984439e+001	1.784148e+002	-1.121671e+001	-2.757069e+001
2093240.901	-1.100794e+001	-7.679950e+001	-1.936018e+001	1.731589e+002	-1.940402e+001	1.732570e+002	-1.133177e+001	-3.222759e+001
2117677.643	-1.120155e+001	-8.256661e+001	-1.891353e+001	1.678126e+002	-1.895794e+001	1.679459e+002	-1.144495e+001	-3.699007e+001
2142114.385	-1.141007e+001	-8.852200e+001	-1.846420e+001	1.623023e+002	-1.851620e+001	1.625059e+002	-1.155431e+001	-4.186615e+001
2166551.127	-1.164288e+001	-9.464990e+001	-1.802044e+001	1.566410e+002	-1.807076e+001	1.568665e+002	-1.165999e+001	-4.687754e+001
2190987.868	-1.189516e+001	-1.009677e+002	-1.758189e+001	1.507474e+002	-1.763388e+001	1.510208e+002	-1.176935e+001	-5.197072e+001
2215424.610	-1.216980e+001	-1.074654e+002	-1.716032e+001	1.446329e+002	-1.721141e+001	1.450339e+002	-1.187319e+001	-5.716015e+001
2239861.352	-1.246675e+001	-1.141612e+002	-1.675887e+001	1.384149e+002	-1.681054e+001	1.388594e+002	-1.197072e+001	-6.245349e+001
2264298.094	-1.278248e+001	-1.210826e+002	-1.637170e+001	1.320751e+002	-1.642194e+001	1.325659e+002	-1.205518e+001	-6.782168e+001
2288734.835	-1.311992e+001	-1.282413e+002	-1.600065e+001	1.256448e+002	-1.604305e+001	1.261698e+002	-1.213457e+001	-7.331161e+001
2313171.577	-1.348161e+001	-1.356261e+002	-1.564487e+001	1.190249e+002	-1.568288e+001	1.195913e+002	-1.220619e+001	-7.893311e+001
2337608.319	-1.386380e+001	-1.432186e+002	-1.531139e+001	1.122667e+002	-1.534634e+001	1.128503e+002	-1.226745e+001	-8.462876e+001
2362045.061	-1.425953e+001	-1.510413e+002	-1.500834e+001	1.054295e+002	-1.503328e+001	1.060132e+002	-1.231740e+001	-9.037914e+001
2386481.802	-1.465552e+001	-1.590902e+002	-1.473373e+001	9.845427e+001	-1.474986e+001	9.905607e+001	-1.234920e+001	-9.625816e+001
2410918.544	-1.504718e+001	-1.674286e+002	-1.448593e+001	9.144793e+001	-1.449577e+001	9.207192e+001	-1.236019e+001	-1.022683e+002
2435355.286	-1.543328e+001	-1.760961e+002	-1.426232e+001	8.439105e+001	-1.426127e+001	8.503046e+001	-1.235637e+001	-1.084392e+002
2459792.028	-1.580314e+001	1.749990e+002	-1.406155e+001	7.727944e+001	-1.405460e+001	7.789962e+001	-1.233999e+001	-1.147281e+002
2484228.769	-1.613983e+001	1.658381e+002	-1.389297e+001	7.008173e+001	-1.387594e+001	7.074544e+001	-1.231138e+001	-1.211548e+002
2508665.511	-1.643356e+001	1.564554e+002	-1.375605e+001	6.290246e+001	-1.372813e+001	6.353326e+001	-1.227105e+001	-1.276903e+002
2533102.253	-1.667229e+001	1.468849e+002	-1.364633e+001	5.575831e+001	-1.361032e+001	5.632299e+001	-1.221880e+001	-1.343361e+002
2557538.995	-1.684803e+001	1.371739e+002	-1.356651e+001	4.858424e+001	-1.352333e+001	4.913069e+001	-1.215845e+001	-1.411158e+002
2581975.737	-1.696005e+001	1.274075e+002	-1.351594e+001	4.145543e+001	-1.346421e+001	4.197872e+001	-1.209793e+001	-1.479768e+002
2606412.478	-1.699336e+001	1.176339e+002	-1.349057e+001	3.437002e+001	-1.343361e+001	3.484100e+001	-1.203188e+001	-1.549435e+002
2630849.220	-1.696786e+001	1.080045e+002	-1.349796e+001	2.733936e+001	-1.343311e+001	2.775812e+001	-1.196989e+001	-1.619578e+002
2655285.962	-1.687615e+001	9.855533e+001	-1.352751e+001	2.039833e+001	-1.345683e+001	2.075796e+001	-1.191271e+001	-1.689989e+002
2679722.704	-1.673188e+001	8.932867e+001	-1.358449e+001	1.353703e+001	-1.350990e+001	1.384645e+001	-1.186277e+001	-1.760416e+002
2704159.445	-1.654174e+001	8.039899e+001	-1.366612e+001	6.786494e+000	-1.358895e+001	7.042604e+000	-1.181775e+001	1.769446e+002
2728596.187	-1.632321e+001	7.181108e+001	-1.376752e+001	1.636044e-001	-1.369110e+001	3.653585e-001	-1.178214e+001	1.699820e+002
2753032.929	-1.608055e+001	6.355037e+001	-1.388715e+001	-6.315791e+000	-1.381126e+001	-6.177784e+000	-1.175743e+001	1.630749e+002
2777469.671	-1.582913e+001	5.563933e+001	-1.402506e+001	-1.266167e+001	-1.395018e+001	-1.257178e+001	-1.174154e+001	1.562698e+002
2801906.412	-1.556681e+001	4.807001e+001	-1.417605e+001	-1.887045e+001	-1.410625e+001	-1.883856e+001	-1.173689e+001	1.495903e+002
2826343.154	-1.530927e+001	4.082714e+001	-1.433992e+001	-2.492914e+001	-1.427189e+001	-2.493411e+001	-1.174425e+001	1.430616e+002
2850779.896	-1.505507e+001	3.392850e+001	-1.451350e+001	-3.083408e+001	-1.445037e+001	-3.087638e+001	-1.176000e+001	1.366725e+002
2875216.638	-1.480931e+001	2.731959e+001	-1.469503e+001	-3.660800e+001	-1.463641e+001	-3.665889e+001	-1.178819e+001	1.304315e+002
2899653.380	-1.457300e+001	2.099816e+001	-1.488390e+001	-4.220872e+001	-1.483054e+001	-4.228871e+001	-1.182067e+001	1.243883e+002
2924090.121	-1.434284e+001	1.495970e+001	-1.507344e+001	-4.764943e+001	-1.502601e+001	-4.775418e+001	-1.186170e+001	1.185064e+002
2948526.863	-1.412451e+001	9.151305e+000	-1.526324e+001	-5.293594e+001	-1.522314e+001	-5.307433e+001	-1.190730e+001	1.127966e+002
2972963.605	-1.391456e+001	3.575740e+000	-1.545318e+001	-5.807415e+001	-1.541964e+001	-5.824295e+001	-1.195854e+001	1.072452e+002
2997400.347	-1.371816e+001	-1.795818e+000	-1.564021e+001	-6.309931e+001	-1.561224e+001	-6.327353e+001	-1.201468e+001	1.018534e+002
3021837.088	-1.352944e+001	-6.986210e+000	-1.582134e+001	-6.798686e+001	-1.580211e+001	-6.816900e+001	-1.207241e+001	9.662760e+001
3046273.830	-1.335148e+001	-1.199291e+001	-1.599617e+001	-7.275928e+001	-1.598501e+001	-7.293989e+001	-1.213374e+001	9.155058e+001
3070710.572	-1.318156e+001	-1.683478e+001	-1.616531e+001	-7.739232e+001	-1.616194e+001	-7.759129e+001	-1.219574e+001	8.660448e+001
3095147.314	-1.302069e+001	-2.152402e+001	-1.632455e+001	-8.191819e+001	-1.632721e+001	-8.211086e+001	-1.225876e+001	8.178929e+001
3119584.055	-1.286862e+001	-2.608542e+001	-1.647377e+001	-8.636978e+001	-1.648197e+001	-8.655710e+001	-1.232714e+001	7.710487e+001
3144020.797	-1.272515e+001	-3.052808e+001	-1.661228e+001	-9.069820e+001	-1.662280e+001	-9.091302e+001	-1.239477e+001	7.254740e+001
3168457.539	-1.259046e+001	-3.485814e+001	-1.673705e+001	-9.501961e+001	-1.675594e+001	-9.521205e+001	-1.246671e+001	6.811032e+001
3192894.281	-1.246503e+001	-3.908059e+001	-1.685412e+001	-9.925833e+001	-1.687726e+001	-9.945157e+001	-1.254117e+001	6.378181e+001
3217331.023	-1.234685e+001	-4.319524e+001	-1.696022e+001	-1.034756e+002	-1.698992e+001	-1.036368e+002	-1.261731e+001	5.957122e+001
3241767.764	-1.223467e+001	-4.720370e+001	-1.705916e+001	-1.076333e+002	-1.709511e+001	-1.077770e+002	-1.269317e+001	5.546722e+001
3266204.506	-1.212799e+001	-5.113730e+001	-1.715235e+001	-1.117322e+002	-1.719137e+001	-1.118641e+002	-1.276857e+001	5.147629e+001
3290641.248	-1.202569e+001	-5.498597e+001	-1.723182e+001	-1.157311e+002	-1.727837e+001	-1.158549e+002	-1.283809e+001	4.755595e+001
3315077.990	-1.192814e+001	-5.878863e+001	-1.729489e+001	-1.196796e+002	-1.734677e+001	-1.197810e+002	-1.290996e+001	4.368695e+001
3339514.731	-1.183965e+001	-6.253619e+001	-1.734192e+001	-1.236141e+002	-1.739519e+001	-1.236861e+002	-1.298715e+001	3.986415e+001
3363951.473	-1.176044e+001	-6.623845e+001	-1.737274e+001	-1.275703e+002	-1.742875e+001	-1.276162e+002	-1.307006e+001	3.611265e+001
3388388.215	-1.169096e+001	-6.988724e+001	-1.738600e+001	-1.315310e+002	-1.744790e+001	-1.315465e+002	-1.315754e+001	3.244819e+001
3412824.957	-1.163166e+001	-7.347019e+001	-1.739038e+001	-1.355211e+002	-1.745516e+001	-1.355092e+002	-1.325411e+001	2.886067e+001
3437261.698	-1.158335e+001	-7.699007e+001	-1.738437e+001	-1.395618e+002	-1.745196e+001	-1.394970e+002	-1.335640e+001	2.536404e+001
3461698.440	-1.154395e+001	-8.044355e+001	-1.736973e+001	-1.436223e+002	-1.744136e+001	-1.435221e+002	-1.346318e+001	2.196669e+001
3486135.182	-1.151186e+001	-8.381237e+001	-1.735134e+001	-1.477019e+002	-1.742315e+001	-1.475937e+002	-1.357501e+001	1.867532e+001
3510571.924	-1.148961e+001	-8.710762e+001	-1.732328e+001	-1.518107e+002	-1.739778e+001	-1.516608e+002	-1.369124e+001	1.550413e+001
3535008.666	-1.147417e+001	-9.031772e+001	-1.729144e+001	-1.559573e+002	-1.736835e+001	-1.557646e+002	-1.380678e+001	1.242600e+001
3559445.407	-1.146270e+001	-9.345263e+001	-1.725095e+001	-1.600585e+002	-1.732823e+001	-1.598552e+002	-1.392077e+001	9.438648e+000
3583882.149	-1.145576e+001	-9.653257e+001	-1.719769e+001	-1.642106e+002	-1.727726e+001	-1.639553e+002	-1.403507e+001	6.533346e+000
3608318.891	-1.145341e+001	-9.954759e+001	-1.713110e+001	-1.683727e+002	-1.720751e+001	-1.680902e+002	-1.415154e+001	3.676262e+000
3632755.633	-1.145688e+001	-1.025312e+002	-1.704614e+001	-1.726500e+002	-1.712300e+001	-1.722924e+002	-1.427896e+001	8.609886e-001
3657192.374	-1.146903e+001	-1.054579e+002	-1.694552e+001	-1.769965e+002	-1.702236e+001	-1.766452e+002	-1.441755e+001	-1.844534e+000
3681629.116	-1.149420e+001	-1.083127e+002	-1.683558e+001	1.784806e+002	-1.691481e+001	1.788732e+002	-1.456828e+001	-4.426044e+000
3706065.858	-1.152928e+001	-1.110783e+002	-1.672820e+001	1.737991e+002	-1.680441e+001	1.742301e+002	-1.472549e+001	-6.826417e+000
3730502.600	-1.157241e+001	-1.137400e+002	-1.662341e+001	1.689817e+002	-1.670158e+001	1.694684e+002	-1.488656e+001	-9.021507e+000
3754939.341	-1.162184e+001	-1.162998e+002	-1.652550e+001	1.640894e+002	-1.660293e+001	1.645746e+002	-1.504245e+001	-1.102837e+001
3779376.083	-1.167917e+001	-1.187515e+002	-1.643193e+001	1.590755e+002	-1.650612e+001	1.595885e+002	-1.519598e+001	-1.288335e+001
3803812.825	-1.174634e+001	-1.210679e+002	-1.633762e+001	1.539387e+002	-1.640995e+001	1.544893e+002	-1.534609e+001	-1.453977e+001
3828249.567	-1.182209e+001	-1.232184e+002	-1.624915e+001	1.486563e+002	-1.631981e+001	1.492002e+002	-1.549719e+001	-1.594922e+001
3852686.308	-1.190143e+001	-1.251394e+002	-1.617285e+001	1.431824e+002	-1.624430e+001	1.437551e+002	-1.563242e+001	-1.707820e+001
3877123.050	-1.197492e+001	-1.268298e+002	-1.611442e+001	1.375458e+002	-1.618573e+001	1.381495e+002	-1.574111e+001	-1.787004e+001
3901559.792	-1.203188e+001	-1.282704e+002	-1.608174e+001	1.317756e+002	-1.615083e+001	1.323818e+002	-1.581395e+001	-1.840224e+001
3925996.534	-1.206376e+001	-1.294746e+002	-1.607528e+001	1.258607e+002	-1.613980e+001	1.264775e+002	-1.583119e+001	-1.864886e+001
3950433.276	-1.205844e+001	-1.304670e+002	-1.610272e+001	1.198176e+002	-1.616591e+001	1.204320e+002	-1.578205e+001	-1.873085e+001
3974870.017	-1.200289e+001	-1.312960e+002	-1.617242e+001	1.136723e+002	-1.623359e+001	1.142770e+002	-1.565292e+001	-1.873258e+001
3999306.759	-1.189042e+001	-1.320906e+002	-1.628501e+001	1.075047e+002	-1.634434e+001	1.080909e+002	-1.544021e+001	-1.886976e+001
4023743.501	-1.171901e+001	-1.329409e+002	-1.644338e+001	1.012876e+002	-1.650495e+001	1.018826e+002	-1.515497e+001	-1.925815e+001
4048180.243	-1.149382e+001	-1.339629e+002	-1.665395e+001	9.509602e+001	-1.671826e+001	9.568191e+001	-1.480983e+001	-1.999675e+001
4072616.984	-1.121772e+001	-1.352645e+002	-1.692437e+001	8.899671e+001	-1.699126e+001	8.957322e+001	-1.441946e+001	-2.117957e+001
4097053.726	-1.090737e+001	-1.369112e+002	-1.725458e+001	8.305751e+001	-1.732282e+001	8.364745e+001	-1.400581e+001	-2.287344e+001
4121490.468	-1.057978e+001	-1.389526e+002	-1.764243e+001	7.734595e+001	-1.771444e+001	7.795830e+001	-1.358800e+001	-2.503642e+001
4145927.210	-1.025055e+001	-1.414163e+002	-1.809032e+001	7.202213e+001	-1.816689e+001	7.259589e+001	-1.318014e+001	-2.764232e+001
4170363.951	-9.932572e+000	-1.442412e+002	-1.858857e+001	6.717831e+001	-1.867929e+001	6.782726e+001	-1.279910e+001	-3.068359e+001
4194800.693	-9.646156e+000	-1.474130e+002	-1.911090e+001	6.290898e+001	-1.920781e+001	6.362265e+001	-1.245968e+001	-3.402685e+001
4219237.435	-9.394247e+000	-1.508320e+002	-1.964504e+001	5.924565e+001	-1.974381e+001	6.001265e+001	-1.216053e+001	-3.757148e+001
4243674.177	-9.176753e+000	-1.543930e+002	-2.016363e+001	5.607990e+001	-2.026617e+001	5.693414e+001	-1.189939e+001	-4.120327e+001
4268110.919	-8.987692e+000	-1.580807e+002	-2.068604e+001	5.339142e+001	-2.077582e+001	5.437346e+001	-1.166611e+001	-4.491460e+001
4292547.660	-8.831520e+000	-1.619279e+002	-2.118887e+001	5.150615e+001	-2.126504e+001	5.247835e+001	-1.146120e+001	-4.872986e+001
4316984.402	-8.714646e+000	-1.658559e+002	-2.161512e+001	5.027338e+001	-2.168735e+001	5.132817e+001	-1.129089e+001	-5.262052e+001
4341421.144	-8.639420e+000	-1.697706e+002	-2.190795e+001	4.946914e+001	-2.197436e+001	5.055351e+001	-1.115704e+001	-5.645586e+001
4365857.886	-8.589590e+000	-1.736074e+002	-2.210455e+001	4.849298e+001	-2.215082e+001	4.959508e+001	-1.104484e+001	-6.017271e+001
4390294.627	-8.546985e+000	-1.773546e+002	-2.227141e+001	4.705966e+001	-2.230486e+001	4.810152e+001	-1.093221e+001	-6.373301e+001
4414731.369	-8.498617e+000	1.788682e+002	-2.249850e+001	4.553597e+001	-2.253938e+001	4.653603e+001	-1.079707e+001	-6.727254e+001
4439168.111	-8.453431e+000	1.748562e+002	-2.278591e+001	4.484291e+001	-2.285561e+001	4.574413e+001	-1.064146e+001	-7.101163e+001
4463604.853	-8.419415e+000	1.706082e+002	-2.309485e+001	4.540520e+001	-2.316602e+001	4.642637e+001	-1.048320e+001	-7.501370e+001
4488041.594	-8.425974e+000	1.660421e+002	-2.322397e+001	4.765066e+001	-2.329381e+001	4.889947e+001	-1.034335e+001	-7.934898e+001
4512478.336	-8.502823e+000	1.612520e+002	-2.297061e+001	5.080512e+001	-2.301661e+001	5.222026e+001	-1.025320e+001	-8.398964e+001
4536915.078	-8.667609e+000	1.564038e+002	-2.228967e+001	5.302343e+001	-2.230321e+001	5.449630e+001	-1.022977e+001	-8.877480e+001
4561351.820	-8.914884e+000	1.517833e+002	-2.138026e+001	5.275289e+001	-2.137356e+001	5.423555e+001	-1.027694e+001	-9.345012e+001
4585788.562	-9.213444e+000	1.475234e+002	-2.049565e+001	5.023851e+001	-2.046179e+001	5.176130e+001	-1.036988e+001	-9.790800e+001
4610225.303	-9.538512e+000	1.435813e+002	-1.973127e+001	4.641167e+001	-1.966833e+001	4.783657e+001	-1.048937e+001	-1.020991e+002
4634662.045	-9.875050e+000	1.399651e+002	-1.910661e+001	4.170408e+001	-1.901504e+001	4.302705e+001	-1.061897e+001	-1.060312e+002
4659098.787	-1.019914e+001	1.365796e+002	-1.863552e+001	3.663769e+001	-1.852314e+001	3.782811e+001	-1.073337e+001	-1.097283e+002
4683535.529	-1.049903e+001	1.331957e+002	-1.829965e+001	3.177412e+001	-1.817338e+001	3.283390e+001	-1.081141e+001	-1.133483e+002
4707972.270	-1.079673e+001	1.295205e+002	-1.802202e+001	2.767704e+001	-1.789211e+001	2.848744e+001	-1.085321e+001	-1.171244e+002
4732409.012	-1.114936e+001	1.254737e+002	-1.768633e+001	2.414972e+001	-1.755316e+001	2.482781e+001	-1.089438e+001	-1.213781e+002
4756845.754	-1.161570e+001	1.213385e+002	-1.721517e+001	2.054038e+001	-1.709033e+001	2.109683e+001	-1.099133e+001	-1.259720e+002
4781282.496	-1.218346e+001	1.175512e+002	-1.668460e+001	1.614238e+001	-1.656725e+001	1.656506e+001	-1.116307e+001	-1.305993e+002
4805719.237	-1.280758e+001	1.142967e+002	-1.619114e+001	1.100539e+001	-1.608215e+001	1.136003e+001	-1.138120e+001	-1.350540e+002
4830155.979	-1.346921e+001	1.114948e+002	-1.574973e+001	5.481950e+000	-1.565452e+001	5.803855e+000	-1.162309e+001	-1.393496e+002
4854592.721	-1.415790e+001	1.089982e+002	-1.536649e+001	-1.450260e-001	-1.528139e+001	1.641580e-001	-1.187823e+001	-1.436051e+002
4879029.463	-1.489798e+001	1.068761e+002	-1.500595e+001	-5.857833e+000	-1.492939e+001	-5.566625e+000	-1.216189e+001	-1.478509e+002
4903466.205	-1.568589e+001	1.052166e+002	-1.467042e+001	-1.168008e+001	-1.459652e+001	-1.141481e+001	-1.247966e+001	-1.520628e+002
4927902.946	-1.652001e+001	1.042866e+002	-1.435205e+001	-1.768462e+001	-1.428477e+001	-1.740285e+001	-1.283417e+001	-1.562127e+002
4952339.688	-1.736306e+001	1.041423e+002	-1.406553e+001	-2.389793e+001	-1.399925e+001	-2.357170e+001	-1.323151e+001	-1.602193e+002
4976776.430	-1.819684e+001	1.047934e+002	-1.381202e+001	-3.016752e+001	-1.375273e+001	-2.985515e+001	-1.365683e+001	-1.639779e+002
5001213.172	-1.898554e+001	1.062245e+002	-1.359517e+001	-3.650462e+001	-1.354023e+001	-3.621691e+001	-1.410497e+001	-1.675121e+002
5025649.913	-1.970731e+001	1.083385e+002	-1.341030e+001	-4.287926e+001	-1.336100e+001	-4.260897e+001	-1.457322e+001	-1.708147e+002
5050086.655	-2.033232e+001	1.110197e+002	-1.325684e+001	-4.926967e+001	-1.321289e+001	-4.899848e+001	-1.505108e+001	-1.738849e+002
5074523.397	-2.086614e+001	1.140327e+002	-1.313178e+001	-5.563937e+001	-1.309284e+001	-5.535447e+001	-1.553905e+001	-1.767161e+002
5098960.139	-2.130284e+001	1.172447e+002	-1.303245e+001	-6.196831e+001	-1.299638e+001	-6.168531e+001	-1.603103e+001	-1.793344e+002
5123396.880	-2.164890e+001	1.205703e+002	-1.295112e+001	-6.826331e+001	-1.292196e+001	-6.796325e+001	-1.652297e+001	1.782800e+002
5147833.622	-2.192043e+001	1.238581e+002	-1.289145e+001	-7.450117e+001	-1.286432e+001	-7.419157e+001	-1.701555e+001	1.761050e+002
5172270.364	-2.212114e+001	1.271216e+002	-1.284797e+001	-8.069824e+001	-1.282249e+001	-8.036921e+001	-1.750233e+001	1.741562e+002
5196707.106	-2.226271e+001	1.303121e+002	-1.281615e+001	-8.684902e+001	-1.279398e+001	-8.650165e+001	-1.797967e+001	1.724308e+002
5221143.847	-2.234332e+001	1.333970e+002	-1.279788e+001	-9.293901e+001	-1.277708e+001	-9.258612e+001	-1.844196e+001	1.709493e+002
5245580.589	-2.237388e+001	1.363851e+002	-1.278793e+001	-9.898833e+001	-1.276991e+001	-9.863020e+001	-1.888867e+001	1.696715e+002
5270017.331	-2.236032e+001	1.392538e+002	-1.278913e+001	-1.050264e+002	-1.277000e+001	-1.046425e+002	-1.931365e+001	1.685796e+002
5294454.073	-2.229073e+001	1.419518e+002	-1.279470e+001	-1.110104e+002	-1.277649e+001	-1.106206e+002	-1.970922e+001	1.676944e+002
5318890.815	-2.217809e+001	1.443975e+002	-1.280758e+001	-1.169859e+002	-1.279056e+001	-1.165792e+002	-2.006734e+001	1.670076e+002
5343327.556	-2.203454e+001	1.465843e+002	-1.282598e+001	-1.229452e+002	-1.280911e+001	-1.225346e+002	-2.037551e+001	1.664773e+002
5367764.298	-2.185950e+001	1.483955e+002	-1.284936e+001	-1.289346e+002	-1.283351e+001	-1.284894e+002	-2.063012e+001	1.660771e+002
5392201.040	-2.168913e+001	1.499160e+002	-1.288223e+001	-1.349136e+002	-1.286590e+001	-1.344709e+002	-2.080569e+001	1.657266e+002
5416637.782	-2.153083e+001	1.511808e+002	-1.292354e+001	-1.409122e+002	-1.290796e+001	-1.404478e+002	-2.091505e+001	1.652459e+002
5441074.523	-2.138774e+001	1.522527e+002	-1.297534e+001	-1.469175e+002	-1.295924e+001	-1.464356e+002	-2.095297e+001	1.644988e+002
