!Agilent Technologies,E5061B,MY49101568,A.02.00
!Date: Wed Mar 01 13:50:57 2023
!Data & Calibration Information:
!Freq	S11:SOLT2(OFF)	S21:SOLT2(OFF)	S12:SOLT2(OFF)	S22:SOLT2(OFF)
# Hz S dB R 50
1800000.000	-1.102499e+001	2.943858e+001	-1.149932e+001	1.377084e+002	-1.144491e+001	1.376826e+002	-1.082418e+001	7.447585e+001
1824436.742	-1.091379e+001	2.491120e+001	-1.171622e+001	1.329344e+002	-1.167026e+001	1.328885e+002	-1.079675e+001	6.963362e+001
1848873.484	-1.084170e+001	2.044647e+001	-1.191366e+001	1.283912e+002	-1.187538e+001	1.283057e+002	-1.080475e+001	6.496497e+001
1873310.225	-1.078997e+001	1.603173e+001	-1.209255e+001	1.239885e+002	-1.205432e+001	1.239350e+002	-1.083444e+001	6.043673e+001
1897746.967	-1.076019e+001	1.169830e+001	-1.223933e+001	1.197884e+002	-1.220063e+001	1.197237e+002	-1.088885e+001	5.607589e+001
1922183.709	-1.075379e+001	7.355664e+000	-1.237141e+001	1.157160e+002	-1.233969e+001	1.155088e+002	-1.094469e+001	5.165795e+001
1946620.451	-1.076250e+001	3.078215e+000	-1.247088e+001	1.117610e+002	-1.244850e+001	1.115049e+002	-1.102678e+001	4.734178e+001
1971057.192	-1.079902e+001	-1.125013e+000	-1.253663e+001	1.079848e+002	-1.252772e+001	1.076315e+002	-1.112977e+001	4.311239e+001
1995493.934	-1.081354e+001	-5.174865e+000	-1.255311e+001	1.039620e+002	-1.257728e+001	1.038855e+002	-1.125045e+001	3.896705e+001
2019930.676	-1.083572e+001	-9.327406e+000	-1.257379e+001	9.998127e+001	-1.257652e+001	9.998669e+001	-1.135318e+001	3.498281e+001
2044367.418	-1.084945e+001	-1.353719e+001	-1.257586e+001	9.592296e+001	-1.257036e+001	9.597049e+001	-1.144737e+001	3.086641e+001
2068804.159	-1.087468e+001	-1.783990e+001	-1.257900e+001	9.191811e+001	-1.257208e+001	9.194364e+001	-1.154439e+001	2.660570e+001
2093240.901	-1.091494e+001	-2.222620e+001	-1.257165e+001	8.799722e+001	-1.255789e+001	8.799405e+001	-1.166265e+001	2.233930e+001
2117677.643	-1.097905e+001	-2.662800e+001	-1.254058e+001	8.414730e+001	-1.252922e+001	8.406354e+001	-1.178798e+001	1.800959e+001
2142114.385	-1.105291e+001	-3.103720e+001	-1.248628e+001	8.027252e+001	-1.247327e+001	8.015155e+001	-1.192141e+001	1.364961e+001
2166551.127	-1.113138e+001	-3.546808e+001	-1.241000e+001	7.634546e+001	-1.240767e+001	7.618890e+001	-1.206277e+001	9.191920e+000
2190987.868	-1.122471e+001	-4.007181e+001	-1.233355e+001	7.240199e+001	-1.233874e+001	7.224819e+001	-1.222108e+001	4.561281e+000
2215424.610	-1.134481e+001	-4.467004e+001	-1.223196e+001	6.845271e+001	-1.225374e+001	6.839499e+001	-1.240590e+001	-1.652216e-001
2239861.352	-1.148267e+001	-4.930991e+001	-1.211098e+001	6.447637e+001	-1.214038e+001	6.445118e+001	-1.260408e+001	-4.936646e+000
2264298.094	-1.164684e+001	-5.403929e+001	-1.197763e+001	6.049740e+001	-1.200868e+001	6.053485e+001	-1.283313e+001	-9.779921e+000
2288734.835	-1.183881e+001	-5.869822e+001	-1.181288e+001	5.647844e+001	-1.185156e+001	5.658557e+001	-1.309088e+001	-1.468422e+001
2313171.577	-1.203941e+001	-6.332140e+001	-1.162616e+001	5.228610e+001	-1.165938e+001	5.242994e+001	-1.335429e+001	-1.954292e+001
2337608.319	-1.225057e+001	-6.805025e+001	-1.143224e+001	4.791805e+001	-1.146166e+001	4.803465e+001	-1.361864e+001	-2.448154e+001
2362045.061	-1.249165e+001	-7.285227e+001	-1.123541e+001	4.348342e+001	-1.126141e+001	4.354857e+001	-1.391360e+001	-2.954373e+001
2386481.802	-1.276215e+001	-7.758008e+001	-1.101359e+001	3.890802e+001	-1.104922e+001	3.897371e+001	-1.424040e+001	-3.474263e+001
2410918.544	-1.303844e+001	-8.231061e+001	-1.078358e+001	3.408353e+001	-1.082464e+001	3.419608e+001	-1.459014e+001	-3.997793e+001
2435355.286	-1.332121e+001	-8.723193e+001	-1.056510e+001	2.899475e+001	-1.060843e+001	2.919131e+001	-1.495400e+001	-4.534601e+001
2459792.028	-1.364218e+001	-9.233495e+001	-1.036122e+001	2.377814e+001	-1.040273e+001	2.401393e+001	-1.534464e+001	-5.090877e+001
2484228.769	-1.400624e+001	-9.761936e+001	-1.017138e+001	1.839310e+001	-1.021267e+001	1.871521e+001	-1.576689e+001	-5.668380e+001
2508665.511	-1.442579e+001	-1.031777e+002	-1.000675e+001	1.291962e+001	-1.004282e+001	1.328921e+001	-1.622749e+001	-6.267761e+001
2533102.253	-1.492883e+001	-1.088130e+002	-9.856376e+000	7.444358e+000	-9.887158e+000	7.785752e+000	-1.674573e+001	-6.882865e+001
2557538.995	-1.551561e+001	-1.144829e+002	-9.719760e+000	1.883532e+000	-9.746332e+000	2.232806e+000	-1.732572e+001	-7.522177e+001
2581975.737	-1.619147e+001	-1.202104e+002	-9.598909e+000	-3.751986e+000	-9.622160e+000	-3.372193e+000	-1.797612e+001	-8.178682e+001
2606412.478	-1.697240e+001	-1.258543e+002	-9.493716e+000	-9.405425e+000	-9.512729e+000	-9.026956e+000	-1.870864e+001	-8.850023e+001
2630849.220	-1.787256e+001	-1.314121e+002	-9.405534e+000	-1.508816e+001	-9.421931e+000	-1.471084e+001	-1.952185e+001	-9.541223e+001
2655285.962	-1.890774e+001	-1.367898e+002	-9.332403e+000	-2.079306e+001	-9.345006e+000	-2.041392e+001	-2.043881e+001	-1.023561e+002
2679722.704	-2.008567e+001	-1.418221e+002	-9.270099e+000	-2.651984e+001	-9.280608e+000	-2.613819e+001	-2.147470e+001	-1.092789e+002
2704159.445	-2.142279e+001	-1.467143e+002	-9.231401e+000	-3.228466e+001	-9.234731e+000	-3.189576e+001	-2.259657e+001	-1.161964e+002
2728596.187	-2.299062e+001	-1.510632e+002	-9.206555e+000	-3.803075e+001	-9.209120e+000	-3.766695e+001	-2.382980e+001	-1.230944e+002
2753032.929	-2.488537e+001	-1.548665e+002	-9.206533e+000	-4.372272e+001	-9.205140e+000	-4.336104e+001	-2.519806e+001	-1.303133e+002
2777469.671	-2.724067e+001	-1.573745e+002	-9.220192e+000	-4.934331e+001	-9.218475e+000	-4.901184e+001	-2.672651e+001	-1.376476e+002
2801906.412	-3.028071e+001	-1.570233e+002	-9.246943e+000	-5.488558e+001	-9.240707e+000	-5.457059e+001	-2.850168e+001	-1.452602e+002
2826343.154	-3.435249e+001	-1.493506e+002	-9.280253e+000	-6.034471e+001	-9.275249e+000	-6.003117e+001	-3.057972e+001	-1.534705e+002
2850779.896	-3.891225e+001	-1.180833e+002	-9.318513e+000	-6.573407e+001	-9.313461e+000	-6.543813e+001	-3.310268e+001	-1.620082e+002
2875216.638	-3.761244e+001	-6.910060e+001	-9.362093e+000	-7.106854e+001	-9.357454e+000	-7.076230e+001	-3.630752e+001	-1.714389e+002
2899653.380	-3.357306e+001	-5.063012e+001	-9.406720e+000	-7.634704e+001	-9.400544e+000	-7.605265e+001	-4.085425e+001	1.784945e+002
2924090.121	-3.062629e+001	-4.613008e+001	-9.455662e+000	-8.156145e+001	-9.451818e+000	-8.128521e+001	-4.856210e+001	1.620763e+002
2948526.863	-2.851606e+001	-4.604968e+001	-9.509731e+000	-8.673191e+001	-9.507343e+000	-8.645521e+001	-5.662673e+001	3.174137e+001
2972963.605	-2.692992e+001	-4.770179e+001	-9.567873e+000	-9.183474e+001	-9.566930e+000	-9.156581e+001	-4.580386e+001	-6.202412e+000
2997400.347	-2.566433e+001	-5.023976e+001	-9.627869e+000	-9.682247e+001	-9.626663e+000	-9.655835e+001	-4.122752e+001	-1.673245e+001
3021837.088	-2.463907e+001	-5.350030e+001	-9.678012e+000	-1.017160e+002	-9.679791e+000	-1.014650e+002	-3.836341e+001	-2.495449e+001
3046273.830	-2.382623e+001	-5.735668e+001	-9.715350e+000	-1.065640e+002	-9.718719e+000	-1.063101e+002	-3.619058e+001	-3.401721e+001
3070710.572	-2.320980e+001	-6.140069e+001	-9.740800e+000	-1.114079e+002	-9.744421e+000	-1.111432e+002	-3.446765e+001	-4.380499e+001
3095147.314	-2.275587e+001	-6.563250e+001	-9.753725e+000	-1.162783e+002	-9.759803e+000	-1.160047e+002	-3.308105e+001	-5.459716e+001
3119584.055	-2.243673e+001	-6.989403e+001	-9.757990e+000	-1.211853e+002	-9.766609e+000	-1.209146e+002	-3.188948e+001	-6.598393e+001
3144020.797	-2.226921e+001	-7.406421e+001	-9.758757e+000	-1.261438e+002	-9.765144e+000	-1.258956e+002	-3.082920e+001	-7.802406e+001
3168457.539	-2.222832e+001	-7.804552e+001	-9.757146e+000	-1.312179e+002	-9.762885e+000	-1.309535e+002	-2.983874e+001	-9.055315e+001
3192894.281	-2.232016e+001	-8.165437e+001	-9.759838e+000	-1.363667e+002	-9.763682e+000	-1.360934e+002	-2.891190e+001	-1.032244e+002
3217331.023	-2.251718e+001	-8.481051e+001	-9.771429e+000	-1.415872e+002	-9.773058e+000	-1.413161e+002	-2.802632e+001	-1.160806e+002
3241767.764	-2.281455e+001	-8.726568e+001	-9.796205e+000	-1.468600e+002	-9.796005e+000	-1.465869e+002	-2.720144e+001	-1.287429e+002
3266204.506	-2.317471e+001	-8.905808e+001	-9.830958e+000	-1.521203e+002	-9.827038e+000	-1.518586e+002	-2.640211e+001	-1.407176e+002
3290641.248	-2.359517e+001	-9.026036e+001	-9.864778e+000	-1.573605e+002	-9.861724e+000	-1.571027e+002	-2.558589e+001	-1.517600e+002
3315077.990	-2.413888e+001	-9.075452e+001	-9.893946e+000	-1.626686e+002	-9.889582e+000	-1.624186e+002	-2.467388e+001	-1.621734e+002
3339514.731	-2.481150e+001	-8.965405e+001	-9.932520e+000	-1.681445e+002	-9.925016e+000	-1.679063e+002	-2.369774e+001	-1.725967e+002
3363951.473	-2.550158e+001	-8.609598e+001	-9.995691e+000	-1.737305e+002	-9.983018e+000	-1.735089e+002	-2.274682e+001	1.769419e+002
3388388.215	-2.599123e+001	-8.004644e+001	-1.008330e+001	-1.793520e+002	-1.007276e+001	-1.791699e+002	-2.186396e+001	1.665994e+002
3412824.957	-2.605072e+001	-7.187712e+001	-1.020282e+001	1.750056e+002	-1.019135e+001	1.751661e+002	-2.104815e+001	1.565592e+002
3437261.698	-2.555843e+001	-6.360193e+001	-1.035078e+001	1.694022e+002	-1.034096e+001	1.695392e+002	-2.029820e+001	1.468519e+002
3461698.440	-2.461392e+001	-5.701628e+001	-1.052639e+001	1.638730e+002	-1.051889e+001	1.639841e+002	-1.962208e+001	1.375179e+002
3486135.182	-2.342036e+001	-5.297699e+001	-1.073406e+001	1.584661e+002	-1.072836e+001	1.585192e+002	-1.900905e+001	1.284719e+002
3510571.924	-2.218161e+001	-5.135280e+001	-1.096820e+001	1.532058e+002	-1.096530e+001	1.532394e+002	-1.847450e+001	1.197780e+002
3535008.666	-2.101984e+001	-5.159429e+001	-1.122091e+001	1.481624e+002	-1.122336e+001	1.481755e+002	-1.801525e+001	1.114816e+002
3559445.407	-1.997236e+001	-5.304426e+001	-1.148388e+001	1.433425e+002	-1.149350e+001	1.433497e+002	-1.762279e+001	1.036025e+002
3583882.149	-1.906955e+001	-5.529101e+001	-1.174240e+001	1.387851e+002	-1.175847e+001	1.387882e+002	-1.729037e+001	9.626894e+001
3608318.891	-1.827282e+001	-5.788241e+001	-1.198966e+001	1.343718e+002	-1.200852e+001	1.343680e+002	-1.698399e+001	8.948440e+001
3632755.633	-1.755177e+001	-6.052724e+001	-1.222307e+001	1.299584e+002	-1.225035e+001	1.299960e+002	-1.667606e+001	8.310084e+001
3657192.374	-1.686320e+001	-6.332606e+001	-1.246589e+001	1.255609e+002	-1.249668e+001	1.256080e+002	-1.635550e+001	7.692155e+001
3681629.116	-1.620232e+001	-6.643007e+001	-1.272872e+001	1.212411e+002	-1.277097e+001	1.213150e+002	-1.604586e+001	7.066707e+001
3706065.858	-1.557471e+001	-6.992344e+001	-1.302392e+001	1.171117e+002	-1.306796e+001	1.172132e+002	-1.577388e+001	6.440949e+001
3730502.600	-1.500838e+001	-7.376223e+001	-1.333680e+001	1.132951e+002	-1.338654e+001	1.134367e+002	-1.555723e+001	5.812634e+001
3754939.341	-1.451069e+001	-7.791938e+001	-1.366091e+001	1.098747e+002	-1.371641e+001	1.100330e+002	-1.539376e+001	5.187282e+001
3779376.083	-1.409866e+001	-8.230152e+001	-1.397197e+001	1.069959e+002	-1.404054e+001	1.071869e+002	-1.531288e+001	4.569939e+001
3803812.825	-1.378542e+001	-8.687494e+001	-1.424038e+001	1.047615e+002	-1.430879e+001	1.049613e+002	-1.533110e+001	3.981582e+001
3828249.567	-1.358650e+001	-9.130430e+001	-1.440323e+001	1.029950e+002	-1.446239e+001	1.033005e+002	-1.546474e+001	3.453009e+001
3852686.308	-1.351618e+001	-9.520844e+001	-1.439016e+001	1.013069e+002	-1.444769e+001	1.016492e+002	-1.567137e+001	3.032575e+001
3877123.050	-1.350620e+001	-9.818325e+001	-1.423503e+001	9.893556e+001	-1.429593e+001	9.932126e+001	-1.584959e+001	2.743902e+001
3901559.792	-1.344572e+001	-1.001566e+002	-1.404384e+001	9.541003e+001	-1.407600e+001	9.575453e+001	-1.586454e+001	2.582903e+001
3925996.534	-1.325624e+001	-1.015510e+002	-1.391334e+001	9.086291e+001	-1.395873e+001	9.110082e+001	-1.562064e+001	2.409830e+001
3950433.276	-1.293579e+001	-1.032897e+002	-1.392149e+001	8.602295e+001	-1.397957e+001	8.617690e+001	-1.525827e+001	2.141618e+001
3974870.017	-1.255334e+001	-1.057331e+002	-1.405728e+001	8.135312e+001	-1.412483e+001	8.152095e+001	-1.489369e+001	1.767892e+001
3999306.759	-1.219769e+001	-1.088227e+002	-1.425481e+001	7.727454e+001	-1.435795e+001	7.740998e+001	-1.458923e+001	1.317120e+001
4023743.501	-1.189090e+001	-1.123585e+002	-1.447976e+001	7.378186e+001	-1.459251e+001	7.409849e+001	-1.440442e+001	8.415607e+000
4048180.243	-1.166384e+001	-1.161442e+002	-1.468106e+001	7.099332e+001	-1.479497e+001	7.143420e+001	-1.431132e+001	3.650745e+000
4072616.984	-1.151314e+001	-1.198980e+002	-1.481060e+001	6.865914e+001	-1.491771e+001	6.923872e+001	-1.430137e+001	-8.421890e-001
4097053.726	-1.143256e+001	-1.234027e+002	-1.483359e+001	6.653044e+001	-1.493364e+001	6.727367e+001	-1.436406e+001	-4.938074e+000
4121490.468	-1.139935e+001	-1.265969e+002	-1.475999e+001	6.432801e+001	-1.484460e+001	6.509798e+001	-1.445395e+001	-8.429304e+000
4145927.210	-1.137654e+001	-1.294013e+002	-1.462139e+001	6.174611e+001	-1.469009e+001	6.251111e+001	-1.453405e+001	-1.139443e+001
4170363.951	-1.134541e+001	-1.318377e+002	-1.444534e+001	5.875995e+001	-1.451176e+001	5.939554e+001	-1.457104e+001	-1.392438e+001
4194800.693	-1.128335e+001	-1.340761e+002	-1.427073e+001	5.529922e+001	-1.433743e+001	5.593505e+001	-1.456446e+001	-1.630291e+001
4219237.435	-1.119186e+001	-1.362296e+002	-1.411119e+001	5.156280e+001	-1.417745e+001	5.219910e+001	-1.451582e+001	-1.858725e+001
4243674.177	-1.107681e+001	-1.383665e+002	-1.396929e+001	4.764901e+001	-1.403560e+001	4.829553e+001	-1.443647e+001	-2.088862e+001
4268110.919	-1.094000e+001	-1.405509e+002	-1.384742e+001	4.359192e+001	-1.391116e+001	4.428008e+001	-1.433210e+001	-2.326471e+001
4292547.660	-1.079010e+001	-1.427960e+002	-1.373637e+001	3.945047e+001	-1.380290e+001	4.016567e+001	-1.420819e+001	-2.569710e+001
4316984.402	-1.062751e+001	-1.451457e+002	-1.364722e+001	3.523010e+001	-1.371062e+001	3.597976e+001	-1.406721e+001	-2.821991e+001
4341421.144	-1.045982e+001	-1.476327e+002	-1.357468e+001	3.100634e+001	-1.363719e+001	3.177617e+001	-1.391801e+001	-3.089171e+001
4365857.886	-1.029209e+001	-1.502600e+002	-1.352005e+001	2.677469e+001	-1.357949e+001	2.760068e+001	-1.376885e+001	-3.368745e+001
4390294.627	-1.013588e+001	-1.529960e+002	-1.347142e+001	2.261501e+001	-1.352848e+001	2.345642e+001	-1.362561e+001	-3.658062e+001
4414731.369	-9.991153e+000	-1.558290e+002	-1.342803e+001	1.849200e+001	-1.348004e+001	1.936503e+001	-1.349386e+001	-3.954603e+001
4439168.111	-9.858038e+000	-1.587374e+002	-1.338428e+001	1.436741e+001	-1.343467e+001	1.530373e+001	-1.336995e+001	-4.260615e+001
4463604.853	-9.740294e+000	-1.616904e+002	-1.333856e+001	1.029051e+001	-1.338512e+001	1.125631e+001	-1.325778e+001	-4.565843e+001
4488041.594	-9.632085e+000	-1.646890e+002	-1.329174e+001	6.229170e+000	-1.333199e+001	7.233711e+000	-1.315613e+001	-4.873967e+001
4512478.336	-9.539865e+000	-1.677372e+002	-1.324467e+001	2.171768e+000	-1.327894e+001	3.191318e+000	-1.306119e+001	-5.184056e+001
4536915.078	-9.458708e+000	-1.708239e+002	-1.319514e+001	-1.900940e+000	-1.322312e+001	-8.458244e-001	-1.297394e+001	-5.495447e+001
4561351.820	-9.394519e+000	-1.739628e+002	-1.314798e+001	-5.944016e+000	-1.317034e+001	-4.879599e+000	-1.289555e+001	-5.812736e+001
4585788.562	-9.347960e+000	-1.771318e+002	-1.309697e+001	-9.956714e+000	-1.311018e+001	-8.889896e+000	-1.283044e+001	-6.129413e+001
4610225.303	-9.319368e+000	1.797025e+002	-1.303880e+001	-1.396591e+001	-1.304734e+001	-1.289202e+001	-1.277766e+001	-6.447661e+001
4634662.045	-9.305564e+000	1.765427e+002	-1.297277e+001	-1.797765e+001	-1.297662e+001	-1.690363e+001	-1.273793e+001	-6.764799e+001
4659098.787	-9.307881e+000	1.733815e+002	-1.290189e+001	-2.201528e+001	-1.289815e+001	-2.091610e+001	-1.271151e+001	-7.080517e+001
4683535.529	-9.324242e+000	1.702458e+002	-1.282234e+001	-2.607430e+001	-1.281275e+001	-2.498659e+001	-1.269398e+001	-7.391843e+001
4707972.270	-9.356940e+000	1.671244e+002	-1.273746e+001	-3.011836e+001	-1.272069e+001	-2.908375e+001	-1.268816e+001	-7.697615e+001
4732409.012	-9.403500e+000	1.640311e+002	-1.264315e+001	-3.426332e+001	-1.261992e+001	-3.324128e+001	-1.269021e+001	-8.000985e+001
4756845.754	-9.458818e+000	1.609606e+002	-1.254376e+001	-3.848225e+001	-1.251638e+001	-3.747671e+001	-1.269418e+001	-8.299316e+001
4781282.496	-9.525604e+000	1.578949e+002	-1.244476e+001	-4.277940e+001	-1.241036e+001	-4.178156e+001	-1.270415e+001	-8.593302e+001
4805719.237	-9.605502e+000	1.548278e+002	-1.234506e+001	-4.714313e+001	-1.230633e+001	-4.616866e+001	-1.271588e+001	-8.884496e+001
4830155.979	-9.697666e+000	1.517648e+002	-1.224866e+001	-5.157497e+001	-1.220456e+001	-5.061974e+001	-1.272964e+001	-9.173405e+001
4854592.721	-9.805402e+000	1.487020e+002	-1.215619e+001	-5.606330e+001	-1.210654e+001	-5.513844e+001	-1.274485e+001	-9.461719e+001
4879029.463	-9.928331e+000	1.456325e+002	-1.207008e+001	-6.062295e+001	-1.201391e+001	-5.970359e+001	-1.276231e+001	-9.749868e+001
4903466.205	-1.006881e+001	1.425717e+002	-1.198701e+001	-6.521192e+001	-1.192693e+001	-6.432495e+001	-1.278114e+001	-1.003670e+002
4927902.946	-1.022882e+001	1.395305e+002	-1.190945e+001	-6.983057e+001	-1.184565e+001	-6.897762e+001	-1.280645e+001	-1.032485e+002
4952339.688	-1.040779e+001	1.365031e+002	-1.183830e+001	-7.452598e+001	-1.176968e+001	-7.367011e+001	-1.283266e+001	-1.061492e+002
4976776.430	-1.060824e+001	1.335217e+002	-1.177189e+001	-7.920633e+001	-1.169906e+001	-7.838170e+001	-1.286591e+001	-1.090216e+002
5001213.172	-1.082908e+001	1.305840e+002	-1.170980e+001	-8.391257e+001	-1.163524e+001	-8.313058e+001	-1.290326e+001	-1.119002e+002
5025649.913	-1.106966e+001	1.276946e+002	-1.165295e+001	-8.865240e+001	-1.157532e+001	-8.789800e+001	-1.294323e+001	-1.147616e+002
5050086.655	-1.133199e+001	1.248756e+002	-1.160054e+001	-9.341618e+001	-1.152105e+001	-9.270311e+001	-1.298717e+001	-1.176408e+002
5074523.397	-1.161580e+001	1.221230e+002	-1.155473e+001	-9.820208e+001	-1.147279e+001	-9.752692e+001	-1.303203e+001	-1.205047e+002
5098960.139	-1.192033e+001	1.194472e+002	-1.151355e+001	-1.030131e+002	-1.143138e+001	-1.023786e+002	-1.308059e+001	-1.233811e+002
5123396.880	-1.224803e+001	1.168519e+002	-1.148068e+001	-1.078335e+002	-1.139775e+001	-1.072492e+002	-1.312960e+001	-1.262857e+002
5147833.622	-1.259948e+001	1.143477e+002	-1.145458e+001	-1.126747e+002	-1.137052e+001	-1.121162e+002	-1.318442e+001	-1.292073e+002
5172270.364	-1.297817e+001	1.119743e+002	-1.143298e+001	-1.174946e+002	-1.135078e+001	-1.169753e+002	-1.324616e+001	-1.321576e+002
5196707.106	-1.337831e+001	1.097338e+002	-1.141597e+001	-1.223054e+002	-1.133528e+001	-1.218300e+002	-1.331318e+001	-1.351146e+002
5221143.847	-1.380082e+001	1.076771e+002	-1.140146e+001	-1.270937e+002	-1.132253e+001	-1.266791e+002	-1.338588e+001	-1.380514e+002
5245580.589	-1.424305e+001	1.057814e+002	-1.139007e+001	-1.319099e+002	-1.131424e+001	-1.315314e+002	-1.346205e+001	-1.410116e+002
5270017.331	-1.470157e+001	1.040647e+002	-1.138191e+001	-1.367364e+002	-1.130704e+001	-1.363941e+002	-1.353977e+001	-1.439800e+002
5294454.073	-1.517882e+001	1.025166e+002	-1.137596e+001	-1.415838e+002	-1.130443e+001	-1.412630e+002	-1.361734e+001	-1.469521e+002
5318890.815	-1.567349e+001	1.011628e+002	-1.137423e+001	-1.464384e+002	-1.130445e+001	-1.461450e+002	-1.369694e+001	-1.499622e+002
5343327.556	-1.618103e+001	9.998356e+001	-1.137509e+001	-1.513133e+002	-1.130888e+001	-1.510410e+002	-1.377518e+001	-1.530095e+002
5367764.298	-1.671085e+001	9.899450e+001	-1.138216e+001	-1.562007e+002	-1.131894e+001	-1.559496e+002	-1.385510e+001	-1.561085e+002
5392201.040	-1.725702e+001	9.820338e+001	-1.139261e+001	-1.610948e+002	-1.133312e+001	-1.608705e+002	-1.393469e+001	-1.592626e+002
5416637.782	-1.782610e+001	9.760859e+001	-1.140740e+001	-1.660062e+002	-1.135264e+001	-1.657944e+002	-1.401751e+001	-1.624841e+002
5441074.523	-1.842106e+001	9.724793e+001	-1.143045e+001	-1.709225e+002	-1.137745e+001	-1.707259e+002	-1.410171e+001	-1.657756e+002
