!Agilent Technologies,E5061B,MY49101568,A.02.00
!Date: Wed Mar 01 13:50:15 2023
!Data & Calibration Information:
!Freq	S11:SOLT2(OFF)	S21:SOLT2(OFF)	S12:SOLT2(OFF)	S22:SOLT2(OFF)
# Hz S dB R 50
1800000.000	-1.142177e+001	3.313506e+001	-1.089271e+001	1.405224e+002	-1.085840e+001	1.405583e+002	-1.115788e+001	7.886666e+001
1824436.742	-1.126538e+001	2.841901e+001	-1.112757e+001	1.355448e+002	-1.109196e+001	1.356028e+002	-1.110034e+001	7.378098e+001
1848873.484	-1.115342e+001	2.378556e+001	-1.133712e+001	1.307958e+002	-1.130923e+001	1.308398e+002	-1.108152e+001	6.885232e+001
1873310.225	-1.107623e+001	1.923741e+001	-1.152930e+001	1.262738e+002	-1.150779e+001	1.262928e+002	-1.108880e+001	6.407340e+001
1897746.967	-1.101583e+001	1.479046e+001	-1.169313e+001	1.218852e+002	-1.167499e+001	1.219698e+002	-1.113066e+001	5.948189e+001
1922183.709	-1.098302e+001	1.035291e+001	-1.183748e+001	1.176436e+002	-1.182053e+001	1.177096e+002	-1.118488e+001	5.494264e+001
1946620.451	-1.097732e+001	5.910309e+000	-1.196399e+001	1.135686e+002	-1.194039e+001	1.137369e+002	-1.127896e+001	5.051013e+001
1971057.192	-1.099050e+001	1.532279e+000	-1.206212e+001	1.095955e+002	-1.201577e+001	1.097304e+002	-1.136988e+001	4.625789e+001
1995493.934	-1.102194e+001	-2.663769e+000	-1.211255e+001	1.057085e+002	-1.205894e+001	1.057343e+002	-1.146270e+001	4.211243e+001
2019930.676	-1.104771e+001	-6.736591e+000	-1.212614e+001	1.017773e+002	-1.208856e+001	1.015813e+002	-1.153521e+001	3.793110e+001
2044367.418	-1.105464e+001	-1.092427e+001	-1.212701e+001	9.767202e+001	-1.211535e+001	9.745480e+001	-1.162526e+001	3.360090e+001
2068804.159	-1.107473e+001	-1.525419e+001	-1.213972e+001	9.360903e+001	-1.213683e+001	9.340891e+001	-1.172909e+001	2.921830e+001
2093240.901	-1.110722e+001	-1.957295e+001	-1.212961e+001	8.963383e+001	-1.214786e+001	8.951879e+001	-1.186295e+001	2.479550e+001
2117677.643	-1.116431e+001	-2.397618e+001	-1.210754e+001	8.570252e+001	-1.212613e+001	8.560646e+001	-1.200036e+001	2.041975e+001
2142114.385	-1.122431e+001	-2.838839e+001	-1.206251e+001	8.172246e+001	-1.208034e+001	8.168881e+001	-1.214441e+001	1.602042e+001
2166551.127	-1.129339e+001	-3.287373e+001	-1.200585e+001	7.768899e+001	-1.202994e+001	7.766700e+001	-1.228672e+001	1.145838e+001
2190987.868	-1.137461e+001	-3.754755e+001	-1.195209e+001	7.363446e+001	-1.196932e+001	7.367473e+001	-1.245245e+001	6.788592e+000
2215424.610	-1.149162e+001	-4.226232e+001	-1.188156e+001	6.962458e+001	-1.189809e+001	6.975008e+001	-1.264103e+001	1.975778e+000
2239861.352	-1.163855e+001	-4.700056e+001	-1.178845e+001	6.568452e+001	-1.181388e+001	6.580748e+001	-1.285294e+001	-2.936093e+000
2264298.094	-1.181623e+001	-5.181978e+001	-1.167965e+001	6.172370e+001	-1.170473e+001	6.184413e+001	-1.308855e+001	-7.937196e+000
2288734.835	-1.203857e+001	-5.659451e+001	-1.154986e+001	5.782990e+001	-1.156991e+001	5.794583e+001	-1.337004e+001	-1.299212e+001
2313171.577	-1.227952e+001	-6.116792e+001	-1.137315e+001	5.382573e+001	-1.139096e+001	5.392196e+001	-1.367670e+001	-1.794057e+001
2337608.319	-1.251025e+001	-6.572689e+001	-1.117773e+001	4.952814e+001	-1.120115e+001	4.964673e+001	-1.398477e+001	-2.298146e+001
2362045.061	-1.277799e+001	-7.036389e+001	-1.098006e+001	4.518009e+001	-1.100885e+001	4.530698e+001	-1.433053e+001	-2.815958e+001
2386481.802	-1.306679e+001	-7.492161e+001	-1.076316e+001	4.065617e+001	-1.079314e+001	4.079851e+001	-1.470784e+001	-3.336373e+001
2410918.544	-1.335331e+001	-7.946750e+001	-1.053481e+001	3.583418e+001	-1.056784e+001	3.601373e+001	-1.509684e+001	-3.857055e+001
2435355.286	-1.364636e+001	-8.421110e+001	-1.032167e+001	3.076200e+001	-1.035212e+001	3.096499e+001	-1.549140e+001	-4.392782e+001
2459792.028	-1.397339e+001	-8.919970e+001	-1.012754e+001	2.552952e+001	-1.015746e+001	2.574923e+001	-1.591134e+001	-4.954734e+001
2484228.769	-1.435643e+001	-9.443999e+001	-9.954417e+000	2.015599e+001	-9.983167e+000	2.049642e+001	-1.638694e+001	-5.554282e+001
2508665.511	-1.480058e+001	-9.981642e+001	-9.798647e+000	1.473994e+001	-9.814294e+000	1.505049e+001	-1.689576e+001	-6.161224e+001
2533102.253	-1.533810e+001	-1.053039e+002	-9.661000e+000	9.301344e+000	-9.685779e+000	9.589275e+000	-1.746955e+001	-6.823295e+001
2557538.995	-1.596339e+001	-1.108048e+002	-9.535976e+000	3.779117e+000	-9.556435e+000	4.073558e+000	-1.812680e+001	-7.494938e+001
2581975.737	-1.669491e+001	-1.162457e+002	-9.426324e+000	-1.781541e+000	-9.445895e+000	-1.463851e+000	-1.887249e+001	-8.200390e+001
2606412.478	-1.753974e+001	-1.216050e+002	-9.332886e+000	-7.388976e+000	-9.346992e+000	-7.060443e+000	-1.971371e+001	-8.930679e+001
2630849.220	-1.851951e+001	-1.267203e+002	-9.253041e+000	-1.301308e+001	-9.265822e+000	-1.268633e+001	-2.065792e+001	-9.690298e+001
2655285.962	-1.964857e+001	-1.315050e+002	-9.189169e+000	-1.864858e+001	-9.197891e+000	-1.832309e+001	-2.173752e+001	-1.048177e+002
2679722.704	-2.095052e+001	-1.357823e+002	-9.137632e+000	-2.431048e+001	-9.142847e+000	-2.399437e+001	-2.297426e+001	-1.129830e+002
2704159.445	-2.246108e+001	-1.395921e+002	-9.106668e+000	-2.998377e+001	-9.110092e+000	-2.966311e+001	-2.433629e+001	-1.217058e+002
2728596.187	-2.424398e+001	-1.423388e+002	-9.092629e+000	-3.566302e+001	-9.098000e+000	-3.535564e+001	-2.585376e+001	-1.310124e+002
2753032.929	-2.644043e+001	-1.435103e+002	-9.100686e+000	-4.127841e+001	-9.101901e+000	-4.097495e+001	-2.756484e+001	-1.416329e+002
2777469.671	-2.918864e+001	-1.411884e+002	-9.122180e+000	-4.680876e+001	-9.122019e+000	-4.652708e+001	-2.950915e+001	-1.542364e+002
2801906.412	-3.252315e+001	-1.308185e+002	-9.157650e+000	-5.227397e+001	-9.157868e+000	-5.198644e+001	-3.163928e+001	-1.701170e+002
2826343.154	-3.537500e+001	-1.034565e+002	-9.202095e+000	-5.763750e+001	-9.199110e+000	-5.736360e+001	-3.383457e+001	1.686888e+002
2850779.896	-3.448366e+001	-6.854356e+001	-9.250338e+000	-6.292232e+001	-9.248350e+000	-6.266499e+001	-3.549161e+001	1.409225e+002
2875216.638	-3.151577e+001	-5.110269e+001	-9.303848e+000	-6.815964e+001	-9.299239e+000	-6.787839e+001	-3.583327e+001	1.099480e+002
2899653.380	-2.893724e+001	-4.569154e+001	-9.356196e+000	-7.331418e+001	-9.351480e+000	-7.304081e+001	-3.497571e+001	8.237580e+001
2924090.121	-2.699231e+001	-4.484016e+001	-9.413549e+000	-7.841524e+001	-9.410668e+000	-7.814943e+001	-3.364745e+001	6.230900e+001
2948526.863	-2.545829e+001	-4.595746e+001	-9.476535e+000	-8.343454e+001	-9.473344e+000	-8.319080e+001	-3.239660e+001	4.718914e+001
2972963.605	-2.425081e+001	-4.818563e+001	-9.539829e+000	-8.839380e+001	-9.539693e+000	-8.815075e+001	-3.133716e+001	3.535037e+001
2997400.347	-2.324340e+001	-5.102605e+001	-9.604807e+000	-9.324544e+001	-9.604715e+000	-9.299858e+001	-3.039907e+001	2.536771e+001
3021837.088	-2.239522e+001	-5.439129e+001	-9.660575e+000	-9.799528e+001	-9.661951e+000	-9.774203e+001	-2.957546e+001	1.631687e+001
3046273.830	-2.169912e+001	-5.813589e+001	-9.702518e+000	-1.026721e+002	-9.704535e+000	-1.024254e+002	-2.886277e+001	7.152436e+000
3070710.572	-2.113113e+001	-6.219415e+001	-9.732548e+000	-1.073461e+002	-9.735310e+000	-1.070960e+002	-2.829525e+001	-2.010640e+000
3095147.314	-2.068310e+001	-6.635014e+001	-9.750263e+000	-1.120137e+002	-9.751179e+000	-1.117757e+002	-2.783631e+001	-1.150676e+001
3119584.055	-2.034712e+001	-7.070878e+001	-9.755057e+000	-1.167121e+002	-9.758311e+000	-1.164790e+002	-2.750880e+001	-2.122427e+001
3144020.797	-2.011813e+001	-7.505175e+001	-9.753587e+000	-1.214516e+002	-9.753970e+000	-1.212556e+002	-2.729324e+001	-3.153772e+001
3168457.539	-1.998817e+001	-7.933133e+001	-9.747206e+000	-1.262820e+002	-9.747950e+000	-1.261050e+002	-2.718342e+001	-4.240181e+001
3192894.281	-1.995623e+001	-8.345258e+001	-9.741479e+000	-1.312024e+002	-9.739674e+000	-1.310130e+002	-2.714540e+001	-5.384510e+001
3217331.023	-2.001564e+001	-8.738628e+001	-9.738646e+000	-1.361842e+002	-9.736975e+000	-1.360082e+002	-2.716532e+001	-6.592972e+001
3241767.764	-2.016072e+001	-9.101003e+001	-9.742553e+000	-1.412281e+002	-9.741491e+000	-1.410483e+002	-2.723270e+001	-7.854323e+001
3266204.506	-2.035925e+001	-9.428739e+001	-9.756416e+000	-1.462697e+002	-9.756038e+000	-1.460937e+002	-2.729073e+001	-9.139360e+001
3290641.248	-2.061052e+001	-9.737520e+001	-9.767293e+000	-1.512849e+002	-9.765857e+000	-1.511366e+002	-2.719764e+001	-1.044717e+002
3315077.990	-2.098065e+001	-1.003573e+002	-9.768616e+000	-1.563876e+002	-9.766645e+000	-1.562189e+002	-2.686932e+001	-1.179894e+002
3339514.731	-2.148357e+001	-1.029177e+002	-9.769028e+000	-1.616456e+002	-9.770055e+000	-1.615099e+002	-2.637056e+001	-1.326118e+002
3363951.473	-2.213980e+001	-1.043775e+002	-9.791235e+000	-1.670563e+002	-9.790767e+000	-1.669266e+002	-2.574931e+001	-1.474664e+002
3388388.215	-2.289624e+001	-1.044309e+002	-9.835551e+000	-1.725595e+002	-9.838217e+000	-1.724525e+002	-2.505407e+001	-1.622220e+002
3412824.957	-2.369327e+001	-1.024318e+002	-9.908172e+000	-1.781008e+002	-9.911427e+000	-1.780071e+002	-2.428964e+001	-1.762848e+002
3437261.698	-2.440948e+001	-9.805741e+001	-1.000829e+001	1.763449e+002	-1.001227e+001	1.764266e+002	-2.349198e+001	1.703710e+002
3461698.440	-2.485329e+001	-9.133207e+001	-1.013944e+001	1.707988e+002	-1.014443e+001	1.708680e+002	-2.269395e+001	1.578316e+002
3486135.182	-2.481633e+001	-8.323437e+001	-1.029994e+001	1.653396e+002	-1.030827e+001	1.653928e+002	-2.193628e+001	1.460607e+002
3510571.924	-2.425847e+001	-7.575288e+001	-1.049113e+001	1.599941e+002	-1.050345e+001	1.600259e+002	-2.123077e+001	1.349286e+002
3535008.666	-2.332771e+001	-7.032296e+001	-1.070957e+001	1.548295e+002	-1.072357e+001	1.548543e+002	-2.060253e+001	1.246112e+002
3559445.407	-2.227481e+001	-6.741013e+001	-1.094164e+001	1.498976e+002	-1.095906e+001	1.499143e+002	-2.005226e+001	1.150199e+002
3583882.149	-2.125480e+001	-6.640304e+001	-1.117508e+001	1.451984e+002	-1.119528e+001	1.452059e+002	-1.956932e+001	1.063266e+002
3608318.891	-2.032980e+001	-6.657032e+001	-1.139548e+001	1.406575e+002	-1.142058e+001	1.406490e+002	-1.911685e+001	9.840088e+001
3632755.633	-1.947386e+001	-6.731601e+001	-1.160779e+001	1.361179e+002	-1.163476e+001	1.361368e+002	-1.866328e+001	9.115022e+001
3657192.374	-1.864190e+001	-6.852118e+001	-1.182838e+001	1.315705e+002	-1.185876e+001	1.315757e+002	-1.819227e+001	8.417727e+001
3681629.116	-1.782600e+001	-7.028687e+001	-1.207126e+001	1.270511e+002	-1.211240e+001	1.270727e+002	-1.773234e+001	7.714873e+001
3706065.858	-1.703902e+001	-7.282761e+001	-1.235352e+001	1.227232e+002	-1.240116e+001	1.227408e+002	-1.731804e+001	7.004099e+001
3730502.600	-1.631822e+001	-7.601329e+001	-1.265686e+001	1.186898e+002	-1.271424e+001	1.187160e+002	-1.697633e+001	6.297599e+001
3754939.341	-1.567390e+001	-7.979715e+001	-1.298791e+001	1.150638e+002	-1.305128e+001	1.151200e+002	-1.671335e+001	5.586925e+001
3779376.083	-1.512925e+001	-8.404073e+001	-1.331700e+001	1.119880e+002	-1.338322e+001	1.120647e+002	-1.655125e+001	4.891600e+001
3803812.825	-1.470788e+001	-8.868915e+001	-1.361155e+001	1.096350e+002	-1.368467e+001	1.097928e+002	-1.653120e+001	4.205203e+001
3828249.567	-1.445662e+001	-9.334847e+001	-1.378273e+001	1.079057e+002	-1.386020e+001	1.080685e+002	-1.664872e+001	3.600146e+001
3852686.308	-1.435969e+001	-9.753700e+001	-1.378934e+001	1.062629e+002	-1.387174e+001	1.064539e+002	-1.688023e+001	3.114571e+001
3877123.050	-1.437974e+001	-1.007401e+002	-1.363269e+001	1.040498e+002	-1.371843e+001	1.042672e+002	-1.713065e+001	2.803605e+001
3901559.792	-1.439396e+001	-1.024987e+002	-1.340341e+001	1.005871e+002	-1.350204e+001	1.008680e+002	-1.720316e+001	2.650068e+001
3925996.534	-1.424398e+001	-1.032521e+002	-1.324504e+001	9.591990e+001	-1.336159e+001	9.642473e+001	-1.699022e+001	2.521821e+001
3950433.276	-1.389292e+001	-1.042577e+002	-1.324284e+001	9.082563e+001	-1.333950e+001	9.149422e+001	-1.657855e+001	2.312402e+001
3974870.017	-1.343675e+001	-1.061070e+002	-1.337789e+001	8.587881e+001	-1.345538e+001	8.667944e+001	-1.611329e+001	1.967085e+001
3999306.759	-1.298980e+001	-1.090173e+002	-1.360651e+001	8.159197e+001	-1.365158e+001	8.236573e+001	-1.571973e+001	1.531100e+001
4023743.501	-1.260951e+001	-1.125706e+002	-1.386568e+001	7.802846e+001	-1.389358e+001	7.870039e+001	-1.542045e+001	1.034363e+001
4048180.243	-1.233144e+001	-1.165097e+002	-1.410091e+001	7.525767e+001	-1.412014e+001	7.580334e+001	-1.525183e+001	5.177542e+000
4072616.984	-1.216504e+001	-1.204667e+002	-1.424422e+001	7.310418e+001	-1.427446e+001	7.350049e+001	-1.519841e+001	2.022780e-001
4097053.726	-1.208386e+001	-1.241934e+002	-1.427991e+001	7.115128e+001	-1.432073e+001	7.151052e+001	-1.524460e+001	-4.324130e+000
4121490.468	-1.206340e+001	-1.274910e+002	-1.420608e+001	6.906616e+001	-1.426277e+001	6.944164e+001	-1.534075e+001	-8.261392e+000
4145927.210	-1.207251e+001	-1.302699e+002	-1.404966e+001	6.656012e+001	-1.412417e+001	6.698497e+001	-1.544624e+001	-1.151956e+001
4170363.951	-1.206583e+001	-1.325990e+002	-1.386287e+001	6.356196e+001	-1.394226e+001	6.406754e+001	-1.553179e+001	-1.420218e+001
4194800.693	-1.202463e+001	-1.346495e+002	-1.368155e+001	6.010715e+001	-1.375682e+001	6.068802e+001	-1.556124e+001	-1.652013e+001
4219237.435	-1.194972e+001	-1.365720e+002	-1.351517e+001	5.635941e+001	-1.358962e+001	5.699212e+001	-1.553602e+001	-1.867854e+001
4243674.177	-1.184421e+001	-1.384721e+002	-1.336899e+001	5.243322e+001	-1.343851e+001	5.309242e+001	-1.546765e+001	-2.083142e+001
4268110.919	-1.171421e+001	-1.403931e+002	-1.323894e+001	4.839751e+001	-1.330297e+001	4.907262e+001	-1.537026e+001	-2.299249e+001
4292547.660	-1.156339e+001	-1.423695e+002	-1.312361e+001	4.424745e+001	-1.318469e+001	4.494625e+001	-1.524400e+001	-2.522722e+001
4316984.402	-1.139303e+001	-1.444307e+002	-1.302590e+001	4.000605e+001	-1.308629e+001	4.073373e+001	-1.509477e+001	-2.757426e+001
4341421.144	-1.120900e+001	-1.466534e+002	-1.294926e+001	3.571687e+001	-1.300577e+001	3.647511e+001	-1.492851e+001	-3.004089e+001
4365857.886	-1.102508e+001	-1.490525e+002	-1.288916e+001	3.145780e+001	-1.294120e+001	3.223578e+001	-1.475770e+001	-3.269060e+001
4390294.627	-1.084750e+001	-1.515900e+002	-1.284055e+001	2.724578e+001	-1.289051e+001	2.803829e+001	-1.459078e+001	-3.549292e+001
4414731.369	-1.068088e+001	-1.542480e+002	-1.279612e+001	2.307134e+001	-1.284301e+001	2.387657e+001	-1.443639e+001	-3.839202e+001
4439168.111	-1.052722e+001	-1.570173e+002	-1.275487e+001	1.890701e+001	-1.279761e+001	1.975271e+001	-1.429235e+001	-4.139173e+001
4463604.853	-1.038796e+001	-1.598236e+002	-1.271156e+001	1.478916e+001	-1.275157e+001	1.566100e+001	-1.416200e+001	-4.442776e+001
4488041.594	-1.026137e+001	-1.627090e+002	-1.266831e+001	1.069003e+001	-1.270790e+001	1.158096e+001	-1.404034e+001	-4.750268e+001
4512478.336	-1.014831e+001	-1.656524e+002	-1.262370e+001	6.583090e+000	-1.266185e+001	7.509312e+000	-1.392984e+001	-5.062205e+001
4536915.078	-1.005110e+001	-1.686493e+002	-1.258261e+001	2.504774e+000	-1.261528e+001	3.437337e+000	-1.382924e+001	-5.374369e+001
4561351.820	-9.968685e+000	-1.717101e+002	-1.254320e+001	-1.562995e+000	-1.256992e+001	-6.133504e-001	-1.374160e+001	-5.694184e+001
4585788.562	-9.907791e+000	-1.748032e+002	-1.249875e+001	-5.603616e+000	-1.252396e+001	-4.620725e+000	-1.366791e+001	-6.018474e+001
4610225.303	-9.865746e+000	-1.779069e+002	-1.244968e+001	-9.620588e+000	-1.246927e+001	-8.614418e+000	-1.361589e+001	-6.343058e+001
4634662.045	-9.842964e+000	1.789895e+002	-1.239464e+001	-1.362785e+001	-1.240767e+001	-1.259445e+001	-1.357805e+001	-6.665297e+001
4659098.787	-9.838804e+000	1.758937e+002	-1.233285e+001	-1.763441e+001	-1.233772e+001	-1.660282e+001	-1.355504e+001	-6.984819e+001
4683535.529	-9.850899e+000	1.728328e+002	-1.226290e+001	-2.166794e+001	-1.225891e+001	-2.061558e+001	-1.354789e+001	-7.300600e+001
4707972.270	-9.880684e+000	1.698085e+002	-1.218374e+001	-2.567680e+001	-1.217466e+001	-2.469946e+001	-1.355209e+001	-7.607412e+001
4732409.012	-9.922141e+000	1.668179e+002	-1.209746e+001	-2.977488e+001	-1.208176e+001	-2.879752e+001	-1.357132e+001	-7.912841e+001
4756845.754	-9.976748e+000	1.638607e+002	-1.200285e+001	-3.393741e+001	-1.198284e+001	-3.297450e+001	-1.359650e+001	-8.211290e+001
4781282.496	-1.004124e+001	1.609334e+002	-1.190857e+001	-3.818615e+001	-1.188198e+001	-3.722778e+001	-1.362690e+001	-8.502360e+001
4805719.237	-1.011641e+001	1.580139e+002	-1.181245e+001	-4.251073e+001	-1.178070e+001	-4.155958e+001	-1.365980e+001	-8.787259e+001
4830155.979	-1.020333e+001	1.551137e+002	-1.171958e+001	-4.690078e+001	-1.168217e+001	-4.597410e+001	-1.369575e+001	-9.068722e+001
4854592.721	-1.030551e+001	1.522133e+002	-1.162920e+001	-5.134994e+001	-1.158831e+001	-5.043896e+001	-1.373373e+001	-9.347980e+001
4879029.463	-1.042201e+001	1.493117e+002	-1.154607e+001	-5.585577e+001	-1.149953e+001	-5.496412e+001	-1.377352e+001	-9.624514e+001
4903466.205	-1.055582e+001	1.464320e+002	-1.146631e+001	-6.039786e+001	-1.141642e+001	-5.953063e+001	-1.381601e+001	-9.900363e+001
4927902.946	-1.070862e+001	1.435730e+002	-1.139180e+001	-6.497599e+001	-1.133906e+001	-6.414091e+001	-1.386408e+001	-1.017494e+002
4952339.688	-1.088035e+001	1.407405e+002	-1.132523e+001	-6.961885e+001	-1.126680e+001	-6.877531e+001	-1.391318e+001	-1.045091e+002
4976776.430	-1.107232e+001	1.379619e+002	-1.126263e+001	-7.425940e+001	-1.120178e+001	-7.343569e+001	-1.397206e+001	-1.072286e+002
5001213.172	-1.128503e+001	1.352509e+002	-1.120398e+001	-7.891074e+001	-1.113968e+001	-7.812515e+001	-1.403197e+001	-1.099223e+002
5025649.913	-1.151753e+001	1.326061e+002	-1.115051e+001	-8.358514e+001	-1.108486e+001	-8.283169e+001	-1.409885e+001	-1.125949e+002
5050086.655	-1.177136e+001	1.300419e+002	-1.110292e+001	-8.829318e+001	-1.103474e+001	-8.756831e+001	-1.416771e+001	-1.152518e+002
5074523.397	-1.204380e+001	1.275738e+002	-1.106017e+001	-9.300580e+001	-1.099058e+001	-9.231828e+001	-1.423854e+001	-1.178833e+002
5098960.139	-1.233691e+001	1.252096e+002	-1.102340e+001	-9.775051e+001	-1.095169e+001	-9.708864e+001	-1.431078e+001	-1.205146e+002
5123396.880	-1.265187e+001	1.229555e+002	-1.099303e+001	-1.024998e+002	-1.092184e+001	-1.018689e+002	-1.438670e+001	-1.231417e+002
5147833.622	-1.298601e+001	1.208305e+002	-1.096889e+001	-1.072421e+002	-1.089919e+001	-1.066442e+002	-1.446684e+001	-1.258051e+002
5172270.364	-1.334397e+001	1.188830e+002	-1.095127e+001	-1.119683e+002	-1.088140e+001	-1.114112e+002	-1.455256e+001	-1.284628e+002
5196707.106	-1.371932e+001	1.171285e+002	-1.093571e+001	-1.166876e+002	-1.086621e+001	-1.161541e+002	-1.464601e+001	-1.310757e+002
5221143.847	-1.410808e+001	1.155871e+002	-1.092231e+001	-1.213755e+002	-1.085395e+001	-1.209068e+002	-1.474263e+001	-1.336526e+002
5245580.589	-1.450761e+001	1.142550e+002	-1.091123e+001	-1.260991e+002	-1.084449e+001	-1.256511e+002	-1.484226e+001	-1.362369e+002
5270017.331	-1.491142e+001	1.131608e+002	-1.090078e+001	-1.308285e+002	-1.083652e+001	-1.304013e+002	-1.494041e+001	-1.387868e+002
5294454.073	-1.531955e+001	1.122713e+002	-1.089521e+001	-1.355592e+002	-1.083169e+001	-1.351584e+002	-1.503602e+001	-1.413343e+002
5318890.815	-1.572881e+001	1.116158e+002	-1.089031e+001	-1.403027e+002	-1.082911e+001	-1.399230e+002	-1.513100e+001	-1.438918e+002
5343327.556	-1.613248e+001	1.111651e+002	-1.088908e+001	-1.450544e+002	-1.082969e+001	-1.446944e+002	-1.522218e+001	-1.464644e+002
5367764.298	-1.653102e+001	1.109014e+002	-1.089145e+001	-1.498243e+002	-1.083404e+001	-1.494751e+002	-1.531120e+001	-1.490816e+002
5392201.040	-1.692257e+001	1.108442e+002	-1.089662e+001	-1.545938e+002	-1.084193e+001	-1.542666e+002	-1.539843e+001	-1.517325e+002
5416637.782	-1.730655e+001	1.109765e+002	-1.090722e+001	-1.593803e+002	-1.085434e+001	-1.590612e+002	-1.548397e+001	-1.544386e+002
5441074.523	-1.768213e+001	1.112684e+002	-1.091964e+001	-1.641621e+002	-1.087001e+001	-1.638645e+002	-1.556775e+001	-1.572313e+002
