!Agilent Technologies,E5061B,MY49101568,A.02.00
!Date: Wed Mar 01 14:03:11 2023
!Data & Calibration Information:
!Freq	S11:SOLT2(OFF)	S21:SOLT2(OFF)	S12:SOLT2(OFF)	S22:SOLT2(OFF)
# Hz S dB R 50
1800000.000	-9.064157e+000	-1.627020e+001	-2.740188e+001	-1.278816e+002	-2.734584e+001	-1.281565e+002	-9.382363e+000	2.017940e+001
1824436.742	-9.137785e+000	-2.048850e+001	-2.703456e+001	-1.316158e+002	-2.697510e+001	-1.318883e+002	-9.483656e+000	1.649537e+001
1848873.484	-9.214360e+000	-2.478678e+001	-2.665129e+001	-1.353469e+002	-2.660423e+001	-1.355875e+002	-9.585764e+000	1.275365e+001
1873310.225	-9.292544e+000	-2.914679e+001	-2.626281e+001	-1.392197e+002	-2.622332e+001	-1.394142e+002	-9.682858e+000	8.974791e+000
1897746.967	-9.367985e+000	-3.357011e+001	-2.586102e+001	-1.430185e+002	-2.583922e+001	-1.432765e+002	-9.775245e+000	5.152134e+000
1922183.709	-9.445854e+000	-3.812731e+001	-2.545189e+001	-1.470283e+002	-2.543606e+001	-1.472235e+002	-9.865319e+000	1.204696e+000
1946620.451	-9.523730e+000	-4.279444e+001	-2.502888e+001	-1.510710e+002	-2.501150e+001	-1.512139e+002	-9.950480e+000	-2.812813e+000
1971057.192	-9.603759e+000	-4.760003e+001	-2.458608e+001	-1.552158e+002	-2.458439e+001	-1.553640e+002	-1.003495e+001	-6.940305e+000
1995493.934	-9.689808e+000	-5.251937e+001	-2.413066e+001	-1.594876e+002	-2.414975e+001	-1.595246e+002	-1.011773e+001	-1.115509e+001
2019930.676	-9.777902e+000	-5.758747e+001	-2.365846e+001	-1.638989e+002	-2.369357e+001	-1.638937e+002	-1.019717e+001	-1.542845e+001
2044367.418	-9.875685e+000	-6.278493e+001	-2.319571e+001	-1.684389e+002	-2.322334e+001	-1.684479e+002	-1.027125e+001	-1.985853e+001
2068804.159	-9.975735e+000	-6.813911e+001	-2.272068e+001	-1.731583e+002	-2.275076e+001	-1.731330e+002	-1.034323e+001	-2.435481e+001
2093240.901	-1.008021e+001	-7.364798e+001	-2.222954e+001	-1.780375e+002	-2.228171e+001	-1.779506e+002	-1.040930e+001	-2.892698e+001
2117677.643	-1.019727e+001	-7.934519e+001	-2.174413e+001	1.769368e+002	-2.179499e+001	1.770693e+002	-1.047387e+001	-3.362411e+001
2142114.385	-1.032295e+001	-8.523387e+001	-2.125479e+001	1.716948e+002	-2.131406e+001	1.719029e+002	-1.053198e+001	-3.843980e+001
2166551.127	-1.046134e+001	-9.132474e+001	-2.076919e+001	1.663050e+002	-2.082627e+001	1.665633e+002	-1.058704e+001	-4.337998e+001
2190987.868	-1.061141e+001	-9.761234e+001	-2.027812e+001	1.606959e+002	-2.033576e+001	1.609991e+002	-1.063921e+001	-4.842567e+001
2215424.610	-1.077772e+001	-1.041246e+002	-1.979703e+001	1.548194e+002	-1.986668e+001	1.552464e+002	-1.068950e+001	-5.360449e+001
2239861.352	-1.095867e+001	-1.108556e+002	-1.933579e+001	1.488091e+002	-1.940052e+001	1.492919e+002	-1.073301e+001	-5.887649e+001
2264298.094	-1.115525e+001	-1.178243e+002	-1.888960e+001	1.426559e+002	-1.894979e+001	1.431802e+002	-1.076948e+001	-6.426790e+001
2288734.835	-1.136654e+001	-1.250414e+002	-1.845223e+001	1.363264e+002	-1.850929e+001	1.369093e+002	-1.079961e+001	-6.978726e+001
2313171.577	-1.159921e+001	-1.325085e+002	-1.803223e+001	1.298054e+002	-1.808920e+001	1.304502e+002	-1.082621e+001	-7.543465e+001
2337608.319	-1.184883e+001	-1.402012e+002	-1.763318e+001	1.231184e+002	-1.768275e+001	1.237992e+002	-1.084524e+001	-8.116625e+001
2362045.061	-1.211662e+001	-1.481205e+002	-1.725628e+001	1.162249e+002	-1.730864e+001	1.170143e+002	-1.086026e+001	-8.699236e+001
2386481.802	-1.239267e+001	-1.562736e+002	-1.691361e+001	1.092140e+002	-1.695939e+001	1.100427e+002	-1.086263e+001	-9.293871e+001
2410918.544	-1.267106e+001	-1.646683e+002	-1.660067e+001	1.020865e+002	-1.663906e+001	1.029692e+002	-1.085559e+001	-9.899663e+001
2435355.286	-1.295259e+001	-1.732903e+002	-1.631804e+001	9.488827e+001	-1.634606e+001	9.578571e+001	-1.083935e+001	-1.051773e+002
2459792.028	-1.323277e+001	1.778692e+002	-1.606250e+001	8.758199e+001	-1.608183e+001	8.850673e+001	-1.081740e+001	-1.114575e+002
2484228.769	-1.351036e+001	1.688549e+002	-1.583967e+001	8.010805e+001	-1.584964e+001	8.114135e+001	-1.078951e+001	-1.178660e+002
2508665.511	-1.376017e+001	1.596996e+002	-1.565450e+001	7.269707e+001	-1.565869e+001	7.372143e+001	-1.075250e+001	-1.243608e+002
2533102.253	-1.399733e+001	1.504321e+002	-1.550216e+001	6.521090e+001	-1.550130e+001	6.626154e+001	-1.071011e+001	-1.309322e+002
2557538.995	-1.418472e+001	1.410855e+002	-1.539015e+001	5.779639e+001	-1.537818e+001	5.882072e+001	-1.066478e+001	-1.376142e+002
2581975.737	-1.433299e+001	1.317135e+002	-1.531364e+001	5.040665e+001	-1.529218e+001	5.137371e+001	-1.061816e+001	-1.443704e+002
2606412.478	-1.444479e+001	1.223838e+002	-1.527247e+001	4.306533e+001	-1.524026e+001	4.397461e+001	-1.057169e+001	-1.511960e+002
2630849.220	-1.451360e+001	1.131595e+002	-1.526155e+001	3.577686e+001	-1.522011e+001	3.663704e+001	-1.053055e+001	-1.580666e+002
2655285.962	-1.454245e+001	1.040579e+002	-1.528268e+001	2.855337e+001	-1.523403e+001	2.936212e+001	-1.049209e+001	-1.649609e+002
2679722.704	-1.452309e+001	9.515085e+001	-1.533536e+001	2.148961e+001	-1.528051e+001	2.217427e+001	-1.046160e+001	-1.718584e+002
2704159.445	-1.446803e+001	8.648692e+001	-1.541770e+001	1.456396e+001	-1.535584e+001	1.512835e+001	-1.043808e+001	-1.787222e+002
2728596.187	-1.438420e+001	7.807064e+001	-1.552595e+001	7.757721e+000	-1.546164e+001	8.218015e+000	-1.042412e+001	1.744523e+002
2753032.929	-1.427935e+001	6.994060e+001	-1.565397e+001	1.076137e+000	-1.559050e+001	1.469061e+000	-1.041863e+001	1.676877e+002
2777469.671	-1.415575e+001	6.211183e+001	-1.580408e+001	-5.455122e+000	-1.573710e+001	-5.167863e+000	-1.042349e+001	1.610239e+002
2801906.412	-1.402100e+001	5.456197e+001	-1.596853e+001	-1.180374e+001	-1.590380e+001	-1.159977e+001	-1.043828e+001	1.544684e+002
2826343.154	-1.387774e+001	4.734260e+001	-1.614823e+001	-1.802433e+001	-1.608484e+001	-1.788939e+001	-1.046173e+001	1.480380e+002
2850779.896	-1.372856e+001	4.039447e+001	-1.633900e+001	-2.406185e+001	-1.628360e+001	-2.398683e+001	-1.049495e+001	1.417479e+002
2875216.638	-1.357293e+001	3.373668e+001	-1.654286e+001	-2.994428e+001	-1.648426e+001	-2.995135e+001	-1.053938e+001	1.355837e+002
2899653.380	-1.342138e+001	2.734839e+001	-1.675419e+001	-3.564047e+001	-1.669768e+001	-3.571426e+001	-1.058715e+001	1.296097e+002
2924090.121	-1.326672e+001	2.123218e+001	-1.697059e+001	-4.116257e+001	-1.691774e+001	-4.130207e+001	-1.063951e+001	1.237910e+002
2948526.863	-1.311414e+001	1.534129e+001	-1.718678e+001	-4.650855e+001	-1.713942e+001	-4.669497e+001	-1.069663e+001	1.181371e+002
2972963.605	-1.296436e+001	9.677234e+000	-1.740274e+001	-5.169944e+001	-1.736394e+001	-5.194084e+001	-1.075741e+001	1.126362e+002
2997400.347	-1.281870e+001	4.223938e+000	-1.761524e+001	-5.675897e+001	-1.758377e+001	-5.700853e+001	-1.082009e+001	1.072872e+002
3021837.088	-1.267659e+001	-1.036731e+000	-1.782924e+001	-6.165098e+001	-1.780235e+001	-6.194721e+001	-1.088596e+001	1.020913e+002
3046273.830	-1.253549e+001	-6.113800e+000	-1.803576e+001	-6.640457e+001	-1.801437e+001	-6.671960e+001	-1.095211e+001	9.703908e+001
3070710.572	-1.239858e+001	-1.101661e+001	-1.823742e+001	-7.100286e+001	-1.822123e+001	-7.135876e+001	-1.101774e+001	9.213139e+001
3095147.314	-1.226344e+001	-1.576516e+001	-1.843117e+001	-7.547759e+001	-1.841730e+001	-7.587301e+001	-1.108356e+001	8.735837e+001
3119584.055	-1.213451e+001	-2.039251e+001	-1.861384e+001	-7.984398e+001	-1.860535e+001	-8.025696e+001	-1.114984e+001	8.269933e+001
3144020.797	-1.200716e+001	-2.486949e+001	-1.879033e+001	-8.404427e+001	-1.877241e+001	-8.460550e+001	-1.122026e+001	7.817578e+001
3168457.539	-1.188720e+001	-2.925049e+001	-1.895003e+001	-8.822523e+001	-1.893608e+001	-8.879189e+001	-1.128644e+001	7.375052e+001
3192894.281	-1.177035e+001	-3.351687e+001	-1.909584e+001	-9.233771e+001	-1.909147e+001	-9.289745e+001	-1.134991e+001	6.944301e+001
3217331.023	-1.165908e+001	-3.766985e+001	-1.923673e+001	-9.637241e+001	-1.923455e+001	-9.693663e+001	-1.141503e+001	6.523652e+001
3241767.764	-1.154934e+001	-4.173048e+001	-1.936580e+001	-1.003357e+002	-1.936837e+001	-1.009143e+002	-1.147746e+001	6.113510e+001
3266204.506	-1.144283e+001	-4.570521e+001	-1.948684e+001	-1.042258e+002	-1.949383e+001	-1.047983e+002	-1.153701e+001	5.712550e+001
3290641.248	-1.133843e+001	-4.959604e+001	-1.959621e+001	-1.080079e+002	-1.961250e+001	-1.085414e+002	-1.158956e+001	5.320395e+001
3315077.990	-1.123795e+001	-5.342726e+001	-1.968698e+001	-1.117247e+002	-1.971240e+001	-1.121889e+002	-1.164090e+001	4.934012e+001
3339514.731	-1.114061e+001	-5.720036e+001	-1.976017e+001	-1.154094e+002	-1.979384e+001	-1.157986e+002	-1.169146e+001	4.553700e+001
3363951.473	-1.104853e+001	-6.091647e+001	-1.981668e+001	-1.190647e+002	-1.985714e+001	-1.194146e+002	-1.174478e+001	4.179379e+001
3388388.215	-1.096278e+001	-6.457336e+001	-1.985955e+001	-1.226800e+002	-1.990376e+001	-1.230170e+002	-1.179997e+001	3.813376e+001
3412824.957	-1.088137e+001	-6.818750e+001	-1.988695e+001	-1.263246e+002	-1.993418e+001	-1.266130e+002	-1.185761e+001	3.452315e+001
3437261.698	-1.080551e+001	-7.173859e+001	-1.989873e+001	-1.299564e+002	-1.995204e+001	-1.302204e+002	-1.191652e+001	3.099264e+001
3461698.440	-1.073683e+001	-7.523615e+001	-1.989762e+001	-1.335984e+002	-1.995577e+001	-1.338229e+002	-1.197713e+001	2.751931e+001
3486135.182	-1.067205e+001	-7.867619e+001	-1.988722e+001	-1.372546e+002	-1.994887e+001	-1.374286e+002	-1.203710e+001	2.412253e+001
3510571.924	-1.061345e+001	-8.205888e+001	-1.986318e+001	-1.409195e+002	-1.992957e+001	-1.410522e+002	-1.209922e+001	2.080310e+001
3535008.666	-1.055749e+001	-8.538452e+001	-1.982907e+001	-1.445927e+002	-1.989867e+001	-1.446740e+002	-1.215987e+001	1.754750e+001
3559445.407	-1.050437e+001	-8.865800e+001	-1.978182e+001	-1.482689e+002	-1.985136e+001	-1.483270e+002	-1.221723e+001	1.434991e+001
3583882.149	-1.045388e+001	-9.188397e+001	-1.971940e+001	-1.519288e+002	-1.978950e+001	-1.519753e+002	-1.227427e+001	1.120488e+001
3608318.891	-1.040503e+001	-9.507119e+001	-1.963625e+001	-1.556707e+002	-1.970823e+001	-1.556399e+002	-1.232887e+001	8.093566e+000
3632755.633	-1.035920e+001	-9.824835e+001	-1.953529e+001	-1.594807e+002	-1.961570e+001	-1.593178e+002	-1.238375e+001	4.991109e+000
3657192.374	-1.031551e+001	-1.013949e+002	-1.942388e+001	-1.633372e+002	-1.950211e+001	-1.631539e+002	-1.244225e+001	1.927701e+000
3681629.116	-1.027817e+001	-1.045178e+002	-1.929398e+001	-1.673351e+002	-1.938014e+001	-1.670806e+002	-1.250566e+001	-1.081541e+000
3706065.858	-1.024610e+001	-1.076258e+002	-1.915990e+001	-1.714636e+002	-1.924635e+001	-1.711447e+002	-1.257387e+001	-4.041230e+000
3730502.600	-1.022099e+001	-1.106967e+002	-1.902612e+001	-1.756915e+002	-1.911464e+001	-1.753157e+002	-1.264298e+001	-6.929118e+000
3754939.341	-1.020208e+001	-1.137541e+002	-1.888755e+001	1.799857e+002	-1.897604e+001	-1.795854e+002	-1.271417e+001	-9.765966e+000
3779376.083	-1.018992e+001	-1.167969e+002	-1.874404e+001	1.756024e+002	-1.883035e+001	1.760656e+002	-1.278852e+001	-1.255980e+001
3803812.825	-1.018966e+001	-1.198176e+002	-1.859439e+001	1.711189e+002	-1.867879e+001	1.716152e+002	-1.286870e+001	-1.532889e+001
3828249.567	-1.020221e+001	-1.228020e+002	-1.843537e+001	1.664806e+002	-1.851900e+001	1.670444e+002	-1.295617e+001	-1.804861e+001
3852686.308	-1.022912e+001	-1.257266e+002	-1.827548e+001	1.616865e+002	-1.835736e+001	1.622751e+002	-1.305719e+001	-2.067162e+001
3877123.050	-1.026981e+001	-1.285686e+002	-1.811810e+001	1.567232e+002	-1.819674e+001	1.573483e+002	-1.316486e+001	-2.318043e+001
3901559.792	-1.032363e+001	-1.313013e+002	-1.796362e+001	1.515829e+002	-1.804224e+001	1.522315e+002	-1.328413e+001	-2.555231e+001
3925996.534	-1.038964e+001	-1.339088e+002	-1.781923e+001	1.462335e+002	-1.789601e+001	1.469167e+002	-1.341084e+001	-2.775356e+001
3950433.276	-1.046585e+001	-1.363367e+002	-1.769214e+001	1.406804e+002	-1.776375e+001	1.413973e+002	-1.353945e+001	-2.972915e+001
3974870.017	-1.054492e+001	-1.385707e+002	-1.758486e+001	1.349157e+002	-1.765225e+001	1.356599e+002	-1.366630e+001	-3.145930e+001
3999306.759	-1.062217e+001	-1.405765e+002	-1.750424e+001	1.289406e+002	-1.757136e+001	1.297144e+002	-1.377638e+001	-3.290248e+001
4023743.501	-1.068353e+001	-1.423385e+002	-1.746596e+001	1.227759e+002	-1.752596e+001	1.235927e+002	-1.385944e+001	-3.407139e+001
4048180.243	-1.072006e+001	-1.438798e+002	-1.747020e+001	1.164744e+002	-1.752830e+001	1.172722e+002	-1.390140e+001	-3.495618e+001
4072616.984	-1.071765e+001	-1.452265e+002	-1.753262e+001	1.100390e+002	-1.758648e+001	1.108152e+002	-1.388449e+001	-3.566108e+001
4097053.726	-1.066376e+001	-1.464606e+002	-1.766292e+001	1.035112e+002	-1.771278e+001	1.043157e+002	-1.379588e+001	-3.629603e+001
4121490.468	-1.055088e+001	-1.477047e+002	-1.786647e+001	9.701351e+001	-1.792031e+001	9.782394e+001	-1.362873e+001	-3.698419e+001
4145927.210	-1.037961e+001	-1.491222e+002	-1.815402e+001	9.070430e+001	-1.820291e+001	9.151497e+001	-1.339212e+001	-3.793964e+001
4170363.951	-1.016255e+001	-1.508439e+002	-1.852202e+001	8.480571e+001	-1.858043e+001	8.551611e+001	-1.309843e+001	-3.926799e+001
4194800.693	-9.919488e+000	-1.529492e+002	-1.895224e+001	7.933716e+001	-1.901853e+001	8.006779e+001	-1.278098e+001	-4.113102e+001
4219237.435	-9.677281e+000	-1.554435e+002	-1.942057e+001	7.443551e+001	-1.949536e+001	7.525400e+001	-1.246590e+001	-4.344553e+001
4243674.177	-9.445559e+000	-1.582582e+002	-1.990909e+001	7.014282e+001	-1.998905e+001	7.096641e+001	-1.216471e+001	-4.609442e+001
4268110.919	-9.230039e+000	-1.613332e+002	-2.041454e+001	6.635341e+001	-2.049889e+001	6.729689e+001	-1.188444e+001	-4.902482e+001
4292547.660	-9.037178e+000	-1.646855e+002	-2.092852e+001	6.334612e+001	-2.100891e+001	6.439816e+001	-1.162540e+001	-5.222495e+001
4316984.402	-8.878911e+000	-1.682619e+002	-2.139398e+001	6.121039e+001	-2.146480e+001	6.234782e+001	-1.139938e+001	-5.565571e+001
4341421.144	-8.767046e+000	-1.719622e+002	-2.174077e+001	5.964493e+001	-2.179822e+001	6.082361e+001	-1.121873e+001	-5.916847e+001
4365857.886	-8.691934e+000	-1.756279e+002	-2.196582e+001	5.803370e+001	-2.201184e+001	5.925146e+001	-1.107201e+001	-6.263992e+001
4390294.627	-8.631415e+000	-1.792121e+002	-2.216024e+001	5.597160e+001	-2.220173e+001	5.719453e+001	-1.093378e+001	-6.597626e+001
4414731.369	-8.564183e+000	1.771931e+002	-2.242003e+001	5.377652e+001	-2.245702e+001	5.507922e+001	-1.077989e+001	-6.928571e+001
4439168.111	-8.487209e+000	1.734322e+002	-2.278244e+001	5.207749e+001	-2.280374e+001	5.357976e+001	-1.060410e+001	-7.273391e+001
4463604.853	-8.421103e+000	1.693531e+002	-2.316688e+001	5.200458e+001	-2.315855e+001	5.349001e+001	-1.042149e+001	-7.643716e+001
4488041.594	-8.391406e+000	1.649216e+002	-2.338660e+001	5.374154e+001	-2.335737e+001	5.516178e+001	-1.025218e+001	-8.049807e+001
4512478.336	-8.426176e+000	1.602083e+002	-2.323770e+001	5.656813e+001	-2.320098e+001	5.783881e+001	-1.012130e+001	-8.487412e+001
4536915.078	-8.543778e+000	1.554063e+002	-2.266838e+001	5.857555e+001	-2.263680e+001	5.979171e+001	-1.005005e+001	-8.943560e+001
4561351.820	-8.737072e+000	1.507572e+002	-2.186549e+001	5.833464e+001	-2.182822e+001	5.960720e+001	-1.004506e+001	-9.396953e+001
4585788.562	-8.984733e+000	1.463578e+002	-2.106055e+001	5.605718e+001	-2.101361e+001	5.732615e+001	-1.008478e+001	-9.833975e+001
4610225.303	-9.265776e+000	1.422208e+002	-2.034505e+001	5.240281e+001	-2.028828e+001	5.364823e+001	-1.015182e+001	-1.025082e+002
4634662.045	-9.565748e+000	1.383453e+002	-1.975150e+001	4.788342e+001	-1.968272e+001	4.909302e+001	-1.023305e+001	-1.064772e+002
4659098.787	-9.867110e+000	1.346713e+002	-1.929102e+001	4.297131e+001	-1.921509e+001	4.414698e+001	-1.030731e+001	-1.102682e+002
4683535.529	-1.015537e+001	1.310607e+002	-1.895679e+001	3.812396e+001	-1.886849e+001	3.922095e+001	-1.036347e+001	-1.139533e+002
4707972.270	-1.043260e+001	1.273078e+002	-1.870096e+001	3.378576e+001	-1.857856e+001	3.468006e+001	-1.039800e+001	-1.177247e+002
4732409.012	-1.074661e+001	1.231550e+002	-1.839635e+001	3.014356e+001	-1.828415e+001	3.087069e+001	-1.041229e+001	-1.218051e+002
4756845.754	-1.114567e+001	1.188316e+002	-1.798284e+001	2.645986e+001	-1.788780e+001	2.706224e+001	-1.045820e+001	-1.262046e+002
4781282.496	-1.163448e+001	1.146721e+002	-1.750444e+001	2.213026e+001	-1.743497e+001	2.268564e+001	-1.055806e+001	-1.306939e+002
4805719.237	-1.218301e+001	1.108073e+002	-1.705049e+001	1.719209e+001	-1.699738e+001	1.778268e+001	-1.069432e+001	-1.351574e+002
4830155.979	-1.277280e+001	1.071479e+002	-1.664516e+001	1.194430e+001	-1.659500e+001	1.255077e+001	-1.085367e+001	-1.395780e+002
4854592.721	-1.340464e+001	1.036887e+002	-1.627917e+001	6.531078e+000	-1.622782e+001	7.156714e+000	-1.103357e+001	-1.439963e+002
4879029.463	-1.408897e+001	1.004137e+002	-1.594204e+001	9.950241e-001	-1.588652e+001	1.635843e+000	-1.123603e+001	-1.484247e+002
4903466.205	-1.484105e+001	9.735215e+001	-1.562283e+001	-4.634268e+000	-1.555904e+001	-4.047291e+000	-1.146739e+001	-1.528701e+002
4927902.946	-1.565798e+001	9.460336e+001	-1.532421e+001	-1.041224e+001	-1.525504e+001	-9.899073e+000	-1.173141e+001	-1.572877e+002
4952339.688	-1.655502e+001	9.224871e+001	-1.504213e+001	-1.635581e+001	-1.498109e+001	-1.589101e+001	-1.202172e+001	-1.616607e+002
4976776.430	-1.750755e+001	9.046258e+001	-1.479444e+001	-2.241097e+001	-1.473803e+001	-2.199697e+001	-1.234154e+001	-1.659200e+002
5001213.172	-1.852436e+001	8.922590e+001	-1.457855e+001	-2.854708e+001	-1.452384e+001	-2.818561e+001	-1.268415e+001	-1.700945e+002
5025649.913	-1.960154e+001	8.860852e+001	-1.439133e+001	-3.472161e+001	-1.434149e+001	-3.439201e+001	-1.304690e+001	-1.741726e+002
5050086.655	-2.074506e+001	8.877462e+001	-1.423317e+001	-4.091134e+001	-1.418748e+001	-4.063254e+001	-1.342765e+001	-1.781521e+002
5074523.397	-2.195431e+001	8.981601e+001	-1.409904e+001	-4.708794e+001	-1.405912e+001	-4.685482e+001	-1.382315e+001	1.779776e+002
5098960.139	-2.323034e+001	9.201704e+001	-1.398721e+001	-5.324447e+001	-1.395405e+001	-5.303132e+001	-1.423552e+001	1.741678e+002
5123396.880	-2.455289e+001	9.572926e+001	-1.389662e+001	-5.938448e+001	-1.386839e+001	-5.917903e+001	-1.466093e+001	1.704554e+002
5147833.622	-2.587840e+001	1.014637e+002	-1.382321e+001	-6.549970e+001	-1.379975e+001	-6.528721e+001	-1.510112e+001	1.668130e+002
5172270.364	-2.713283e+001	1.096599e+002	-1.376546e+001	-7.154722e+001	-1.374757e+001	-7.135674e+001	-1.555466e+001	1.632710e+002
5196707.106	-2.810205e+001	1.205405e+002	-1.372121e+001	-7.756181e+001	-1.370743e+001	-7.736865e+001	-1.602177e+001	1.598051e+002
5221143.847	-2.858784e+001	1.335392e+002	-1.368869e+001	-8.347316e+001	-1.368113e+001	-8.341835e+001	-1.650691e+001	1.565543e+002
5245580.589	-2.840144e+001	1.465858e+002	-1.366561e+001	-8.941050e+001	-1.366172e+001	-8.934846e+001	-1.700073e+001	1.532680e+002
5270017.331	-2.768779e+001	1.577464e+002	-1.365082e+001	-9.532021e+001	-1.365275e+001	-9.523208e+001	-1.750661e+001	1.501079e+002
5294454.073	-2.668239e+001	1.661004e+002	-1.364426e+001	-1.011951e+002	-1.364905e+001	-1.010951e+002	-1.802679e+001	1.470555e+002
5318890.815	-2.559506e+001	1.718552e+002	-1.364269e+001	-1.070383e+002	-1.365047e+001	-1.069351e+002	-1.855915e+001	1.441469e+002
5343327.556	-2.453008e+001	1.755275e+002	-1.364621e+001	-1.128797e+002	-1.365602e+001	-1.127500e+002	-1.910552e+001	1.413757e+002
5367764.298	-2.354264e+001	1.777300e+002	-1.365415e+001	-1.187225e+002	-1.366693e+001	-1.185683e+002	-1.965656e+001	1.388383e+002
5392201.040	-2.265538e+001	1.788117e+002	-1.366726e+001	-1.245631e+002	-1.368333e+001	-1.243874e+002	-2.020304e+001	1.365425e+002
5416637.782	-2.187640e+001	1.791808e+002	-1.369019e+001	-1.304004e+002	-1.370771e+001	-1.302087e+002	-2.073614e+001	1.344811e+002
5441074.523	-2.118237e+001	1.790230e+002	-1.371814e+001	-1.362527e+002	-1.373382e+001	-1.359825e+002	-2.125892e+001	1.325480e+002
