!Agilent Technologies,E5061B,MY49101568,A.02.00
!Date: Wed Mar 01 13:50:33 2023
!Data & Calibration Information:
!Freq	S11:SOLT2(OFF)	S21:SOLT2(OFF)	S12:SOLT2(OFF)	S22:SOLT2(OFF)
# Hz S dB R 50
1800000.000	-1.543382e+001	-6.679313e-003	-1.269075e+001	1.768684e+002	-1.267057e+001	1.770735e+002	-1.715118e+001	4.520429e+001
1824436.742	-1.550889e+001	-4.258760e-001	-1.261460e+001	1.708363e+002	-1.259502e+001	1.710552e+002	-1.704597e+001	4.555606e+001
1848873.484	-1.552257e+001	-1.040174e+000	-1.255495e+001	1.648941e+002	-1.254019e+001	1.651003e+002	-1.688226e+001	4.538626e+001
1873310.225	-1.547763e+001	-1.945464e+000	-1.251487e+001	1.590582e+002	-1.249359e+001	1.592756e+002	-1.668415e+001	4.463144e+001
1897746.967	-1.539113e+001	-3.171837e+000	-1.248154e+001	1.533705e+002	-1.246904e+001	1.535725e+002	-1.646697e+001	4.322039e+001
1922183.709	-1.528100e+001	-4.825499e+000	-1.245921e+001	1.477688e+002	-1.244349e+001	1.479009e+002	-1.624785e+001	4.136876e+001
1946620.451	-1.516498e+001	-6.839803e+000	-1.243865e+001	1.422985e+002	-1.243186e+001	1.424684e+002	-1.606005e+001	3.885975e+001
1971057.192	-1.505485e+001	-9.343330e+000	-1.243077e+001	1.370262e+002	-1.240893e+001	1.371913e+002	-1.591944e+001	3.605351e+001
1995493.934	-1.498436e+001	-1.194771e+001	-1.239342e+001	1.318838e+002	-1.237058e+001	1.320002e+002	-1.581140e+001	3.310328e+001
2019930.676	-1.491266e+001	-1.455019e+001	-1.233713e+001	1.267240e+002	-1.232404e+001	1.268386e+002	-1.571296e+001	2.995962e+001
2044367.418	-1.480932e+001	-1.735035e+001	-1.228145e+001	1.214565e+002	-1.227000e+001	1.216261e+002	-1.562503e+001	2.659467e+001
2068804.159	-1.470883e+001	-2.048764e+001	-1.224131e+001	1.162790e+002	-1.223862e+001	1.163897e+002	-1.551997e+001	2.288207e+001
2093240.901	-1.462704e+001	-2.393746e+001	-1.220347e+001	1.112520e+002	-1.219719e+001	1.113621e+002	-1.547523e+001	1.891007e+001
2117677.643	-1.457252e+001	-2.760689e+001	-1.215691e+001	1.062586e+002	-1.215742e+001	1.063788e+002	-1.544437e+001	1.470736e+001
2142114.385	-1.454752e+001	-3.137796e+001	-1.209525e+001	1.013298e+002	-1.210761e+001	1.014509e+002	-1.543713e+001	1.027647e+001
2166551.127	-1.452376e+001	-3.539121e+001	-1.203519e+001	9.635198e+001	-1.204321e+001	9.649715e+001	-1.544824e+001	5.729917e+000
2190987.868	-1.452188e+001	-3.965873e+001	-1.197721e+001	9.143140e+001	-1.198713e+001	9.159838e+001	-1.547919e+001	8.241552e-001
2215424.610	-1.457054e+001	-4.419108e+001	-1.191385e+001	8.656947e+001	-1.192835e+001	8.683088e+001	-1.554922e+001	-4.401826e+000
2239861.352	-1.467179e+001	-4.884638e+001	-1.184029e+001	8.183253e+001	-1.184705e+001	8.214232e+001	-1.566683e+001	-9.799275e+000
2264298.094	-1.481590e+001	-5.358819e+001	-1.174873e+001	7.710700e+001	-1.175392e+001	7.744621e+001	-1.581695e+001	-1.543964e+001
2288734.835	-1.501891e+001	-5.832549e+001	-1.163194e+001	7.241591e+001	-1.163230e+001	7.276801e+001	-1.601154e+001	-2.115322e+001
2313171.577	-1.527495e+001	-6.290899e+001	-1.148626e+001	6.770128e+001	-1.149188e+001	6.795770e+001	-1.623004e+001	-2.694793e+001
2337608.319	-1.551446e+001	-6.752837e+001	-1.133381e+001	6.273393e+001	-1.133895e+001	6.297424e+001	-1.645731e+001	-3.284920e+001
2362045.061	-1.579761e+001	-7.223337e+001	-1.117674e+001	5.769109e+001	-1.119407e+001	5.795636e+001	-1.670930e+001	-3.913570e+001
2386481.802	-1.612924e+001	-7.706013e+001	-1.101805e+001	5.257490e+001	-1.103479e+001	5.285199e+001	-1.699563e+001	-4.567723e+001
2410918.544	-1.649773e+001	-8.197594e+001	-1.085994e+001	4.729624e+001	-1.087442e+001	4.757415e+001	-1.729433e+001	-5.242382e+001
2435355.286	-1.690973e+001	-8.701517e+001	-1.070565e+001	4.187442e+001	-1.072076e+001	4.216913e+001	-1.760741e+001	-5.952666e+001
2459792.028	-1.737585e+001	-9.223449e+001	-1.055834e+001	3.634123e+001	-1.057081e+001	3.665807e+001	-1.795010e+001	-6.698415e+001
2484228.769	-1.791679e+001	-9.771601e+001	-1.042687e+001	3.068933e+001	-1.042465e+001	3.106216e+001	-1.832889e+001	-7.482734e+001
2508665.511	-1.855159e+001	-1.033011e+002	-1.030435e+001	2.499088e+001	-1.030812e+001	2.528431e+001	-1.868497e+001	-8.311450e+001
2533102.253	-1.928952e+001	-1.091874e+002	-1.020134e+001	1.921354e+001	-1.020325e+001	1.955741e+001	-1.908509e+001	-9.204561e+001
2557538.995	-2.017077e+001	-1.153917e+002	-1.011811e+001	1.337036e+001	-1.012058e+001	1.372534e+001	-1.946822e+001	-1.013939e+002
2581975.737	-2.123467e+001	-1.218527e+002	-1.005025e+001	7.503975e+000	-1.004795e+001	7.848956e+000	-1.986523e+001	-1.112981e+002
2606412.478	-2.254328e+001	-1.286547e+002	-1.000239e+001	1.633086e+000	-9.998988e+000	1.970138e+000	-2.024336e+001	-1.218119e+002
2630849.220	-2.415839e+001	-1.359710e+002	-9.975630e+000	-4.245220e+000	-9.969122e+000	-3.912363e+000	-2.058745e+001	-1.327589e+002
2655285.962	-2.625327e+001	-1.438694e+002	-9.964538e+000	-1.008381e+001	-9.951998e+000	-9.757375e+000	-2.090145e+001	-1.442233e+002
2679722.704	-2.903490e+001	-1.526936e+002	-9.961461e+000	-1.588911e+001	-9.950386e+000	-1.557740e+001	-2.118724e+001	-1.560555e+002
2704159.445	-3.302284e+001	-1.647684e+002	-9.974677e+000	-2.171853e+001	-9.961900e+000	-2.141908e+001	-2.141553e+001	-1.679351e+002
2728596.187	-3.956552e+001	1.674656e+002	-1.000752e+001	-2.752947e+001	-9.993492e+000	-2.726004e+001	-2.157061e+001	-1.795923e+002
2753032.929	-4.148190e+001	7.555430e+001	-1.006101e+001	-3.327479e+001	-1.004649e+001	-3.301678e+001	-2.163879e+001	1.689318e+002
2777469.671	-3.440096e+001	3.669445e+001	-1.013098e+001	-3.891789e+001	-1.011454e+001	-3.869871e+001	-2.163566e+001	1.577656e+002
2801906.412	-3.017473e+001	2.315914e+001	-1.021459e+001	-4.447792e+001	-1.020084e+001	-4.427418e+001	-2.155524e+001	1.470783e+002
2826343.154	-2.737539e+001	1.398965e+001	-1.030390e+001	-4.991347e+001	-1.029235e+001	-4.971758e+001	-2.143776e+001	1.367156e+002
2850779.896	-2.533574e+001	6.682958e+000	-1.040492e+001	-5.524996e+001	-1.038990e+001	-5.505848e+001	-2.130702e+001	1.268528e+002
2875216.638	-2.376435e+001	9.109493e-002	-1.050626e+001	-6.050853e+001	-1.049261e+001	-6.031683e+001	-2.118081e+001	1.176287e+002
2899653.380	-2.250570e+001	-5.944038e+000	-1.061042e+001	-6.566014e+001	-1.059534e+001	-6.547572e+001	-2.106220e+001	1.088970e+002
2924090.121	-2.149199e+001	-1.161462e+001	-1.071378e+001	-7.073845e+001	-1.070633e+001	-7.058244e+001	-2.095704e+001	1.008206e+002
2948526.863	-2.064141e+001	-1.689664e+001	-1.082276e+001	-7.574678e+001	-1.081655e+001	-7.558048e+001	-2.086143e+001	9.320917e+001
2972963.605	-1.990944e+001	-2.190307e+001	-1.093562e+001	-8.063658e+001	-1.093402e+001	-8.050198e+001	-2.077906e+001	8.618230e+001
2997400.347	-1.927183e+001	-2.674209e+001	-1.104956e+001	-8.541909e+001	-1.105060e+001	-8.528370e+001	-2.068661e+001	7.948665e+001
3021837.088	-1.871125e+001	-3.145664e+001	-1.115669e+001	-9.007334e+001	-1.116094e+001	-8.993373e+001	-2.059382e+001	7.302095e+001
3046273.830	-1.822287e+001	-3.615894e+001	-1.125006e+001	-9.462531e+001	-1.125636e+001	-9.449082e+001	-2.053650e+001	6.658367e+001
3070710.572	-1.780128e+001	-4.082000e+001	-1.132901e+001	-9.911729e+001	-1.134088e+001	-9.896762e+001	-2.050272e+001	6.033891e+001
3095147.314	-1.745006e+001	-4.534649e+001	-1.139831e+001	-1.035929e+002	-1.140978e+001	-1.034582e+002	-2.053650e+001	5.429167e+001
3119584.055	-1.714893e+001	-4.982356e+001	-1.145245e+001	-1.080540e+002	-1.146838e+001	-1.079211e+002	-2.060943e+001	4.838850e+001
3144020.797	-1.690134e+001	-5.418196e+001	-1.149910e+001	-1.124976e+002	-1.151671e+001	-1.123897e+002	-2.073345e+001	4.271204e+001
3168457.539	-1.670919e+001	-5.840816e+001	-1.153607e+001	-1.170024e+002	-1.155554e+001	-1.168920e+002	-2.092244e+001	3.726094e+001
3192894.281	-1.655719e+001	-6.249831e+001	-1.156986e+001	-1.215333e+002	-1.159277e+001	-1.214037e+002	-2.116986e+001	3.211855e+001
3217331.023	-1.644821e+001	-6.644719e+001	-1.160263e+001	-1.261046e+002	-1.162669e+001	-1.259639e+002	-2.146155e+001	2.731121e+001
3241767.764	-1.637101e+001	-7.021093e+001	-1.163400e+001	-1.306938e+002	-1.165995e+001	-1.305324e+002	-2.180604e+001	2.292241e+001
3266204.506	-1.631785e+001	-7.377099e+001	-1.167100e+001	-1.352678e+002	-1.169749e+001	-1.351004e+002	-2.217778e+001	1.889285e+001
3290641.248	-1.628781e+001	-7.725622e+001	-1.170178e+001	-1.397987e+002	-1.172932e+001	-1.396250e+002	-2.256795e+001	1.509755e+001
3315077.990	-1.628143e+001	-8.081811e+001	-1.171025e+001	-1.443485e+002	-1.173892e+001	-1.441518e+002	-2.304331e+001	1.116871e+001
3339514.731	-1.632931e+001	-8.413337e+001	-1.171463e+001	-1.490037e+002	-1.174778e+001	-1.488073e+002	-2.364412e+001	7.680282e+000
3363951.473	-1.642039e+001	-8.723884e+001	-1.172406e+001	-1.537784e+002	-1.175664e+001	-1.535705e+002	-2.438419e+001	5.042614e+000
3388388.215	-1.654807e+001	-9.001455e+001	-1.174616e+001	-1.586408e+002	-1.177740e+001	-1.584226e+002	-2.522832e+001	3.605354e+000
3412824.957	-1.670016e+001	-9.243888e+001	-1.177647e+001	-1.635658e+002	-1.180793e+001	-1.633370e+002	-2.616323e+001	3.760363e+000
3437261.698	-1.686748e+001	-9.448010e+001	-1.182147e+001	-1.685236e+002	-1.185278e+001	-1.682926e+002	-2.711721e+001	5.969006e+000
3461698.440	-1.703968e+001	-9.607607e+001	-1.188276e+001	-1.735080e+002	-1.191460e+001	-1.732800e+002	-2.795354e+001	1.081654e+001
3486135.182	-1.719997e+001	-9.721160e+001	-1.196373e+001	-1.785122e+002	-1.199389e+001	-1.782585e+002	-2.848117e+001	1.815261e+001
3510571.924	-1.732568e+001	-9.791622e+001	-1.206482e+001	1.765336e+002	-1.209665e+001	1.767767e+002	-2.842753e+001	2.680389e+001
3535008.666	-1.739920e+001	-9.826188e+001	-1.218515e+001	1.716627e+002	-1.221890e+001	1.719182e+002	-2.780988e+001	3.443450e+001
3559445.407	-1.740125e+001	-9.843389e+001	-1.232173e+001	1.669426e+002	-1.235456e+001	1.671857e+002	-2.686070e+001	3.956208e+001
3583882.149	-1.735294e+001	-9.857577e+001	-1.246012e+001	1.623433e+002	-1.249320e+001	1.626099e+002	-2.584248e+001	4.198399e+001
3608318.891	-1.725657e+001	-9.880408e+001	-1.258876e+001	1.578954e+002	-1.262626e+001	1.581319e+002	-2.488373e+001	4.280432e+001
3632755.633	-1.713248e+001	-9.902852e+001	-1.271404e+001	1.534094e+002	-1.274750e+001	1.536873e+002	-2.400555e+001	4.277127e+001
3657192.374	-1.698463e+001	-9.908047e+001	-1.283428e+001	1.488506e+002	-1.286949e+001	1.491372e+002	-2.314420e+001	4.236186e+001
3681629.116	-1.676438e+001	-9.905953e+001	-1.297637e+001	1.442523e+002	-1.302020e+001	1.445367e+002	-2.223536e+001	4.113938e+001
3706065.858	-1.645704e+001	-9.912846e+001	-1.315510e+001	1.396964e+002	-1.320000e+001	1.400543e+002	-2.136106e+001	3.885344e+001
3730502.600	-1.606447e+001	-9.964906e+001	-1.337528e+001	1.353510e+002	-1.342211e+001	1.356769e+002	-2.050593e+001	3.571100e+001
3754939.341	-1.562612e+001	-1.007223e+002	-1.362340e+001	1.312690e+002	-1.367017e+001	1.315918e+002	-1.974526e+001	3.173167e+001
3779376.083	-1.516214e+001	-1.025670e+002	-1.389565e+001	1.276989e+002	-1.394140e+001	1.280007e+002	-1.910100e+001	2.688282e+001
3803812.825	-1.472787e+001	-1.051640e+002	-1.415457e+001	1.247206e+002	-1.421039e+001	1.250665e+002	-1.860178e+001	2.134069e+001
3828249.567	-1.437960e+001	-1.085541e+002	-1.433754e+001	1.224919e+002	-1.439682e+001	1.228675e+002	-1.832241e+001	1.550266e+001
3852686.308	-1.418277e+001	-1.122859e+002	-1.436986e+001	1.205893e+002	-1.443329e+001	1.209750e+002	-1.827294e+001	1.004304e+001
3877123.050	-1.414648e+001	-1.157998e+002	-1.423802e+001	1.183639e+002	-1.429540e+001	1.187300e+002	-1.843656e+001	5.783059e+000
3901559.792	-1.421478e+001	-1.183402e+002	-1.402037e+001	1.150839e+002	-1.408993e+001	1.154922e+002	-1.862464e+001	3.332730e+000
3925996.534	-1.427424e+001	-1.197243e+002	-1.382717e+001	1.107299e+002	-1.389182e+001	1.112323e+002	-1.870494e+001	2.594403e+000
3950433.276	-1.421500e+001	-1.203803e+002	-1.374079e+001	1.057764e+002	-1.380778e+001	1.063489e+002	-1.850576e+001	2.355080e+000
3974870.017	-1.400085e+001	-1.210199e+002	-1.377802e+001	1.007271e+002	-1.384393e+001	1.013931e+002	-1.808711e+001	1.410483e+000
3999306.759	-1.367492e+001	-1.223201e+002	-1.392336e+001	9.610399e+001	-1.397563e+001	9.669644e+001	-1.758072e+001	-6.394523e-001
4023743.501	-1.332445e+001	-1.243416e+002	-1.411436e+001	9.201050e+001	-1.416527e+001	9.264229e+001	-1.711068e+001	-3.969280e+000
4048180.243	-1.300866e+001	-1.271176e+002	-1.431030e+001	8.866359e+001	-1.435950e+001	8.926273e+001	-1.673542e+001	-8.050036e+000
4072616.984	-1.277363e+001	-1.303190e+002	-1.444816e+001	8.590664e+001	-1.450281e+001	8.648411e+001	-1.648737e+001	-1.248765e+001
4097053.726	-1.262739e+001	-1.336732e+002	-1.450170e+001	8.349563e+001	-1.455441e+001	8.409582e+001	-1.637081e+001	-1.690076e+001
4121490.468	-1.256576e+001	-1.368645e+002	-1.444865e+001	8.104810e+001	-1.450392e+001	8.169013e+001	-1.635587e+001	-2.093031e+001
4145927.210	-1.255641e+001	-1.397288e+002	-1.432641e+001	7.831444e+001	-1.437776e+001	7.899412e+001	-1.639913e+001	-2.442838e+001
4170363.951	-1.257704e+001	-1.422135e+002	-1.415691e+001	7.524582e+001	-1.421328e+001	7.588517e+001	-1.645858e+001	-2.734754e+001
4194800.693	-1.259111e+001	-1.443323e+002	-1.398276e+001	7.171314e+001	-1.403463e+001	7.238400e+001	-1.650550e+001	-2.981156e+001
4219237.435	-1.258696e+001	-1.462122e+002	-1.381702e+001	6.790305e+001	-1.386572e+001	6.860905e+001	-1.651850e+001	-3.200406e+001
4243674.177	-1.255885e+001	-1.479634e+002	-1.366635e+001	6.393403e+001	-1.371129e+001	6.464937e+001	-1.650046e+001	-3.402442e+001
4268110.919	-1.250996e+001	-1.496260e+002	-1.352690e+001	5.981891e+001	-1.356888e+001	6.053781e+001	-1.644907e+001	-3.592881e+001
4292547.660	-1.243797e+001	-1.512191e+002	-1.339829e+001	5.556316e+001	-1.343777e+001	5.631133e+001	-1.637521e+001	-3.781341e+001
4316984.402	-1.233714e+001	-1.528321e+002	-1.328698e+001	5.123111e+001	-1.332497e+001	5.198488e+001	-1.626686e+001	-3.968902e+001
4341421.144	-1.221450e+001	-1.545167e+002	-1.319333e+001	4.683291e+001	-1.322917e+001	4.760827e+001	-1.613310e+001	-4.166351e+001
4365857.886	-1.207798e+001	-1.563290e+002	-1.311375e+001	4.243239e+001	-1.314813e+001	4.321926e+001	-1.598051e+001	-4.375056e+001
4390294.627	-1.193045e+001	-1.582846e+002	-1.304861e+001	3.804031e+001	-1.307888e+001	3.883909e+001	-1.582055e+001	-4.599778e+001
4414731.369	-1.178531e+001	-1.603898e+002	-1.298960e+001	3.368400e+001	-1.301920e+001	3.451412e+001	-1.566039e+001	-4.840427e+001
4439168.111	-1.164146e+001	-1.626185e+002	-1.293604e+001	2.932413e+001	-1.296272e+001	3.019284e+001	-1.550369e+001	-5.093742e+001
4463604.853	-1.150785e+001	-1.649386e+002	-1.288278e+001	2.501117e+001	-1.290846e+001	2.590407e+001	-1.535793e+001	-5.357583e+001
4488041.594	-1.138149e+001	-1.673751e+002	-1.283338e+001	2.070591e+001	-1.285578e+001	2.161556e+001	-1.521675e+001	-5.627189e+001
4512478.336	-1.126551e+001	-1.698955e+002	-1.278523e+001	1.641397e+001	-1.280245e+001	1.733506e+001	-1.508524e+001	-5.902922e+001
4536915.078	-1.115962e+001	-1.724877e+002	-1.273634e+001	1.211522e+001	-1.275047e+001	1.304135e+001	-1.496297e+001	-6.186546e+001
4561351.820	-1.106746e+001	-1.751760e+002	-1.268974e+001	7.827720e+000	-1.270204e+001	8.781832e+000	-1.485020e+001	-6.478161e+001
4585788.562	-1.099303e+001	-1.779350e+002	-1.264484e+001	3.566383e+000	-1.265178e+001	4.527783e+000	-1.475253e+001	-6.776889e+001
4610225.303	-1.093671e+001	1.792584e+002	-1.259940e+001	-6.704453e-001	-1.259933e+001	2.981038e-001	-1.466943e+001	-7.081108e+001
4634662.045	-1.089996e+001	1.764166e+002	-1.254557e+001	-4.906898e+000	-1.254090e+001	-3.926601e+000	-1.460625e+001	-7.387667e+001
4659098.787	-1.088005e+001	1.735638e+002	-1.248903e+001	-9.155512e+000	-1.248030e+001	-8.163328e+000	-1.455831e+001	-7.695697e+001
4683535.529	-1.088055e+001	1.706978e+002	-1.242818e+001	-1.338994e+001	-1.241454e+001	-1.242941e+001	-1.452349e+001	-8.003653e+001
4707972.270	-1.089656e+001	1.678444e+002	-1.236299e+001	-1.764135e+001	-1.234394e+001	-1.671828e+001	-1.450648e+001	-8.307995e+001
4732409.012	-1.092750e+001	1.649958e+002	-1.229310e+001	-2.196186e+001	-1.227027e+001	-2.103506e+001	-1.450247e+001	-8.613029e+001
4756845.754	-1.097613e+001	1.621592e+002	-1.222061e+001	-2.631161e+001	-1.219355e+001	-2.540563e+001	-1.451152e+001	-8.915000e+001
4781282.496	-1.103952e+001	1.593238e+002	-1.214893e+001	-3.072116e+001	-1.211670e+001	-2.982249e+001	-1.452955e+001	-9.214231e+001
4805719.237	-1.111928e+001	1.565040e+002	-1.207776e+001	-3.517749e+001	-1.204107e+001	-3.429110e+001	-1.455761e+001	-9.511786e+001
4830155.979	-1.121393e+001	1.536884e+002	-1.200787e+001	-3.967268e+001	-1.196703e+001	-3.880631e+001	-1.459546e+001	-9.805906e+001
4854592.721	-1.132738e+001	1.508793e+002	-1.194268e+001	-4.421281e+001	-1.189781e+001	-4.336693e+001	-1.463785e+001	-1.009864e+002
4879029.463	-1.146090e+001	1.480889e+002	-1.187936e+001	-4.878987e+001	-1.183204e+001	-4.796373e+001	-1.469083e+001	-1.039080e+002
4903466.205	-1.161445e+001	1.453196e+002	-1.182328e+001	-5.339299e+001	-1.177132e+001	-5.259143e+001	-1.475325e+001	-1.068172e+002
4927902.946	-1.179047e+001	1.425933e+002	-1.176944e+001	-5.801448e+001	-1.171575e+001	-5.724104e+001	-1.482506e+001	-1.097181e+002
4952339.688	-1.198852e+001	1.399009e+002	-1.172179e+001	-6.269717e+001	-1.166392e+001	-6.191393e+001	-1.490639e+001	-1.126322e+002
4976776.430	-1.221219e+001	1.372901e+002	-1.167802e+001	-6.736070e+001	-1.161848e+001	-6.660369e+001	-1.499743e+001	-1.155034e+002
5001213.172	-1.245943e+001	1.347584e+002	-1.163825e+001	-7.203551e+001	-1.157734e+001	-7.130828e+001	-1.510071e+001	-1.183574e+002
5025649.913	-1.273186e+001	1.323251e+002	-1.160309e+001	-7.672089e+001	-1.154157e+001	-7.602408e+001	-1.521405e+001	-1.211856e+002
5050086.655	-1.302848e+001	1.300293e+002	-1.157072e+001	-8.142059e+001	-1.150870e+001	-8.075010e+001	-1.533686e+001	-1.239871e+002
5074523.397	-1.334880e+001	1.278664e+002	-1.154245e+001	-8.612920e+001	-1.148151e+001	-8.549438e+001	-1.547016e+001	-1.267361e+002
5098960.139	-1.369108e+001	1.258591e+002	-1.151954e+001	-9.086817e+001	-1.145675e+001	-9.025355e+001	-1.560989e+001	-1.294345e+002
5123396.880	-1.405286e+001	1.240246e+002	-1.150102e+001	-9.560565e+001	-1.143862e+001	-9.502181e+001	-1.575246e+001	-1.321003e+002
5147833.622	-1.443744e+001	1.223624e+002	-1.149063e+001	-1.003652e+002	-1.142839e+001	-9.980608e+001	-1.589942e+001	-1.347685e+002
5172270.364	-1.484615e+001	1.209184e+002	-1.148505e+001	-1.051081e+002	-1.142637e+001	-1.045710e+002	-1.605517e+001	-1.374274e+002
5196707.106	-1.527781e+001	1.197347e+002	-1.148590e+001	-1.098344e+002	-1.142837e+001	-1.093226e+002	-1.621949e+001	-1.400941e+002
5221143.847	-1.572755e+001	1.188824e+002	-1.149142e+001	-1.144964e+002	-1.143541e+001	-1.140464e+002	-1.639824e+001	-1.427175e+002
5245580.589	-1.619011e+001	1.183982e+002	-1.149881e+001	-1.191753e+002	-1.144540e+001	-1.187408e+002	-1.658974e+001	-1.453332e+002
5270017.331	-1.665096e+001	1.182928e+002	-1.150589e+001	-1.238370e+002	-1.145505e+001	-1.234152e+002	-1.679255e+001	-1.478754e+002
5294454.073	-1.710085e+001	1.186025e+002	-1.151231e+001	-1.284783e+002	-1.146399e+001	-1.280780e+002	-1.700608e+001	-1.503505e+002
5318890.815	-1.752836e+001	1.193089e+002	-1.152008e+001	-1.331328e+002	-1.147280e+001	-1.327422e+002	-1.722151e+001	-1.527304e+002
5343327.556	-1.791931e+001	1.203558e+002	-1.152581e+001	-1.377966e+002	-1.148172e+001	-1.374085e+002	-1.743839e+001	-1.550259e+002
5367764.298	-1.826825e+001	1.217091e+002	-1.153362e+001	-1.424673e+002	-1.149232e+001	-1.420902e+002	-1.765043e+001	-1.572513e+002
5392201.040	-1.857018e+001	1.232986e+002	-1.154303e+001	-1.471582e+002	-1.150423e+001	-1.467860e+002	-1.785531e+001	-1.594631e+002
5416637.782	-1.881571e+001	1.250615e+002	-1.155525e+001	-1.518626e+002	-1.151849e+001	-1.514917e+002	-1.805348e+001	-1.616397e+002
5441074.523	-1.901120e+001	1.269464e+002	-1.157233e+001	-1.565766e+002	-1.153666e+001	-1.562065e+002	-1.824254e+001	-1.638559e+002
