!Agilent Technologies,E5061B,MY49101568,A.02.00
!Date: Wed Mar 01 13:59:52 2023
!Data & Calibration Information:
!Freq	S11:SOLT2(OFF)	S21:SOLT2(OFF)	S12:SOLT2(OFF)	S22:SOLT2(OFF)
# Hz S dB R 50
1800000.000	-1.295644e+001	-4.680808e+001	-1.226101e+001	-1.413815e+002	-1.227033e+001	-1.412340e+002	-1.391634e+001	-1.802011e+001
1824436.742	-1.379674e+001	-5.334831e+001	-1.174614e+001	-1.485805e+002	-1.175741e+001	-1.484045e+002	-1.483961e+001	-2.474218e+001
1848873.484	-1.482360e+001	-5.970350e+001	-1.128356e+001	-1.561404e+002	-1.129782e+001	-1.559369e+002	-1.596570e+001	-3.137821e+001
1873310.225	-1.607605e+001	-6.562945e+001	-1.088146e+001	-1.639280e+002	-1.089211e+001	-1.636792e+002	-1.732958e+001	-3.769836e+001
1897746.967	-1.758278e+001	-7.086467e+001	-1.053686e+001	-1.717727e+002	-1.054630e+001	-1.715390e+002	-1.896744e+001	-4.348927e+001
1922183.709	-1.944536e+001	-7.502211e+001	-1.023844e+001	-1.797267e+002	-1.024657e+001	-1.794532e+002	-2.098514e+001	-4.853874e+001
1946620.451	-2.177945e+001	-7.674204e+001	-9.992720e+000	1.722479e+002	-9.997660e+000	1.725379e+002	-2.359241e+001	-5.167588e+001
1971057.192	-2.467818e+001	-7.319741e+001	-9.804605e+000	1.642132e+002	-9.803668e+000	1.645165e+002	-2.704992e+001	-5.012794e+001
1995493.934	-2.780350e+001	-5.790528e+001	-9.672633e+000	1.562070e+002	-9.671032e+000	1.565907e+002	-3.147348e+001	-3.458445e+001
2019930.676	-2.884819e+001	-2.822851e+001	-9.595556e+000	1.483585e+002	-9.588894e+000	1.487360e+002	-3.314191e+001	8.763611e+000
2044367.418	-2.662815e+001	-6.194609e+000	-9.566753e+000	1.406512e+002	-9.557257e+000	1.410083e+002	-2.962239e+001	3.560286e+001
2068804.159	-2.408257e+001	7.970356e-001	-9.585535e+000	1.332426e+002	-9.577648e+000	1.336003e+002	-2.640580e+001	4.055455e+001
2093240.901	-2.212843e+001	5.908709e-001	-9.641146e+000	1.262208e+002	-9.625025e+000	1.265080e+002	-2.423292e+001	3.856144e+001
2117677.643	-2.073406e+001	-2.284835e+000	-9.702800e+000	1.195300e+002	-9.685681e+000	1.197905e+002	-2.276321e+001	3.406793e+001
2142114.385	-1.971425e+001	-6.194825e+000	-9.755555e+000	1.131271e+002	-9.739119e+000	1.133844e+002	-2.173034e+001	2.872871e+001
2166551.127	-1.890615e+001	-1.043215e+001	-9.790804e+000	1.068782e+002	-9.775738e+000	1.071196e+002	-2.097069e+001	2.325950e+001
2190987.868	-1.824473e+001	-1.525615e+001	-9.827480e+000	1.007343e+002	-9.814032e+000	1.009555e+002	-2.036873e+001	1.738096e+001
2215424.610	-1.774650e+001	-2.056366e+001	-9.869163e+000	9.471450e+001	-9.858980e+000	9.496185e+001	-1.991275e+001	1.100862e+001
2239861.352	-1.740823e+001	-2.601735e+001	-9.903949e+000	8.893227e+001	-9.892665e+000	8.917578e+001	-1.961901e+001	4.336593e+000
2264298.094	-1.719698e+001	-3.140572e+001	-9.914506e+000	8.332151e+001	-9.908202e+000	8.355396e+001	-1.946432e+001	-2.407570e+000
2288734.835	-1.705588e+001	-3.654612e+001	-9.900299e+000	7.772545e+001	-9.893745e+000	7.796652e+001	-1.940143e+001	-9.052003e+000
2313171.577	-1.696651e+001	-4.178136e+001	-9.873938e+000	7.212228e+001	-9.867285e+000	7.235661e+001	-1.938484e+001	-1.575349e+001
2337608.319	-1.693700e+001	-4.715975e+001	-9.840597e+000	6.650021e+001	-9.837293e+000	6.674265e+001	-1.941741e+001	-2.272214e+001
2362045.061	-1.698013e+001	-5.264440e+001	-9.804191e+000	6.092666e+001	-9.803783e+000	6.112363e+001	-1.949900e+001	-3.001075e+001
2386481.802	-1.711330e+001	-5.825833e+001	-9.762705e+000	5.533418e+001	-9.765278e+000	5.555671e+001	-1.964884e+001	-3.771533e+001
2410918.544	-1.734473e+001	-6.381383e+001	-9.708322e+000	4.979713e+001	-9.710988e+000	5.002492e+001	-1.988270e+001	-4.578324e+001
2435355.286	-1.763331e+001	-6.912780e+001	-9.639433e+000	4.418805e+001	-9.640354e+000	4.441368e+001	-2.017901e+001	-5.397196e+001
2459792.028	-1.798706e+001	-7.449569e+001	-9.568891e+000	3.847035e+001	-9.570118e+000	3.869673e+001	-2.050380e+001	-6.250194e+001
2484228.769	-1.843212e+001	-7.989377e+001	-9.500378e+000	3.267826e+001	-9.503188e+000	3.293381e+001	-2.086534e+001	-7.156850e+001
2508665.511	-1.897659e+001	-8.528134e+001	-9.436580e+000	2.685646e+001	-9.438798e+000	2.711628e+001	-2.127495e+001	-8.113845e+001
2533102.253	-1.964658e+001	-9.047993e+001	-9.376760e+000	2.101569e+001	-9.381604e+000	2.122618e+001	-2.172211e+001	-9.124301e+001
2557538.995	-2.044168e+001	-9.552979e+001	-9.325158e+000	1.507836e+001	-9.327062e+000	1.530402e+001	-2.218985e+001	-1.020597e+002
2581975.737	-2.138869e+001	-1.003169e+002	-9.281332e+000	9.100752e+000	-9.281473e+000	9.331727e+000	-2.266469e+001	-1.134574e+002
2606412.478	-2.253670e+001	-1.045970e+002	-9.251347e+000	3.099960e+000	-9.249311e+000	3.313939e+000	-2.313415e+001	-1.256143e+002
2630849.220	-2.391539e+001	-1.081424e+002	-9.234150e+000	-2.923388e+000	-9.229768e+000	-2.719738e+000	-2.355682e+001	-1.383883e+002
2655285.962	-2.559496e+001	-1.103789e+002	-9.231609e+000	-8.961208e+000	-9.226765e+000	-8.753183e+000	-2.392728e+001	-1.517151e+002
2679722.704	-2.766614e+001	-1.102669e+002	-9.243395e+000	-1.496780e+001	-9.236596e+000	-1.478523e+001	-2.419616e+001	-1.654351e+002
2704159.445	-3.020211e+001	-1.055902e+002	-9.268257e+000	-2.094458e+001	-9.260809e+000	-2.076833e+001	-2.436037e+001	-1.793321e+002
2728596.187	-3.292164e+001	-9.125799e+001	-9.303304e+000	-2.686434e+001	-9.295732e+000	-2.671106e+001	-2.441284e+001	1.668296e+002
2753032.929	-3.415718e+001	-6.442091e+001	-9.348313e+000	-3.272965e+001	-9.340775e+000	-3.259208e+001	-2.437459e+001	1.531996e+002
2777469.671	-3.258506e+001	-3.990504e+001	-9.399941e+000	-3.855537e+001	-9.393867e+000	-3.842333e+001	-2.428109e+001	1.402572e+002
2801906.412	-3.006925e+001	-2.801280e+001	-9.461263e+000	-4.429609e+001	-9.453894e+000	-4.419590e+001	-2.415708e+001	1.279063e+002
2826343.154	-2.786577e+001	-2.404080e+001	-9.526085e+000	-4.999410e+001	-9.521447e+000	-4.990281e+001	-2.400720e+001	1.162526e+002
2850779.896	-2.607643e+001	-2.390890e+001	-9.597407e+000	-5.560405e+001	-9.592541e+000	-5.553059e+001	-2.386484e+001	1.052728e+002
2875216.638	-2.463865e+001	-2.574497e+001	-9.670698e+000	-6.117217e+001	-9.667370e+000	-6.107523e+001	-2.374885e+001	9.490838e+001
2899653.380	-2.347917e+001	-2.859409e+001	-9.745573e+000	-6.665212e+001	-9.742709e+000	-6.657599e+001	-2.367635e+001	8.515187e+001
2924090.121	-2.252648e+001	-3.197694e+001	-9.818759e+000	-7.207768e+001	-9.818199e+000	-7.198953e+001	-2.363406e+001	7.582723e+001
2948526.863	-2.173241e+001	-3.571866e+001	-9.890590e+000	-7.741606e+001	-9.893268e+000	-7.734425e+001	-2.365223e+001	6.693773e+001
2972963.605	-2.107446e+001	-3.971869e+001	-9.956260e+000	-8.270517e+001	-9.959833e+000	-8.263511e+001	-2.371205e+001	5.818107e+001
2997400.347	-2.053991e+001	-4.386824e+001	-1.001584e+001	-8.797476e+001	-1.002156e+001	-8.789954e+001	-2.385863e+001	4.963984e+001
3021837.088	-2.010285e+001	-4.806898e+001	-1.007058e+001	-9.321054e+001	-1.007781e+001	-9.312713e+001	-2.406592e+001	4.128681e+001
3046273.830	-1.975200e+001	-5.226026e+001	-1.011869e+001	-9.840582e+001	-1.012728e+001	-9.832145e+001	-2.434005e+001	3.299065e+001
3070710.572	-1.947829e+001	-5.650436e+001	-1.015825e+001	-1.035964e+002	-1.016720e+001	-1.035016e+002	-2.469722e+001	2.451061e+001
3095147.314	-1.928001e+001	-6.074227e+001	-1.018687e+001	-1.087830e+002	-1.019664e+001	-1.086982e+002	-2.514849e+001	1.571006e+001
3119584.055	-1.916624e+001	-6.497627e+001	-1.020489e+001	-1.140274e+002	-1.021540e+001	-1.139260e+002	-2.572797e+001	6.300617e+000
3144020.797	-1.914023e+001	-6.918024e+001	-1.021675e+001	-1.193114e+002	-1.022557e+001	-1.192120e+002	-2.644712e+001	-3.764761e+000
3168457.539	-1.920115e+001	-7.316733e+001	-1.022754e+001	-1.247130e+002	-1.023609e+001	-1.245967e+002	-2.738628e+001	-1.495580e+001
3192894.281	-1.934712e+001	-7.691368e+001	-1.023771e+001	-1.301946e+002	-1.024577e+001	-1.300720e+002	-2.855906e+001	-2.789696e+001
3217331.023	-1.957912e+001	-8.030056e+001	-1.025511e+001	-1.357704e+002	-1.026309e+001	-1.356390e+002	-2.998016e+001	-4.346102e+001
3241767.764	-1.988880e+001	-8.316559e+001	-1.028350e+001	-1.414117e+002	-1.029031e+001	-1.412574e+002	-3.152023e+001	-6.305539e+001
3266204.506	-2.024923e+001	-8.544914e+001	-1.032312e+001	-1.470492e+002	-1.032848e+001	-1.468978e+002	-3.276588e+001	-8.801794e+001
3290641.248	-2.065916e+001	-8.726671e+001	-1.036340e+001	-1.526798e+002	-1.036547e+001	-1.525274e+002	-3.288720e+001	-1.168278e+002
3315077.990	-2.114510e+001	-8.851917e+001	-1.039792e+001	-1.583583e+002	-1.039885e+001	-1.582199e+002	-3.156519e+001	-1.438829e+002
3339514.731	-2.174230e+001	-8.883571e+001	-1.043092e+001	-1.642032e+002	-1.043382e+001	-1.640562e+002	-2.950582e+001	-1.655382e+002
3363951.473	-2.240838e+001	-8.755596e+001	-1.047889e+001	-1.701996e+002	-1.048036e+001	-1.700462e+002	-2.734804e+001	1.776890e+002
3388388.215	-2.304929e+001	-8.413660e+001	-1.054921e+001	-1.763378e+002	-1.054797e+001	-1.761805e+002	-2.536237e+001	1.639822e+002
3412824.957	-2.349384e+001	-7.831875e+001	-1.064941e+001	1.774270e+002	-1.064599e+001	1.775728e+002	-2.361132e+001	1.521409e+002
3437261.698	-2.351958e+001	-7.078589e+001	-1.078546e+001	1.711419e+002	-1.078320e+001	1.712663e+002	-2.209373e+001	1.413285e+002
3461698.440	-2.301190e+001	-6.330798e+001	-1.096350e+001	1.648845e+002	-1.095892e+001	1.649732e+002	-2.079305e+001	1.313797e+002
3486135.182	-2.207869e+001	-5.752325e+001	-1.118051e+001	1.586729e+002	-1.117632e+001	1.587697e+002	-1.968562e+001	1.220463e+002
3510571.924	-2.096785e+001	-5.430983e+001	-1.142855e+001	1.526539e+002	-1.142878e+001	1.527288e+002	-1.874934e+001	1.132802e+002
3535008.666	-1.984454e+001	-5.327586e+001	-1.170176e+001	1.468448e+002	-1.170560e+001	1.468921e+002	-1.796030e+001	1.050722e+002
3559445.407	-1.879427e+001	-5.375345e+001	-1.198624e+001	1.412330e+002	-1.199418e+001	1.412974e+002	-1.729448e+001	9.747605e+001
3583882.149	-1.785190e+001	-5.524074e+001	-1.227395e+001	1.358267e+002	-1.228481e+001	1.358936e+002	-1.671673e+001	9.043900e+001
3608318.891	-1.700894e+001	-5.730731e+001	-1.255535e+001	1.305729e+002	-1.256993e+001	1.306270e+002	-1.619824e+001	8.391845e+001
3632755.633	-1.623334e+001	-5.974101e+001	-1.283498e+001	1.253233e+002	-1.284533e+001	1.254313e+002	-1.571848e+001	7.779595e+001
3657192.374	-1.552221e+001	-6.238846e+001	-1.310784e+001	1.201193e+002	-1.312677e+001	1.202310e+002	-1.525857e+001	7.194533e+001
3681629.116	-1.485221e+001	-6.532316e+001	-1.339780e+001	1.149322e+002	-1.341986e+001	1.150480e+002	-1.482168e+001	6.622936e+001
3706065.858	-1.422912e+001	-6.855388e+001	-1.370481e+001	1.098393e+002	-1.373416e+001	1.099515e+002	-1.442297e+001	6.053782e+001
3730502.600	-1.365413e+001	-7.199777e+001	-1.402953e+001	1.048626e+002	-1.406366e+001	1.050145e+002	-1.406843e+001	5.495415e+001
3754939.341	-1.313651e+001	-7.559902e+001	-1.435912e+001	1.000758e+002	-1.439927e+001	1.002295e+002	-1.375538e+001	4.952389e+001
3779376.083	-1.266359e+001	-7.926062e+001	-1.469066e+001	9.539918e+001	-1.473371e+001	9.557347e+001	-1.347572e+001	4.426866e+001
3803812.825	-1.223045e+001	-8.295002e+001	-1.502200e+001	9.082031e+001	-1.506917e+001	9.104708e+001	-1.322484e+001	3.916667e+001
3828249.567	-1.183099e+001	-8.667168e+001	-1.535600e+001	8.637877e+001	-1.540717e+001	8.659263e+001	-1.299121e+001	3.421986e+001
3852686.308	-1.146201e+001	-9.041253e+001	-1.568989e+001	8.200684e+001	-1.574878e+001	8.225619e+001	-1.278075e+001	2.939098e+001
3877123.050	-1.112094e+001	-9.415782e+001	-1.602994e+001	7.774830e+001	-1.609161e+001	7.804187e+001	-1.258882e+001	2.469854e+001
3901559.792	-1.080491e+001	-9.791288e+001	-1.636557e+001	7.358741e+001	-1.643387e+001	7.392763e+001	-1.241044e+001	2.013331e+001
3925996.534	-1.051041e+001	-1.016563e+002	-1.670367e+001	6.950521e+001	-1.677535e+001	6.988913e+001	-1.224223e+001	1.568280e+001
3950433.276	-1.023528e+001	-1.054075e+002	-1.704985e+001	6.549782e+001	-1.712371e+001	6.593040e+001	-1.208492e+001	1.130870e+001
3974870.017	-9.979738e+000	-1.091550e+002	-1.739718e+001	6.158947e+001	-1.747526e+001	6.209381e+001	-1.193852e+001	7.016186e+000
3999306.759	-9.740958e+000	-1.129190e+002	-1.775901e+001	5.778144e+001	-1.782984e+001	5.835016e+001	-1.179737e+001	2.809606e+000
4023743.501	-9.518611e+000	-1.166855e+002	-1.811942e+001	5.410211e+001	-1.819292e+001	5.472251e+001	-1.166580e+001	-1.349956e+000
4048180.243	-9.312191e+000	-1.204545e+002	-1.849034e+001	5.053967e+001	-1.856496e+001	5.118596e+001	-1.153867e+001	-5.466569e+000
4072616.984	-9.120381e+000	-1.242443e+002	-1.887260e+001	4.712747e+001	-1.894541e+001	4.780530e+001	-1.142029e+001	-9.528702e+000
4097053.726	-8.944348e+000	-1.280540e+002	-1.926922e+001	4.384808e+001	-1.933646e+001	4.458763e+001	-1.130767e+001	-1.355475e+001
4121490.468	-8.783866e+000	-1.318811e+002	-1.967712e+001	4.082157e+001	-1.974328e+001	4.158506e+001	-1.120281e+001	-1.757683e+001
4145927.210	-8.640288e+000	-1.357312e+002	-2.009195e+001	3.801579e+001	-2.015760e+001	3.884368e+001	-1.110531e+001	-2.157367e+001
4170363.951	-8.510781e+000	-1.396074e+002	-2.052920e+001	3.554307e+001	-2.059132e+001	3.640278e+001	-1.101654e+001	-2.555174e+001
4194800.693	-8.403148e+000	-1.435060e+002	-2.095498e+001	3.347315e+001	-2.100802e+001	3.439364e+001	-1.094182e+001	-2.951345e+001
4219237.435	-8.314188e+000	-1.474019e+002	-2.136715e+001	3.178659e+001	-2.140976e+001	3.273036e+001	-1.087398e+001	-3.345274e+001
4243674.177	-8.241507e+000	-1.513003e+002	-2.176086e+001	3.045213e+001	-2.179654e+001	3.138446e+001	-1.081175e+001	-3.735666e+001
4268110.919	-8.185021e+000	-1.552114e+002	-2.212503e+001	2.954462e+001	-2.216135e+001	3.054106e+001	-1.075943e+001	-4.128145e+001
4292547.660	-8.151824e+000	-1.591404e+002	-2.244753e+001	2.921942e+001	-2.248305e+001	3.020607e+001	-1.071808e+001	-4.520070e+001
4316984.402	-8.141245e+000	-1.630479e+002	-2.267183e+001	2.930773e+001	-2.270029e+001	3.039008e+001	-1.069416e+001	-4.908780e+001
4341421.144	-8.151542e+000	-1.668761e+002	-2.277040e+001	2.946725e+001	-2.279065e+001	3.063090e+001	-1.068282e+001	-5.286593e+001
4365857.886	-8.171164e+000	-1.706205e+002	-2.277962e+001	2.925653e+001	-2.279155e+001	3.040968e+001	-1.066777e+001	-5.652655e+001
4390294.627	-8.182179e+000	-1.743438e+002	-2.280935e+001	2.852531e+001	-2.280899e+001	2.966597e+001	-1.063354e+001	-6.012942e+001
4414731.369	-8.190854e+000	-1.781890e+002	-2.291449e+001	2.790903e+001	-2.290549e+001	2.914116e+001	-1.058046e+001	-6.386554e+001
4439168.111	-8.205728e+000	1.777286e+002	-2.309507e+001	2.806463e+001	-2.305032e+001	2.942948e+001	-1.051779e+001	-6.785707e+001
4463604.853	-8.262717e+000	1.733561e+002	-2.320789e+001	3.010006e+001	-2.314957e+001	3.125702e+001	-1.046586e+001	-7.212716e+001
4488041.594	-8.381770e+000	1.687495e+002	-2.304784e+001	3.367977e+001	-2.297996e+001	3.461729e+001	-1.045541e+001	-7.671653e+001
4512478.336	-8.593390e+000	1.640448e+002	-2.241865e+001	3.760695e+001	-2.237123e+001	3.831161e+001	-1.051014e+001	-8.154045e+001
4536915.078	-8.918292e+000	1.595274e+002	-2.132500e+001	3.967546e+001	-2.132726e+001	4.030978e+001	-1.065711e+001	-8.639559e+001
4561351.820	-9.331467e+000	1.555913e+002	-2.007869e+001	3.844796e+001	-2.010744e+001	3.925203e+001	-1.089312e+001	-9.096287e+001
4585788.562	-9.782161e+000	1.523863e+002	-1.895256e+001	3.464390e+001	-1.897120e+001	3.566986e+001	-1.118710e+001	-9.505507e+001
4610225.303	-1.022227e+001	1.498783e+002	-1.803155e+001	2.934815e+001	-1.804244e+001	3.039420e+001	-1.149298e+001	-9.851338e+001
4634662.045	-1.060974e+001	1.478929e+002	-1.732362e+001	2.334569e+001	-1.732856e+001	2.447228e+001	-1.177205e+001	-1.015265e+002
4659098.787	-1.092377e+001	1.460736e+002	-1.681909e+001	1.726289e+001	-1.681367e+001	1.847750e+001	-1.199030e+001	-1.042951e+002
4683535.529	-1.118861e+001	1.439509e+002	-1.646530e+001	1.180295e+001	-1.644733e+001	1.309960e+001	-1.214094e+001	-1.072471e+002
4707972.270	-1.149523e+001	1.413384e+002	-1.613889e+001	7.450995e+000	-1.613600e+001	8.730749e+000	-1.226341e+001	-1.107592e+002
4732409.012	-1.192842e+001	1.387447e+002	-1.569168e+001	3.570112e+000	-1.565806e+001	4.953104e+000	-1.249593e+001	-1.148949e+002
4756845.754	-1.248223e+001	1.370480e+002	-1.508776e+001	-8.269231e-001	-1.501273e+001	4.318632e-001	-1.290321e+001	-1.188693e+002
4781282.496	-1.302098e+001	1.367276e+002	-1.446277e+001	-6.433472e+000	-1.435926e+001	-5.359332e+000	-1.342127e+001	-1.219384e+002
4805719.237	-1.341362e+001	1.372361e+002	-1.394180e+001	-1.281906e+001	-1.382465e+001	-1.199362e+001	-1.393569e+001	-1.239195e+002
4830155.979	-1.367670e+001	1.379331e+002	-1.351212e+001	-1.940504e+001	-1.340539e+001	-1.885237e+001	-1.439170e+001	-1.252237e+002
4854592.721	-1.382739e+001	1.386143e+002	-1.314288e+001	-2.605879e+001	-1.305962e+001	-2.563602e+001	-1.479315e+001	-1.261526e+002
4879029.463	-1.388787e+001	1.391361e+002	-1.281783e+001	-3.274726e+001	-1.275407e+001	-3.235723e+001	-1.515979e+001	-1.267222e+002
4903466.205	-1.385729e+001	1.393855e+002	-1.252956e+001	-3.955058e+001	-1.248085e+001	-3.913172e+001	-1.547719e+001	-1.268481e+002
4927902.946	-1.375222e+001	1.391568e+002	-1.228560e+001	-4.647332e+001	-1.224237e+001	-4.600723e+001	-1.571847e+001	-1.264973e+002
4952339.688	-1.360529e+001	1.382844e+002	-1.208889e+001	-5.346916e+001	-1.204832e+001	-5.291478e+001	-1.584242e+001	-1.259627e+002
4976776.430	-1.345787e+001	1.367678e+002	-1.194003e+001	-6.042852e+001	-1.189696e+001	-5.987793e+001	-1.584344e+001	-1.253696e+002
5001213.172	-1.333375e+001	1.347098e+002	-1.183411e+001	-6.733573e+001	-1.178733e+001	-6.678903e+001	-1.573615e+001	-1.251099e+002
5025649.913	-1.325388e+001	1.322157e+002	-1.176297e+001	-7.415590e+001	-1.171390e+001	-7.362386e+001	-1.555379e+001	-1.253376e+002
5050086.655	-1.322722e+001	1.293986e+002	-1.172142e+001	-8.086404e+001	-1.167090e+001	-8.035763e+001	-1.531891e+001	-1.261111e+002
5074523.397	-1.325452e+001	1.263580e+002	-1.170493e+001	-8.747712e+001	-1.165353e+001	-8.699217e+001	-1.506522e+001	-1.274379e+002
5098960.139	-1.333765e+001	1.231687e+002	-1.170696e+001	-9.397959e+001	-1.165235e+001	-9.352372e+001	-1.480900e+001	-1.291894e+002
5123396.880	-1.347418e+001	1.198968e+002	-1.172511e+001	-1.003986e+002	-1.166969e+001	-9.997323e+001	-1.455679e+001	-1.313622e+002
5147833.622	-1.366108e+001	1.165672e+002	-1.175688e+001	-1.067342e+002	-1.169973e+001	-1.063374e+002	-1.431866e+001	-1.338771e+002
5172270.364	-1.389773e+001	1.132237e+002	-1.179948e+001	-1.129934e+002	-1.174066e+001	-1.126329e+002	-1.409809e+001	-1.366804e+002
5196707.106	-1.418368e+001	1.098673e+002	-1.185195e+001	-1.191925e+002	-1.179332e+001	-1.188702e+002	-1.389530e+001	-1.397467e+002
5221143.847	-1.451721e+001	1.065197e+002	-1.191390e+001	-1.253078e+002	-1.185071e+001	-1.250299e+002	-1.371941e+001	-1.429723e+002
5245580.589	-1.489826e+001	1.031701e+002	-1.198310e+001	-1.314121e+002	-1.192066e+001	-1.311742e+002	-1.355418e+001	-1.464414e+002
5270017.331	-1.532734e+001	9.982480e+001	-1.206024e+001	-1.374912e+002	-1.199904e+001	-1.372844e+002	-1.340637e+001	-1.500840e+002
5294454.073	-1.581485e+001	9.646195e+001	-1.214607e+001	-1.435368e+002	-1.208614e+001	-1.433675e+002	-1.327773e+001	-1.539030e+002
5318890.815	-1.635990e+001	9.307254e+001	-1.223808e+001	-1.495644e+002	-1.217976e+001	-1.494287e+002	-1.316461e+001	-1.578589e+002
5343327.556	-1.696884e+001	8.960939e+001	-1.233902e+001	-1.555998e+002	-1.228408e+001	-1.554861e+002	-1.306654e+001	-1.619708e+002
5367764.298	-1.765596e+001	8.608529e+001	-1.245127e+001	-1.616258e+002	-1.240011e+001	-1.615384e+002	-1.298618e+001	-1.662453e+002
5392201.040	-1.844378e+001	8.240217e+001	-1.257341e+001	-1.676483e+002	-1.252583e+001	-1.675843e+002	-1.291704e+001	-1.706719e+002
5416637.782	-1.935297e+001	7.856069e+001	-1.271116e+001	-1.736446e+002	-1.266758e+001	-1.736077e+002	-1.287002e+001	-1.752540e+002
5441074.523	-2.041309e+001	7.449051e+001	-1.286053e+001	-1.796320e+002	-1.281992e+001	-1.796017e+002	-1.284156e+001	-1.799836e+002
