!Agilent Technologies,E5061B,MY49101568,A.02.00
!Date: Wed Mar 01 14:02:13 2023
!Data & Calibration Information:
!Freq	S11:SOLT2(OFF)	S21:SOLT2(OFF)	S12:SOLT2(OFF)	S22:SOLT2(OFF)
# Hz S dB R 50
1800000.000	-9.077417e+000	-1.669393e+001	-2.750074e+001	-1.271410e+002	-2.753023e+001	-1.271669e+002	-9.411260e+000	1.986543e+001
1824436.742	-9.146388e+000	-2.090568e+001	-2.712982e+001	-1.307915e+002	-2.716134e+001	-1.308097e+002	-9.508288e+000	1.617310e+001
1848873.484	-9.218707e+000	-2.519535e+001	-2.675439e+001	-1.344913e+002	-2.678234e+001	-1.345295e+002	-9.606184e+000	1.242853e+001
1873310.225	-9.291695e+000	-2.955341e+001	-2.636042e+001	-1.383107e+002	-2.640016e+001	-1.383308e+002	-9.698116e+000	8.656755e+000
1897746.967	-9.362948e+000	-3.397649e+001	-2.596948e+001	-1.421369e+002	-2.599623e+001	-1.422085e+002	-9.787695e+000	4.808811e+000
1922183.709	-9.435258e+000	-3.852816e+001	-2.556086e+001	-1.460705e+002	-2.558733e+001	-1.461083e+002	-9.873454e+000	8.575313e-001
1946620.451	-9.508115e+000	-4.319660e+001	-2.513911e+001	-1.501030e+002	-2.516138e+001	-1.501325e+002	-9.955150e+000	-3.170067e+000
1971057.192	-9.582275e+000	-4.799970e+001	-2.468944e+001	-1.542036e+002	-2.472931e+001	-1.542566e+002	-1.003354e+001	-7.313322e+000
1995493.934	-9.664177e+000	-5.293236e+001	-2.421945e+001	-1.585544e+002	-2.425259e+001	-1.585291e+002	-1.011596e+001	-1.152793e+001
2019930.676	-9.747644e+000	-5.799088e+001	-2.375829e+001	-1.629222e+002	-2.379870e+001	-1.629100e+002	-1.019146e+001	-1.580617e+001
2044367.418	-9.836434e+000	-6.318534e+001	-2.328410e+001	-1.674841e+002	-2.332787e+001	-1.674384e+002	-1.026059e+001	-2.024097e+001
2068804.159	-9.930692e+000	-6.853653e+001	-2.281297e+001	-1.721638e+002	-2.285070e+001	-1.720794e+002	-1.032627e+001	-2.473130e+001
2093240.901	-1.003149e+001	-7.403440e+001	-2.231928e+001	-1.769583e+002	-2.237397e+001	-1.768431e+002	-1.038605e+001	-2.931249e+001
2117677.643	-1.014056e+001	-7.974419e+001	-2.182705e+001	1.780071e+002	-2.188708e+001	1.781874e+002	-1.044543e+001	-3.399909e+001
2142114.385	-1.026145e+001	-8.562894e+001	-2.133764e+001	1.728011e+002	-2.139853e+001	1.730451e+002	-1.049719e+001	-3.881427e+001
2166551.127	-1.039317e+001	-9.171527e+001	-2.083732e+001	1.673957e+002	-2.090812e+001	1.677384e+002	-1.054622e+001	-4.376388e+001
2190987.868	-1.053744e+001	-9.801483e+001	-2.034777e+001	1.618120e+002	-2.041678e+001	1.621797e+002	-1.059224e+001	-4.880566e+001
2215424.610	-1.070713e+001	-1.045302e+002	-1.984980e+001	1.558340e+002	-1.994561e+001	1.565206e+002	-1.063097e+001	-5.397027e+001
2239861.352	-1.088692e+001	-1.112487e+002	-1.937974e+001	1.498132e+002	-1.948503e+001	1.506096e+002	-1.066607e+001	-5.924571e+001
2264298.094	-1.107974e+001	-1.182222e+002	-1.892062e+001	1.435600e+002	-1.903559e+001	1.445443e+002	-1.069546e+001	-6.464853e+001
2288734.835	-1.128726e+001	-1.254457e+002	-1.848165e+001	1.372399e+002	-1.858886e+001	1.382849e+002	-1.071736e+001	-7.016556e+001
2313171.577	-1.151426e+001	-1.329066e+002	-1.805845e+001	1.307117e+002	-1.815924e+001	1.318215e+002	-1.073811e+001	-7.580134e+001
2337608.319	-1.175287e+001	-1.405923e+002	-1.766176e+001	1.240709e+002	-1.775110e+001	1.251681e+002	-1.075249e+001	-8.152846e+001
2362045.061	-1.198279e+001	-1.485378e+002	-1.731290e+001	1.174969e+002	-1.736688e+001	1.183366e+002	-1.076253e+001	-8.736010e+001
2386481.802	-1.224732e+001	-1.566968e+002	-1.697248e+001	1.104994e+002	-1.701368e+001	1.113502e+002	-1.076264e+001	-9.330072e+001
2410918.544	-1.251616e+001	-1.650906e+002	-1.666161e+001	1.034360e+002	-1.668548e+001	1.042680e+002	-1.075367e+001	-9.933557e+001
2435355.286	-1.278513e+001	-1.737329e+002	-1.637628e+001	9.626974e+001	-1.638938e+001	9.704516e+001	-1.073548e+001	-1.054953e+002
2459792.028	-1.305573e+001	1.774396e+002	-1.612535e+001	8.898707e+001	-1.612519e+001	8.977135e+001	-1.070978e+001	-1.117676e+002
2484228.769	-1.331361e+001	1.684360e+002	-1.591016e+001	8.163346e+001	-1.589536e+001	8.239708e+001	-1.067702e+001	-1.181653e+002
2508665.511	-1.355610e+001	1.592856e+002	-1.572721e+001	7.422571e+001	-1.569998e+001	7.495907e+001	-1.063854e+001	-1.246316e+002
2533102.253	-1.376610e+001	1.500393e+002	-1.559000e+001	6.688476e+001	-1.553583e+001	6.740662e+001	-1.060377e+001	-1.311829e+002
2557538.995	-1.395586e+001	1.407253e+002	-1.548064e+001	5.945459e+001	-1.541384e+001	5.993003e+001	-1.055804e+001	-1.378467e+002
2581975.737	-1.411155e+001	1.313899e+002	-1.540469e+001	5.203378e+001	-1.532630e+001	5.247292e+001	-1.050939e+001	-1.445793e+002
2606412.478	-1.422287e+001	1.221073e+002	-1.536286e+001	4.468811e+001	-1.527380e+001	4.505998e+001	-1.046624e+001	-1.513718e+002
2630849.220	-1.429825e+001	1.129232e+002	-1.535293e+001	3.736998e+001	-1.525284e+001	3.766185e+001	-1.042465e+001	-1.582164e+002
2655285.962	-1.433597e+001	1.038764e+002	-1.537621e+001	3.016212e+001	-1.526943e+001	3.036263e+001	-1.039165e+001	-1.650857e+002
2679722.704	-1.432994e+001	9.501273e+001	-1.542995e+001	2.304997e+001	-1.531760e+001	2.316302e+001	-1.036555e+001	-1.719594e+002
2704159.445	-1.429155e+001	8.637467e+001	-1.551470e+001	1.606872e+001	-1.539191e+001	1.603799e+001	-1.034548e+001	-1.787939e+002
2728596.187	-1.422372e+001	7.799986e+001	-1.562547e+001	9.222169e+000	-1.549354e+001	9.090222e+000	-1.033598e+001	1.743998e+002
2753032.929	-1.413134e+001	6.989244e+001	-1.575625e+001	2.522175e+000	-1.562498e+001	2.311251e+000	-1.033237e+001	1.676603e+002
2777469.671	-1.402189e+001	6.207585e+001	-1.590675e+001	-4.008612e+000	-1.577686e+001	-4.304061e+000	-1.033715e+001	1.610082e+002
2801906.412	-1.389616e+001	5.456530e+001	-1.607318e+001	-1.039781e+001	-1.595130e+001	-1.071005e+001	-1.034945e+001	1.544636e+002
2826343.154	-1.376114e+001	4.733029e+001	-1.626087e+001	-1.660818e+001	-1.614348e+001	-1.692285e+001	-1.036827e+001	1.480456e+002
2850779.896	-1.361776e+001	4.040757e+001	-1.645583e+001	-2.263569e+001	-1.634907e+001	-2.298459e+001	-1.039682e+001	1.417733e+002
2875216.638	-1.347258e+001	3.374702e+001	-1.666437e+001	-2.853241e+001	-1.657315e+001	-2.876978e+001	-1.042655e+001	1.356484e+002
2899653.380	-1.332664e+001	2.736778e+001	-1.687770e+001	-3.422765e+001	-1.679559e+001	-3.449001e+001	-1.047251e+001	1.296792e+002
2924090.121	-1.318010e+001	2.124103e+001	-1.709612e+001	-3.975337e+001	-1.702394e+001	-4.002451e+001	-1.052468e+001	1.238808e+002
2948526.863	-1.303266e+001	1.534198e+001	-1.731460e+001	-4.511622e+001	-1.725400e+001	-4.539954e+001	-1.058164e+001	1.182321e+002
2972963.605	-1.288631e+001	9.684982e+000	-1.753578e+001	-5.029312e+001	-1.748380e+001	-5.060834e+001	-1.064180e+001	1.127330e+002
2997400.347	-1.274337e+001	4.218792e+000	-1.775367e+001	-5.533884e+001	-1.771062e+001	-5.564692e+001	-1.070600e+001	1.073930e+002
3021837.088	-1.260235e+001	-1.042248e+000	-1.796692e+001	-6.022247e+001	-1.793697e+001	-6.054168e+001	-1.076939e+001	1.022041e+002
3046273.830	-1.246543e+001	-6.114718e+000	-1.817810e+001	-6.497257e+001	-1.815661e+001	-6.528385e+001	-1.083589e+001	9.716091e+001
3070710.572	-1.233074e+001	-1.102269e+001	-1.838376e+001	-6.957007e+001	-1.836877e+001	-6.989561e+001	-1.090276e+001	9.224897e+001
3095147.314	-1.219915e+001	-1.578477e+001	-1.857721e+001	-7.404527e+001	-1.857661e+001	-7.437125e+001	-1.096835e+001	8.747631e+001
3119584.055	-1.207083e+001	-2.039280e+001	-1.876537e+001	-7.839732e+001	-1.877287e+001	-7.867696e+001	-1.103179e+001	8.282651e+001
3144020.797	-1.195035e+001	-2.489399e+001	-1.893220e+001	-8.269666e+001	-1.896360e+001	-8.289511e+001	-1.109476e+001	7.832167e+001
3168457.539	-1.182912e+001	-2.926791e+001	-1.909809e+001	-8.684702e+001	-1.913502e+001	-8.702473e+001	-1.115849e+001	7.390316e+001
3192894.281	-1.171051e+001	-3.352957e+001	-1.924855e+001	-9.091595e+001	-1.929591e+001	-9.108594e+001	-1.122151e+001	6.958737e+001
3217331.023	-1.159769e+001	-3.768722e+001	-1.939307e+001	-9.492557e+001	-1.944613e+001	-9.506567e+001	-1.128459e+001	6.537968e+001
3241767.764	-1.148636e+001	-4.173939e+001	-1.952726e+001	-9.883692e+001	-1.958504e+001	-9.897794e+001	-1.134699e+001	6.127236e+001
3266204.506	-1.137812e+001	-4.569988e+001	-1.965348e+001	-1.027031e+002	-1.971661e+001	-1.028060e+002	-1.140393e+001	5.725406e+001
3290641.248	-1.127132e+001	-4.958480e+001	-1.976901e+001	-1.064069e+002	-1.983789e+001	-1.065058e+002	-1.145769e+001	5.332796e+001
3315077.990	-1.116664e+001	-5.340350e+001	-1.986523e+001	-1.100788e+002	-1.993838e+001	-1.101588e+002	-1.150880e+001	4.946213e+001
3339514.731	-1.106690e+001	-5.717843e+001	-1.994509e+001	-1.136864e+002	-2.002348e+001	-1.137416e+002	-1.156111e+001	4.564877e+001
3363951.473	-1.097074e+001	-6.088809e+001	-2.000639e+001	-1.172932e+002	-2.009015e+001	-1.173130e+002	-1.161224e+001	4.190471e+001
3388388.215	-1.088213e+001	-6.454118e+001	-2.004918e+001	-1.208667e+002	-2.013957e+001	-1.208444e+002	-1.166632e+001	3.822191e+001
3412824.957	-1.079672e+001	-6.814604e+001	-2.008259e+001	-1.244255e+002	-2.017560e+001	-1.243611e+002	-1.171861e+001	3.460792e+001
3437261.698	-1.071747e+001	-7.170038e+001	-2.009563e+001	-1.280037e+002	-2.019744e+001	-1.278843e+002	-1.177223e+001	3.105628e+001
3461698.440	-1.064396e+001	-7.519235e+001	-2.009911e+001	-1.315921e+002	-2.020409e+001	-1.314045e+002	-1.182665e+001	2.757561e+001
3486135.182	-1.057456e+001	-7.863647e+001	-2.008805e+001	-1.351608e+002	-2.019747e+001	-1.349453e+002	-1.188350e+001	2.416050e+001
3510571.924	-1.050922e+001	-8.202208e+001	-2.006844e+001	-1.387327e+002	-2.017846e+001	-1.384892e+002	-1.193931e+001	2.082016e+001
3535008.666	-1.044787e+001	-8.535187e+001	-2.003809e+001	-1.422874e+002	-2.014508e+001	-1.420429e+002	-1.199305e+001	1.753446e+001
3559445.407	-1.038869e+001	-8.862858e+001	-1.998954e+001	-1.458523e+002	-2.009819e+001	-1.455759e+002	-1.204376e+001	1.431515e+001
3583882.149	-1.033101e+001	-9.185811e+001	-1.992693e+001	-1.494345e+002	-2.003676e+001	-1.491386e+002	-1.209327e+001	1.113543e+001
3608318.891	-1.027580e+001	-9.505592e+001	-1.984678e+001	-1.530702e+002	-1.995597e+001	-1.527328e+002	-1.213957e+001	7.984982e+000
3632755.633	-1.022026e+001	-9.824057e+001	-1.974926e+001	-1.567260e+002	-1.984868e+001	-1.564490e+002	-1.219335e+001	4.841543e+000
3657192.374	-1.017070e+001	-1.014056e+002	-1.963434e+001	-1.605373e+002	-1.973092e+001	-1.602180e+002	-1.224444e+001	1.744617e+000
3681629.116	-1.012454e+001	-1.045507e+002	-1.950555e+001	-1.644134e+002	-1.959994e+001	-1.640821e+002	-1.229961e+001	-1.318113e+000
3706065.858	-1.008391e+001	-1.076880e+002	-1.936871e+001	-1.684418e+002	-1.946298e+001	-1.681026e+002	-1.235983e+001	-4.320817e+000
3730502.600	-1.004975e+001	-1.108037e+002	-1.923157e+001	-1.725830e+002	-1.932668e+001	-1.721879e+002	-1.241915e+001	-7.286544e+000
3754939.341	-1.002281e+001	-1.139038e+002	-1.908686e+001	-1.768093e+002	-1.918403e+001	-1.763480e+002	-1.247964e+001	-1.019657e+001
3779376.083	-1.000191e+001	-1.170028e+002	-1.893837e+001	1.789269e+002	-1.903268e+001	1.793896e+002	-1.254567e+001	-1.308803e+001
3803812.825	-9.993169e+000	-1.200935e+002	-1.878066e+001	1.745298e+002	-1.887327e+001	1.750348e+002	-1.261623e+001	-1.594502e+001
3828249.567	-9.997015e+000	-1.231561e+002	-1.861196e+001	1.700160e+002	-1.870112e+001	1.705387e+002	-1.269667e+001	-1.877804e+001
3852686.308	-1.001576e+001	-1.261778e+002	-1.844305e+001	1.653210e+002	-1.852749e+001	1.658583e+002	-1.278926e+001	-2.153698e+001
3877123.050	-1.004830e+001	-1.291393e+002	-1.826921e+001	1.604876e+002	-1.835249e+001	1.610251e+002	-1.289116e+001	-2.420696e+001
3901559.792	-1.009531e+001	-1.320170e+002	-1.809947e+001	1.554546e+002	-1.818130e+001	1.560322e+002	-1.300452e+001	-2.677527e+001
3925996.534	-1.015649e+001	-1.347871e+002	-1.793906e+001	1.502596e+002	-1.801454e+001	1.508207e+002	-1.312917e+001	-2.918822e+001
3950433.276	-1.023004e+001	-1.374172e+002	-1.778706e+001	1.448609e+002	-1.785902e+001	1.454191e+002	-1.326344e+001	-3.142030e+001
3974870.017	-1.031564e+001	-1.398724e+002	-1.765521e+001	1.392067e+002	-1.772575e+001	1.397694e+002	-1.340037e+001	-3.341178e+001
3999306.759	-1.040616e+001	-1.420985e+002	-1.754765e+001	1.333277e+002	-1.761456e+001	1.339402e+002	-1.353022e+001	-3.514872e+001
4023743.501	-1.049291e+001	-1.440992e+002	-1.747023e+001	1.272369e+002	-1.753570e+001	1.278472e+002	-1.364988e+001	-3.658091e+001
4048180.243	-1.056647e+001	-1.458312e+002	-1.743363e+001	1.209291e+002	-1.750267e+001	1.215763e+002	-1.373693e+001	-3.769580e+001
4072616.984	-1.061108e+001	-1.472977e+002	-1.745347e+001	1.144384e+002	-1.752231e+001	1.151082e+002	-1.377820e+001	-3.851637e+001
4097053.726	-1.061005e+001	-1.485557e+002	-1.754113e+001	1.078168e+002	-1.761002e+001	1.085359e+002	-1.375596e+001	-3.914994e+001
4121490.468	-1.054718e+001	-1.497192e+002	-1.771045e+001	1.011581e+002	-1.777748e+001	1.019052e+002	-1.365132e+001	-3.969406e+001
4145927.210	-1.041849e+001	-1.509429e+002	-1.796635e+001	9.458401e+001	-1.803390e+001	9.537361e+001	-1.346693e+001	-4.038416e+001
4170363.951	-1.022937e+001	-1.523642e+002	-1.831787e+001	8.829558e+001	-1.837137e+001	8.915482e+001	-1.320942e+001	-4.139056e+001
4194800.693	-9.997802e+000	-1.542085e+002	-1.874602e+001	8.249718e+001	-1.879603e+001	8.346979e+001	-1.290518e+001	-4.292665e+001
4219237.435	-9.755351e+000	-1.564883e+002	-1.921881e+001	7.736120e+001	-1.927203e+001	7.837681e+001	-1.258700e+001	-4.495066e+001
4243674.177	-9.518063e+000	-1.591220e+002	-1.971966e+001	7.277939e+001	-1.977273e+001	7.391905e+001	-1.227803e+001	-4.738765e+001
4268110.919	-9.294817e+000	-1.620692e+002	-2.023745e+001	6.883735e+001	-2.028345e+001	7.006434e+001	-1.198538e+001	-5.014094e+001
4292547.660	-9.092890e+000	-1.653273e+002	-2.076350e+001	6.569000e+001	-2.080630e+001	6.698092e+001	-1.171004e+001	-5.319580e+001
4316984.402	-8.925898e+000	-1.688317e+002	-2.124177e+001	6.340827e+001	-2.128278e+001	6.473825e+001	-1.146882e+001	-5.650219e+001
4341421.144	-8.806716e+000	-1.724876e+002	-2.159955e+001	6.174765e+001	-2.164538e+001	6.314195e+001	-1.126998e+001	-5.996542e+001
4365857.886	-8.724564e+000	-1.761332e+002	-2.184302e+001	6.007937e+001	-2.187997e+001	6.156679e+001	-1.110983e+001	-6.340840e+001
4390294.627	-8.659537e+000	-1.797083e+002	-2.204539e+001	5.806454e+001	-2.207167e+001	5.953161e+001	-1.096500e+001	-6.672213e+001
4414731.369	-8.589273e+000	1.767221e+002	-2.231682e+001	5.586229e+001	-2.232216e+001	5.727194e+001	-1.080889e+001	-6.996529e+001
4439168.111	-8.516984e+000	1.728903e+002	-2.264778e+001	5.460564e+001	-2.266279e+001	5.549058e+001	-1.062943e+001	-7.331941e+001
4463604.853	-8.455435e+000	1.688220e+002	-2.298022e+001	5.451979e+001	-2.305121e+001	5.526525e+001	-1.043229e+001	-7.695835e+001
4488041.594	-8.424935e+000	1.644688e+002	-2.317947e+001	5.580255e+001	-2.329068e+001	5.685875e+001	-1.024838e+001	-8.095501e+001
4512478.336	-8.451236e+000	1.598437e+002	-2.305753e+001	5.808112e+001	-2.316952e+001	5.965537e+001	-1.010030e+001	-8.531679e+001
4536915.078	-8.553800e+000	1.550979e+002	-2.255463e+001	5.978951e+001	-2.261853e+001	6.164450e+001	-1.001672e+001	-8.986193e+001
4561351.820	-8.729425e+000	1.504781e+002	-2.182985e+001	5.944188e+001	-2.183582e+001	6.143579e+001	-9.998732e+000	-9.437676e+001
4585788.562	-8.955734e+000	1.460827e+002	-2.109780e+001	5.723540e+001	-2.104104e+001	5.925947e+001	-1.002398e+001	-9.874739e+001
4610225.303	-9.213439e+000	1.418893e+002	-2.044617e+001	5.385917e+001	-2.033593e+001	5.569747e+001	-1.007442e+001	-1.029256e+002
4634662.045	-9.493300e+000	1.379127e+002	-1.989113e+001	4.965397e+001	-1.974979e+001	5.123421e+001	-1.014186e+001	-1.069055e+002
4659098.787	-9.779510e+000	1.341021e+002	-1.944661e+001	4.504269e+001	-1.928757e+001	4.638403e+001	-1.020573e+001	-1.107268e+002
4683535.529	-1.005981e+001	1.303400e+002	-1.911120e+001	4.043190e+001	-1.895047e+001	4.158263e+001	-1.024898e+001	-1.144530e+002
4707972.270	-1.035542e+001	1.263296e+002	-1.878426e+001	3.648324e+001	-1.870054e+001	3.721132e+001	-1.026194e+001	-1.182005e+002
4732409.012	-1.066256e+001	1.221276e+002	-1.848955e+001	3.281127e+001	-1.840345e+001	3.351713e+001	-1.026461e+001	-1.223222e+002
4756845.754	-1.104518e+001	1.177204e+002	-1.809383e+001	2.918636e+001	-1.798998e+001	2.982006e+001	-1.030114e+001	-1.267786e+002
4781282.496	-1.151546e+001	1.134059e+002	-1.763701e+001	2.493187e+001	-1.751955e+001	2.546791e+001	-1.039110e+001	-1.313320e+002
4805719.237	-1.204602e+001	1.093287e+002	-1.719506e+001	2.008135e+001	-1.707381e+001	2.045699e+001	-1.052176e+001	-1.358163e+002
4830155.979	-1.261792e+001	1.054333e+002	-1.680444e+001	1.491789e+001	-1.668216e+001	1.511804e+001	-1.067372e+001	-1.402211e+002
4854592.721	-1.323879e+001	1.016768e+002	-1.644631e+001	9.601483e+000	-1.633215e+001	9.631816e+000	-1.083977e+001	-1.446090e+002
4879029.463	-1.391240e+001	9.799841e+001	-1.611735e+001	4.214576e+000	-1.601077e+001	4.133176e+000	-1.102009e+001	-1.490414e+002
4903466.205	-1.465981e+001	9.449418e+001	-1.579929e+001	-1.312470e+000	-1.570396e+001	-1.447088e+000	-1.122321e+001	-1.535177e+002
4927902.946	-1.548391e+001	9.118793e+001	-1.549949e+001	-6.969274e+000	-1.541402e+001	-7.137204e+000	-1.145324e+001	-1.580359e+002
4952339.688	-1.638707e+001	8.816782e+001	-1.522397e+001	-1.279718e+001	-1.514843e+001	-1.279034e+001	-1.169844e+001	-1.626144e+002
4976776.430	-1.737879e+001	8.557504e+001	-1.497148e+001	-1.875281e+001	-1.490687e+001	-1.873882e+001	-1.198261e+001	-1.670821e+002
5001213.172	-1.846092e+001	8.338798e+001	-1.475139e+001	-2.477544e+001	-1.469256e+001	-2.476025e+001	-1.229195e+001	-1.714908e+002
5025649.913	-1.964208e+001	8.173012e+001	-1.455960e+001	-3.085071e+001	-1.450816e+001	-3.082265e+001	-1.262339e+001	-1.758451e+002
5050086.655	-2.094046e+001	8.068357e+001	-1.439487e+001	-3.694324e+001	-1.434865e+001	-3.690867e+001	-1.297256e+001	1.798647e+002
5074523.397	-2.237647e+001	8.048390e+001	-1.425562e+001	-4.305460e+001	-1.421483e+001	-4.300881e+001	-1.334346e+001	1.756272e+002
5098960.139	-2.399550e+001	8.140229e+001	-1.413808e+001	-4.914561e+001	-1.410547e+001	-4.909321e+001	-1.373027e+001	1.714605e+002
5123396.880	-2.582708e+001	8.408106e+001	-1.404388e+001	-5.520973e+001	-1.401518e+001	-5.513032e+001	-1.413343e+001	1.673282e+002
5147833.622	-2.790245e+001	8.965695e+001	-1.396487e+001	-6.124810e+001	-1.394298e+001	-6.112990e+001	-1.455184e+001	1.632521e+002
5172270.364	-3.014590e+001	1.003223e+002	-1.390127e+001	-6.724593e+001	-1.388667e+001	-6.709668e+001	-1.498690e+001	1.592133e+002
5196707.106	-3.206432e+001	1.187296e+002	-1.385223e+001	-7.318664e+001	-1.384319e+001	-7.302192e+001	-1.544144e+001	1.552195e+002
5221143.847	-3.251616e+001	1.433272e+002	-1.381625e+001	-7.909500e+001	-1.380996e+001	-7.886550e+001	-1.590655e+001	1.512208e+002
5245580.589	-3.122195e+001	1.648170e+002	-1.378847e+001	-8.495643e+001	-1.378761e+001	-8.469046e+001	-1.639264e+001	1.472823e+002
5270017.331	-2.923814e+001	1.779597e+002	-1.377043e+001	-9.079876e+001	-1.377187e+001	-9.048369e+001	-1.690173e+001	1.433833e+002
5294454.073	-2.732593e+001	-1.749546e+002	-1.376018e+001	-9.661352e+001	-1.376320e+001	-9.624226e+001	-1.742811e+001	1.395522e+002
5318890.815	-2.565038e+001	-1.713022e+002	-1.375246e+001	-1.023646e+002	-1.375909e+001	-1.019742e+002	-1.797889e+001	1.357513e+002
5343327.556	-2.421946e+001	-1.696761e+002	-1.374909e+001	-1.080958e+002	-1.375795e+001	-1.076850e+002	-1.855139e+001	1.320517e+002
5367764.298	-2.299547e+001	-1.693705e+002	-1.375068e+001	-1.138188e+002	-1.376178e+001	-1.133860e+002	-1.914722e+001	1.284479e+002
5392201.040	-2.195358e+001	-1.698690e+002	-1.376002e+001	-1.195543e+002	-1.376938e+001	-1.191177e+002	-1.976708e+001	1.250470e+002
5416637.782	-2.104737e+001	-1.708670e+002	-1.377065e+001	-1.252707e+002	-1.378177e+001	-1.248110e+002	-2.039581e+001	1.217326e+002
5441074.523	-2.026380e+001	-1.721765e+002	-1.378959e+001	-1.309774e+002	-1.379980e+001	-1.305032e+002	-2.103521e+001	1.186127e+002
