!Agilent Technologies,E5061B,MY49101568,A.02.00
!Date: Wed Mar 01 14:55:54 2023
!Data & Calibration Information:
!Freq	S11:SOLT2(OFF)	S21:SOLT2(OFF)	S12:SOLT2(OFF)	S22:SOLT2(OFF)
# Hz S dB R 50
1800000.000	-1.140402e+001	3.323152e+001	-1.089283e+001	1.404292e+002	-1.084432e+001	1.405286e+002	-1.116799e+001	7.798652e+001
1824436.742	-1.125072e+001	2.865982e+001	-1.110340e+001	1.354824e+002	-1.106727e+001	1.355366e+002	-1.109823e+001	7.297985e+001
1848873.484	-1.113740e+001	2.400276e+001	-1.131962e+001	1.307180e+002	-1.127502e+001	1.307890e+002	-1.107614e+001	6.813661e+001
1873310.225	-1.105577e+001	1.962129e+001	-1.148516e+001	1.261880e+002	-1.145105e+001	1.261822e+002	-1.106623e+001	6.350302e+001
1897746.967	-1.099123e+001	1.520693e+001	-1.164317e+001	1.217682e+002	-1.160961e+001	1.217131e+002	-1.108230e+001	5.896582e+001
1922183.709	-1.093130e+001	1.089484e+001	-1.176379e+001	1.173321e+002	-1.174416e+001	1.173592e+002	-1.111886e+001	5.448994e+001
1946620.451	-1.088898e+001	6.460149e+000	-1.188856e+001	1.129815e+002	-1.186793e+001	1.130397e+002	-1.116217e+001	4.999748e+001
1971057.192	-1.089038e+001	1.981273e+000	-1.200197e+001	1.089048e+002	-1.197777e+001	1.088516e+002	-1.122823e+001	4.553536e+001
1995493.934	-1.090316e+001	-2.421929e+000	-1.208989e+001	1.048597e+002	-1.207058e+001	1.048436e+002	-1.132269e+001	4.111004e+001
2019930.676	-1.093667e+001	-6.811128e+000	-1.215733e+001	1.009493e+002	-1.214010e+001	1.009735e+002	-1.143573e+001	3.672751e+001
2044367.418	-1.098657e+001	-1.104401e+001	-1.217256e+001	9.715927e+001	-1.217510e+001	9.712324e+001	-1.155770e+001	3.238872e+001
2068804.159	-1.103091e+001	-1.526856e+001	-1.217052e+001	9.328968e+001	-1.216785e+001	9.323256e+001	-1.167919e+001	2.819856e+001
2093240.901	-1.106733e+001	-1.955170e+001	-1.215503e+001	8.934233e+001	-1.216405e+001	8.924807e+001	-1.179735e+001	2.389081e+001
2117677.643	-1.113005e+001	-2.391260e+001	-1.212629e+001	8.546002e+001	-1.212835e+001	8.533672e+001	-1.193000e+001	1.961127e+001
2142114.385	-1.118870e+001	-2.825361e+001	-1.207252e+001	8.145397e+001	-1.208892e+001	8.138845e+001	-1.206579e+001	1.518074e+001
2166551.127	-1.125578e+001	-3.270298e+001	-1.201254e+001	7.740930e+001	-1.203152e+001	7.741645e+001	-1.221362e+001	1.067604e+001
2190987.868	-1.134299e+001	-3.731217e+001	-1.194878e+001	7.338244e+001	-1.196825e+001	7.342297e+001	-1.237487e+001	6.047544e+000
2215424.610	-1.146131e+001	-4.198324e+001	-1.187182e+001	6.937138e+001	-1.189237e+001	6.946263e+001	-1.255756e+001	1.299114e+000
2239861.352	-1.160029e+001	-4.672848e+001	-1.178144e+001	6.537008e+001	-1.180076e+001	6.545272e+001	-1.275675e+001	-3.562688e+000
2264298.094	-1.177447e+001	-5.147183e+001	-1.166803e+001	6.138365e+001	-1.168613e+001	6.151257e+001	-1.299199e+001	-8.479098e+000
2288734.835	-1.197429e+001	-5.616407e+001	-1.152876e+001	5.735853e+001	-1.155375e+001	5.753283e+001	-1.325483e+001	-1.351555e+001
2313171.577	-1.219530e+001	-6.082633e+001	-1.136459e+001	5.324953e+001	-1.138568e+001	5.338364e+001	-1.353249e+001	-1.847426e+001
2337608.319	-1.243043e+001	-6.557471e+001	-1.119314e+001	4.896009e+001	-1.121730e+001	4.910419e+001	-1.382846e+001	-2.363158e+001
2362045.061	-1.270210e+001	-7.030294e+001	-1.100831e+001	4.461487e+001	-1.104641e+001	4.478103e+001	-1.416241e+001	-2.896005e+001
2386481.802	-1.300947e+001	-7.505559e+001	-1.081515e+001	4.015167e+001	-1.083670e+001	4.034449e+001	-1.454256e+001	-3.424069e+001
2410918.544	-1.333809e+001	-7.957752e+001	-1.058880e+001	3.552206e+001	-1.062172e+001	3.567462e+001	-1.494109e+001	-3.959297e+001
2435355.286	-1.365183e+001	-8.423181e+001	-1.036949e+001	3.052238e+001	-1.040008e+001	3.075982e+001	-1.536236e+001	-4.495695e+001
2459792.028	-1.400203e+001	-8.907500e+001	-1.016564e+001	2.538772e+001	-1.019191e+001	2.561700e+001	-1.580044e+001	-5.048216e+001
2484228.769	-1.438795e+001	-9.407503e+001	-9.978031e+000	2.004123e+001	-1.000723e+001	2.032237e+001	-1.626768e+001	-5.633003e+001
2508665.511	-1.484000e+001	-9.924802e+001	-9.810236e+000	1.464234e+001	-9.837988e+000	1.494907e+001	-1.679619e+001	-6.242423e+001
2533102.253	-1.536476e+001	-1.045942e+002	-9.663658e+000	9.181661e+000	-9.689677e+000	9.452489e+000	-1.737362e+001	-6.874050e+001
2557538.995	-1.597469e+001	-1.100307e+002	-9.536039e+000	3.608301e+000	-9.558225e+000	3.914118e+000	-1.801961e+001	-7.533981e+001
2581975.737	-1.669128e+001	-1.154406e+002	-9.425015e+000	-2.003146e+000	-9.445297e+000	-1.667312e+000	-1.874656e+001	-8.224724e+001
2606412.478	-1.753423e+001	-1.206810e+002	-9.331598e+000	-7.606521e+000	-9.348981e+000	-7.263691e+000	-1.956670e+001	-8.952803e+001
2630849.220	-1.851602e+001	-1.257481e+002	-9.254048e+000	-1.321139e+001	-9.268548e+000	-1.287539e+001	-2.051573e+001	-9.707032e+001
2655285.962	-1.965581e+001	-1.304122e+002	-9.191885e+000	-1.883732e+001	-9.197318e+000	-1.849937e+001	-2.158743e+001	-1.048566e+002
2679722.704	-2.096594e+001	-1.344112e+002	-9.137130e+000	-2.446605e+001	-9.142312e+000	-2.412729e+001	-2.282608e+001	-1.130500e+002
2704159.445	-2.244660e+001	-1.377587e+002	-9.097945e+000	-3.014099e+001	-9.096269e+000	-2.979876e+001	-2.423442e+001	-1.213969e+002
2728596.187	-2.417521e+001	-1.399794e+002	-9.072479e+000	-3.581673e+001	-9.079406e+000	-3.549418e+001	-2.577378e+001	-1.303292e+002
2753032.929	-2.626386e+001	-1.404942e+002	-9.073264e+000	-4.145281e+001	-9.076811e+000	-4.115899e+001	-2.752897e+001	-1.401799e+002
2777469.671	-2.880805e+001	-1.374768e+002	-9.088897e+000	-4.701359e+001	-9.088345e+000	-4.674478e+001	-2.956566e+001	-1.516969e+002
2801906.412	-3.175283e+001	-1.277190e+002	-9.123180e+000	-5.255720e+001	-9.120194e+000	-5.227904e+001	-3.182210e+001	-1.659492e+002
2826343.154	-3.426985e+001	-1.048142e+002	-9.168678e+000	-5.801738e+001	-9.165779e+000	-5.773079e+001	-3.424704e+001	1.751584e+002
2850779.896	-3.394573e+001	-7.380481e+001	-9.220668e+000	-6.336033e+001	-9.219805e+000	-6.309737e+001	-3.634736e+001	1.490220e+002
2875216.638	-3.148694e+001	-5.491459e+001	-9.287172e+000	-6.861218e+001	-9.281087e+000	-6.832782e+001	-3.704015e+001	1.163997e+002
2899653.380	-2.903014e+001	-4.786513e+001	-9.346552e+000	-7.376185e+001	-9.344787e+000	-7.347124e+001	-3.611263e+001	8.677365e+001
2924090.121	-2.706522e+001	-4.595668e+001	-9.412828e+000	-7.881697e+001	-9.407745e+000	-7.853668e+001	-3.455695e+001	6.455363e+001
2948526.863	-2.549929e+001	-4.691674e+001	-9.471410e+000	-8.379645e+001	-9.469964e+000	-8.352351e+001	-3.304342e+001	4.835946e+001
2972963.605	-2.425885e+001	-4.903182e+001	-9.529851e+000	-8.870232e+001	-9.530378e+000	-8.843692e+001	-3.176359e+001	3.558082e+001
2997400.347	-2.324980e+001	-5.189423e+001	-9.586956e+000	-9.354614e+001	-9.587131e+000	-9.329768e+001	-3.074776e+001	2.463855e+001
3021837.088	-2.243814e+001	-5.519297e+001	-9.637757e+000	-9.834601e+001	-9.635888e+000	-9.809230e+001	-2.990701e+001	1.468582e+001
3046273.830	-2.175629e+001	-5.889609e+001	-9.677337e+000	-1.030704e+002	-9.680207e+000	-1.028106e+002	-2.919618e+001	5.636953e+000
3070710.572	-2.119826e+001	-6.279835e+001	-9.708842e+000	-1.077381e+002	-9.715457e+000	-1.074949e+002	-2.863912e+001	-3.307105e+000
3095147.314	-2.076502e+001	-6.695994e+001	-9.722731e+000	-1.124463e+002	-9.728517e+000	-1.121579e+002	-2.810381e+001	-1.283898e+001
3119584.055	-2.043886e+001	-7.119566e+001	-9.728037e+000	-1.171644e+002	-9.731212e+000	-1.169121e+002	-2.776829e+001	-2.306950e+001
3144020.797	-2.022594e+001	-7.549440e+001	-9.725673e+000	-1.219410e+002	-9.727662e+000	-1.217045e+002	-2.752913e+001	-3.346137e+001
3168457.539	-2.011686e+001	-7.967936e+001	-9.720227e+000	-1.268111e+002	-9.722294e+000	-1.265807e+002	-2.740866e+001	-4.454693e+001
3192894.281	-2.009870e+001	-8.375587e+001	-9.712064e+000	-1.317480e+002	-9.715000e+000	-1.315318e+002	-2.735561e+001	-5.636727e+001
3217331.023	-2.018831e+001	-8.760265e+001	-9.711803e+000	-1.367810e+002	-9.713899e+000	-1.365632e+002	-2.738413e+001	-6.880053e+001
3241767.764	-2.035212e+001	-9.103289e+001	-9.720379e+000	-1.418714e+002	-9.724233e+000	-1.416573e+002	-2.746134e+001	-8.198333e+001
3266204.506	-2.057863e+001	-9.400599e+001	-9.746089e+000	-1.469504e+002	-9.748552e+000	-1.467340e+002	-2.756734e+001	-9.522585e+001
3290641.248	-2.082485e+001	-9.680488e+001	-9.767512e+000	-1.519409e+002	-9.771006e+000	-1.517232e+002	-2.751011e+001	-1.079471e+002
3315077.990	-2.116788e+001	-9.966435e+001	-9.770410e+000	-1.569806e+002	-9.768543e+000	-1.567714e+002	-2.708500e+001	-1.212049e+002
3339514.731	-2.168460e+001	-1.021103e+002	-9.767640e+000	-1.622353e+002	-9.767699e+000	-1.620385e+002	-2.646537e+001	-1.356815e+002
3363951.473	-2.236488e+001	-1.033254e+002	-9.790728e+000	-1.676748e+002	-9.788950e+000	-1.674623e+002	-2.576435e+001	-1.504517e+002
3388388.215	-2.313158e+001	-1.029688e+002	-9.834747e+000	-1.731772e+002	-9.835090e+000	-1.729988e+002	-2.499195e+001	-1.650131e+002
3412824.957	-2.390929e+001	-1.005065e+002	-9.911272e+000	-1.787226e+002	-9.907746e+000	-1.785768e+002	-2.416292e+001	-1.788741e+002
3437261.698	-2.459128e+001	-9.558178e+001	-1.001292e+001	1.756962e+002	-1.001075e+001	1.758488e+002	-2.333187e+001	1.680668e+002
3461698.440	-2.494481e+001	-8.836271e+001	-1.014486e+001	1.701516e+002	-1.014498e+001	1.702944e+002	-2.250471e+001	1.557798e+002
3486135.182	-2.478603e+001	-8.026673e+001	-1.030772e+001	1.646912e+002	-1.030954e+001	1.648029e+002	-2.172838e+001	1.442060e+002
3510571.924	-2.413050e+001	-7.311023e+001	-1.049926e+001	1.593520e+002	-1.050655e+001	1.594320e+002	-2.101420e+001	1.333519e+002
3535008.666	-2.315629e+001	-6.814753e+001	-1.071737e+001	1.541795e+002	-1.072642e+001	1.542496e+002	-2.037684e+001	1.232803e+002
3559445.407	-2.208622e+001	-6.544315e+001	-1.094555e+001	1.492034e+002	-1.095911e+001	1.492522e+002	-1.979555e+001	1.139410e+002
3583882.149	-2.105046e+001	-6.461716e+001	-1.117978e+001	1.444464e+002	-1.119775e+001	1.444532e+002	-1.927926e+001	1.053251e+002
3608318.891	-2.007356e+001	-6.489624e+001	-1.141804e+001	1.397824e+002	-1.143726e+001	1.398046e+002	-1.879306e+001	9.734497e+001
3632755.633	-1.916466e+001	-6.604188e+001	-1.166003e+001	1.352010e+002	-1.168090e+001	1.352919e+002	-1.835205e+001	8.977274e+001
3657192.374	-1.833347e+001	-6.780306e+001	-1.190298e+001	1.307822e+002	-1.193485e+001	1.308575e+002	-1.792433e+001	8.252527e+001
3681629.116	-1.753907e+001	-7.011701e+001	-1.216558e+001	1.264476e+002	-1.219731e+001	1.265383e+002	-1.752326e+001	7.554596e+001
3706065.858	-1.680228e+001	-7.293552e+001	-1.244412e+001	1.222880e+002	-1.248613e+001	1.223813e+002	-1.716052e+001	6.857103e+001
3730502.600	-1.612924e+001	-7.633261e+001	-1.274598e+001	1.184446e+002	-1.279384e+001	1.185491e+002	-1.686343e+001	6.165417e+001
3754939.341	-1.553500e+001	-8.016586e+001	-1.305820e+001	1.149603e+002	-1.311203e+001	1.150827e+002	-1.663263e+001	5.481851e+001
3779376.083	-1.503993e+001	-8.441029e+001	-1.335994e+001	1.120342e+002	-1.342125e+001	1.122192e+002	-1.651405e+001	4.806726e+001
3803812.825	-1.466250e+001	-8.892118e+001	-1.361380e+001	1.097228e+002	-1.366914e+001	1.099155e+002	-1.650793e+001	4.173795e+001
3828249.567	-1.444718e+001	-9.336401e+001	-1.374037e+001	1.079129e+002	-1.380049e+001	1.081620e+002	-1.664977e+001	3.609974e+001
3852686.308	-1.437641e+001	-9.719368e+001	-1.370247e+001	1.060208e+002	-1.376473e+001	1.062604e+002	-1.686632e+001	3.190061e+001
3877123.050	-1.438177e+001	-9.978841e+001	-1.352397e+001	1.032438e+002	-1.360042e+001	1.035635e+002	-1.702806e+001	2.936087e+001
3901559.792	-1.430747e+001	-1.012965e+002	-1.334987e+001	9.935759e+001	-1.342664e+001	9.964149e+001	-1.695102e+001	2.794671e+001
3925996.534	-1.405081e+001	-1.023240e+002	-1.328253e+001	9.458985e+001	-1.335726e+001	9.493179e+001	-1.662240e+001	2.616126e+001
3950433.276	-1.365130e+001	-1.039374e+002	-1.335973e+001	8.969262e+001	-1.342771e+001	9.011913e+001	-1.618447e+001	2.313013e+001
3974870.017	-1.321561e+001	-1.064477e+002	-1.354208e+001	8.523366e+001	-1.360174e+001	8.572002e+001	-1.578581e+001	1.895273e+001
3999306.759	-1.282996e+001	-1.097513e+002	-1.377313e+001	8.150511e+001	-1.382704e+001	8.198190e+001	-1.548505e+001	1.413427e+001
4023743.501	-1.253456e+001	-1.134809e+002	-1.398843e+001	7.849419e+001	-1.404071e+001	7.896918e+001	-1.531058e+001	9.111983e+000
4048180.243	-1.234392e+001	-1.172604e+002	-1.412571e+001	7.603898e+001	-1.418545e+001	7.647415e+001	-1.524702e+001	4.316662e+000
4072616.984	-1.223114e+001	-1.208048e+002	-1.416951e+001	7.376787e+001	-1.423992e+001	7.421112e+001	-1.525923e+001	-5.848127e-002
4097053.726	-1.216298e+001	-1.240221e+002	-1.413122e+001	7.137825e+001	-1.420523e+001	7.181944e+001	-1.530646e+001	-3.841490e+000
4121490.468	-1.211442e+001	-1.268456e+002	-1.403167e+001	6.865531e+001	-1.410648e+001	6.919808e+001	-1.536586e+001	-7.114011e+000
4145927.210	-1.206666e+001	-1.293932e+002	-1.390524e+001	6.564226e+001	-1.398150e+001	6.624758e+001	-1.540105e+001	-1.004334e+001
4170363.951	-1.200370e+001	-1.317115e+002	-1.376934e+001	6.238339e+001	-1.383653e+001	6.297036e+001	-1.541125e+001	-1.258151e+001
4194800.693	-1.192304e+001	-1.338555e+002	-1.362892e+001	5.881442e+001	-1.369751e+001	5.944454e+001	-1.538306e+001	-1.501190e+001
4219237.435	-1.181772e+001	-1.359155e+002	-1.349635e+001	5.503407e+001	-1.356497e+001	5.567341e+001	-1.531591e+001	-1.731149e+001
4243674.177	-1.168671e+001	-1.380007e+002	-1.338659e+001	5.110519e+001	-1.345353e+001	5.176632e+001	-1.521435e+001	-1.968375e+001
4268110.919	-1.153978e+001	-1.401421e+002	-1.328949e+001	4.709654e+001	-1.335286e+001	4.780320e+001	-1.510075e+001	-2.211947e+001
4292547.660	-1.138588e+001	-1.423889e+002	-1.320585e+001	4.308092e+001	-1.326553e+001	4.381156e+001	-1.497303e+001	-2.465379e+001
4316984.402	-1.122827e+001	-1.446830e+002	-1.312527e+001	3.901861e+001	-1.318492e+001	3.976913e+001	-1.483811e+001	-2.723441e+001
4341421.144	-1.106668e+001	-1.470709e+002	-1.305484e+001	3.492343e+001	-1.311203e+001	3.568880e+001	-1.469809e+001	-2.987385e+001
4365857.886	-1.090506e+001	-1.495614e+002	-1.299343e+001	3.081740e+001	-1.304871e+001	3.159248e+001	-1.455536e+001	-3.260786e+001
4390294.627	-1.074620e+001	-1.521378e+002	-1.293833e+001	2.670418e+001	-1.298853e+001	2.750577e+001	-1.441424e+001	-3.541123e+001
4414731.369	-1.059696e+001	-1.548305e+002	-1.288796e+001	2.260795e+001	-1.293622e+001	2.342410e+001	-1.428083e+001	-3.830793e+001
4439168.111	-1.045682e+001	-1.575901e+002	-1.283906e+001	1.848018e+001	-1.288590e+001	1.937589e+001	-1.415422e+001	-4.128583e+001
4463604.853	-1.032916e+001	-1.604293e+002	-1.279253e+001	1.443393e+001	-1.283434e+001	1.534740e+001	-1.403984e+001	-4.429402e+001
4488041.594	-1.021222e+001	-1.633107e+002	-1.274466e+001	1.034749e+001	-1.278124e+001	1.129776e+001	-1.393423e+001	-4.731379e+001
4512478.336	-1.010893e+001	-1.662435e+002	-1.269594e+001	6.274277e+000	-1.272797e+001	7.240914e+000	-1.383575e+001	-5.036711e+001
4536915.078	-1.001702e+001	-1.692490e+002	-1.265067e+001	2.194246e+000	-1.268027e+001	3.175360e+000	-1.373980e+001	-5.347139e+001
4561351.820	-9.944642e+000	-1.723185e+002	-1.260989e+001	-1.829553e+000	-1.263435e+001	-8.419984e-001	-1.366029e+001	-5.666139e+001
4585788.562	-9.894245e+000	-1.754288e+002	-1.256392e+001	-5.816676e+000	-1.258070e+001	-4.806944e+000	-1.360071e+001	-5.985385e+001
4610225.303	-9.864889e+000	-1.785120e+002	-1.250864e+001	-9.781139e+000	-1.252033e+001	-8.748124e+000	-1.356496e+001	-6.305681e+001
4634662.045	-9.852177e+000	1.784277e+002	-1.244181e+001	-1.373169e+001	-1.244669e+001	-1.270323e+001	-1.354331e+001	-6.620323e+001
4659098.787	-9.853140e+000	1.753851e+002	-1.236870e+001	-1.774255e+001	-1.236866e+001	-1.669528e+001	-1.352971e+001	-6.933077e+001
4683535.529	-9.870622e+000	1.723585e+002	-1.228778e+001	-2.176795e+001	-1.228072e+001	-2.073331e+001	-1.352975e+001	-7.237990e+001
4707972.270	-9.901372e+000	1.693677e+002	-1.220185e+001	-2.581223e+001	-1.219006e+001	-2.482968e+001	-1.354022e+001	-7.538338e+001
4732409.012	-9.940580e+000	1.664046e+002	-1.210703e+001	-2.995891e+001	-1.209165e+001	-2.896563e+001	-1.356094e+001	-7.834360e+001
4756845.754	-9.995558e+000	1.634682e+002	-1.200864e+001	-3.414608e+001	-1.198799e+001	-3.318071e+001	-1.358783e+001	-8.123248e+001
4781282.496	-1.005950e+001	1.605401e+002	-1.191088e+001	-3.844063e+001	-1.188436e+001	-3.746652e+001	-1.361939e+001	-8.406588e+001
4805719.237	-1.013456e+001	1.576208e+002	-1.181327e+001	-4.279397e+001	-1.178148e+001	-4.183199e+001	-1.365093e+001	-8.684813e+001
4830155.979	-1.022145e+001	1.546947e+002	-1.172012e+001	-4.722725e+001	-1.168390e+001	-4.627639e+001	-1.368308e+001	-8.961340e+001
4854592.721	-1.032518e+001	1.517808e+002	-1.163254e+001	-5.169001e+001	-1.159179e+001	-5.077418e+001	-1.371803e+001	-9.235775e+001
4879029.463	-1.044383e+001	1.488490e+002	-1.154978e+001	-5.622107e+001	-1.150364e+001	-5.531057e+001	-1.375789e+001	-9.508300e+001
4903466.205	-1.058258e+001	1.459368e+002	-1.147407e+001	-6.077397e+001	-1.142228e+001	-5.989068e+001	-1.380041e+001	-9.781420e+001
4927902.946	-1.073994e+001	1.430599e+002	-1.140133e+001	-6.535636e+001	-1.134684e+001	-6.450263e+001	-1.384855e+001	-1.005317e+002
4952339.688	-1.091910e+001	1.402165e+002	-1.133379e+001	-6.998768e+001	-1.127566e+001	-6.912816e+001	-1.390066e+001	-1.032632e+002
4976776.430	-1.111594e+001	1.374253e+002	-1.127048e+001	-7.463526e+001	-1.120988e+001	-7.379269e+001	-1.396051e+001	-1.059329e+002
5001213.172	-1.133648e+001	1.346888e+002	-1.121467e+001	-7.928187e+001	-1.115001e+001	-7.847893e+001	-1.402203e+001	-1.085937e+002
5025649.913	-1.157718e+001	1.320466e+002	-1.116018e+001	-8.394989e+001	-1.109300e+001	-8.318837e+001	-1.408835e+001	-1.112259e+002
5050086.655	-1.183790e+001	1.294818e+002	-1.111179e+001	-8.864511e+001	-1.104288e+001	-8.790644e+001	-1.416151e+001	-1.138507e+002
5074523.397	-1.211927e+001	1.270193e+002	-1.106902e+001	-9.336962e+001	-1.099972e+001	-9.266715e+001	-1.423302e+001	-1.164502e+002
5098960.139	-1.242064e+001	1.246483e+002	-1.103149e+001	-9.810170e+001	-1.096081e+001	-9.742803e+001	-1.430709e+001	-1.190311e+002
5123396.880	-1.274547e+001	1.224049e+002	-1.100046e+001	-1.028385e+002	-1.093001e+001	-1.022041e+002	-1.438261e+001	-1.216205e+002
5147833.622	-1.308884e+001	1.203042e+002	-1.097491e+001	-1.075812e+002	-1.090374e+001	-1.069689e+002	-1.446703e+001	-1.242235e+002
5172270.364	-1.345417e+001	1.183840e+002	-1.095410e+001	-1.123095e+002	-1.088462e+001	-1.117324e+002	-1.455279e+001	-1.268139e+002
5196707.106	-1.383626e+001	1.166538e+002	-1.093573e+001	-1.170363e+002	-1.086566e+001	-1.164861e+002	-1.464492e+001	-1.293596e+002
5221143.847	-1.423224e+001	1.151436e+002	-1.091956e+001	-1.217344e+002	-1.085124e+001	-1.212502e+002	-1.473811e+001	-1.318753e+002
5245580.589	-1.463734e+001	1.138328e+002	-1.090679e+001	-1.264743e+002	-1.084042e+001	-1.260182e+002	-1.483065e+001	-1.344021e+002
5270017.331	-1.505114e+001	1.127440e+002	-1.089694e+001	-1.312161e+002	-1.083170e+001	-1.307854e+002	-1.492166e+001	-1.369298e+002
5294454.073	-1.547042e+001	1.118565e+002	-1.089086e+001	-1.359812e+002	-1.082622e+001	-1.355550e+002	-1.501278e+001	-1.394518e+002
5318890.815	-1.589106e+001	1.112258e+002	-1.088734e+001	-1.407324e+002	-1.082627e+001	-1.403394e+002	-1.510107e+001	-1.420232e+002
5343327.556	-1.631040e+001	1.108055e+002	-1.088941e+001	-1.455008e+002	-1.083048e+001	-1.451223e+002	-1.518981e+001	-1.446166e+002
5367764.298	-1.672837e+001	1.106219e+002	-1.089353e+001	-1.502627e+002	-1.083609e+001	-1.499061e+002	-1.527667e+001	-1.472195e+002
5392201.040	-1.713970e+001	1.106509e+002	-1.090178e+001	-1.550390e+002	-1.084606e+001	-1.546921e+002	-1.536301e+001	-1.498859e+002
5416637.782	-1.753828e+001	1.109136e+002	-1.091224e+001	-1.598107e+002	-1.086037e+001	-1.594826e+002	-1.545091e+001	-1.526090e+002
5441074.523	-1.792885e+001	1.113623e+002	-1.092767e+001	-1.645908e+002	-1.087844e+001	-1.642741e+002	-1.553943e+001	-1.553971e+002
