!Agilent Technologies,E5061B,MY49101568,A.02.00
!Date: Wed Mar 01 15:06:29 2023
!Data & Calibration Information:
!Freq	S11:SOLT2(OFF)	S21:SOLT2(OFF)	S12:SOLT2(OFF)	S22:SOLT2(OFF)
# Hz S dB R 50
1800000.000	-9.417487e+000	-1.793399e+001	-2.453444e+001	-1.334269e+002	-2.452639e+001	-1.334733e+002	-9.772315e+000	1.829020e+001
1824436.742	-9.515629e+000	-2.222874e+001	-2.415782e+001	-1.373645e+002	-2.415617e+001	-1.373517e+002	-9.895056e+000	1.452389e+001
1848873.484	-9.620180e+000	-2.662130e+001	-2.376694e+001	-1.413761e+002	-2.377227e+001	-1.413338e+002	-1.002156e+001	1.070060e+001
1873310.225	-9.731941e+000	-3.107208e+001	-2.337070e+001	-1.454450e+002	-2.338209e+001	-1.454137e+002	-1.014327e+001	6.843348e+000
1897746.967	-9.840574e+000	-3.559593e+001	-2.297111e+001	-1.495378e+002	-2.298913e+001	-1.495885e+002	-1.026498e+001	2.939103e+000
1922183.709	-9.957943e+000	-4.027501e+001	-2.255831e+001	-1.538370e+002	-2.257515e+001	-1.538455e+002	-1.038795e+001	-1.098530e+000
1946620.451	-1.007914e+001	-4.503970e+001	-2.213264e+001	-1.582178e+002	-2.215724e+001	-1.582388e+002	-1.050818e+001	-5.196828e+000
1971057.192	-1.020734e+001	-4.994867e+001	-2.169590e+001	-1.626920e+002	-2.172940e+001	-1.626835e+002	-1.062737e+001	-9.404753e+000
1995493.934	-1.034524e+001	-5.498190e+001	-2.125545e+001	-1.673216e+002	-2.129416e+001	-1.672397e+002	-1.075051e+001	-1.370209e+001
2019930.676	-1.049371e+001	-6.016721e+001	-2.080480e+001	-1.720868e+002	-2.084741e+001	-1.719499e+002	-1.087331e+001	-1.807154e+001
2044367.418	-1.065515e+001	-6.547829e+001	-2.034458e+001	-1.770143e+002	-2.039076e+001	-1.768328e+002	-1.099336e+001	-2.257463e+001
2068804.159	-1.082758e+001	-7.091274e+001	-1.988617e+001	1.779384e+002	-1.993941e+001	1.781021e+002	-1.111315e+001	-2.714738e+001
2093240.901	-1.101434e+001	-7.649801e+001	-1.943398e+001	1.726748e+002	-1.948772e+001	1.728424e+002	-1.123531e+001	-3.176932e+001
2117677.643	-1.121800e+001	-8.226873e+001	-1.898167e+001	1.672786e+002	-1.903417e+001	1.674911e+002	-1.135536e+001	-3.649161e+001
2142114.385	-1.143733e+001	-8.821204e+001	-1.853568e+001	1.617302e+002	-1.859105e+001	1.619751e+002	-1.146896e+001	-4.133189e+001
2166551.127	-1.167855e+001	-9.434299e+001	-1.808944e+001	1.559921e+002	-1.814573e+001	1.563007e+002	-1.158022e+001	-4.627774e+001
2190987.868	-1.193995e+001	-1.006494e+002	-1.765373e+001	1.500540e+002	-1.770866e+001	1.504210e+002	-1.169460e+001	-5.131904e+001
2215424.610	-1.222421e+001	-1.071230e+002	-1.723827e+001	1.439355e+002	-1.728895e+001	1.443590e+002	-1.180131e+001	-5.645356e+001
2239861.352	-1.252639e+001	-1.138396e+002	-1.684142e+001	1.377065e+002	-1.688960e+001	1.381955e+002	-1.189944e+001	-6.168052e+001
2264298.094	-1.285125e+001	-1.207593e+002	-1.644885e+001	1.313633e+002	-1.649896e+001	1.319015e+002	-1.199124e+001	-6.702385e+001
2288734.835	-1.320065e+001	-1.279036e+002	-1.608196e+001	1.248753e+002	-1.612673e+001	1.254325e+002	-1.207695e+001	-7.247315e+001
2313171.577	-1.357245e+001	-1.352671e+002	-1.573662e+001	1.182451e+002	-1.576858e+001	1.188368e+002	-1.215029e+001	-7.801072e+001
2337608.319	-1.395871e+001	-1.428698e+002	-1.540980e+001	1.114836e+002	-1.543729e+001	1.121100e+002	-1.221397e+001	-8.364864e+001
2362045.061	-1.436077e+001	-1.507079e+002	-1.510693e+001	1.046426e+002	-1.513284e+001	1.052695e+002	-1.226567e+001	-8.937270e+001
2386481.802	-1.476493e+001	-1.587850e+002	-1.483309e+001	9.769305e+001	-1.485094e+001	9.834139e+001	-1.229964e+001	-9.522099e+001
2410918.544	-1.516574e+001	-1.671419e+002	-1.458832e+001	9.069694e+001	-1.459727e+001	9.134937e+001	-1.231526e+001	-1.012057e+002
2435355.286	-1.555274e+001	-1.757889e+002	-1.437047e+001	8.362856e+001	-1.436807e+001	8.428796e+001	-1.231650e+001	-1.073193e+002
2459792.028	-1.592057e+001	1.752498e+002	-1.417711e+001	7.653750e+001	-1.416707e+001	7.718180e+001	-1.230221e+001	-1.135915e+002
2484228.769	-1.625755e+001	1.660140e+002	-1.401139e+001	6.937674e+001	-1.399354e+001	7.005096e+001	-1.227599e+001	-1.200064e+002
2508665.511	-1.654828e+001	1.565467e+002	-1.387183e+001	6.221836e+001	-1.384790e+001	6.288674e+001	-1.223650e+001	-1.265502e+002
2533102.253	-1.678391e+001	1.468876e+002	-1.376437e+001	5.509663e+001	-1.373137e+001	5.567969e+001	-1.218856e+001	-1.331945e+002
2557538.995	-1.695479e+001	1.370662e+002	-1.368424e+001	4.795292e+001	-1.364435e+001	4.850750e+001	-1.213546e+001	-1.399734e+002
2581975.737	-1.705719e+001	1.272049e+002	-1.363316e+001	4.084896e+001	-1.358520e+001	4.137699e+001	-1.207771e+001	-1.468508e+002
2606412.478	-1.708466e+001	1.173933e+002	-1.360922e+001	3.377872e+001	-1.355512e+001	3.424941e+001	-1.201777e+001	-1.538179e+002
2630849.220	-1.704543e+001	1.076878e+002	-1.361548e+001	2.675871e+001	-1.355327e+001	2.718168e+001	-1.196071e+001	-1.608391e+002
2655285.962	-1.694029e+001	9.818063e+001	-1.364647e+001	1.982750e+001	-1.358120e+001	2.021111e+001	-1.190918e+001	-1.678916e+002
2679722.704	-1.678402e+001	8.891711e+001	-1.370464e+001	1.301656e+001	-1.363576e+001	1.332328e+001	-1.186211e+001	-1.749558e+002
2704159.445	-1.658266e+001	7.998431e+001	-1.378106e+001	6.293932e+000	-1.371124e+001	6.549074e+000	-1.181880e+001	1.780172e+002
2728596.187	-1.635307e+001	7.134964e+001	-1.388154e+001	-3.189212e-001	-1.380858e+001	-1.250684e-001	-1.178507e+001	1.710190e+002
2753032.929	-1.610339e+001	6.308887e+001	-1.399908e+001	-6.797900e+000	-1.392943e+001	-6.656162e+000	-1.176209e+001	1.640948e+002
2777469.671	-1.583661e+001	5.519654e+001	-1.413430e+001	-1.313865e+001	-1.406592e+001	-1.305499e+001	-1.175083e+001	1.572818e+002
2801906.412	-1.557389e+001	4.766646e+001	-1.428410e+001	-1.933400e+001	-1.421931e+001	-1.930682e+001	-1.174761e+001	1.505820e+002
2826343.154	-1.530988e+001	4.047339e+001	-1.444683e+001	-2.537777e+001	-1.438661e+001	-2.540374e+001	-1.175541e+001	1.440231e+002
2850779.896	-1.504904e+001	3.359141e+001	-1.461957e+001	-3.127879e+001	-1.456215e+001	-3.134852e+001	-1.177104e+001	1.376147e+002
2875216.638	-1.479619e+001	2.701754e+001	-1.480215e+001	-3.705307e+001	-1.474793e+001	-3.711649e+001	-1.179660e+001	1.313589e+002
2899653.380	-1.455396e+001	2.071930e+001	-1.498691e+001	-4.263966e+001	-1.493958e+001	-4.274336e+001	-1.183001e+001	1.252881e+002
2924090.121	-1.432150e+001	1.470192e+001	-1.517849e+001	-4.807805e+001	-1.513499e+001	-4.820947e+001	-1.186815e+001	1.193879e+002
2948526.863	-1.410037e+001	8.924818e+000	-1.536600e+001	-5.338191e+001	-1.533170e+001	-5.352492e+001	-1.191255e+001	1.136561e+002
2972963.605	-1.388892e+001	3.376810e+000	-1.555556e+001	-5.852163e+001	-1.552884e+001	-5.869701e+001	-1.196097e+001	1.080928e+002
2997400.347	-1.368854e+001	-1.961926e+000	-1.574360e+001	-6.352459e+001	-1.572284e+001	-6.370615e+001	-1.201151e+001	1.026868e+002
3021837.088	-1.349631e+001	-7.123228e+000	-1.592511e+001	-6.838887e+001	-1.591127e+001	-6.858835e+001	-1.206502e+001	9.743253e+001
3046273.830	-1.331548e+001	-1.211326e+001	-1.609873e+001	-7.312713e+001	-1.609223e+001	-7.333236e+001	-1.212211e+001	9.230721e+001
3070710.572	-1.314494e+001	-1.694588e+001	-1.626313e+001	-7.777923e+001	-1.626266e+001	-7.797386e+001	-1.218293e+001	8.732610e+001
3095147.314	-1.298434e+001	-2.162669e+001	-1.641871e+001	-8.232559e+001	-1.642357e+001	-8.253163e+001	-1.224643e+001	8.249083e+001
3119584.055	-1.283167e+001	-2.617018e+001	-1.656695e+001	-8.678477e+001	-1.658127e+001	-8.698014e+001	-1.231183e+001	7.780565e+001
3144020.797	-1.269126e+001	-3.057875e+001	-1.670736e+001	-9.112974e+001	-1.672215e+001	-9.136185e+001	-1.237787e+001	7.324704e+001
3168457.539	-1.255465e+001	-3.488474e+001	-1.683522e+001	-9.542946e+001	-1.685886e+001	-9.563304e+001	-1.244527e+001	6.879670e+001
3192894.281	-1.242743e+001	-3.908945e+001	-1.695054e+001	-9.966423e+001	-1.697783e+001	-9.986676e+001	-1.251629e+001	6.445477e+001
3217331.023	-1.230801e+001	-4.318658e+001	-1.705729e+001	-1.038585e+002	-1.708782e+001	-1.040417e+002	-1.258689e+001	6.022399e+001
3241767.764	-1.219653e+001	-4.718793e+001	-1.715407e+001	-1.080344e+002	-1.719532e+001	-1.081799e+002	-1.266079e+001	5.610996e+001
3266204.506	-1.208950e+001	-5.109223e+001	-1.725068e+001	-1.121313e+002	-1.729431e+001	-1.122545e+002	-1.273108e+001	5.212825e+001
3290641.248	-1.198579e+001	-5.492766e+001	-1.733275e+001	-1.161145e+002	-1.738338e+001	-1.162137e+002	-1.279484e+001	4.819992e+001
3315077.990	-1.188450e+001	-5.872745e+001	-1.739160e+001	-1.199974e+002	-1.744561e+001	-1.200659e+002	-1.286049e+001	4.428284e+001
3339514.731	-1.179574e+001	-6.249499e+001	-1.742801e+001	-1.239107e+002	-1.748661e+001	-1.239727e+002	-1.293627e+001	4.042635e+001
3363951.473	-1.171767e+001	-6.619228e+001	-1.745064e+001	-1.278852e+002	-1.751193e+001	-1.278991e+002	-1.302133e+001	3.665749e+001
3388388.215	-1.164958e+001	-6.983573e+001	-1.746341e+001	-1.318697e+002	-1.752856e+001	-1.318605e+002	-1.310995e+001	3.298543e+001
3412824.957	-1.159207e+001	-7.340618e+001	-1.746409e+001	-1.358797e+002	-1.753496e+001	-1.358362e+002	-1.320538e+001	2.939806e+001
3437261.698	-1.154260e+001	-7.691858e+001	-1.745538e+001	-1.399117e+002	-1.753048e+001	-1.398267e+002	-1.330346e+001	2.590629e+001
3461698.440	-1.150093e+001	-8.035290e+001	-1.744088e+001	-1.439619e+002	-1.751563e+001	-1.438407e+002	-1.340994e+001	2.249278e+001
3486135.182	-1.147205e+001	-8.372126e+001	-1.741690e+001	-1.480714e+002	-1.749451e+001	-1.479294e+002	-1.352283e+001	1.920236e+001
3510571.924	-1.145178e+001	-8.702206e+001	-1.738348e+001	-1.522221e+002	-1.746248e+001	-1.520229e+002	-1.363912e+001	1.600831e+001
3535008.666	-1.143822e+001	-9.022515e+001	-1.734695e+001	-1.563874e+002	-1.742781e+001	-1.561453e+002	-1.375765e+001	1.292792e+001
3559445.407	-1.142912e+001	-9.335933e+001	-1.730425e+001	-1.605401e+002	-1.738541e+001	-1.602858e+002	-1.387485e+001	9.958416e+000
3583882.149	-1.142561e+001	-9.641768e+001	-1.724651e+001	-1.647219e+002	-1.732910e+001	-1.644050e+002	-1.399242e+001	7.045752e+000
3608318.891	-1.142622e+001	-9.941864e+001	-1.717833e+001	-1.689478e+002	-1.725841e+001	-1.686180e+002	-1.411644e+001	4.223702e+000
3632755.633	-1.143381e+001	-1.023622e+002	-1.709330e+001	-1.733173e+002	-1.717613e+001	-1.729001e+002	-1.424872e+001	1.469653e+000
3657192.374	-1.144952e+001	-1.052329e+002	-1.700267e+001	-1.777251e+002	-1.708345e+001	-1.772973e+002	-1.438736e+001	-1.148412e+000
3681629.116	-1.147192e+001	-1.080467e+002	-1.690217e+001	1.777546e+002	-1.698156e+001	1.781919e+002	-1.453190e+001	-3.660414e+000
3706065.858	-1.150504e+001	-1.107531e+002	-1.680023e+001	1.730411e+002	-1.687726e+001	1.735258e+002	-1.468856e+001	-5.998027e+000
3730502.600	-1.154628e+001	-1.133714e+002	-1.670464e+001	1.682271e+002	-1.677932e+001	1.687352e+002	-1.484119e+001	-8.114302e+000
3754939.341	-1.159223e+001	-1.158839e+002	-1.661117e+001	1.632942e+002	-1.668756e+001	1.638257e+002	-1.499121e+001	-1.004191e+001
3779376.083	-1.164549e+001	-1.182807e+002	-1.652272e+001	1.582697e+002	-1.659822e+001	1.588550e+002	-1.513441e+001	-1.183528e+001
3803812.825	-1.170521e+001	-1.205841e+002	-1.643350e+001	1.531773e+002	-1.650734e+001	1.537106e+002	-1.527690e+001	-1.342656e+001
3828249.567	-1.177344e+001	-1.226714e+002	-1.635414e+001	1.478276e+002	-1.642635e+001	1.484410e+002	-1.540925e+001	-1.478318e+001
3852686.308	-1.183939e+001	-1.245792e+002	-1.628936e+001	1.423955e+002	-1.635563e+001	1.429937e+002	-1.552672e+001	-1.586009e+001
3877123.050	-1.189971e+001	-1.262480e+002	-1.624010e+001	1.367797e+002	-1.630651e+001	1.373838e+002	-1.561592e+001	-1.666510e+001
3901559.792	-1.194375e+001	-1.276962e+002	-1.621348e+001	1.310339e+002	-1.628436e+001	1.316525e+002	-1.566077e+001	-1.719103e+001
3925996.534	-1.195971e+001	-1.289393e+002	-1.621609e+001	1.251673e+002	-1.628387e+001	1.257809e+002	-1.565669e+001	-1.752849e+001
3950433.276	-1.194138e+001	-1.300025e+002	-1.624659e+001	1.191729e+002	-1.631558e+001	1.198091e+002	-1.558606e+001	-1.774954e+001
3974870.017	-1.187805e+001	-1.309352e+002	-1.631742e+001	1.130921e+002	-1.638528e+001	1.137333e+002	-1.544754e+001	-1.792864e+001
3999306.759	-1.176099e+001	-1.318314e+002	-1.642848e+001	1.069571e+002	-1.650026e+001	1.075972e+002	-1.523306e+001	-1.823323e+001
4023743.501	-1.159160e+001	-1.327867e+002	-1.658531e+001	1.007887e+002	-1.665818e+001	1.014686e+002	-1.495472e+001	-1.879402e+001
4048180.243	-1.136754e+001	-1.338914e+002	-1.679310e+001	9.462787e+001	-1.686544e+001	9.536316e+001	-1.462443e+001	-1.965808e+001
4072616.984	-1.110124e+001	-1.352630e+002	-1.705616e+001	8.854864e+001	-1.712866e+001	8.929167e+001	-1.425158e+001	-2.091719e+001
4097053.726	-1.080123e+001	-1.369502e+002	-1.737702e+001	8.256594e+001	-1.745068e+001	8.335350e+001	-1.385606e+001	-2.262133e+001
4121490.468	-1.048300e+001	-1.389997e+002	-1.775861e+001	7.679933e+001	-1.782962e+001	7.761166e+001	-1.345156e+001	-2.475550e+001
4145927.210	-1.015684e+001	-1.414271e+002	-1.820383e+001	7.130889e+001	-1.827819e+001	7.213924e+001	-1.305166e+001	-2.731434e+001
4170363.951	-9.836037e+000	-1.442450e+002	-1.872457e+001	6.626297e+001	-1.879030e+001	6.713608e+001	-1.266921e+001	-3.026048e+001
4194800.693	-9.535930e+000	-1.474207e+002	-1.930187e+001	6.180477e+001	-1.936709e+001	6.268272e+001	-1.231367e+001	-3.357256e+001
4219237.435	-9.271665e+000	-1.509576e+002	-1.991811e+001	5.819628e+001	-1.998180e+001	5.913087e+001	-1.199913e+001	-3.722287e+001
4243674.177	-9.056117e+000	-1.546993e+002	-2.050707e+001	5.549940e+001	-2.057116e+001	5.647391e+001	-1.173734e+001	-4.103940e+001
4268110.919	-8.884677e+000	-1.585395e+002	-2.104372e+001	5.352267e+001	-2.110297e+001	5.456982e+001	-1.152234e+001	-4.492570e+001
4292547.660	-8.752345e+000	-1.624308e+002	-2.150626e+001	5.211259e+001	-2.155554e+001	5.323590e+001	-1.134439e+001	-4.879664e+001
4316984.402	-8.652241e+000	-1.663666e+002	-2.189174e+001	5.126093e+001	-2.192432e+001	5.242267e+001	-1.119328e+001	-5.268405e+001
4341421.144	-8.589222e+000	-1.703137e+002	-2.215136e+001	5.081827e+001	-2.218172e+001	5.197209e+001	-1.107196e+001	-5.654000e+001
4365857.886	-8.558364e+000	-1.742017e+002	-2.228620e+001	5.029083e+001	-2.230333e+001	5.141810e+001	-1.097649e+001	-6.030371e+001
4390294.627	-8.543325e+000	-1.779662e+002	-2.233600e+001	4.922513e+001	-2.235663e+001	5.032156e+001	-1.088862e+001	-6.391335e+001
4414731.369	-8.525931e+000	1.783233e+002	-2.241139e+001	4.766931e+001	-2.243896e+001	4.889307e+001	-1.079058e+001	-6.745149e+001
4439168.111	-8.497475e+000	1.745171e+002	-2.258548e+001	4.619975e+001	-2.258378e+001	4.763862e+001	-1.067192e+001	-7.105938e+001
4463604.853	-8.472000e+000	1.704530e+002	-2.281812e+001	4.584836e+001	-2.277584e+001	4.734128e+001	-1.053748e+001	-7.485789e+001
4488041.594	-8.477392e+000	1.660013e+002	-2.295261e+001	4.738561e+001	-2.288047e+001	4.857447e+001	-1.040723e+001	-7.899123e+001
4512478.336	-8.558038e+000	1.612854e+002	-2.271277e+001	4.997275e+001	-2.264747e+001	5.091835e+001	-1.032273e+001	-8.348734e+001
4536915.078	-8.737988e+000	1.565613e+002	-2.201675e+001	5.152462e+001	-2.199273e+001	5.237244e+001	-1.031496e+001	-8.812452e+001
4561351.820	-8.994476e+000	1.522380e+002	-2.115293e+001	5.022582e+001	-2.114520e+001	5.121621e+001	-1.038112e+001	-9.255044e+001
4585788.562	-9.266486e+000	1.483595e+002	-2.043816e+001	4.686868e+001	-2.041145e+001	4.800700e+001	-1.046926e+001	-9.659777e+001
4610225.303	-9.525610e+000	1.446636e+002	-1.989789e+001	4.293619e+001	-1.985396e+001	4.408398e+001	-1.054253e+001	-1.004189e+002
4634662.045	-9.781428e+000	1.409331e+002	-1.946426e+001	3.909946e+001	-1.940503e+001	4.012812e+001	-1.059752e+001	-1.042255e+002
4659098.787	-1.005418e+001	1.371604e+002	-1.906496e+001	3.528408e+001	-1.900304e+001	3.623221e+001	-1.064442e+001	-1.080831e+002
4683535.529	-1.034660e+001	1.333279e+002	-1.869669e+001	3.152048e+001	-1.862281e+001	3.244374e+001	-1.068951e+001	-1.120605e+002
4707972.270	-1.066792e+001	1.293411e+002	-1.833063e+001	2.807485e+001	-1.825162e+001	2.890157e+001	-1.073042e+001	-1.162068e+002
4732409.012	-1.105164e+001	1.251357e+002	-1.790814e+001	2.479970e+001	-1.782074e+001	2.553593e+001	-1.079131e+001	-1.206740e+002
4756845.754	-1.153806e+001	1.209019e+002	-1.737728e+001	2.125960e+001	-1.729038e+001	2.193693e+001	-1.090446e+001	-1.254264e+002
4781282.496	-1.213004e+001	1.170163e+002	-1.679151e+001	1.689894e+001	-1.670071e+001	1.748212e+001	-1.109508e+001	-1.302058e+002
4805719.237	-1.279324e+001	1.137172e+002	-1.623700e+001	1.166170e+001	-1.614617e+001	1.217962e+001	-1.134531e+001	-1.347994e+002
4830155.979	-1.348858e+001	1.109659e+002	-1.575716e+001	5.960012e+000	-1.567552e+001	6.412994e+000	-1.162311e+001	-1.391522e+002
4854592.721	-1.420771e+001	1.086660e+002	-1.534524e+001	5.620377e-002	-1.527088e+001	4.844666e-001	-1.191723e+001	-1.433676e+002
4879029.463	-1.495344e+001	1.067806e+002	-1.498110e+001	-5.929456e+000	-1.491219e+001	-5.509407e+000	-1.222967e+001	-1.475155e+002
4903466.205	-1.573163e+001	1.053642e+002	-1.465187e+001	-1.197988e+001	-1.458383e+001	-1.158470e+001	-1.257320e+001	-1.516109e+002
4927902.946	-1.653895e+001	1.045492e+002	-1.435003e+001	-1.809607e+001	-1.428561e+001	-1.775107e+001	-1.294608e+001	-1.555874e+002
4952339.688	-1.735808e+001	1.043891e+002	-1.407730e+001	-2.434041e+001	-1.400947e+001	-2.392509e+001	-1.334936e+001	-1.595384e+002
4976776.430	-1.816419e+001	1.049800e+002	-1.383582e+001	-3.064923e+001	-1.376905e+001	-3.027614e+001	-1.378828e+001	-1.631956e+002
5001213.172	-1.893220e+001	1.063134e+002	-1.362613e+001	-3.701014e+001	-1.356672e+001	-3.670148e+001	-1.424685e+001	-1.666044e+002
5025649.913	-1.963655e+001	1.082388e+002	-1.344902e+001	-4.339196e+001	-1.339636e+001	-4.310069e+001	-1.472050e+001	-1.698129e+002
5050086.655	-2.026543e+001	1.106881e+002	-1.330083e+001	-4.977749e+001	-1.325528e+001	-4.950612e+001	-1.520622e+001	-1.728081e+002
5074523.397	-2.080805e+001	1.134583e+002	-1.317815e+001	-5.613473e+001	-1.314116e+001	-5.587113e+001	-1.570123e+001	-1.755743e+002
5098960.139	-2.127377e+001	1.164855e+002	-1.308066e+001	-6.246316e+001	-1.304705e+001	-6.218079e+001	-1.619960e+001	-1.781261e+002
5123396.880	-2.165290e+001	1.196182e+002	-1.300326e+001	-6.873940e+001	-1.297492e+001	-6.845676e+001	-1.670362e+001	1.795403e+002
5147833.622	-2.197053e+001	1.228700e+002	-1.294262e+001	-7.497228e+001	-1.291535e+001	-7.467775e+001	-1.721006e+001	1.774178e+002
5172270.364	-2.221719e+001	1.261361e+002	-1.289636e+001	-8.115594e+001	-1.287364e+001	-8.085406e+001	-1.771272e+001	1.755420e+002
5196707.106	-2.239730e+001	1.294693e+002	-1.286237e+001	-8.731171e+001	-1.284144e+001	-8.699304e+001	-1.820964e+001	1.739212e+002
5221143.847	-2.251194e+001	1.326538e+002	-1.284145e+001	-9.341091e+001	-1.282384e+001	-9.308821e+001	-1.869170e+001	1.725507e+002
5245580.589	-2.257003e+001	1.357859e+002	-1.283241e+001	-9.950790e+001	-1.281474e+001	-9.917674e+001	-1.915127e+001	1.714621e+002
5270017.331	-2.258000e+001	1.387718e+002	-1.283568e+001	-1.055747e+002	-1.281932e+001	-1.052230e+002	-1.957699e+001	1.705837e+002
5294454.073	-2.255184e+001	1.416128e+002	-1.284788e+001	-1.115905e+002	-1.283247e+001	-1.112276e+002	-1.995829e+001	1.698494e+002
5318890.815	-2.247882e+001	1.443120e+002	-1.286817e+001	-1.175760e+002	-1.285381e+001	-1.171941e+002	-2.029960e+001	1.692358e+002
5343327.556	-2.235683e+001	1.468570e+002	-1.289278e+001	-1.235301e+002	-1.288004e+001	-1.231355e+002	-2.059833e+001	1.686863e+002
5367764.298	-2.220308e+001	1.491555e+002	-1.292296e+001	-1.294605e+002	-1.290885e+001	-1.290612e+002	-2.084592e+001	1.682534e+002
5392201.040	-2.202202e+001	1.510852e+002	-1.295820e+001	-1.354254e+002	-1.294372e+001	-1.350065e+002	-2.102819e+001	1.678317e+002
5416637.782	-2.183692e+001	1.527389e+002	-1.299859e+001	-1.413929e+002	-1.298676e+001	-1.409604e+002	-2.114208e+001	1.672948e+002
5441074.523	-2.166410e+001	1.541656e+002	-1.304995e+001	-1.473556e+002	-1.303849e+001	-1.469169e+002	-2.118864e+001	1.664951e+002
