!Agilent Technologies,E5061B,MY49101568,A.02.00
!Date: Wed Mar 01 14:58:44 2023
!Data & Calibration Information:
!Freq	S11:SOLT2(OFF)	S21:SOLT2(OFF)	S12:SOLT2(OFF)	S22:SOLT2(OFF)
# Hz S dB R 50
1800000.000	-1.006440e+001	-1.628614e+001	-2.235488e+001	-1.523565e+002	-2.235280e+001	-1.526508e+002	-1.053908e+001	2.030472e+001
1824436.742	-1.019600e+001	-2.047971e+001	-2.205188e+001	-1.561753e+002	-2.204578e+001	-1.564506e+002	-1.069389e+001	1.663904e+001
1848873.484	-1.033614e+001	-2.473943e+001	-2.172725e+001	-1.600715e+002	-2.173094e+001	-1.603026e+002	-1.085109e+001	1.290960e+001
1873310.225	-1.048613e+001	-2.903828e+001	-2.139309e+001	-1.640977e+002	-2.140187e+001	-1.643518e+002	-1.100809e+001	9.201879e+000
1897746.967	-1.063595e+001	-3.340950e+001	-2.104822e+001	-1.681831e+002	-2.106460e+001	-1.684670e+002	-1.116564e+001	5.419284e+000
1922183.709	-1.079835e+001	-3.787252e+001	-2.069309e+001	-1.724100e+002	-2.071462e+001	-1.726032e+002	-1.132396e+001	1.526884e+000
1946620.451	-1.096299e+001	-4.241576e+001	-2.034026e+001	-1.767548e+002	-2.035296e+001	-1.769391e+002	-1.148412e+001	-2.426599e+000
1971057.192	-1.114093e+001	-4.708057e+001	-1.997368e+001	1.787936e+002	-2.000103e+001	1.786447e+002	-1.164273e+001	-6.440028e+000
1995493.934	-1.132768e+001	-5.184068e+001	-1.960611e+001	1.742209e+002	-1.963863e+001	1.741258e+002	-1.180492e+001	-1.053949e+001
2019930.676	-1.152802e+001	-5.668965e+001	-1.923904e+001	1.695293e+002	-1.927908e+001	1.694224e+002	-1.196617e+001	-1.464176e+001
2044367.418	-1.173853e+001	-6.162451e+001	-1.886859e+001	1.647746e+002	-1.890438e+001	1.647098e+002	-1.212389e+001	-1.893921e+001
2068804.159	-1.196271e+001	-6.670803e+001	-1.849770e+001	1.599147e+002	-1.853855e+001	1.599072e+002	-1.227310e+001	-2.329005e+001
2093240.901	-1.220222e+001	-7.186600e+001	-1.812205e+001	1.549501e+002	-1.816550e+001	1.549813e+002	-1.242838e+001	-2.770833e+001
2117677.643	-1.246899e+001	-7.721269e+001	-1.773230e+001	1.498261e+002	-1.777338e+001	1.498942e+002	-1.258798e+001	-3.223714e+001
2142114.385	-1.275021e+001	-8.263106e+001	-1.735963e+001	1.445132e+002	-1.740669e+001	1.445920e+002	-1.273380e+001	-3.678472e+001
2166551.127	-1.305926e+001	-8.821032e+001	-1.697122e+001	1.390749e+002	-1.702627e+001	1.392311e+002	-1.288128e+001	-4.153545e+001
2190987.868	-1.338673e+001	-9.385563e+001	-1.660743e+001	1.334130e+002	-1.665747e+001	1.335874e+002	-1.302669e+001	-4.628821e+001
2215424.610	-1.372510e+001	-9.961469e+001	-1.626512e+001	1.275848e+002	-1.630528e+001	1.278554e+002	-1.315789e+001	-5.115645e+001
2239861.352	-1.408540e+001	-1.055584e+002	-1.593654e+001	1.216768e+002	-1.597655e+001	1.219844e+002	-1.327240e+001	-5.613450e+001
2264298.094	-1.445864e+001	-1.116530e+002	-1.562328e+001	1.156573e+002	-1.565717e+001	1.159996e+002	-1.338005e+001	-6.121821e+001
2288734.835	-1.484860e+001	-1.179592e+002	-1.533026e+001	1.095293e+002	-1.535484e+001	1.099200e+002	-1.346868e+001	-6.646180e+001
2313171.577	-1.525487e+001	-1.245537e+002	-1.504976e+001	1.033958e+002	-1.506980e+001	1.037763e+002	-1.353600e+001	-7.184388e+001
2337608.319	-1.568582e+001	-1.313762e+002	-1.477777e+001	9.712701e+001	-1.480100e+001	9.746306e+001	-1.359420e+001	-7.736738e+001
2362045.061	-1.611875e+001	-1.384261e+002	-1.453178e+001	9.077637e+001	-1.455049e+001	9.107452e+001	-1.363288e+001	-8.298301e+001
2386481.802	-1.654768e+001	-1.458046e+002	-1.430916e+001	8.432581e+001	-1.433299e+001	8.458830e+001	-1.364649e+001	-8.878757e+001
2410918.544	-1.695940e+001	-1.534954e+002	-1.412136e+001	7.776963e+001	-1.415451e+001	7.801942e+001	-1.362395e+001	-9.466539e+001
2435355.286	-1.732789e+001	-1.617570e+002	-1.396712e+001	7.128328e+001	-1.401411e+001	7.162205e+001	-1.355604e+001	-1.008742e+002
2459792.028	-1.767078e+001	-1.707438e+002	-1.382584e+001	6.489256e+001	-1.387333e+001	6.540304e+001	-1.347100e+001	-1.074854e+002
2484228.769	-1.795765e+001	1.792824e+002	-1.370561e+001	5.871651e+001	-1.369768e+001	5.936281e+001	-1.339456e+001	-1.146277e+002
2508665.511	-1.833847e+001	1.688475e+002	-1.353302e+001	5.231358e+001	-1.351740e+001	5.294136e+001	-1.334875e+001	-1.217987e+002
2533102.253	-1.867086e+001	1.582723e+002	-1.338692e+001	4.571269e+001	-1.335773e+001	4.620140e+001	-1.331935e+001	-1.289126e+002
2557538.995	-1.892747e+001	1.476747e+002	-1.327801e+001	3.889304e+001	-1.325003e+001	3.932305e+001	-1.327582e+001	-1.360083e+002
2581975.737	-1.906315e+001	1.370919e+002	-1.321827e+001	3.198515e+001	-1.317969e+001	3.238663e+001	-1.322521e+001	-1.431522e+002
2606412.478	-1.906065e+001	1.264980e+002	-1.320974e+001	2.514332e+001	-1.316480e+001	2.557213e+001	-1.314410e+001	-1.502966e+002
2630849.220	-1.890761e+001	1.156417e+002	-1.323654e+001	1.857170e+001	-1.319093e+001	1.891547e+001	-1.304380e+001	-1.575583e+002
2655285.962	-1.866615e+001	1.047920e+002	-1.327907e+001	1.217426e+001	-1.322770e+001	1.248080e+001	-1.293649e+001	-1.649897e+002
2679722.704	-1.839369e+001	9.407794e+001	-1.331523e+001	5.866269e+000	-1.326130e+001	6.134979e+000	-1.285046e+001	-1.725885e+002
2704159.445	-1.810244e+001	8.388509e+001	-1.336275e+001	-5.018000e-001	-1.329600e+001	-2.737775e-001	-1.280079e+001	1.798972e+002
2728596.187	-1.779328e+001	7.443797e+001	-1.343778e+001	-6.919365e+000	-1.337168e+001	-6.741464e+000	-1.276133e+001	1.726215e+002
2753032.929	-1.744407e+001	6.544521e+001	-1.354152e+001	-1.318366e+001	-1.346725e+001	-1.304656e+001	-1.273033e+001	1.653858e+002
2777469.671	-1.707839e+001	5.709550e+001	-1.368008e+001	-1.936854e+001	-1.360567e+001	-1.926844e+001	-1.269132e+001	1.584306e+002
2801906.412	-1.671758e+001	4.921460e+001	-1.383356e+001	-2.545226e+001	-1.375450e+001	-2.538970e+001	-1.267293e+001	1.516199e+002
2826343.154	-1.635758e+001	4.169102e+001	-1.399852e+001	-3.132639e+001	-1.392919e+001	-3.133034e+001	-1.265155e+001	1.449839e+002
2850779.896	-1.599952e+001	3.461784e+001	-1.418632e+001	-3.703999e+001	-1.411948e+001	-3.706729e+001	-1.263026e+001	1.385379e+002
2875216.638	-1.565345e+001	2.787667e+001	-1.438733e+001	-4.256531e+001	-1.432427e+001	-4.261036e+001	-1.260960e+001	1.322468e+002
2899653.380	-1.532305e+001	2.144614e+001	-1.459037e+001	-4.786784e+001	-1.452798e+001	-4.797775e+001	-1.259664e+001	1.260784e+002
2924090.121	-1.501346e+001	1.526417e+001	-1.479068e+001	-5.302276e+001	-1.473589e+001	-5.316913e+001	-1.259187e+001	1.201077e+002
2948526.863	-1.472344e+001	9.355047e+000	-1.498752e+001	-5.803799e+001	-1.494015e+001	-5.822437e+001	-1.259505e+001	1.142765e+002
2972963.605	-1.445235e+001	3.687215e+000	-1.518269e+001	-6.289506e+001	-1.514351e+001	-6.311734e+001	-1.260046e+001	1.086089e+002
2997400.347	-1.419881e+001	-1.750761e+000	-1.537614e+001	-6.764244e+001	-1.534381e+001	-6.788387e+001	-1.261440e+001	1.031236e+002
3021837.088	-1.396019e+001	-6.971280e+000	-1.556979e+001	-7.226801e+001	-1.554388e+001	-7.251117e+001	-1.262707e+001	9.782993e+001
3046273.830	-1.373676e+001	-1.202290e+001	-1.575175e+001	-7.674759e+001	-1.572981e+001	-7.698570e+001	-1.264795e+001	9.262387e+001
3070710.572	-1.352581e+001	-1.691372e+001	-1.592221e+001	-8.107102e+001	-1.591501e+001	-8.135488e+001	-1.266998e+001	8.759954e+001
3095147.314	-1.332967e+001	-2.163862e+001	-1.608459e+001	-8.536154e+001	-1.608245e+001	-8.562813e+001	-1.269840e+001	8.268045e+001
3119584.055	-1.314612e+001	-2.626415e+001	-1.623206e+001	-8.953631e+001	-1.623477e+001	-8.982207e+001	-1.273450e+001	7.789030e+001
3144020.797	-1.297881e+001	-3.070261e+001	-1.637300e+001	-9.369814e+001	-1.638142e+001	-9.398631e+001	-1.277588e+001	7.327662e+001
3168457.539	-1.282138e+001	-3.503352e+001	-1.650542e+001	-9.780126e+001	-1.652111e+001	-9.808307e+001	-1.282196e+001	6.878947e+001
3192894.281	-1.267471e+001	-3.924344e+001	-1.662835e+001	-1.018581e+002	-1.664892e+001	-1.021083e+002	-1.286865e+001	6.441899e+001
3217331.023	-1.253547e+001	-4.333428e+001	-1.674522e+001	-1.058585e+002	-1.677442e+001	-1.061112e+002	-1.291702e+001	6.019730e+001
3241767.764	-1.240666e+001	-4.730584e+001	-1.686303e+001	-1.098449e+002	-1.689291e+001	-1.100874e+002	-1.296645e+001	5.609509e+001
3266204.506	-1.227990e+001	-5.117969e+001	-1.697583e+001	-1.137427e+002	-1.701331e+001	-1.139828e+002	-1.301317e+001	5.212582e+001
3290641.248	-1.215461e+001	-5.497069e+001	-1.708604e+001	-1.175119e+002	-1.712468e+001	-1.177363e+002	-1.305246e+001	4.823638e+001
3315077.990	-1.203745e+001	-5.874167e+001	-1.716486e+001	-1.212230e+002	-1.721198e+001	-1.214133e+002	-1.309261e+001	4.436090e+001
3339514.731	-1.193028e+001	-6.247177e+001	-1.723077e+001	-1.249506e+002	-1.728050e+001	-1.251211e+002	-1.314338e+001	4.056277e+001
3363951.473	-1.183440e+001	-6.610899e+001	-1.729012e+001	-1.287195e+002	-1.734181e+001	-1.288548e+002	-1.319981e+001	3.685807e+001
3388388.215	-1.174602e+001	-6.968275e+001	-1.733900e+001	-1.324932e+002	-1.739693e+001	-1.325978e+002	-1.325960e+001	3.327397e+001
3412824.957	-1.166516e+001	-7.316899e+001	-1.738239e+001	-1.362466e+002	-1.744634e+001	-1.363383e+002	-1.331877e+001	2.979112e+001
3437261.698	-1.159146e+001	-7.659383e+001	-1.742502e+001	-1.400185e+002	-1.748870e+001	-1.400750e+002	-1.337937e+001	2.638644e+001
3461698.440	-1.152381e+001	-7.994918e+001	-1.746084e+001	-1.437676e+002	-1.753280e+001	-1.437950e+002	-1.344083e+001	2.312362e+001
3486135.182	-1.146243e+001	-8.324478e+001	-1.749333e+001	-1.475256e+002	-1.756681e+001	-1.475191e+002	-1.350253e+001	1.993906e+001
3510571.924	-1.140409e+001	-8.646639e+001	-1.752116e+001	-1.512687e+002	-1.759761e+001	-1.512278e+002	-1.356110e+001	1.684936e+001
3535008.666	-1.135102e+001	-8.961796e+001	-1.754557e+001	-1.549447e+002	-1.762547e+001	-1.548974e+002	-1.361472e+001	1.386910e+001
3559445.407	-1.129907e+001	-9.268780e+001	-1.756748e+001	-1.586278e+002	-1.764541e+001	-1.585458e+002	-1.366188e+001	1.095543e+001
3583882.149	-1.124934e+001	-9.573220e+001	-1.757554e+001	-1.622783e+002	-1.765927e+001	-1.621552e+002	-1.370343e+001	8.103180e+000
3608318.891	-1.120193e+001	-9.870845e+001	-1.757383e+001	-1.659454e+002	-1.766033e+001	-1.657591e+002	-1.373676e+001	5.284878e+000
3632755.633	-1.115597e+001	-1.016726e+002	-1.755760e+001	-1.696513e+002	-1.764797e+001	-1.693999e+002	-1.377143e+001	2.515567e+000
3657192.374	-1.111404e+001	-1.045665e+002	-1.753603e+001	-1.734017e+002	-1.762507e+001	-1.730802e+002	-1.380068e+001	-2.128275e-001
3681629.116	-1.107550e+001	-1.074109e+002	-1.750908e+001	-1.772315e+002	-1.759432e+001	-1.768972e+002	-1.383784e+001	-2.855557e+000
3706065.858	-1.104042e+001	-1.101795e+002	-1.748876e+001	1.788301e+002	-1.757287e+001	1.792174e+002	-1.386432e+001	-5.406219e+000
3730502.600	-1.100345e+001	-1.128820e+002	-1.748175e+001	1.748182e+002	-1.756710e+001	1.751998e+002	-1.388815e+001	-7.823008e+000
3754939.341	-1.096149e+001	-1.154778e+002	-1.750122e+001	1.708052e+002	-1.758576e+001	1.712431e+002	-1.388599e+001	-1.015160e+001
3779376.083	-1.090192e+001	-1.179779e+002	-1.755927e+001	1.669055e+002	-1.764088e+001	1.673774e+002	-1.385498e+001	-1.239613e+001
3803812.825	-1.081836e+001	-1.205100e+002	-1.763369e+001	1.633168e+002	-1.771018e+001	1.638352e+002	-1.378552e+001	-1.475460e+001
3828249.567	-1.070734e+001	-1.231428e+002	-1.771279e+001	1.602158e+002	-1.778988e+001	1.607528e+002	-1.367903e+001	-1.730202e+001
3852686.308	-1.059051e+001	-1.260615e+002	-1.772194e+001	1.575463e+002	-1.779372e+001	1.581648e+002	-1.357214e+001	-2.028243e+001
3877123.050	-1.050041e+001	-1.292994e+002	-1.760464e+001	1.549688e+002	-1.768127e+001	1.556285e+002	-1.351006e+001	-2.360311e+001
3901559.792	-1.045483e+001	-1.326367e+002	-1.740626e+001	1.519965e+002	-1.747488e+001	1.526580e+002	-1.351287e+001	-2.700977e+001
3925996.534	-1.046146e+001	-1.359167e+002	-1.717477e+001	1.483486e+002	-1.724667e+001	1.490424e+002	-1.357223e+001	-3.020700e+001
3950433.276	-1.050263e+001	-1.389478e+002	-1.697082e+001	1.441163e+002	-1.704043e+001	1.448333e+002	-1.366431e+001	-3.305235e+001
3974870.017	-1.055690e+001	-1.417224e+002	-1.682106e+001	1.395354e+002	-1.689012e+001	1.403002e+002	-1.375613e+001	-3.553120e+001
3999306.759	-1.059362e+001	-1.442439e+002	-1.674708e+001	1.349134e+002	-1.680230e+001	1.357089e+002	-1.382012e+001	-3.773310e+001
4023743.501	-1.061072e+001	-1.466517e+002	-1.672029e+001	1.303934e+002	-1.677822e+001	1.311816e+002	-1.384008e+001	-3.972697e+001
4048180.243	-1.059670e+001	-1.490588e+002	-1.673182e+001	1.261738e+002	-1.679146e+001	1.269467e+002	-1.380861e+001	-4.174814e+001
4072616.984	-1.056359e+001	-1.515599e+002	-1.674882e+001	1.222769e+002	-1.680759e+001	1.230802e+002	-1.374857e+001	-4.395250e+001
4097053.726	-1.052667e+001	-1.541851e+002	-1.675439e+001	1.185976e+002	-1.680765e+001	1.194672e+002	-1.367024e+001	-4.634833e+001
4121490.468	-1.049503e+001	-1.569632e+002	-1.672685e+001	1.151273e+002	-1.677872e+001	1.160388e+002	-1.359389e+001	-4.893800e+001
4145927.210	-1.047416e+001	-1.598250e+002	-1.667500e+001	1.117040e+002	-1.671372e+001	1.126294e+002	-1.353063e+001	-5.166664e+001
4170363.951	-1.047216e+001	-1.627800e+002	-1.658511e+001	1.083571e+002	-1.662812e+001	1.092764e+002	-1.347219e+001	-5.448222e+001
4194800.693	-1.048548e+001	-1.658004e+002	-1.646917e+001	1.049609e+002	-1.650528e+001	1.058582e+002	-1.343211e+001	-5.739621e+001
4219237.435	-1.052243e+001	-1.688048e+002	-1.633456e+001	1.014052e+002	-1.635851e+001	1.023621e+002	-1.340745e+001	-6.036416e+001
4243674.177	-1.058052e+001	-1.718125e+002	-1.617694e+001	9.773468e+001	-1.619947e+001	9.870702e+001	-1.339863e+001	-6.331687e+001
4268110.919	-1.065474e+001	-1.747649e+002	-1.601499e+001	9.393907e+001	-1.603083e+001	9.492286e+001	-1.340174e+001	-6.625397e+001
4292547.660	-1.074193e+001	-1.777038e+002	-1.585169e+001	9.007936e+001	-1.585870e+001	9.100995e+001	-1.341315e+001	-6.916456e+001
4316984.402	-1.084750e+001	1.793952e+002	-1.567963e+001	8.609878e+001	-1.568257e+001	8.699933e+001	-1.343444e+001	-7.206396e+001
4341421.144	-1.097286e+001	1.765394e+002	-1.549780e+001	8.203287e+001	-1.549838e+001	8.289465e+001	-1.346444e+001	-7.496660e+001
4365857.886	-1.111460e+001	1.737844e+002	-1.531858e+001	7.781184e+001	-1.532055e+001	7.865269e+001	-1.350085e+001	-7.780907e+001
4390294.627	-1.126971e+001	1.711313e+002	-1.514191e+001	7.345645e+001	-1.514429e+001	7.431725e+001	-1.354310e+001	-8.062198e+001
4414731.369	-1.143268e+001	1.685986e+002	-1.497635e+001	6.898181e+001	-1.497688e+001	6.989288e+001	-1.358782e+001	-8.339489e+001
4439168.111	-1.159860e+001	1.661450e+002	-1.482494e+001	6.442683e+001	-1.481539e+001	6.537720e+001	-1.363502e+001	-8.615940e+001
4463604.853	-1.176882e+001	1.637833e+002	-1.467803e+001	5.985587e+001	-1.466608e+001	6.080791e+001	-1.367927e+001	-8.886366e+001
4488041.594	-1.194247e+001	1.614841e+002	-1.454203e+001	5.523795e+001	-1.452283e+001	5.615860e+001	-1.372541e+001	-9.155387e+001
4512478.336	-1.212365e+001	1.592591e+002	-1.440954e+001	5.056828e+001	-1.438369e+001	5.147787e+001	-1.377337e+001	-9.424830e+001
4536915.078	-1.230474e+001	1.571439e+002	-1.428498e+001	4.583490e+001	-1.425572e+001	4.672355e+001	-1.381853e+001	-9.691381e+001
4561351.820	-1.247689e+001	1.551154e+002	-1.417911e+001	4.101611e+001	-1.414436e+001	4.188302e+001	-1.386094e+001	-9.952312e+001
4585788.562	-1.263728e+001	1.530835e+002	-1.409266e+001	3.622319e+001	-1.405478e+001	3.707173e+001	-1.388338e+001	-1.021562e+002
4610225.303	-1.279573e+001	1.509914e+002	-1.401977e+001	3.148569e+001	-1.397673e+001	3.230831e+001	-1.389753e+001	-1.048623e+002
4634662.045	-1.295485e+001	1.488357e+002	-1.395243e+001	2.678800e+001	-1.390731e+001	2.759892e+001	-1.390616e+001	-1.076926e+002
4659098.787	-1.312691e+001	1.466206e+002	-1.388694e+001	2.216220e+001	-1.384140e+001	2.293138e+001	-1.391389e+001	-1.106174e+002
4683535.529	-1.330797e+001	1.443105e+002	-1.383035e+001	1.757131e+001	-1.377932e+001	1.830377e+001	-1.392163e+001	-1.136725e+002
4707972.270	-1.350661e+001	1.419834e+002	-1.377123e+001	1.303286e+001	-1.372292e+001	1.371832e+001	-1.393051e+001	-1.168344e+002
4732409.012	-1.373038e+001	1.395198e+002	-1.371708e+001	8.561044e+000	-1.366618e+001	9.222742e+000	-1.394251e+001	-1.201885e+002
4756845.754	-1.399051e+001	1.370320e+002	-1.365170e+001	4.154152e+000	-1.359755e+001	4.778333e+000	-1.397507e+001	-1.237297e+002
4781282.496	-1.429414e+001	1.345515e+002	-1.357442e+001	-2.418628e-001	-1.351713e+001	3.483570e-001	-1.402962e+001	-1.274352e+002
4805719.237	-1.464571e+001	1.321856e+002	-1.347973e+001	-4.654721e+000	-1.342071e+001	-4.102360e+000	-1.411658e+001	-1.312648e+002
4830155.979	-1.503811e+001	1.299807e+002	-1.337394e+001	-9.134386e+000	-1.331695e+001	-8.611770e+000	-1.423032e+001	-1.351704e+002
4854592.721	-1.546479e+001	1.280405e+002	-1.326288e+001	-1.371917e+001	-1.320496e+001	-1.323972e+001	-1.437845e+001	-1.391055e+002
4879029.463	-1.591850e+001	1.263347e+002	-1.315147e+001	-1.843082e+001	-1.309446e+001	-1.798414e+001	-1.455527e+001	-1.430335e+002
4903466.205	-1.639739e+001	1.248844e+002	-1.304467e+001	-2.321644e+001	-1.298983e+001	-2.280438e+001	-1.475525e+001	-1.469586e+002
4927902.946	-1.689557e+001	1.236724e+002	-1.294795e+001	-2.810472e+001	-1.289550e+001	-2.771203e+001	-1.497788e+001	-1.508694e+002
4952339.688	-1.741713e+001	1.227468e+002	-1.285658e+001	-3.306553e+001	-1.281000e+001	-3.267663e+001	-1.521800e+001	-1.547770e+002
4976776.430	-1.796038e+001	1.220796e+002	-1.278026e+001	-3.805351e+001	-1.273498e+001	-3.767691e+001	-1.548103e+001	-1.586798e+002
5001213.172	-1.852718e+001	1.217262e+002	-1.271381e+001	-4.306817e+001	-1.267024e+001	-4.271539e+001	-1.576193e+001	-1.625833e+002
5025649.913	-1.911548e+001	1.217297e+002	-1.265712e+001	-4.812287e+001	-1.261840e+001	-4.779095e+001	-1.606296e+001	-1.664813e+002
5050086.655	-1.972978e+001	1.221510e+002	-1.261283e+001	-5.319872e+001	-1.257828e+001	-5.286907e+001	-1.637938e+001	-1.703915e+002
5074523.397	-2.036605e+001	1.230479e+002	-1.258121e+001	-5.828284e+001	-1.254981e+001	-5.795713e+001	-1.671597e+001	-1.742897e+002
5098960.139	-2.101912e+001	1.245185e+002	-1.256219e+001	-6.335350e+001	-1.253365e+001	-6.303889e+001	-1.706395e+001	-1.781929e+002
5123396.880	-2.168291e+001	1.266398e+002	-1.255593e+001	-6.842162e+001	-1.253157e+001	-6.810311e+001	-1.742675e+001	1.778593e+002
5147833.622	-2.235160e+001	1.296271e+002	-1.256313e+001	-7.343814e+001	-1.254159e+001	-7.312766e+001	-1.779834e+001	1.738207e+002
5172270.364	-2.299859e+001	1.337406e+002	-1.257666e+001	-7.839026e+001	-1.255817e+001	-7.807988e+001	-1.818758e+001	1.696296e+002
5196707.106	-2.355397e+001	1.391742e+002	-1.259195e+001	-8.327787e+001	-1.257888e+001	-8.298082e+001	-1.860285e+001	1.653196e+002
5221143.847	-2.392712e+001	1.456902e+002	-1.261396e+001	-8.810613e+001	-1.260264e+001	-8.784141e+001	-1.904575e+001	1.608922e+002
5245580.589	-2.404197e+001	1.529499e+002	-1.263568e+001	-9.295883e+001	-1.262920e+001	-9.267554e+001	-1.951797e+001	1.563169e+002
5270017.331	-2.387503e+001	1.602188e+002	-1.266422e+001	-9.776979e+001	-1.266114e+001	-9.749217e+001	-2.001486e+001	1.516307e+002
5294454.073	-2.343679e+001	1.668660e+002	-1.269315e+001	-1.025686e+002	-1.269203e+001	-1.022704e+002	-2.055066e+001	1.467991e+002
5318890.815	-2.281360e+001	1.724314e+002	-1.272639e+001	-1.073219e+002	-1.272839e+001	-1.070097e+002	-2.110801e+001	1.417326e+002
5343327.556	-2.206757e+001	1.766851e+002	-1.276209e+001	-1.120758e+002	-1.276728e+001	-1.117290e+002	-2.169446e+001	1.365187e+002
5367764.298	-2.127829e+001	1.797937e+002	-1.280143e+001	-1.167712e+002	-1.280822e+001	-1.164218e+002	-2.230375e+001	1.310350e+002
5392201.040	-2.048255e+001	-1.782064e+002	-1.284101e+001	-1.214469e+002	-1.285018e+001	-1.210692e+002	-2.294289e+001	1.252603e+002
5416637.782	-1.971002e+001	-1.770769e+002	-1.288384e+001	-1.261120e+002	-1.289505e+001	-1.257041e+002	-2.360875e+001	1.191496e+002
5441074.523	-1.896889e+001	-1.766615e+002	-1.292756e+001	-1.307275e+002	-1.294029e+001	-1.303066e+002	-2.428822e+001	1.126545e+002
