!Agilent Technologies,E5061B,MY49101568,A.02.00
!Date: Wed Mar 01 14:56:53 2023
!Data & Calibration Information:
!Freq	S11:SOLT2(OFF)	S21:SOLT2(OFF)	S12:SOLT2(OFF)	S22:SOLT2(OFF)
# Hz S dB R 50
1800000.000	-1.556224e+001	-2.135254e+000	-1.266896e+001	1.785333e+002	-1.264775e+001	1.786983e+002	-1.723162e+001	4.139906e+001
1824436.742	-1.568663e+001	-2.399806e+000	-1.258310e+001	1.724558e+002	-1.256492e+001	1.726130e+002	-1.717984e+001	4.207101e+001
1848873.484	-1.574406e+001	-2.657650e+000	-1.250529e+001	1.663868e+002	-1.249299e+001	1.665491e+002	-1.705350e+001	4.234628e+001
1873310.225	-1.573006e+001	-3.316344e+000	-1.245648e+001	1.605257e+002	-1.243901e+001	1.606386e+002	-1.687324e+001	4.199554e+001
1897746.967	-1.566837e+001	-4.108164e+000	-1.240328e+001	1.547170e+002	-1.239245e+001	1.547757e+002	-1.666205e+001	4.112354e+001
1922183.709	-1.555936e+001	-5.276643e+000	-1.236202e+001	1.489260e+002	-1.235105e+001	1.490313e+002	-1.644994e+001	3.963943e+001
1946620.451	-1.542682e+001	-6.932138e+000	-1.233439e+001	1.432920e+002	-1.232025e+001	1.433707e+002	-1.623327e+001	3.763195e+001
1971057.192	-1.527298e+001	-8.924045e+000	-1.231179e+001	1.376731e+002	-1.230472e+001	1.377568e+002	-1.601924e+001	3.514233e+001
1995493.934	-1.512074e+001	-1.140978e+001	-1.230405e+001	1.321894e+002	-1.230063e+001	1.323554e+002	-1.584285e+001	3.213428e+001
2019930.676	-1.499824e+001	-1.431199e+001	-1.230059e+001	1.269501e+002	-1.229916e+001	1.271232e+002	-1.569736e+001	2.869747e+001
2044367.418	-1.490615e+001	-1.747183e+001	-1.228387e+001	1.218704e+002	-1.227072e+001	1.219768e+002	-1.560345e+001	2.513008e+001
2068804.159	-1.484192e+001	-2.058662e+001	-1.223475e+001	1.168569e+002	-1.222750e+001	1.169281e+002	-1.554481e+001	2.142050e+001
2093240.901	-1.476533e+001	-2.392781e+001	-1.219003e+001	1.118256e+002	-1.218531e+001	1.118630e+002	-1.549292e+001	1.755238e+001
2117677.643	-1.471059e+001	-2.760667e+001	-1.215139e+001	1.068238e+002	-1.215489e+001	1.069080e+002	-1.545855e+001	1.328275e+001
2142114.385	-1.468604e+001	-3.121213e+001	-1.207807e+001	1.018519e+002	-1.208588e+001	1.019526e+002	-1.545418e+001	9.052308e+000
2166551.127	-1.466178e+001	-3.517311e+001	-1.201997e+001	9.686637e+001	-1.202814e+001	9.694627e+001	-1.545145e+001	4.507748e+000
2190987.868	-1.466022e+001	-3.940990e+001	-1.196206e+001	9.191619e+001	-1.196819e+001	9.202079e+001	-1.547713e+001	-3.099515e-001
2215424.610	-1.471219e+001	-4.384450e+001	-1.189574e+001	8.703407e+001	-1.190711e+001	8.719145e+001	-1.553519e+001	-5.447568e+000
2239861.352	-1.480982e+001	-4.843454e+001	-1.182304e+001	8.224202e+001	-1.182938e+001	8.240694e+001	-1.563638e+001	-1.077196e+001
2264298.094	-1.494945e+001	-5.312716e+001	-1.172908e+001	7.745207e+001	-1.174171e+001	7.766118e+001	-1.576632e+001	-1.638226e+001
2288734.835	-1.513838e+001	-5.776869e+001	-1.161344e+001	7.268619e+001	-1.162948e+001	7.289721e+001	-1.593819e+001	-2.206393e+001
2313171.577	-1.536505e+001	-6.239272e+001	-1.147805e+001	6.783636e+001	-1.149748e+001	6.806725e+001	-1.613999e+001	-2.792015e+001
2337608.319	-1.561158e+001	-6.707620e+001	-1.133468e+001	6.284993e+001	-1.135198e+001	6.309346e+001	-1.635340e+001	-3.390193e+001
2362045.061	-1.590178e+001	-7.186188e+001	-1.119273e+001	5.782471e+001	-1.121193e+001	5.806177e+001	-1.659788e+001	-4.017667e+001
2386481.802	-1.623838e+001	-7.669897e+001	-1.103770e+001	5.269522e+001	-1.105823e+001	5.297339e+001	-1.687601e+001	-4.675189e+001
2410918.544	-1.662344e+001	-8.168367e+001	-1.088910e+001	4.742932e+001	-1.090637e+001	4.770402e+001	-1.716080e+001	-5.355272e+001
2435355.286	-1.704872e+001	-8.674777e+001	-1.073753e+001	4.202891e+001	-1.074971e+001	4.231976e+001	-1.747438e+001	-6.063855e+001
2459792.028	-1.754499e+001	-9.193782e+001	-1.059641e+001	3.654203e+001	-1.060770e+001	3.686095e+001	-1.780721e+001	-6.818453e+001
2484228.769	-1.811369e+001	-9.736002e+001	-1.046543e+001	3.089924e+001	-1.047292e+001	3.126805e+001	-1.815949e+001	-7.609628e+001
2508665.511	-1.878455e+001	-1.029310e+002	-1.034808e+001	2.523486e+001	-1.035021e+001	2.560737e+001	-1.853868e+001	-8.448834e+001
2533102.253	-1.955337e+001	-1.085973e+002	-1.023561e+001	1.947497e+001	-1.024190e+001	1.981086e+001	-1.892274e+001	-9.323037e+001
2557538.995	-2.046213e+001	-1.146682e+002	-1.015011e+001	1.362304e+001	-1.015110e+001	1.394957e+001	-1.930855e+001	-1.024744e+002
2581975.737	-2.155984e+001	-1.210028e+002	-1.008360e+001	7.737748e+000	-1.008327e+001	8.050168e+000	-1.968220e+001	-1.122456e+002
2606412.478	-2.290402e+001	-1.277683e+002	-1.004014e+001	1.823761e+000	-1.003612e+001	2.151736e+000	-2.003875e+001	-1.225491e+002
2630849.220	-2.462200e+001	-1.350661e+002	-1.001764e+001	-4.029733e+000	-1.000709e+001	-3.717805e+000	-2.037313e+001	-1.334556e+002
2655285.962	-2.684385e+001	-1.429215e+002	-1.000830e+001	-9.863455e+000	-9.997944e+000	-9.531572e+000	-2.066318e+001	-1.448853e+002
2679722.704	-2.995662e+001	-1.518294e+002	-1.000848e+001	-1.562995e+001	-9.992245e+000	-1.531463e+001	-2.093719e+001	-1.567287e+002
2704159.445	-3.463400e+001	-1.636577e+002	-1.001099e+001	-2.138767e+001	-9.995966e+000	-2.111123e+001	-2.116128e+001	-1.686462e+002
2728596.187	-4.319105e+001	1.607291e+002	-1.003627e+001	-2.718831e+001	-1.001730e+001	-2.694292e+001	-2.133837e+001	1.796992e+002
2753032.929	-4.057471e+001	5.245159e+001	-1.007830e+001	-3.294744e+001	-1.006434e+001	-3.272058e+001	-2.142667e+001	1.683401e+002
2777469.671	-3.354828e+001	2.953106e+001	-1.014409e+001	-3.868571e+001	-1.012567e+001	-3.845866e+001	-2.145712e+001	1.573660e+002
2801906.412	-2.966888e+001	1.925769e+001	-1.022463e+001	-4.431770e+001	-1.020516e+001	-4.409006e+001	-2.142877e+001	1.467409e+002
2826343.154	-2.704593e+001	1.176739e+001	-1.031806e+001	-4.982145e+001	-1.030074e+001	-4.964507e+001	-2.133371e+001	1.368825e+002
2850779.896	-2.509016e+001	5.390148e+000	-1.042517e+001	-5.519848e+001	-1.040700e+001	-5.507992e+001	-2.122540e+001	1.274334e+002
2875216.638	-2.357443e+001	-5.431720e-001	-1.053672e+001	-6.054025e+001	-1.052147e+001	-6.033114e+001	-2.106756e+001	1.184837e+002
2899653.380	-2.232976e+001	-6.155679e+000	-1.065275e+001	-6.567435e+001	-1.063515e+001	-6.549113e+001	-2.092878e+001	1.099705e+002
2924090.121	-2.130276e+001	-1.159830e+001	-1.076668e+001	-7.068552e+001	-1.075308e+001	-7.056426e+001	-2.078578e+001	1.019839e+002
2948526.863	-2.044430e+001	-1.675307e+001	-1.088250e+001	-7.563211e+001	-1.086953e+001	-7.551575e+001	-2.066103e+001	9.439818e+001
2972963.605	-1.971751e+001	-2.179426e+001	-1.099283e+001	-8.048594e+001	-1.098319e+001	-8.039204e+001	-2.055823e+001	8.718264e+001
2997400.347	-1.909730e+001	-2.666598e+001	-1.109782e+001	-8.526038e+001	-1.109446e+001	-8.515487e+001	-2.046441e+001	8.035025e+001
3021837.088	-1.855361e+001	-3.140058e+001	-1.120087e+001	-8.991951e+001	-1.120174e+001	-8.983053e+001	-2.039679e+001	7.383369e+001
3046273.830	-1.808282e+001	-3.601346e+001	-1.129566e+001	-9.451311e+001	-1.129710e+001	-9.441751e+001	-2.034766e+001	6.753615e+001
3070710.572	-1.767132e+001	-4.058355e+001	-1.137938e+001	-9.901384e+001	-1.138471e+001	-9.891771e+001	-2.031918e+001	6.137977e+001
3095147.314	-1.732192e+001	-4.505282e+001	-1.145024e+001	-1.034846e+002	-1.145730e+001	-1.033945e+002	-2.033490e+001	5.534762e+001
3119584.055	-1.702117e+001	-4.950567e+001	-1.150472e+001	-1.079177e+002	-1.151686e+001	-1.078492e+002	-2.040423e+001	4.950070e+001
3144020.797	-1.678850e+001	-5.383307e+001	-1.154927e+001	-1.123830e+002	-1.156513e+001	-1.123336e+002	-2.052729e+001	4.389435e+001
3168457.539	-1.659535e+001	-5.803373e+001	-1.159057e+001	-1.168891e+002	-1.160658e+001	-1.168198e+002	-2.070283e+001	3.855461e+001
3192894.281	-1.644875e+001	-6.210329e+001	-1.162344e+001	-1.214307e+002	-1.164427e+001	-1.213388e+002	-2.093499e+001	3.345121e+001
3217331.023	-1.633868e+001	-6.601393e+001	-1.165479e+001	-1.259965e+002	-1.167819e+001	-1.259103e+002	-2.122261e+001	2.871293e+001
3241767.764	-1.626599e+001	-6.971914e+001	-1.169216e+001	-1.306063e+002	-1.171424e+001	-1.305039e+002	-2.156364e+001	2.448581e+001
3266204.506	-1.620973e+001	-7.321297e+001	-1.173548e+001	-1.351743e+002	-1.175907e+001	-1.350760e+002	-2.190684e+001	2.073126e+001
3290641.248	-1.616126e+001	-7.663677e+001	-1.177325e+001	-1.396604e+002	-1.179809e+001	-1.395346e+002	-2.224416e+001	1.705079e+001
3315077.990	-1.614418e+001	-8.014293e+001	-1.178613e+001	-1.441367e+002	-1.181241e+001	-1.440028e+002	-2.264865e+001	1.317270e+001
3339514.731	-1.618207e+001	-8.352919e+001	-1.178767e+001	-1.487621e+002	-1.181380e+001	-1.486179e+002	-2.320867e+001	9.630434e+000
3363951.473	-1.627095e+001	-8.670060e+001	-1.178962e+001	-1.535157e+002	-1.181890e+001	-1.533596e+002	-2.389253e+001	6.874600e+000
3388388.215	-1.639207e+001	-8.951394e+001	-1.180529e+001	-1.583559e+002	-1.183432e+001	-1.581910e+002	-2.467831e+001	5.276964e+000
3412824.957	-1.653715e+001	-9.201111e+001	-1.183240e+001	-1.632559e+002	-1.186318e+001	-1.630805e+002	-2.552549e+001	5.123179e+000
3437261.698	-1.669916e+001	-9.411562e+001	-1.187241e+001	-1.682106e+002	-1.190215e+001	-1.680333e+002	-2.641130e+001	6.823429e+000
3461698.440	-1.687016e+001	-9.579357e+001	-1.193024e+001	-1.731997e+002	-1.195857e+001	-1.730105e+002	-2.721287e+001	1.087448e+001
3486135.182	-1.702864e+001	-9.702306e+001	-1.200728e+001	-1.781820e+002	-1.203520e+001	-1.779909e+002	-2.772787e+001	1.724724e+001
3510571.924	-1.715943e+001	-9.783288e+001	-1.210072e+001	1.768602e+002	-1.213368e+001	1.770475e+002	-2.776713e+001	2.492970e+001
3535008.666	-1.723776e+001	-9.830028e+001	-1.221716e+001	1.719831e+002	-1.224655e+001	1.721656e+002	-2.731778e+001	3.212693e+001
3559445.407	-1.726718e+001	-9.852665e+001	-1.234131e+001	1.672039e+002	-1.237334e+001	1.674036e+002	-2.651536e+001	3.726596e+001
3583882.149	-1.723625e+001	-9.866981e+001	-1.247255e+001	1.625469e+002	-1.250711e+001	1.627310e+002	-2.557250e+001	4.037191e+001
3608318.891	-1.715568e+001	-9.874215e+001	-1.260852e+001	1.579395e+002	-1.264245e+001	1.581362e+002	-2.462403e+001	4.179865e+001
3632755.633	-1.702968e+001	-9.874932e+001	-1.274696e+001	1.533309e+002	-1.278437e+001	1.535884e+002	-2.367754e+001	4.197530e+001
3657192.374	-1.683850e+001	-9.884878e+001	-1.289392e+001	1.488366e+002	-1.293137e+001	1.490936e+002	-2.278257e+001	4.115450e+001
3681629.116	-1.659275e+001	-9.898801e+001	-1.305110e+001	1.443580e+002	-1.309215e+001	1.446158e+002	-2.191857e+001	3.955091e+001
3706065.858	-1.628305e+001	-9.934383e+001	-1.323239e+001	1.399631e+002	-1.327656e+001	1.401950e+002	-2.108125e+001	3.722880e+001
3730502.600	-1.590520e+001	-1.000325e+002	-1.344801e+001	1.357094e+002	-1.349363e+001	1.359681e+002	-2.029770e+001	3.400832e+001
3754939.341	-1.548578e+001	-1.012853e+002	-1.368789e+001	1.317643e+002	-1.373646e+001	1.320285e+002	-1.958828e+001	3.002416e+001
3779376.083	-1.505263e+001	-1.032154e+002	-1.394035e+001	1.282832e+002	-1.399001e+001	1.285573e+002	-1.899811e+001	2.531261e+001
3803812.825	-1.465818e+001	-1.059251e+002	-1.416671e+001	1.254370e+002	-1.422319e+001	1.256890e+002	-1.855418e+001	2.002424e+001
3828249.567	-1.435786e+001	-1.092232e+002	-1.430211e+001	1.231339e+002	-1.436813e+001	1.234804e+002	-1.832265e+001	1.447095e+001
3852686.308	-1.419614e+001	-1.127730e+002	-1.429878e+001	1.210279e+002	-1.436117e+001	1.213562e+002	-1.831368e+001	9.559320e+000
3877123.050	-1.418463e+001	-1.158876e+002	-1.414748e+001	1.183760e+002	-1.421253e+001	1.186848e+002	-1.845996e+001	6.017689e+000
3901559.792	-1.423244e+001	-1.179843e+002	-1.396017e+001	1.146404e+002	-1.402309e+001	1.150083e+002	-1.858574e+001	4.277405e+000
3925996.534	-1.423649e+001	-1.190694e+002	-1.382182e+001	1.100244e+002	-1.389761e+001	1.105367e+002	-1.851723e+001	3.600170e+000
3950433.276	-1.409251e+001	-1.197917e+002	-1.380938e+001	1.050905e+002	-1.388022e+001	1.056539e+002	-1.820866e+001	2.984221e+000
3974870.017	-1.382446e+001	-1.208772e+002	-1.390773e+001	1.003688e+002	-1.396448e+001	1.009975e+002	-1.777360e+001	1.265925e+000
3999306.759	-1.349137e+001	-1.227109e+002	-1.408180e+001	9.619179e+001	-1.411861e+001	9.675981e+001	-1.731687e+001	-1.512665e+000
4023743.501	-1.318505e+001	-1.252050e+002	-1.425514e+001	9.264998e+001	-1.430281e+001	9.323717e+001	-1.692569e+001	-5.323188e+000
4048180.243	-1.294917e+001	-1.281995e+002	-1.438080e+001	8.971468e+001	-1.443248e+001	9.022994e+001	-1.666852e+001	-9.432579e+000
4072616.984	-1.279207e+001	-1.313195e+002	-1.442708e+001	8.703849e+001	-1.448504e+001	8.754359e+001	-1.652585e+001	-1.352285e+001
4097053.726	-1.270432e+001	-1.342795e+002	-1.439324e+001	8.429157e+001	-1.445432e+001	8.488897e+001	-1.647358e+001	-1.732723e+001
4121490.468	-1.265452e+001	-1.370436e+002	-1.431105e+001	8.136304e+001	-1.437225e+001	8.200022e+001	-1.646105e+001	-2.069711e+001
4145927.210	-1.262820e+001	-1.395691e+002	-1.419349e+001	7.820105e+001	-1.425171e+001	7.883286e+001	-1.646718e+001	-2.365426e+001
4170363.951	-1.261032e+001	-1.418158e+002	-1.405883e+001	7.479165e+001	-1.411518e+001	7.543120e+001	-1.647353e+001	-2.626913e+001
4194800.693	-1.259110e+001	-1.438680e+002	-1.391519e+001	7.111626e+001	-1.396982e+001	7.178360e+001	-1.647011e+001	-2.862649e+001
4219237.435	-1.255608e+001	-1.457469e+002	-1.377993e+001	6.724346e+001	-1.383101e+001	6.788631e+001	-1.643862e+001	-3.074121e+001
4243674.177	-1.249480e+001	-1.475233e+002	-1.365912e+001	6.318502e+001	-1.370687e+001	6.387774e+001	-1.638005e+001	-3.279543e+001
4268110.919	-1.241917e+001	-1.493114e+002	-1.354957e+001	5.908869e+001	-1.359252e+001	5.979281e+001	-1.630195e+001	-3.485090e+001
4292547.660	-1.232664e+001	-1.510751e+002	-1.344859e+001	5.489328e+001	-1.349309e+001	5.561207e+001	-1.619481e+001	-3.690038e+001
4316984.402	-1.222200e+001	-1.529049e+002	-1.335620e+001	5.068052e+001	-1.339861e+001	5.141861e+001	-1.608142e+001	-3.901041e+001
4341421.144	-1.210634e+001	-1.547811e+002	-1.327177e+001	4.643430e+001	-1.331269e+001	4.718039e+001	-1.595406e+001	-4.118508e+001
4365857.886	-1.198104e+001	-1.567252e+002	-1.319591e+001	4.214376e+001	-1.323512e+001	4.291254e+001	-1.581869e+001	-4.343120e+001
4390294.627	-1.185086e+001	-1.587694e+002	-1.312639e+001	3.784500e+001	-1.316283e+001	3.862209e+001	-1.567588e+001	-4.575485e+001
4414731.369	-1.171703e+001	-1.609309e+002	-1.306638e+001	3.354926e+001	-1.309704e+001	3.433764e+001	-1.553167e+001	-4.816217e+001
4439168.111	-1.158722e+001	-1.631908e+002	-1.300699e+001	2.921911e+001	-1.303849e+001	3.006838e+001	-1.539005e+001	-5.072016e+001
4463604.853	-1.146299e+001	-1.655436e+002	-1.295334e+001	2.494192e+001	-1.298017e+001	2.582032e+001	-1.525798e+001	-5.334599e+001
4488041.594	-1.134838e+001	-1.679797e+002	-1.289675e+001	2.066351e+001	-1.292032e+001	2.155522e+001	-1.513258e+001	-5.601948e+001
4512478.336	-1.124167e+001	-1.705039e+002	-1.284348e+001	1.638384e+001	-1.286313e+001	1.728354e+001	-1.501288e+001	-5.875095e+001
4536915.078	-1.114359e+001	-1.730994e+002	-1.279354e+001	1.208495e+001	-1.280867e+001	1.301497e+001	-1.490081e+001	-6.154682e+001
4561351.820	-1.106017e+001	-1.758013e+002	-1.274713e+001	7.825524e+000	-1.276086e+001	8.746274e+000	-1.479351e+001	-6.445892e+001
4585788.562	-1.099318e+001	-1.785835e+002	-1.270184e+001	3.601539e+000	-1.270984e+001	4.543761e+000	-1.470535e+001	-6.744564e+001
4610225.303	-1.094868e+001	1.786175e+002	-1.264814e+001	-6.070955e-001	-1.265132e+001	3.390890e-001	-1.463986e+001	-7.046999e+001
4634662.045	-1.092003e+001	1.757940e+002	-1.258949e+001	-4.826493e+000	-1.258887e+001	-3.877072e+000	-1.458754e+001	-7.349498e+001
4659098.787	-1.090721e+001	1.729680e+002	-1.252610e+001	-9.067068e+000	-1.252038e+001	-8.111887e+000	-1.454993e+001	-7.651667e+001
4683535.529	-1.091335e+001	1.701311e+002	-1.245884e+001	-1.332793e+001	-1.244706e+001	-1.238789e+001	-1.452701e+001	-7.952497e+001
4707972.270	-1.093149e+001	1.673055e+002	-1.238797e+001	-1.760441e+001	-1.237264e+001	-1.668944e+001	-1.451775e+001	-8.249723e+001
4732409.012	-1.096681e+001	1.644702e+002	-1.231625e+001	-2.193734e+001	-1.229608e+001	-2.104017e+001	-1.451973e+001	-8.548480e+001
4756845.754	-1.101647e+001	1.616336e+002	-1.224167e+001	-2.631372e+001	-1.221736e+001	-2.542629e+001	-1.453288e+001	-8.844906e+001
4781282.496	-1.108223e+001	1.588061e+002	-1.216898e+001	-3.074560e+001	-1.213916e+001	-2.987064e+001	-1.455577e+001	-9.137172e+001
4805719.237	-1.116220e+001	1.559808e+002	-1.209616e+001	-3.522877e+001	-1.206267e+001	-3.436661e+001	-1.458747e+001	-9.428236e+001
4830155.979	-1.126038e+001	1.531553e+002	-1.202771e+001	-3.974708e+001	-1.199145e+001	-3.890468e+001	-1.462374e+001	-9.718142e+001
4854592.721	-1.137669e+001	1.503352e+002	-1.196356e+001	-4.431661e+001	-1.192011e+001	-4.348336e+001	-1.467086e+001	-1.000572e+002
4879029.463	-1.151574e+001	1.475273e+002	-1.190164e+001	-4.889394e+001	-1.185677e+001	-4.808592e+001	-1.472745e+001	-1.029423e+002
4903466.205	-1.167498e+001	1.447380e+002	-1.184711e+001	-5.349784e+001	-1.179869e+001	-5.272304e+001	-1.479159e+001	-1.058308e+002
4927902.946	-1.185689e+001	1.419943e+002	-1.179481e+001	-5.813021e+001	-1.174501e+001	-5.738172e+001	-1.486805e+001	-1.086916e+002
4952339.688	-1.206229e+001	1.392839e+002	-1.174928e+001	-6.281745e+001	-1.169568e+001	-6.204777e+001	-1.495351e+001	-1.115904e+002
4976776.430	-1.229464e+001	1.366532e+002	-1.170684e+001	-6.747297e+001	-1.165160e+001	-6.673189e+001	-1.505035e+001	-1.144193e+002
5001213.172	-1.255337e+001	1.341023e+002	-1.166828e+001	-7.214369e+001	-1.161076e+001	-7.143309e+001	-1.515746e+001	-1.172419e+002
5025649.913	-1.283552e+001	1.316734e+002	-1.163271e+001	-7.682417e+001	-1.157441e+001	-7.614928e+001	-1.527629e+001	-1.200335e+002
5050086.655	-1.314401e+001	1.293719e+002	-1.160256e+001	-8.152106e+001	-1.154212e+001	-8.086364e+001	-1.540734e+001	-1.227837e+002
5074523.397	-1.347726e+001	1.272197e+002	-1.157423e+001	-8.622083e+001	-1.151497e+001	-8.560663e+001	-1.554531e+001	-1.254935e+002
5098960.139	-1.383456e+001	1.252263e+002	-1.155128e+001	-9.093527e+001	-1.149210e+001	-9.035479e+001	-1.569171e+001	-1.281660e+002
5123396.880	-1.421110e+001	1.234130e+002	-1.153335e+001	-9.567774e+001	-1.147411e+001	-9.510529e+001	-1.584756e+001	-1.307942e+002
5147833.622	-1.461370e+001	1.218103e+002	-1.152132e+001	-1.004053e+002	-1.146398e+001	-9.987438e+001	-1.600362e+001	-1.333978e+002
5172270.364	-1.503652e+001	1.204343e+002	-1.151393e+001	-1.051464e+002	-1.145717e+001	-1.046184e+002	-1.617423e+001	-1.359882e+002
5196707.106	-1.548511e+001	1.193618e+002	-1.151246e+001	-1.098391e+002	-1.145680e+001	-1.093469e+002	-1.635173e+001	-1.385620e+002
5221143.847	-1.594250e+001	1.186359e+002	-1.151014e+001	-1.145076e+002	-1.145769e+001	-1.140735e+002	-1.653887e+001	-1.410504e+002
5245580.589	-1.640969e+001	1.182672e+002	-1.151117e+001	-1.191899e+002	-1.146048e+001	-1.187790e+002	-1.673831e+001	-1.435073e+002
5270017.331	-1.687304e+001	1.182466e+002	-1.151421e+001	-1.238897e+002	-1.146695e+001	-1.234929e+002	-1.693922e+001	-1.459191e+002
5294454.073	-1.732585e+001	1.186288e+002	-1.151877e+001	-1.285851e+002	-1.147158e+001	-1.281939e+002	-1.714598e+001	-1.482237e+002
5318890.815	-1.776027e+001	1.194021e+002	-1.152599e+001	-1.332766e+002	-1.148100e+001	-1.328941e+002	-1.735165e+001	-1.505021e+002
5343327.556	-1.816348e+001	1.205374e+002	-1.153428e+001	-1.379660e+002	-1.149289e+001	-1.375998e+002	-1.755847e+001	-1.527373e+002
5367764.298	-1.852610e+001	1.220144e+002	-1.154668e+001	-1.426572e+002	-1.150765e+001	-1.423212e+002	-1.775651e+001	-1.549361e+002
5392201.040	-1.883754e+001	1.237589e+002	-1.155977e+001	-1.473689e+002	-1.152360e+001	-1.470085e+002	-1.796676e+001	-1.571098e+002
5416637.782	-1.909936e+001	1.257572e+002	-1.157871e+001	-1.520630e+002	-1.154332e+001	-1.517164e+002	-1.816284e+001	-1.593011e+002
5441074.523	-1.929525e+001	1.278858e+002	-1.159776e+001	-1.567690e+002	-1.156405e+001	-1.564280e+002	-1.835685e+001	-1.614668e+002
