!Agilent Technologies,E5061B,MY49101568,A.02.00
!Date: Wed Mar 01 15:05:45 2023
!Data & Calibration Information:
!Freq	S11:SOLT2(OFF)	S21:SOLT2(OFF)	S12:SOLT2(OFF)	S22:SOLT2(OFF)
# Hz S dB R 50
1800000.000	-9.027214e+000	-1.675603e+001	-2.754364e+001	-1.271528e+002	-2.757378e+001	-1.271533e+002	-9.323416e+000	1.959558e+001
1824436.742	-9.098981e+000	-2.097039e+001	-2.717601e+001	-1.308743e+002	-2.721606e+001	-1.308144e+002	-9.420328e+000	1.590598e+001
1848873.484	-9.172881e+000	-2.526930e+001	-2.677917e+001	-1.345328e+002	-2.683375e+001	-1.345498e+002	-9.517635e+000	1.216813e+001
1873310.225	-9.248334e+000	-2.962503e+001	-2.639908e+001	-1.384185e+002	-2.643786e+001	-1.383553e+002	-9.610866e+000	8.415342e+000
1897746.967	-9.320379e+000	-3.405685e+001	-2.597942e+001	-1.422572e+002	-2.604096e+001	-1.422430e+002	-9.698768e+000	4.592260e+000
1922183.709	-9.396663e+000	-3.861559e+001	-2.557065e+001	-1.462057e+002	-2.562215e+001	-1.461706e+002	-9.785793e+000	6.482196e-001
1946620.451	-9.471646e+000	-4.329575e+001	-2.513628e+001	-1.502781e+002	-2.520256e+001	-1.502394e+002	-9.867122e+000	-3.359900e+000
1971057.192	-9.551146e+000	-4.809136e+001	-2.469040e+001	-1.544240e+002	-2.476253e+001	-1.543536e+002	-9.946621e+000	-7.462849e+000
1995493.934	-9.638354e+000	-5.302184e+001	-2.422680e+001	-1.587751e+002	-2.430738e+001	-1.585818e+002	-1.002698e+001	-1.166201e+001
2019930.676	-9.726558e+000	-5.809059e+001	-2.376565e+001	-1.632258e+002	-2.384682e+001	-1.629334e+002	-1.010167e+001	-1.591208e+001
2044367.418	-9.819496e+000	-6.330158e+001	-2.328450e+001	-1.678231e+002	-2.336660e+001	-1.674833e+002	-1.016811e+001	-2.034332e+001
2068804.159	-9.919642e+000	-6.865166e+001	-2.279573e+001	-1.724965e+002	-2.288649e+001	-1.721235e+002	-1.023643e+001	-2.481711e+001
2093240.901	-1.002863e+001	-7.416152e+001	-2.229274e+001	-1.774512e+002	-2.239478e+001	-1.770083e+002	-1.030351e+001	-2.937012e+001
2117677.643	-1.014506e+001	-7.986888e+001	-2.180645e+001	1.774837e+002	-2.190730e+001	1.779528e+002	-1.036470e+001	-3.402612e+001
2142114.385	-1.026982e+001	-8.575535e+001	-2.131409e+001	1.723013e+002	-2.141840e+001	1.728162e+002	-1.041920e+001	-3.881518e+001
2166551.127	-1.040535e+001	-9.186897e+001	-2.082122e+001	1.669186e+002	-2.091840e+001	1.674411e+002	-1.047120e+001	-4.371546e+001
2190987.868	-1.055435e+001	-9.817807e+001	-2.033991e+001	1.613235e+002	-2.043178e+001	1.618704e+002	-1.052066e+001	-4.874425e+001
2215424.610	-1.071537e+001	-1.046990e+002	-1.987115e+001	1.555455e+002	-1.994627e+001	1.561083e+002	-1.056599e+001	-5.388041e+001
2239861.352	-1.089504e+001	-1.114542e+002	-1.940855e+001	1.495891e+002	-1.948063e+001	1.501711e+002	-1.060400e+001	-5.913555e+001
2264298.094	-1.109114e+001	-1.184725e+002	-1.895372e+001	1.434215e+002	-1.902787e+001	1.440592e+002	-1.063705e+001	-6.451062e+001
2288734.835	-1.130585e+001	-1.257189e+002	-1.851428e+001	1.370636e+002	-1.858305e+001	1.377806e+002	-1.066938e+001	-7.000008e+001
2313171.577	-1.153819e+001	-1.332016e+002	-1.809362e+001	1.305724e+002	-1.814788e+001	1.312745e+002	-1.069270e+001	-7.559759e+001
2337608.319	-1.178842e+001	-1.409471e+002	-1.769746e+001	1.238563e+002	-1.774622e+001	1.246203e+002	-1.071404e+001	-8.131173e+001
2362045.061	-1.204761e+001	-1.489142e+002	-1.732916e+001	1.170853e+002	-1.736239e+001	1.177693e+002	-1.072902e+001	-8.709227e+001
2386481.802	-1.232211e+001	-1.571272e+002	-1.698657e+001	1.100992e+002	-1.700624e+001	1.107681e+002	-1.073462e+001	-9.300923e+001
2410918.544	-1.260309e+001	-1.655974e+002	-1.666984e+001	1.029762e+002	-1.668228e+001	1.036720e+002	-1.073140e+001	-9.902773e+001
2435355.286	-1.288741e+001	-1.742526e+002	-1.638759e+001	9.577699e+001	-1.638501e+001	9.643696e+001	-1.071982e+001	-1.051681e+002
2459792.028	-1.316755e+001	1.768526e+002	-1.613664e+001	8.847863e+001	-1.612179e+001	8.912011e+001	-1.070069e+001	-1.114100e+002
2484228.769	-1.343465e+001	1.677720e+002	-1.592213e+001	8.112662e+001	-1.588904e+001	8.170305e+001	-1.068022e+001	-1.177917e+002
2508665.511	-1.368354e+001	1.585744e+002	-1.574132e+001	7.371033e+001	-1.569170e+001	7.427308e+001	-1.064885e+001	-1.242642e+002
2533102.253	-1.390618e+001	1.492148e+002	-1.559792e+001	6.634546e+001	-1.553638e+001	6.680818e+001	-1.060956e+001	-1.308043e+002
2557538.995	-1.409815e+001	1.398213e+002	-1.548575e+001	5.892956e+001	-1.541297e+001	5.936678e+001	-1.056755e+001	-1.374551e+002
2581975.737	-1.425111e+001	1.304252e+002	-1.540737e+001	5.151848e+001	-1.532690e+001	5.193669e+001	-1.052412e+001	-1.441890e+002
2606412.478	-1.436448e+001	1.210709e+002	-1.536415e+001	4.415969e+001	-1.527623e+001	4.453718e+001	-1.048272e+001	-1.509918e+002
2630849.220	-1.443379e+001	1.118094e+002	-1.535539e+001	3.686496e+001	-1.525970e+001	3.719521e+001	-1.044402e+001	-1.578489e+002
2655285.962	-1.446178e+001	1.027248e+002	-1.537727e+001	2.966179e+001	-1.527379e+001	2.993288e+001	-1.041081e+001	-1.647291e+002
2679722.704	-1.444857e+001	9.382051e+001	-1.543252e+001	2.256942e+001	-1.532449e+001	2.277602e+001	-1.038640e+001	-1.716100e+002
2704159.445	-1.440256e+001	8.516673e+001	-1.551016e+001	1.562940e+001	-1.540092e+001	1.574006e+001	-1.036400e+001	-1.784670e+002
2728596.187	-1.432793e+001	7.673848e+001	-1.561304e+001	8.747361e+000	-1.550051e+001	8.836868e+000	-1.035415e+001	1.747042e+002
2753032.929	-1.422747e+001	6.863763e+001	-1.573651e+001	2.061143e+000	-1.562805e+001	2.080636e+000	-1.035325e+001	1.679465e+002
2777469.671	-1.410518e+001	6.082579e+001	-1.588611e+001	-4.487530e+000	-1.577501e+001	-4.525564e+000	-1.035970e+001	1.612683e+002
2801906.412	-1.397291e+001	5.331985e+001	-1.604714e+001	-1.088139e+001	-1.594138e+001	-1.096811e+001	-1.037830e+001	1.547021e+002
2826343.154	-1.382860e+001	4.610936e+001	-1.622499e+001	-1.709070e+001	-1.612510e+001	-1.724137e+001	-1.040423e+001	1.482609e+002
2850779.896	-1.367873e+001	3.919524e+001	-1.641898e+001	-2.314257e+001	-1.632413e+001	-2.331785e+001	-1.043856e+001	1.419532e+002
2875216.638	-1.352550e+001	3.256685e+001	-1.661780e+001	-2.905028e+001	-1.653497e+001	-2.920486e+001	-1.047725e+001	1.358045e+002
2899653.380	-1.337040e+001	2.623029e+001	-1.682671e+001	-3.472395e+001	-1.675122e+001	-3.490969e+001	-1.052536e+001	1.298130e+002
2924090.121	-1.321577e+001	2.012064e+001	-1.703831e+001	-4.025109e+001	-1.697022e+001	-4.049805e+001	-1.058029e+001	1.239784e+002
2948526.863	-1.306372e+001	1.426876e+001	-1.725476e+001	-4.563370e+001	-1.719431e+001	-4.588036e+001	-1.063786e+001	1.182992e+002
2972963.605	-1.291217e+001	8.628097e+000	-1.746828e+001	-5.081310e+001	-1.741976e+001	-5.109966e+001	-1.069867e+001	1.127814e+002
2997400.347	-1.276386e+001	3.208191e+000	-1.768177e+001	-5.587261e+001	-1.764195e+001	-5.616431e+001	-1.076288e+001	1.074206e+002
3021837.088	-1.261809e+001	-2.023053e+000	-1.789081e+001	-6.075521e+001	-1.786026e+001	-6.105963e+001	-1.082768e+001	1.021977e+002
3046273.830	-1.247716e+001	-7.080484e+000	-1.809522e+001	-6.549396e+001	-1.807302e+001	-6.580610e+001	-1.089239e+001	9.711618e+001
3070710.572	-1.234018e+001	-1.196810e+001	-1.828903e+001	-7.010850e+001	-1.827673e+001	-7.042042e+001	-1.095950e+001	9.217582e+001
3095147.314	-1.220599e+001	-1.670399e+001	-1.847575e+001	-7.461912e+001	-1.847195e+001	-7.492472e+001	-1.102628e+001	8.736220e+001
3119584.055	-1.207692e+001	-2.130915e+001	-1.865188e+001	-7.901613e+001	-1.865859e+001	-7.930022e+001	-1.109393e+001	8.269424e+001
3144020.797	-1.194949e+001	-2.576583e+001	-1.882170e+001	-8.326402e+001	-1.883911e+001	-8.357791e+001	-1.115915e+001	7.816486e+001
3168457.539	-1.182775e+001	-3.011512e+001	-1.898214e+001	-8.746742e+001	-1.900430e+001	-8.775804e+001	-1.122338e+001	7.372272e+001
3192894.281	-1.171136e+001	-3.435723e+001	-1.912516e+001	-9.157223e+001	-1.915810e+001	-9.184873e+001	-1.128831e+001	6.939500e+001
3217331.023	-1.159680e+001	-3.849539e+001	-1.926536e+001	-9.561278e+001	-1.930306e+001	-9.586374e+001	-1.135097e+001	6.516910e+001
3241767.764	-1.148742e+001	-4.253440e+001	-1.939116e+001	-9.960541e+001	-1.943527e+001	-9.981301e+001	-1.141357e+001	6.103966e+001
3266204.506	-1.138115e+001	-4.647634e+001	-1.951017e+001	-1.035053e+002	-1.956130e+001	-1.037004e+002	-1.147277e+001	5.701941e+001
3290641.248	-1.127437e+001	-5.034053e+001	-1.961957e+001	-1.072712e+002	-1.967985e+001	-1.074500e+002	-1.152715e+001	5.308351e+001
3315077.990	-1.117138e+001	-5.415811e+001	-1.970627e+001	-1.109761e+002	-1.977088e+001	-1.111098e+002	-1.157842e+001	4.917679e+001
3339514.731	-1.107313e+001	-5.792681e+001	-1.977422e+001	-1.146481e+002	-1.984606e+001	-1.147539e+002	-1.163139e+001	4.534525e+001
3363951.473	-1.098162e+001	-6.163135e+001	-1.982394e+001	-1.183329e+002	-1.990042e+001	-1.183819e+002	-1.168859e+001	4.158163e+001
3388388.215	-1.089454e+001	-6.527754e+001	-1.986165e+001	-1.219584e+002	-1.994394e+001	-1.219983e+002	-1.174510e+001	3.788843e+001
3412824.957	-1.081372e+001	-6.886729e+001	-1.988593e+001	-1.256277e+002	-1.997181e+001	-1.256108e+002	-1.180234e+001	3.427333e+001
3437261.698	-1.073726e+001	-7.240624e+001	-1.989805e+001	-1.292586e+002	-1.998897e+001	-1.291952e+002	-1.186089e+001	3.072318e+001
3461698.440	-1.066601e+001	-7.589074e+001	-1.989730e+001	-1.328873e+002	-1.999122e+001	-1.327703e+002	-1.191932e+001	2.723119e+001
3486135.182	-1.059999e+001	-7.932675e+001	-1.987976e+001	-1.365276e+002	-1.997631e+001	-1.363706e+002	-1.197880e+001	2.380361e+001
3510571.924	-1.054024e+001	-8.270380e+001	-1.985260e+001	-1.401720e+002	-1.995177e+001	-1.399816e+002	-1.204045e+001	2.045353e+001
3535008.666	-1.048397e+001	-8.603175e+001	-1.980943e+001	-1.438499e+002	-1.991497e+001	-1.436208e+002	-1.210060e+001	1.717789e+001
3559445.407	-1.043151e+001	-8.929866e+001	-1.975536e+001	-1.475217e+002	-1.986023e+001	-1.472468e+002	-1.215777e+001	1.396391e+001
3583882.149	-1.038067e+001	-9.252091e+001	-1.968523e+001	-1.511870e+002	-1.979248e+001	-1.508917e+002	-1.221377e+001	1.077915e+001
3608318.891	-1.033149e+001	-9.571341e+001	-1.959906e+001	-1.549147e+002	-1.970131e+001	-1.545933e+002	-1.227214e+001	7.634139e+000
3632755.633	-1.028336e+001	-9.888405e+001	-1.949314e+001	-1.587171e+002	-1.959861e+001	-1.583399e+002	-1.232907e+001	4.515547e+000
3657192.374	-1.024112e+001	-1.020212e+002	-1.937585e+001	-1.626183e+002	-1.948233e+001	-1.622013e+002	-1.239036e+001	1.453569e+000
3681629.116	-1.020354e+001	-1.051359e+002	-1.924799e+001	-1.666172e+002	-1.935158e+001	-1.661567e+002	-1.245301e+001	-1.570171e+000
3706065.858	-1.017175e+001	-1.082385e+002	-1.910961e+001	-1.707438e+002	-1.921187e+001	-1.702502e+002	-1.252166e+001	-4.556239e+000
3730502.600	-1.014706e+001	-1.113198e+002	-1.897075e+001	-1.749831e+002	-1.907201e+001	-1.744497e+002	-1.259389e+001	-7.467429e+000
3754939.341	-1.012840e+001	-1.143890e+002	-1.882731e+001	-1.792863e+002	-1.892886e+001	-1.787253e+002	-1.266626e+001	-1.032705e+001
3779376.083	-1.011909e+001	-1.174382e+002	-1.867750e+001	1.763030e+002	-1.878131e+001	1.769043e+002	-1.274192e+001	-1.314960e+001
3803812.825	-1.011976e+001	-1.204734e+002	-1.852174e+001	1.718010e+002	-1.861759e+001	1.724656e+002	-1.282510e+001	-1.596084e+001
3828249.567	-1.013612e+001	-1.234765e+002	-1.835381e+001	1.671469e+002	-1.844953e+001	1.678321e+002	-1.291781e+001	-1.869249e+001
3852686.308	-1.016817e+001	-1.264009e+002	-1.818780e+001	1.623108e+002	-1.828275e+001	1.630601e+002	-1.302021e+001	-2.133795e+001
3877123.050	-1.021398e+001	-1.292495e+002	-1.802518e+001	1.572835e+002	-1.811316e+001	1.580905e+002	-1.313729e+001	-2.387949e+001
3901559.792	-1.027325e+001	-1.319841e+002	-1.786602e+001	1.520817e+002	-1.795424e+001	1.529525e+002	-1.326217e+001	-2.626891e+001
3925996.534	-1.034545e+001	-1.345897e+002	-1.771527e+001	1.466973e+002	-1.779887e+001	1.475987e+002	-1.339888e+001	-2.849233e+001
3950433.276	-1.042585e+001	-1.370350e+002	-1.758183e+001	1.411347e+002	-1.765807e+001	1.420312e+002	-1.353868e+001	-3.048194e+001
3974870.017	-1.051380e+001	-1.392763e+002	-1.746913e+001	1.353416e+002	-1.754305e+001	1.362354e+002	-1.367463e+001	-3.219040e+001
3999306.759	-1.059949e+001	-1.412773e+002	-1.738265e+001	1.293330e+002	-1.745279e+001	1.302517e+002	-1.379719e+001	-3.363469e+001
4023743.501	-1.067192e+001	-1.430386e+002	-1.733564e+001	1.231325e+002	-1.739578e+001	1.240529e+002	-1.390068e+001	-3.476835e+001
4048180.243	-1.072340e+001	-1.445443e+002	-1.732854e+001	1.167360e+002	-1.739232e+001	1.176653e+002	-1.395816e+001	-3.558415e+001
4072616.984	-1.073556e+001	-1.458333e+002	-1.737767e+001	1.101798e+002	-1.744144e+001	1.111219e+002	-1.395449e+001	-3.617296e+001
4097053.726	-1.069535e+001	-1.469710e+002	-1.749434e+001	1.035295e+002	-1.756085e+001	1.044863e+002	-1.387847e+001	-3.664940e+001
4121490.468	-1.059169e+001	-1.480846e+002	-1.768773e+001	9.685652e+001	-1.774976e+001	9.783598e+001	-1.372276e+001	-3.716670e+001
4145927.210	-1.042494e+001	-1.493378e+002	-1.796305e+001	9.027544e+001	-1.803330e+001	9.130729e+001	-1.348523e+001	-3.791007e+001
4170363.951	-1.020137e+001	-1.508803e+002	-1.833638e+001	8.404212e+001	-1.841621e+001	8.506176e+001	-1.317799e+001	-3.905918e+001
4194800.693	-9.932727e+000	-1.528314e+002	-1.881869e+001	7.818491e+001	-1.889740e+001	7.922035e+001	-1.282843e+001	-4.069803e+001
4219237.435	-9.649254e+000	-1.553096e+002	-1.939222e+001	7.312833e+001	-1.944807e+001	7.421261e+001	-1.246982e+001	-4.298075e+001
4243674.177	-9.386669e+000	-1.582757e+002	-1.998643e+001	6.907719e+001	-2.003017e+001	7.019033e+001	-1.213647e+001	-4.577837e+001
4268110.919	-9.165277e+000	-1.615694e+002	-2.055149e+001	6.596289e+001	-2.058281e+001	6.706185e+001	-1.184373e+001	-4.891951e+001
4292547.660	-8.981786e+000	-1.650776e+002	-2.106406e+001	6.356867e+001	-2.108689e+001	6.463127e+001	-1.159213e+001	-5.226184e+001
4316984.402	-8.838742e+000	-1.687339e+002	-2.149414e+001	6.188038e+001	-2.152992e+001	6.294068e+001	-1.137099e+001	-5.576261e+001
4341421.144	-8.734669e+000	-1.724823e+002	-2.182247e+001	6.065562e+001	-2.185813e+001	6.183643e+001	-1.119294e+001	-5.936050e+001
4365857.886	-8.668942e+000	-1.762259e+002	-2.201830e+001	5.951254e+001	-2.203507e+001	6.075361e+001	-1.105214e+001	-6.293827e+001
4390294.627	-8.628750e+000	-1.799064e+002	-2.213334e+001	5.797753e+001	-2.212697e+001	5.922508e+001	-1.093557e+001	-6.639830e+001
4414731.369	-8.591462e+000	1.764521e+002	-2.227134e+001	5.610447e+001	-2.223501e+001	5.718123e+001	-1.081561e+001	-6.972135e+001
4439168.111	-8.550484e+000	1.727425e+002	-2.246698e+001	5.431722e+001	-2.243371e+001	5.532972e+001	-1.067209e+001	-7.309970e+001
4463604.853	-8.508256e+000	1.688352e+002	-2.271039e+001	5.339177e+001	-2.269078e+001	5.435641e+001	-1.050827e+001	-7.664248e+001
4488041.594	-8.484956e+000	1.645950e+002	-2.289293e+001	5.399477e+001	-2.287680e+001	5.505293e+001	-1.034342e+001	-8.054221e+001
4512478.336	-8.519320e+000	1.600124e+002	-2.278451e+001	5.586833e+001	-2.275512e+001	5.694912e+001	-1.021462e+001	-8.481689e+001
4536915.078	-8.639472e+000	1.553398e+002	-2.226819e+001	5.711854e+001	-2.220837e+001	5.823354e+001	-1.015763e+001	-8.931948e+001
4561351.820	-8.842011e+000	1.508714e+002	-2.153094e+001	5.616972e+001	-2.145930e+001	5.718362e+001	-1.017204e+001	-9.369225e+001
4585788.562	-9.075914e+000	1.467673e+002	-2.087213e+001	5.317657e+001	-2.078587e+001	5.411475e+001	-1.021939e+001	-9.774930e+001
4610225.303	-9.311727e+000	1.428561e+002	-2.036145e+001	4.948212e+001	-2.027068e+001	5.027956e+001	-1.026038e+001	-1.015877e+002
4634662.045	-9.548609e+000	1.389834e+002	-1.994948e+001	4.563192e+001	-1.985337e+001	4.636039e+001	-1.028578e+001	-1.053907e+002
4659098.787	-9.800513e+000	1.350660e+002	-1.957502e+001	4.178064e+001	-1.948094e+001	4.244471e+001	-1.030806e+001	-1.092346e+002
4683535.529	-1.006905e+001	1.310913e+002	-1.923030e+001	3.803216e+001	-1.913610e+001	3.865284e+001	-1.032351e+001	-1.131694e+002
4707972.270	-1.036278e+001	1.269821e+002	-1.889202e+001	3.447851e+001	-1.879847e+001	3.504142e+001	-1.033714e+001	-1.172228e+002
4732409.012	-1.070057e+001	1.226605e+002	-1.851224e+001	3.110995e+001	-1.842138e+001	3.161156e+001	-1.035760e+001	-1.215430e+002
4756845.754	-1.111606e+001	1.182056e+002	-1.804651e+001	2.757205e+001	-1.794823e+001	2.802462e+001	-1.041615e+001	-1.261351e+002
4781282.496	-1.162801e+001	1.138870e+002	-1.751554e+001	2.334235e+001	-1.741933e+001	2.371301e+001	-1.053364e+001	-1.308281e+002
4805719.237	-1.221297e+001	1.099269e+002	-1.700402e+001	1.831977e+001	-1.691210e+001	1.866938e+001	-1.069911e+001	-1.354438e+002
4830155.979	-1.284427e+001	1.062878e+002	-1.655235e+001	1.286331e+001	-1.646436e+001	1.316824e+001	-1.089538e+001	-1.399342e+002
4854592.721	-1.351101e+001	1.029330e+002	-1.616512e+001	7.188998e+000	-1.607684e+001	7.445918e+000	-1.110895e+001	-1.443369e+002
4879029.463	-1.422258e+001	9.979358e+001	-1.581994e+001	1.420377e+000	-1.573537e+001	1.647076e+000	-1.133833e+001	-1.486944e+002
4903466.205	-1.499275e+001	9.688792e+001	-1.550241e+001	-4.408453e+000	-1.542353e+001	-4.208943e+000	-1.158868e+001	-1.530619e+002
4927902.946	-1.582346e+001	9.428754e+001	-1.521195e+001	-1.031357e+001	-1.513708e+001	-1.013920e+001	-1.186307e+001	-1.574266e+002
4952339.688	-1.672421e+001	9.204426e+001	-1.494478e+001	-1.632607e+001	-1.487426e+001	-1.615345e+001	-1.216383e+001	-1.617780e+002
4976776.430	-1.769748e+001	9.032971e+001	-1.470098e+001	-2.240506e+001	-1.463892e+001	-2.225141e+001	-1.249249e+001	-1.660529e+002
5001213.172	-1.873407e+001	8.919381e+001	-1.448742e+001	-2.856444e+001	-1.443540e+001	-2.841425e+001	-1.284524e+001	-1.702311e+002
5025649.913	-1.983690e+001	8.878050e+001	-1.430079e+001	-3.477884e+001	-1.425558e+001	-3.460421e+001	-1.322166e+001	-1.743418e+002
5050086.655	-2.100625e+001	8.913159e+001	-1.414418e+001	-4.097486e+001	-1.410287e+001	-4.080703e+001	-1.361719e+001	-1.783644e+002
5074523.397	-2.224219e+001	9.048048e+001	-1.401142e+001	-4.717913e+001	-1.397489e+001	-4.699966e+001	-1.403251e+001	1.777151e+002
5098960.139	-2.354270e+001	9.308795e+001	-1.389960e+001	-5.336105e+001	-1.386952e+001	-5.317302e+001	-1.446759e+001	1.738723e+002
5123396.880	-2.488188e+001	9.737410e+001	-1.380708e+001	-5.950675e+001	-1.378352e+001	-5.931082e+001	-1.491679e+001	1.701207e+002
5147833.622	-2.621650e+001	1.037817e+002	-1.373313e+001	-6.562197e+001	-1.371307e+001	-6.540682e+001	-1.538779e+001	1.664371e+002
5172270.364	-2.740264e+001	1.128704e+002	-1.367340e+001	-7.170186e+001	-1.365715e+001	-7.146905e+001	-1.587378e+001	1.628770e+002
5196707.106	-2.823117e+001	1.246200e+002	-1.362438e+001	-7.774240e+001	-1.361411e+001	-7.749377e+001	-1.638142e+001	1.593896e+002
5221143.847	-2.847141e+001	1.377705e+002	-1.358888e+001	-8.372510e+001	-1.358129e+001	-8.349613e+001	-1.690815e+001	1.560401e+002
5245580.589	-2.810113e+001	1.501080e+002	-1.356639e+001	-8.971255e+001	-1.355924e+001	-8.946881e+001	-1.744997e+001	1.528305e+002
5270017.331	-2.729720e+001	1.602131e+002	-1.355292e+001	-9.566167e+001	-1.354878e+001	-9.540846e+001	-1.800877e+001	1.497592e+002
5294454.073	-2.629152e+001	1.676593e+002	-1.354967e+001	-1.015717e+002	-1.354841e+001	-1.013109e+002	-1.857284e+001	1.468408e+002
5318890.815	-2.524269e+001	1.727736e+002	-1.355639e+001	-1.074452e+002	-1.355601e+001	-1.071615e+002	-1.914730e+001	1.440454e+002
5343327.556	-2.422536e+001	1.761669e+002	-1.356395e+001	-1.132770e+002	-1.356527e+001	-1.129876e+002	-1.974209e+001	1.414082e+002
5367764.298	-2.327430e+001	1.782147e+002	-1.357510e+001	-1.190948e+002	-1.357676e+001	-1.187936e+002	-2.034445e+001	1.389740e+002
5392201.040	-2.241083e+001	1.791967e+002	-1.358902e+001	-1.249348e+002	-1.359403e+001	-1.246018e+002	-2.095176e+001	1.368287e+002
5416637.782	-2.164441e+001	1.794900e+002	-1.361157e+001	-1.307534e+002	-1.361644e+001	-1.304208e+002	-2.155107e+001	1.349784e+002
5441074.523	-2.096818e+001	1.792666e+002	-1.363947e+001	-1.365915e+002	-1.364501e+001	-1.362484e+002	-2.212354e+001	1.334549e+002
