!Agilent Technologies,E5061B,MY49101568,A.02.00
!Date: Wed Mar 01 14:58:10 2023
!Data & Calibration Information:
!Freq	S11:SOLT2(OFF)	S21:SOLT2(OFF)	S12:SOLT2(OFF)	S22:SOLT2(OFF)
# Hz S dB R 50
1800000.000	-1.096208e+001	2.968698e+001	-1.146700e+001	1.372951e+002	-1.142024e+001	1.373363e+002	-1.077733e+001	7.360031e+001
1824436.742	-1.085576e+001	2.517672e+001	-1.168115e+001	1.325527e+002	-1.163126e+001	1.325484e+002	-1.074777e+001	6.887788e+001
1848873.484	-1.078301e+001	2.078148e+001	-1.186312e+001	1.279998e+002	-1.183114e+001	1.279978e+002	-1.075533e+001	6.425391e+001
1873310.225	-1.073164e+001	1.640061e+001	-1.203720e+001	1.236016e+002	-1.199768e+001	1.235972e+002	-1.077651e+001	5.982230e+001
1897746.967	-1.069697e+001	1.213222e+001	-1.217505e+001	1.193628e+002	-1.214398e+001	1.192822e+002	-1.081461e+001	5.546356e+001
1922183.709	-1.066452e+001	7.834540e+000	-1.229653e+001	1.150777e+002	-1.226151e+001	1.150223e+002	-1.085954e+001	5.116450e+001
1946620.451	-1.065688e+001	3.502353e+000	-1.240633e+001	1.109744e+002	-1.237588e+001	1.108406e+002	-1.091848e+001	4.682052e+001
1971057.192	-1.065946e+001	-7.840904e-001	-1.248704e+001	1.069157e+002	-1.247325e+001	1.067619e+002	-1.099595e+001	4.248543e+001
1995493.934	-1.067849e+001	-5.087694e+000	-1.255357e+001	1.029212e+002	-1.255178e+001	1.028145e+002	-1.109002e+001	3.819967e+001
2019930.676	-1.071998e+001	-9.377909e+000	-1.260171e+001	9.909886e+001	-1.261270e+001	9.899301e+001	-1.120111e+001	3.390480e+001
2044367.418	-1.076874e+001	-1.357972e+001	-1.260587e+001	9.530988e+001	-1.262432e+001	9.524717e+001	-1.132711e+001	2.969981e+001
2068804.159	-1.081520e+001	-1.782151e+001	-1.259921e+001	9.146596e+001	-1.261234e+001	9.143790e+001	-1.145027e+001	2.554989e+001
2093240.901	-1.085748e+001	-2.208226e+001	-1.257318e+001	8.758246e+001	-1.257474e+001	8.751663e+001	-1.156724e+001	2.143102e+001
2117677.643	-1.091425e+001	-2.648579e+001	-1.254310e+001	8.366516e+001	-1.253842e+001	8.369692e+001	-1.170185e+001	1.716758e+001
2142114.385	-1.099059e+001	-3.082163e+001	-1.247791e+001	7.981115e+001	-1.247000e+001	7.974836e+001	-1.182770e+001	1.289633e+001
2166551.127	-1.106339e+001	-3.521980e+001	-1.239738e+001	7.584283e+001	-1.239936e+001	7.575017e+001	-1.196204e+001	8.479926e+000
2190987.868	-1.114760e+001	-3.978405e+001	-1.231592e+001	7.183059e+001	-1.232724e+001	7.175875e+001	-1.211015e+001	3.906026e+000
2215424.610	-1.126251e+001	-4.441954e+001	-1.222156e+001	6.783929e+001	-1.224300e+001	6.780966e+001	-1.227931e+001	-7.904588e-001
2239861.352	-1.140298e+001	-4.909813e+001	-1.211130e+001	6.387079e+001	-1.213596e+001	6.387106e+001	-1.247398e+001	-5.531473e+000
2264298.094	-1.156351e+001	-5.385966e+001	-1.198286e+001	5.986476e+001	-1.201068e+001	5.993065e+001	-1.269302e+001	-1.041485e+001
2288734.835	-1.175410e+001	-5.852982e+001	-1.182365e+001	5.584361e+001	-1.185689e+001	5.591110e+001	-1.293047e+001	-1.529970e+001
2313171.577	-1.195545e+001	-6.320843e+001	-1.164273e+001	5.165920e+001	-1.167801e+001	5.178780e+001	-1.319285e+001	-2.019724e+001
2337608.319	-1.217039e+001	-6.794577e+001	-1.145432e+001	4.730303e+001	-1.149221e+001	4.745711e+001	-1.345824e+001	-2.522090e+001
2362045.061	-1.242099e+001	-7.279542e+001	-1.126381e+001	4.292037e+001	-1.128677e+001	4.303241e+001	-1.375838e+001	-3.023609e+001
2386481.802	-1.270416e+001	-7.759523e+001	-1.105290e+001	3.841565e+001	-1.108609e+001	3.853425e+001	-1.408880e+001	-3.552907e+001
2410918.544	-1.299889e+001	-8.234384e+001	-1.082707e+001	3.366509e+001	-1.085521e+001	3.381774e+001	-1.444765e+001	-4.071007e+001
2435355.286	-1.329765e+001	-8.715734e+001	-1.059941e+001	2.865954e+001	-1.063595e+001	2.884726e+001	-1.481264e+001	-4.604116e+001
2459792.028	-1.363763e+001	-9.221680e+001	-1.039263e+001	2.350895e+001	-1.042848e+001	2.372986e+001	-1.520881e+001	-5.156758e+001
2484228.769	-1.400984e+001	-9.739320e+001	-1.019667e+001	1.815999e+001	-1.023036e+001	1.847203e+001	-1.564153e+001	-5.726592e+001
2508665.511	-1.443697e+001	-1.027192e+002	-1.001710e+001	1.273178e+001	-1.004843e+001	1.304687e+001	-1.610764e+001	-6.311084e+001
2533102.253	-1.492943e+001	-1.081857e+002	-9.855089e+000	7.225154e+000	-9.884457e+000	7.520596e+000	-1.662334e+001	-6.909421e+001
2557538.995	-1.549504e+001	-1.137891e+002	-9.713962e+000	1.605965e+000	-9.742429e+000	1.942831e+000	-1.719246e+001	-7.536049e+001
2581975.737	-1.616772e+001	-1.194832e+002	-9.597035e+000	-4.040593e+000	-9.617119e+000	-3.695257e+000	-1.782830e+001	-8.180641e+001
2606412.478	-1.694602e+001	-1.250624e+002	-9.490519e+000	-9.702862e+000	-9.509325e+000	-9.342218e+000	-1.854523e+001	-8.842587e+001
2630849.220	-1.784839e+001	-1.305874e+002	-9.404371e+000	-1.537483e+001	-9.420070e+000	-1.501529e+001	-1.934879e+001	-9.524881e+001
2655285.962	-1.888102e+001	-1.357759e+002	-9.327506e+000	-2.105656e+001	-9.339129e+000	-2.069025e+001	-2.027069e+001	-1.021000e+002
2679722.704	-2.005722e+001	-1.405866e+002	-9.263151e+000	-2.675445e+001	-9.273991e+000	-2.639606e+001	-2.130672e+001	-1.089259e+002
2704159.445	-2.140913e+001	-1.451762e+002	-9.219802e+000	-3.248054e+001	-9.218140e+000	-3.212897e+001	-2.245850e+001	-1.155498e+002
2728596.187	-2.292921e+001	-1.489291e+002	-9.178476e+000	-3.822094e+001	-9.187497e+000	-3.788539e+001	-2.370755e+001	-1.221338e+002
2753032.929	-2.474833e+001	-1.521851e+002	-9.168909e+000	-4.395768e+001	-9.171148e+000	-4.363091e+001	-2.509613e+001	-1.284926e+002
2777469.671	-2.695157e+001	-1.543729e+002	-9.181544e+000	-4.966461e+001	-9.175638e+000	-4.931468e+001	-2.663659e+001	-1.349351e+002
2801906.412	-2.971989e+001	-1.536431e+002	-9.203565e+000	-5.527487e+001	-9.197229e+000	-5.494952e+001	-2.835398e+001	-1.413122e+002
2826343.154	-3.330782e+001	-1.463313e+002	-9.236757e+000	-6.078947e+001	-9.234765e+000	-6.051448e+001	-3.026950e+001	-1.476053e+002
2850779.896	-3.736167e+001	-1.225416e+002	-9.285669e+000	-6.627769e+001	-9.277994e+000	-6.595048e+001	-3.260629e+001	-1.539833e+002
2875216.638	-3.753499e+001	-7.809949e+001	-9.341221e+000	-7.165267e+001	-9.331090e+000	-7.133363e+001	-3.535832e+001	-1.600578e+002
2899653.380	-3.391373e+001	-5.464223e+001	-9.395045e+000	-7.687818e+001	-9.389558e+000	-7.660097e+001	-3.908921e+001	-1.661535e+002
2924090.121	-3.088664e+001	-4.795226e+001	-9.450800e+000	-8.205907e+001	-9.445054e+000	-8.178480e+001	-4.502275e+001	-1.690793e+002
2948526.863	-2.867485e+001	-4.718909e+001	-9.503130e+000	-8.717007e+001	-9.498642e+000	-8.689051e+001	-5.972930e+001	-1.227215e+002
2972963.605	-2.703196e+001	-4.876678e+001	-9.553847e+000	-9.222469e+001	-9.551238e+000	-9.195265e+001	-4.763412e+001	-2.760911e+001
2997400.347	-2.577031e+001	-5.131087e+001	-9.602936e+000	-9.721780e+001	-9.601707e+000	-9.696109e+001	-4.180161e+001	-2.989774e+001
3021837.088	-2.478904e+001	-5.453807e+001	-9.645151e+000	-1.021771e+002	-9.647931e+000	-1.018991e+002	-3.858742e+001	-3.578944e+001
3046273.830	-2.397737e+001	-5.812418e+001	-9.685070e+000	-1.070390e+002	-9.685316e+000	-1.067999e+002	-3.637668e+001	-4.331360e+001
3070710.572	-2.337843e+001	-6.196160e+001	-9.713866e+000	-1.119244e+002	-9.715195e+000	-1.116576e+002	-3.465236e+001	-5.142986e+001
3095147.314	-2.291081e+001	-6.602984e+001	-9.728892e+000	-1.167815e+002	-9.730695e+000	-1.165260e+002	-3.316215e+001	-6.099346e+001
3119584.055	-2.261015e+001	-7.034122e+001	-9.726261e+000	-1.217175e+002	-9.733537e+000	-1.214520e+002	-3.182464e+001	-7.174951e+001
3144020.797	-2.247227e+001	-7.438131e+001	-9.728374e+000	-1.267266e+002	-9.731931e+000	-1.264724e+002	-3.067899e+001	-8.345196e+001
3168457.539	-2.244959e+001	-7.816629e+001	-9.728703e+000	-1.318142e+002	-9.731714e+000	-1.315591e+002	-2.964320e+001	-9.554618e+001
3192894.281	-2.255355e+001	-8.167515e+001	-9.732487e+000	-1.369991e+002	-9.733236e+000	-1.367447e+002	-2.866888e+001	-1.079818e+002
3217331.023	-2.278699e+001	-8.459346e+001	-9.746261e+000	-1.422544e+002	-9.743955e+000	-1.419948e+002	-2.772755e+001	-1.204044e+002
3241767.764	-2.312061e+001	-8.670547e+001	-9.774877e+000	-1.475775e+002	-9.771635e+000	-1.473167e+002	-2.687637e+001	-1.329528e+002
3266204.506	-2.349252e+001	-8.793680e+001	-9.820775e+000	-1.528647e+002	-9.816685e+000	-1.525989e+002	-2.612123e+001	-1.448150e+002
3290641.248	-2.387109e+001	-8.869507e+001	-9.866275e+000	-1.580435e+002	-9.859041e+000	-1.578042e+002	-2.536695e+001	-1.553711e+002
3315077.990	-2.438578e+001	-8.902738e+001	-9.893440e+000	-1.633004e+002	-9.885416e+000	-1.630784e+002	-2.446425e+001	-1.650947e+002
3339514.731	-2.505512e+001	-8.760240e+001	-9.927282e+000	-1.687730e+002	-9.915247e+000	-1.685603e+002	-2.346017e+001	-1.749847e+002
3363951.473	-2.571383e+001	-8.356226e+001	-9.988394e+000	-1.743784e+002	-9.974284e+000	-1.741737e+002	-2.250226e+001	1.748688e+002
3388388.215	-2.612338e+001	-7.686741e+001	-1.007850e+001	1.799794e+002	-1.006562e+001	-1.798454e+002	-2.161965e+001	1.647919e+002
3412824.957	-2.605487e+001	-6.854769e+001	-1.019756e+001	1.743428e+002	-1.018543e+001	1.744813e+002	-2.080481e+001	1.549585e+002
3437261.698	-2.544006e+001	-6.042052e+001	-1.034630e+001	1.687193e+002	-1.033397e+001	1.688311e+002	-2.005030e+001	1.454629e+002
3461698.440	-2.438830e+001	-5.437077e+001	-1.052771e+001	1.631873e+002	-1.051623e+001	1.632701e+002	-1.937931e+001	1.362459e+002
3486135.182	-2.316866e+001	-5.083235e+001	-1.073516e+001	1.577527e+002	-1.072662e+001	1.578129e+002	-1.877335e+001	1.273538e+002
3510571.924	-2.193069e+001	-4.967596e+001	-1.096904e+001	1.525008e+002	-1.096538e+001	1.525253e+002	-1.824602e+001	1.188067e+002
3535008.666	-2.077416e+001	-5.021883e+001	-1.122144e+001	1.474332e+002	-1.122102e+001	1.474479e+002	-1.778810e+001	1.106627e+002
3559445.407	-1.975119e+001	-5.187601e+001	-1.148308e+001	1.426055e+002	-1.149067e+001	1.425768e+002	-1.738165e+001	1.029148e+002
3583882.149	-1.884168e+001	-5.419397e+001	-1.174511e+001	1.379507e+002	-1.175595e+001	1.379164e+002	-1.702858e+001	9.568920e+001
3608318.891	-1.802554e+001	-5.687334e+001	-1.200681e+001	1.334315e+002	-1.202556e+001	1.334103e+002	-1.670001e+001	8.877446e+001
3632755.633	-1.728764e+001	-5.984260e+001	-1.226913e+001	1.290216e+002	-1.229633e+001	1.290481e+002	-1.639984e+001	8.213668e+001
3657192.374	-1.661234e+001	-6.304673e+001	-1.253380e+001	1.247694e+002	-1.256633e+001	1.247849e+002	-1.611595e+001	7.580183e+001
3681629.116	-1.598143e+001	-6.643674e+001	-1.280865e+001	1.206205e+002	-1.284610e+001	1.206615e+002	-1.585185e+001	6.959083e+001
3706065.858	-1.539420e+001	-7.007702e+001	-1.310038e+001	1.166612e+002	-1.314137e+001	1.166979e+002	-1.561034e+001	6.342088e+001
3730502.600	-1.486716e+001	-7.399896e+001	-1.340308e+001	1.129816e+002	-1.345082e+001	1.130527e+002	-1.542247e+001	5.727893e+001
3754939.341	-1.440156e+001	-7.815613e+001	-1.371196e+001	1.096849e+002	-1.376578e+001	1.097931e+002	-1.528955e+001	5.119375e+001
3779376.083	-1.402041e+001	-8.249460e+001	-1.399964e+001	1.069013e+002	-1.406105e+001	1.070451e+002	-1.523178e+001	4.526532e+001
3803812.825	-1.373236e+001	-8.694737e+001	-1.424022e+001	1.046754e+002	-1.428981e+001	1.049086e+002	-1.527848e+001	3.968310e+001
3828249.567	-1.356625e+001	-9.116669e+001	-1.435061e+001	1.028359e+002	-1.440032e+001	1.030666e+002	-1.540577e+001	3.481755e+001
3852686.308	-1.349959e+001	-9.474228e+001	-1.430432e+001	1.008361e+002	-1.435765e+001	1.011379e+002	-1.558656e+001	3.101839e+001
3877123.050	-1.346449e+001	-9.737254e+001	-1.414307e+001	9.803667e+001	-1.419827e+001	9.826920e+001	-1.567357e+001	2.856405e+001
3901559.792	-1.333344e+001	-9.925221e+001	-1.400565e+001	9.414936e+001	-1.404593e+001	9.427544e+001	-1.557118e+001	2.673919e+001
3925996.534	-1.307637e+001	-1.009574e+002	-1.395754e+001	8.955844e+001	-1.400155e+001	8.961328e+001	-1.528765e+001	2.441713e+001
3950433.276	-1.273422e+001	-1.031709e+002	-1.403421e+001	8.493615e+001	-1.410426e+001	8.491505e+001	-1.493767e+001	2.101330e+001
3974870.017	-1.238327e+001	-1.059929e+002	-1.418877e+001	8.069303e+001	-1.429261e+001	8.073813e+001	-1.464168e+001	1.682121e+001
3999306.759	-1.206342e+001	-1.093367e+002	-1.439688e+001	7.697515e+001	-1.453065e+001	7.718219e+001	-1.442318e+001	1.214765e+001
4023743.501	-1.181813e+001	-1.129789e+002	-1.458658e+001	7.397132e+001	-1.471527e+001	7.440364e+001	-1.432879e+001	7.530830e+000
4048180.243	-1.164498e+001	-1.166592e+002	-1.472180e+001	7.142667e+001	-1.483491e+001	7.205442e+001	-1.431240e+001	3.129980e+000
4072616.984	-1.153630e+001	-1.201388e+002	-1.476874e+001	6.908917e+001	-1.485340e+001	6.979356e+001	-1.434536e+001	-7.799583e-001
4097053.726	-1.146763e+001	-1.233509e+002	-1.473200e+001	6.670114e+001	-1.478563e+001	6.733821e+001	-1.439721e+001	-4.160427e+000
4121490.468	-1.140958e+001	-1.261858e+002	-1.463180e+001	6.394721e+001	-1.468808e+001	6.458864e+001	-1.442726e+001	-7.253392e+000
4145927.210	-1.135326e+001	-1.287822e+002	-1.449861e+001	6.092892e+001	-1.456547e+001	6.154171e+001	-1.443768e+001	-1.007955e+001
4170363.951	-1.128009e+001	-1.311994e+002	-1.436015e+001	5.766481e+001	-1.442929e+001	5.819579e+001	-1.442134e+001	-1.264092e+001
4194800.693	-1.117951e+001	-1.335047e+002	-1.422809e+001	5.400938e+001	-1.429441e+001	5.459374e+001	-1.437293e+001	-1.512141e+001
4219237.435	-1.106475e+001	-1.357746e+002	-1.410367e+001	5.020983e+001	-1.417102e+001	5.084151e+001	-1.429819e+001	-1.757172e+001
4243674.177	-1.092880e+001	-1.380936e+002	-1.399758e+001	4.629626e+001	-1.406545e+001	4.693959e+001	-1.419874e+001	-2.007194e+001
4268110.919	-1.078360e+001	-1.404843e+002	-1.390782e+001	4.231377e+001	-1.397777e+001	4.302875e+001	-1.408821e+001	-2.270340e+001
4292547.660	-1.063852e+001	-1.429648e+002	-1.382874e+001	3.832272e+001	-1.389385e+001	3.903126e+001	-1.396825e+001	-2.533580e+001
4316984.402	-1.048993e+001	-1.454677e+002	-1.374949e+001	3.428140e+001	-1.381816e+001	3.505143e+001	-1.384786e+001	-2.804812e+001
4341421.144	-1.034325e+001	-1.480675e+002	-1.368048e+001	3.022976e+001	-1.374538e+001	3.101334e+001	-1.372374e+001	-3.079555e+001
4365857.886	-1.019586e+001	-1.507391e+002	-1.361798e+001	2.614322e+001	-1.368189e+001	2.697085e+001	-1.359919e+001	-3.361080e+001
4390294.627	-1.005481e+001	-1.535061e+002	-1.356510e+001	2.207062e+001	-1.362256e+001	2.291665e+001	-1.347544e+001	-3.648843e+001
4414731.369	-9.922747e+000	-1.563435e+002	-1.351319e+001	1.800910e+001	-1.356846e+001	1.888115e+001	-1.335751e+001	-3.942217e+001
4439168.111	-9.800383e+000	-1.592723e+002	-1.346691e+001	1.392474e+001	-1.351266e+001	1.486284e+001	-1.324798e+001	-4.242789e+001
4463604.853	-9.690034e+000	-1.622159e+002	-1.341540e+001	9.889603e+000	-1.346073e+001	1.086951e+001	-1.314789e+001	-4.547326e+001
4488041.594	-9.592178e+000	-1.652176e+002	-1.336272e+001	5.860807e+000	-1.340293e+001	6.854076e+000	-1.305258e+001	-4.850923e+001
4512478.336	-9.506028e+000	-1.682455e+002	-1.330697e+001	1.814363e+000	-1.334458e+001	2.821006e+000	-1.296531e+001	-5.155528e+001
4536915.078	-9.431741e+000	-1.713430e+002	-1.325621e+001	-2.224833e+000	-1.328791e+001	-1.194041e+000	-1.288464e+001	-5.465039e+001
4561351.820	-9.374143e+000	-1.744912e+002	-1.320714e+001	-6.235781e+000	-1.323182e+001	-5.188938e+000	-1.281507e+001	-5.779777e+001
4585788.562	-9.337621e+000	-1.776545e+002	-1.315330e+001	-1.020462e+001	-1.317134e+001	-9.155356e+000	-1.276102e+001	-6.096234e+001
4610225.303	-9.315082e+000	1.791872e+002	-1.308874e+001	-1.418744e+001	-1.310032e+001	-1.309780e+001	-1.272267e+001	-6.411118e+001
4634662.045	-9.309807e+000	1.760550e+002	-1.301430e+001	-1.815876e+001	-1.301783e+001	-1.707827e+001	-1.269488e+001	-6.720899e+001
4659098.787	-9.317085e+000	1.729353e+002	-1.293088e+001	-2.218693e+001	-1.293102e+001	-2.110216e+001	-1.267633e+001	-7.028656e+001
4683535.529	-9.336190e+000	1.698194e+002	-1.284369e+001	-2.626802e+001	-1.283257e+001	-2.516911e+001	-1.266629e+001	-7.330422e+001
4707972.270	-9.369336e+000	1.667256e+002	-1.275146e+001	-3.035474e+001	-1.273394e+001	-2.930951e+001	-1.266225e+001	-7.628115e+001
4732409.012	-9.414878e+000	1.636445e+002	-1.265093e+001	-3.450641e+001	-1.263039e+001	-3.349226e+001	-1.266557e+001	-7.925734e+001
4756845.754	-9.471144e+000	1.605794e+002	-1.254997e+001	-3.876630e+001	-1.252179e+001	-3.775443e+001	-1.267279e+001	-8.216884e+001
4781282.496	-9.538857e+000	1.574963e+002	-1.244943e+001	-4.308702e+001	-1.241500e+001	-4.208870e+001	-1.268298e+001	-8.504840e+001
4805719.237	-9.620030e+000	1.544300e+002	-1.234857e+001	-4.747997e+001	-1.231017e+001	-4.650077e+001	-1.269332e+001	-8.792157e+001
4830155.979	-9.711714e+000	1.513546e+002	-1.225211e+001	-5.194396e+001	-1.220724e+001	-5.098227e+001	-1.270453e+001	-9.076620e+001
4854592.721	-9.821976e+000	1.482645e+002	-1.216063e+001	-5.645617e+001	-1.210990e+001	-5.552104e+001	-1.271851e+001	-9.360328e+001
4879029.463	-9.948031e+000	1.451796e+002	-1.207503e+001	-6.101376e+001	-1.201969e+001	-6.010236e+001	-1.273594e+001	-9.646116e+001
4903466.205	-1.009194e+001	1.420930e+002	-1.199454e+001	-6.560496e+001	-1.193463e+001	-6.472867e+001	-1.275726e+001	-9.931539e+001
4927902.946	-1.025742e+001	1.390348e+002	-1.191873e+001	-7.023461e+001	-1.185422e+001	-6.938178e+001	-1.278191e+001	-1.021736e+002
4952339.688	-1.044144e+001	1.359941e+002	-1.184535e+001	-7.492026e+001	-1.177958e+001	-7.406742e+001	-1.281113e+001	-1.050518e+002
4976776.430	-1.064616e+001	1.329950e+002	-1.178017e+001	-7.960332e+001	-1.170919e+001	-7.878119e+001	-1.284608e+001	-1.078989e+002
5001213.172	-1.087339e+001	1.300516e+002	-1.171666e+001	-8.430880e+001	-1.164372e+001	-8.352214e+001	-1.288545e+001	-1.107424e+002
5025649.913	-1.112146e+001	1.271505e+002	-1.165941e+001	-8.903961e+001	-1.158368e+001	-8.829555e+001	-1.292723e+001	-1.135821e+002
5050086.655	-1.139004e+001	1.243227e+002	-1.160584e+001	-9.379988e+001	-1.152845e+001	-9.309346e+001	-1.297234e+001	-1.164232e+002
5074523.397	-1.167971e+001	1.215666e+002	-1.155820e+001	-9.859300e+001	-1.148001e+001	-9.791227e+001	-1.302107e+001	-1.192580e+002
5098960.139	-1.199212e+001	1.188885e+002	-1.151689e+001	-1.033965e+002	-1.143755e+001	-1.027527e+002	-1.306958e+001	-1.221091e+002
5123396.880	-1.233023e+001	1.162938e+002	-1.148446e+001	-1.082066e+002	-1.140239e+001	-1.076172e+002	-1.312217e+001	-1.249721e+002
5147833.622	-1.268906e+001	1.138013e+002	-1.145551e+001	-1.130400e+002	-1.137410e+001	-1.124798e+002	-1.317980e+001	-1.278675e+002
5172270.364	-1.307401e+001	1.114461e+002	-1.143114e+001	-1.178509e+002	-1.135235e+001	-1.173353e+002	-1.324306e+001	-1.307737e+002
5196707.106	-1.348120e+001	1.092309e+002	-1.141232e+001	-1.226766e+002	-1.133214e+001	-1.221964e+002	-1.330906e+001	-1.336817e+002
5221143.847	-1.390927e+001	1.071777e+002	-1.139518e+001	-1.274677e+002	-1.131776e+001	-1.270605e+002	-1.338003e+001	-1.365799e+002
5245580.589	-1.435686e+001	1.052803e+002	-1.138129e+001	-1.323186e+002	-1.130589e+001	-1.319350e+002	-1.345180e+001	-1.394961e+002
5270017.331	-1.482477e+001	1.035562e+002	-1.137175e+001	-1.371567e+002	-1.129888e+001	-1.368123e+002	-1.352544e+001	-1.424445e+002
5294454.073	-1.531130e+001	1.019953e+002	-1.136709e+001	-1.420197e+002	-1.129657e+001	-1.416971e+002	-1.360269e+001	-1.454214e+002
5318890.815	-1.581808e+001	1.006283e+002	-1.136635e+001	-1.468990e+002	-1.129896e+001	-1.466006e+002	-1.367842e+001	-1.484422e+002
5343327.556	-1.634791e+001	9.946385e+001	-1.137001e+001	-1.517744e+002	-1.130460e+001	-1.515142e+002	-1.375492e+001	-1.515048e+002
5367764.298	-1.689593e+001	9.848391e+001	-1.137912e+001	-1.566608e+002	-1.131660e+001	-1.564164e+002	-1.383621e+001	-1.546173e+002
5392201.040	-1.746287e+001	9.774636e+001	-1.139093e+001	-1.615578e+002	-1.133243e+001	-1.613356e+002	-1.392073e+001	-1.577844e+002
5416637.782	-1.805666e+001	9.725283e+001	-1.140865e+001	-1.664590e+002	-1.135364e+001	-1.662546e+002	-1.400565e+001	-1.610220e+002
5441074.523	-1.867354e+001	9.700064e+001	-1.143075e+001	-1.713743e+002	-1.138029e+001	-1.711859e+002	-1.409401e+001	-1.643252e+002
