!Agilent Technologies,E5061B,MY49101568,A.02.00
!Date: Wed Mar 01 14:57:49 2023
!Data & Calibration Information:
!Freq	S11:SOLT2(OFF)	S21:SOLT2(OFF)	S12:SOLT2(OFF)	S22:SOLT2(OFF)
# Hz S dB R 50
1800000.000	-1.516626e+001	2.262998e+000	-1.277716e+001	1.745376e+002	-1.274893e+001	1.746767e+002	-1.657139e+001	4.670684e+001
1824436.742	-1.519112e+001	1.704214e+000	-1.271169e+001	1.684933e+002	-1.268923e+001	1.685802e+002	-1.641682e+001	4.671371e+001
1848873.484	-1.514582e+001	8.483570e-001	-1.267082e+001	1.625191e+002	-1.264578e+001	1.626857e+002	-1.623424e+001	4.605227e+001
1873310.225	-1.506940e+001	-2.545691e-001	-1.263573e+001	1.566764e+002	-1.261320e+001	1.567878e+002	-1.601133e+001	4.495455e+001
1897746.967	-1.496068e+001	-1.711760e+000	-1.260736e+001	1.509831e+002	-1.258953e+001	1.510596e+002	-1.579769e+001	4.328721e+001
1922183.709	-1.483866e+001	-3.479298e+000	-1.257903e+001	1.453571e+002	-1.257335e+001	1.454511e+002	-1.559409e+001	4.109127e+001
1946620.451	-1.468469e+001	-5.604108e+000	-1.256220e+001	1.397389e+002	-1.254939e+001	1.398516e+002	-1.539660e+001	3.866715e+001
1971057.192	-1.454222e+001	-8.244496e+000	-1.256387e+001	1.343252e+002	-1.255612e+001	1.343512e+002	-1.520461e+001	3.568235e+001
1995493.934	-1.440435e+001	-1.121896e+001	-1.257220e+001	1.289920e+002	-1.257014e+001	1.291060e+002	-1.506620e+001	3.224712e+001
2019930.676	-1.429522e+001	-1.445417e+001	-1.257746e+001	1.238421e+002	-1.256368e+001	1.239648e+002	-1.495795e+001	2.869098e+001
2044367.418	-1.423127e+001	-1.781166e+001	-1.255189e+001	1.189059e+002	-1.254904e+001	1.190409e+002	-1.490439e+001	2.482907e+001
2068804.159	-1.417039e+001	-2.125438e+001	-1.251339e+001	1.139449e+002	-1.251318e+001	1.140901e+002	-1.486533e+001	2.095731e+001
2093240.901	-1.412506e+001	-2.477682e+001	-1.246236e+001	1.090582e+002	-1.246383e+001	1.090675e+002	-1.482784e+001	1.707066e+001
2117677.643	-1.408953e+001	-2.861918e+001	-1.241898e+001	1.041715e+002	-1.242931e+001	1.042008e+002	-1.481351e+001	1.278365e+001
2142114.385	-1.407662e+001	-3.249570e+001	-1.235452e+001	9.929337e+001	-1.236011e+001	9.939420e+001	-1.483800e+001	8.474476e+000
2166551.127	-1.406739e+001	-3.656559e+001	-1.229117e+001	9.438064e+001	-1.230087e+001	9.444869e+001	-1.484331e+001	3.933281e+000
2190987.868	-1.408998e+001	-4.092849e+001	-1.222745e+001	8.955606e+001	-1.223667e+001	8.965181e+001	-1.489014e+001	-8.899702e-001
2215424.610	-1.415497e+001	-4.537398e+001	-1.214581e+001	8.475943e+001	-1.216870e+001	8.495012e+001	-1.496911e+001	-5.981352e+000
2239861.352	-1.425870e+001	-4.997398e+001	-1.205710e+001	8.002932e+001	-1.207425e+001	8.026236e+001	-1.508536e+001	-1.117442e+001
2264298.094	-1.440172e+001	-5.467508e+001	-1.195218e+001	7.530615e+001	-1.197258e+001	7.558012e+001	-1.522621e+001	-1.659625e+001
2288734.835	-1.458908e+001	-5.936900e+001	-1.182787e+001	7.059034e+001	-1.183607e+001	7.086986e+001	-1.540750e+001	-2.203689e+001
2313171.577	-1.479659e+001	-6.403051e+001	-1.168224e+001	6.573689e+001	-1.169000e+001	6.598265e+001	-1.559053e+001	-2.760795e+001
2337608.319	-1.502767e+001	-6.879459e+001	-1.153134e+001	6.077012e+001	-1.154065e+001	6.101278e+001	-1.579425e+001	-3.341123e+001
2362045.061	-1.530739e+001	-7.370572e+001	-1.138021e+001	5.579059e+001	-1.139515e+001	5.598294e+001	-1.602048e+001	-3.946493e+001
2386481.802	-1.560339e+001	-7.868066e+001	-1.122095e+001	5.061120e+001	-1.124041e+001	5.086564e+001	-1.627316e+001	-4.577814e+001
2410918.544	-1.596534e+001	-8.380524e+001	-1.106353e+001	4.538060e+001	-1.107555e+001	4.565467e+001	-1.656018e+001	-5.232651e+001
2435355.286	-1.636476e+001	-8.893112e+001	-1.089975e+001	3.998693e+001	-1.092049e+001	4.026831e+001	-1.685274e+001	-5.913238e+001
2459792.028	-1.683591e+001	-9.432996e+001	-1.075086e+001	3.452981e+001	-1.076628e+001	3.481718e+001	-1.718259e+001	-6.625384e+001
2484228.769	-1.736512e+001	-9.992671e+001	-1.061375e+001	2.890361e+001	-1.062191e+001	2.924413e+001	-1.753025e+001	-7.375615e+001
2508665.511	-1.797026e+001	-1.055808e+002	-1.047965e+001	2.322040e+001	-1.048824e+001	2.358191e+001	-1.790714e+001	-8.162914e+001
2533102.253	-1.867875e+001	-1.114177e+002	-1.035872e+001	1.746482e+001	-1.036973e+001	1.778924e+001	-1.830422e+001	-8.979976e+001
2557538.995	-1.949312e+001	-1.176405e+002	-1.026255e+001	1.160003e+001	-1.026505e+001	1.193457e+001	-1.872198e+001	-9.840664e+001
2581975.737	-2.045080e+001	-1.241388e+002	-1.018460e+001	5.663619e+000	-1.019086e+001	5.998845e+000	-1.912132e+001	-1.074573e+002
2606412.478	-2.164275e+001	-1.311502e+002	-1.013280e+001	-2.274703e-001	-1.013432e+001	8.524592e-002	-1.953829e+001	-1.170401e+002
2630849.220	-2.308012e+001	-1.385875e+002	-1.010000e+001	-6.131445e+000	-1.009230e+001	-5.810112e+000	-1.996501e+001	-1.271577e+002
2655285.962	-2.492145e+001	-1.464781e+002	-1.007719e+001	-1.196817e+001	-1.006896e+001	-1.166242e+001	-2.037692e+001	-1.378102e+002
2679722.704	-2.726799e+001	-1.551677e+002	-1.006565e+001	-1.777139e+001	-1.005262e+001	-1.748533e+001	-2.079759e+001	-1.489178e+002
2704159.445	-3.036232e+001	-1.657116e+002	-1.005915e+001	-2.362044e+001	-1.005336e+001	-2.326083e+001	-2.117315e+001	-1.604115e+002
2728596.187	-3.484348e+001	1.769477e+002	-1.007462e+001	-2.945096e+001	-1.005843e+001	-2.914511e+001	-2.156226e+001	-1.716453e+002
2753032.929	-4.071007e+001	1.309164e+002	-1.010930e+001	-3.528491e+001	-1.009296e+001	-3.502171e+001	-2.185007e+001	1.773726e+002
2777469.671	-3.791822e+001	5.766032e+001	-1.016493e+001	-4.102514e+001	-1.014307e+001	-4.079142e+001	-2.207773e+001	1.662626e+002
2801906.412	-3.275784e+001	3.158981e+001	-1.023460e+001	-4.670969e+001	-1.021402e+001	-4.649530e+001	-2.221685e+001	1.555641e+002
2826343.154	-2.939848e+001	1.891463e+001	-1.031694e+001	-5.231140e+001	-1.030134e+001	-5.209740e+001	-2.229041e+001	1.452701e+002
2850779.896	-2.695860e+001	1.007928e+001	-1.041324e+001	-5.775622e+001	-1.039522e+001	-5.759226e+001	-2.231595e+001	1.353512e+002
2875216.638	-2.513738e+001	2.794237e+000	-1.051669e+001	-6.312018e+001	-1.049979e+001	-6.295290e+001	-2.229771e+001	1.259267e+002
2899653.380	-2.371672e+001	-3.647911e+000	-1.062115e+001	-6.836809e+001	-1.060859e+001	-6.819086e+001	-2.224432e+001	1.169061e+002
2924090.121	-2.254413e+001	-9.630077e+000	-1.072611e+001	-7.346430e+001	-1.071450e+001	-7.332697e+001	-2.219940e+001	1.083118e+002
2948526.863	-2.158308e+001	-1.525448e+001	-1.082976e+001	-7.848349e+001	-1.082014e+001	-7.836352e+001	-2.214918e+001	1.002049e+002
2972963.605	-2.078735e+001	-2.061884e+001	-1.092868e+001	-8.344176e+001	-1.092473e+001	-8.331682e+001	-2.212154e+001	9.252640e+001
2997400.347	-2.011366e+001	-2.570804e+001	-1.102772e+001	-8.830306e+001	-1.102491e+001	-8.817576e+001	-2.210145e+001	8.520002e+001
3021837.088	-1.953374e+001	-3.061942e+001	-1.111924e+001	-9.308940e+001	-1.112313e+001	-9.295594e+001	-2.209949e+001	7.835917e+001
3046273.830	-1.903268e+001	-3.536724e+001	-1.120693e+001	-9.777878e+001	-1.121168e+001	-9.766292e+001	-2.212044e+001	7.173292e+001
3070710.572	-1.860251e+001	-4.004533e+001	-1.128094e+001	-1.023969e+002	-1.129010e+001	-1.023012e+002	-2.216877e+001	6.530611e+001
3095147.314	-1.824651e+001	-4.459022e+001	-1.134545e+001	-1.070133e+002	-1.135457e+001	-1.068888e+002	-2.227301e+001	5.901667e+001
3119584.055	-1.795839e+001	-4.912849e+001	-1.138870e+001	-1.116255e+002	-1.140628e+001	-1.114971e+002	-2.245206e+001	5.299463e+001
3144020.797	-1.773066e+001	-5.340683e+001	-1.143419e+001	-1.162332e+002	-1.144834e+001	-1.161308e+002	-2.271246e+001	4.729842e+001
3168457.539	-1.755739e+001	-5.756058e+001	-1.147051e+001	-1.209074e+002	-1.148684e+001	-1.208020e+002	-2.303459e+001	4.207026e+001
3192894.281	-1.743136e+001	-6.153236e+001	-1.150354e+001	-1.256079e+002	-1.152149e+001	-1.255124e+002	-2.344076e+001	3.734110e+001
3217331.023	-1.735289e+001	-6.527778e+001	-1.153774e+001	-1.303714e+002	-1.155362e+001	-1.302529e+002	-2.393118e+001	3.311444e+001
3241767.764	-1.730851e+001	-6.876983e+001	-1.157539e+001	-1.351574e+002	-1.159410e+001	-1.350256e+002	-2.446750e+001	2.971667e+001
3266204.506	-1.728292e+001	-7.199805e+001	-1.162251e+001	-1.399241e+002	-1.164378e+001	-1.397792e+002	-2.503348e+001	2.726844e+001
3290641.248	-1.725967e+001	-7.511770e+001	-1.166861e+001	-1.445889e+002	-1.168802e+001	-1.444396e+002	-2.556703e+001	2.509946e+001
3315077.990	-1.727982e+001	-7.829725e+001	-1.168895e+001	-1.492640e+002	-1.170890e+001	-1.491015e+002	-2.623073e+001	2.294173e+001
3339514.731	-1.735955e+001	-8.123768e+001	-1.170006e+001	-1.540889e+002	-1.172234e+001	-1.539187e+002	-2.710997e+001	2.212615e+001
3363951.473	-1.748576e+001	-8.377407e+001	-1.172280e+001	-1.590468e+002	-1.174383e+001	-1.588727e+002	-2.809780e+001	2.382516e+001
3388388.215	-1.763327e+001	-8.587619e+001	-1.175841e+001	-1.640710e+002	-1.177913e+001	-1.639087e+002	-2.902627e+001	2.850877e+001
3412824.957	-1.778728e+001	-8.749254e+001	-1.181099e+001	-1.691549e+002	-1.183173e+001	-1.689888e+002	-2.962671e+001	3.632916e+001
3437261.698	-1.794448e+001	-8.862465e+001	-1.187554e+001	-1.742875e+002	-1.189847e+001	-1.740988e+002	-2.963509e+001	4.604409e+001
3461698.440	-1.806659e+001	-8.925553e+001	-1.196269e+001	-1.793912e+002	-1.198556e+001	-1.792226e+002	-2.896828e+001	5.515117e+001
3486135.182	-1.813929e+001	-8.946277e+001	-1.207169e+001	1.755110e+002	-1.209632e+001	1.756692e+002	-2.779147e+001	6.157209e+001
3510571.924	-1.814495e+001	-8.929817e+001	-1.220052e+001	1.704656e+002	-1.222625e+001	1.706269e+002	-2.647376e+001	6.492901e+001
3535008.666	-1.806700e+001	-8.901594e+001	-1.234865e+001	1.655420e+002	-1.237465e+001	1.656987e+002	-2.517233e+001	6.559612e+001
3559445.407	-1.791408e+001	-8.876005e+001	-1.250911e+001	1.607480e+002	-1.253770e+001	1.608878e+002	-2.399298e+001	6.450797e+001
3583882.149	-1.770100e+001	-8.862382e+001	-1.267003e+001	1.560663e+002	-1.270165e+001	1.562109e+002	-2.296755e+001	6.236067e+001
3608318.891	-1.743683e+001	-8.866048e+001	-1.283545e+001	1.514755e+002	-1.286912e+001	1.516158e+002	-2.205187e+001	5.971019e+001
3632755.633	-1.713527e+001	-8.892906e+001	-1.299863e+001	1.469359e+002	-1.304248e+001	1.471201e+002	-2.123287e+001	5.652159e+001
3657192.374	-1.678926e+001	-8.939332e+001	-1.317368e+001	1.424769e+002	-1.322051e+001	1.426621e+002	-2.048605e+001	5.313826e+001
3681629.116	-1.640151e+001	-9.010532e+001	-1.336082e+001	1.380691e+002	-1.341138e+001	1.382609e+002	-1.978987e+001	4.944692e+001
3706065.858	-1.598216e+001	-9.111975e+001	-1.356724e+001	1.337466e+002	-1.362121e+001	1.339650e+002	-1.914453e+001	4.541172e+001
3730502.600	-1.553193e+001	-9.264402e+001	-1.379857e+001	1.296516e+002	-1.385701e+001	1.298705e+002	-1.855550e+001	4.093872e+001
3754939.341	-1.507448e+001	-9.468726e+001	-1.405410e+001	1.258592e+002	-1.411394e+001	1.261089e+002	-1.804451e+001	3.607464e+001
3779376.083	-1.464918e+001	-9.729223e+001	-1.430241e+001	1.225043e+002	-1.437474e+001	1.228127e+002	-1.763821e+001	3.085559e+001
3803812.825	-1.427275e+001	-1.004539e+002	-1.452964e+001	1.197220e+002	-1.459573e+001	1.201466e+002	-1.737465e+001	2.543877e+001
3828249.567	-1.401380e+001	-1.040297e+002	-1.465198e+001	1.175209e+002	-1.472339e+001	1.179431e+002	-1.726351e+001	2.020338e+001
3852686.308	-1.387660e+001	-1.075261e+002	-1.463855e+001	1.153305e+002	-1.470797e+001	1.158021e+002	-1.731362e+001	1.569241e+001
3877123.050	-1.385162e+001	-1.104451e+002	-1.449303e+001	1.125603e+002	-1.455464e+001	1.130126e+002	-1.744464e+001	1.264885e+001
3901559.792	-1.384914e+001	-1.124006e+002	-1.431361e+001	1.087817e+002	-1.437575e+001	1.092382e+002	-1.748708e+001	1.098171e+001
3925996.534	-1.375173e+001	-1.136234e+002	-1.421580e+001	1.041504e+002	-1.427965e+001	1.046499e+002	-1.731646e+001	9.858860e+000
3950433.276	-1.353427e+001	-1.148192e+002	-1.422902e+001	9.932262e+001	-1.429132e+001	9.982129e+001	-1.697490e+001	8.289835e+000
3974870.017	-1.322079e+001	-1.164850e+002	-1.435304e+001	9.471725e+001	-1.440977e+001	9.524771e+001	-1.656589e+001	5.703277e+000
3999306.759	-1.289379e+001	-1.188524e+002	-1.453134e+001	9.070211e+001	-1.458392e+001	9.124359e+001	-1.618940e+001	2.189008e+000
4023743.501	-1.262025e+001	-1.217292e+002	-1.469104e+001	8.733465e+001	-1.475590e+001	8.789208e+001	-1.591129e+001	-1.859194e+000
4048180.243	-1.240524e+001	-1.249123e+002	-1.481365e+001	8.446345e+001	-1.487120e+001	8.501375e+001	-1.574077e+001	-6.002058e+000
4072616.984	-1.226392e+001	-1.280801e+002	-1.484929e+001	8.178571e+001	-1.490878e+001	8.237718e+001	-1.565410e+001	-9.948912e+000
4097053.726	-1.218335e+001	-1.310499e+002	-1.480278e+001	7.905551e+001	-1.486262e+001	7.969177e+001	-1.563625e+001	-1.352486e+001
4121490.468	-1.212317e+001	-1.338124e+002	-1.471621e+001	7.609188e+001	-1.477579e+001	7.670902e+001	-1.562386e+001	-1.667323e+001
4145927.210	-1.207558e+001	-1.363198e+002	-1.460058e+001	7.285647e+001	-1.465969e+001	7.353247e+001	-1.561789e+001	-1.956550e+001
4170363.951	-1.203084e+001	-1.386285e+002	-1.446816e+001	6.943622e+001	-1.452793e+001	7.007535e+001	-1.560558e+001	-2.212301e+001
4194800.693	-1.197864e+001	-1.407507e+002	-1.432843e+001	6.571069e+001	-1.438938e+001	6.638045e+001	-1.557438e+001	-2.448697e+001
4219237.435	-1.190591e+001	-1.428030e+002	-1.420223e+001	6.183186e+001	-1.425993e+001	6.248076e+001	-1.551558e+001	-2.672669e+001
4243674.177	-1.181538e+001	-1.447877e+002	-1.408759e+001	5.778008e+001	-1.414573e+001	5.846120e+001	-1.542983e+001	-2.894172e+001
4268110.919	-1.170599e+001	-1.468151e+002	-1.398833e+001	5.366500e+001	-1.404447e+001	5.439502e+001	-1.532551e+001	-3.120612e+001
4292547.660	-1.159291e+001	-1.488821e+002	-1.389446e+001	4.951225e+001	-1.394987e+001	5.027442e+001	-1.521259e+001	-3.351288e+001
4316984.402	-1.146792e+001	-1.509765e+002	-1.380899e+001	4.531130e+001	-1.385967e+001	4.610273e+001	-1.509125e+001	-3.583643e+001
4341421.144	-1.133787e+001	-1.531569e+002	-1.373227e+001	4.109341e+001	-1.377865e+001	4.187590e+001	-1.495825e+001	-3.822159e+001
4365857.886	-1.120351e+001	-1.554278e+002	-1.366255e+001	3.683752e+001	-1.370462e+001	3.765164e+001	-1.482178e+001	-4.067500e+001
4390294.627	-1.106886e+001	-1.577763e+002	-1.360010e+001	3.258195e+001	-1.364003e+001	3.339368e+001	-1.467983e+001	-4.321765e+001
4414731.369	-1.093814e+001	-1.602219e+002	-1.354134e+001	2.833874e+001	-1.358019e+001	2.916747e+001	-1.454352e+001	-4.586047e+001
4439168.111	-1.081397e+001	-1.627751e+002	-1.348729e+001	2.406889e+001	-1.352207e+001	2.498897e+001	-1.441445e+001	-4.862159e+001
4463604.853	-1.069746e+001	-1.653836e+002	-1.343350e+001	1.983815e+001	-1.346414e+001	2.076790e+001	-1.428840e+001	-5.138606e+001
4488041.594	-1.059260e+001	-1.680526e+002	-1.337722e+001	1.560516e+001	-1.340442e+001	1.654865e+001	-1.417319e+001	-5.420110e+001
4512478.336	-1.049460e+001	-1.707872e+002	-1.332219e+001	1.135954e+001	-1.334512e+001	1.231253e+001	-1.406342e+001	-5.704201e+001
4536915.078	-1.040746e+001	-1.735923e+002	-1.326981e+001	7.103333e+000	-1.329037e+001	8.093180e+000	-1.395978e+001	-5.996072e+001
4561351.820	-1.033555e+001	-1.764867e+002	-1.322223e+001	2.880541e+000	-1.323545e+001	3.880738e+000	-1.386548e+001	-6.294056e+001
4585788.562	-1.028216e+001	-1.794220e+002	-1.317069e+001	-1.316202e+000	-1.317960e+001	-3.030394e-001	-1.378560e+001	-6.596891e+001
4610225.303	-1.024656e+001	1.776171e+002	-1.311338e+001	-5.493571e+000	-1.311453e+001	-4.493077e+000	-1.372329e+001	-6.901103e+001
4634662.045	-1.022519e+001	1.746547e+002	-1.304815e+001	-9.709012e+000	-1.304739e+001	-8.691631e+000	-1.367192e+001	-7.205895e+001
4659098.787	-1.021865e+001	1.716878e+002	-1.297834e+001	-1.393940e+001	-1.297088e+001	-1.292420e+001	-1.363361e+001	-7.508576e+001
4683535.529	-1.022844e+001	1.687019e+002	-1.290701e+001	-1.820736e+001	-1.289229e+001	-1.720451e+001	-1.360381e+001	-7.809912e+001
4707972.270	-1.025234e+001	1.657183e+002	-1.283306e+001	-2.248152e+001	-1.281407e+001	-2.151478e+001	-1.358504e+001	-8.109234e+001
4732409.012	-1.029040e+001	1.627301e+002	-1.275589e+001	-2.682439e+001	-1.273231e+001	-2.585780e+001	-1.357714e+001	-8.409664e+001
4756845.754	-1.034486e+001	1.597345e+002	-1.267778e+001	-3.121364e+001	-1.264754e+001	-3.026887e+001	-1.357427e+001	-8.706895e+001
4781282.496	-1.041422e+001	1.567388e+002	-1.260039e+001	-3.565700e+001	-1.256623e+001	-3.472535e+001	-1.357954e+001	-9.004244e+001
4805719.237	-1.049822e+001	1.537379e+002	-1.252372e+001	-4.015276e+001	-1.248516e+001	-3.923353e+001	-1.359106e+001	-9.298324e+001
4830155.979	-1.060128e+001	1.507370e+002	-1.245121e+001	-4.466784e+001	-1.240716e+001	-4.378431e+001	-1.361077e+001	-9.592740e+001
4854592.721	-1.072210e+001	1.477311e+002	-1.238279e+001	-4.924830e+001	-1.233379e+001	-4.837709e+001	-1.363520e+001	-9.887084e+001
4879029.463	-1.086248e+001	1.447399e+002	-1.231792e+001	-5.385300e+001	-1.226462e+001	-5.300438e+001	-1.366625e+001	-1.018202e+002
4903466.205	-1.102465e+001	1.417566e+002	-1.225783e+001	-5.848490e+001	-1.220015e+001	-5.766367e+001	-1.370743e+001	-1.047623e+002
4927902.946	-1.120945e+001	1.388067e+002	-1.220138e+001	-6.313690e+001	-1.214090e+001	-6.234051e+001	-1.375555e+001	-1.077136e+002
4952339.688	-1.141677e+001	1.358880e+002	-1.214945e+001	-6.784044e+001	-1.208593e+001	-6.704210e+001	-1.381213e+001	-1.106924e+002
4976776.430	-1.165051e+001	1.330311e+002	-1.210058e+001	-7.252836e+001	-1.203476e+001	-7.176300e+001	-1.387817e+001	-1.136248e+002
5001213.172	-1.190880e+001	1.302476e+002	-1.205547e+001	-7.723137e+001	-1.198863e+001	-7.650211e+001	-1.395417e+001	-1.165474e+002
5025649.913	-1.219270e+001	1.275424e+002	-1.201614e+001	-8.194757e+001	-1.194621e+001	-8.125319e+001	-1.403636e+001	-1.194556e+002
5050086.655	-1.250108e+001	1.249418e+002	-1.197844e+001	-8.668456e+001	-1.190888e+001	-8.602728e+001	-1.412808e+001	-1.223540e+002
5074523.397	-1.283395e+001	1.224542e+002	-1.194513e+001	-9.144145e+001	-1.187307e+001	-9.080500e+001	-1.422788e+001	-1.252076e+002
5098960.139	-1.319097e+001	1.201057e+002	-1.191458e+001	-9.621151e+001	-1.184373e+001	-9.561428e+001	-1.433320e+001	-1.280455e+002
5123396.880	-1.357219e+001	1.178733e+002	-1.189126e+001	-1.010136e+002	-1.182003e+001	-1.004470e+002	-1.444025e+001	-1.308854e+002
5147833.622	-1.397919e+001	1.158105e+002	-1.187351e+001	-1.058044e+002	-1.180254e+001	-1.052741e+002	-1.455295e+001	-1.337169e+002
5172270.364	-1.441487e+001	1.139216e+002	-1.186081e+001	-1.105998e+002	-1.179080e+001	-1.100969e+002	-1.467353e+001	-1.365432e+002
5196707.106	-1.487769e+001	1.122637e+002	-1.185287e+001	-1.153709e+002	-1.178637e+001	-1.149157e+002	-1.479991e+001	-1.393995e+002
5221143.847	-1.536410e+001	1.108605e+002	-1.184825e+001	-1.201326e+002	-1.178261e+001	-1.197235e+002	-1.493762e+001	-1.421805e+002
5245580.589	-1.586766e+001	1.097534e+002	-1.184363e+001	-1.249113e+002	-1.178112e+001	-1.245308e+002	-1.507918e+001	-1.449677e+002
5270017.331	-1.638795e+001	1.089195e+002	-1.184356e+001	-1.296982e+002	-1.178336e+001	-1.293246e+002	-1.522757e+001	-1.477385e+002
5294454.073	-1.691985e+001	1.084435e+002	-1.184430e+001	-1.344866e+002	-1.178681e+001	-1.341406e+002	-1.537618e+001	-1.504790e+002
5318890.815	-1.745996e+001	1.082881e+002	-1.184936e+001	-1.392870e+002	-1.179440e+001	-1.389606e+002	-1.552387e+001	-1.532319e+002
5343327.556	-1.799815e+001	1.085141e+002	-1.185678e+001	-1.440951e+002	-1.180473e+001	-1.437955e+002	-1.567333e+001	-1.559679e+002
5367764.298	-1.853779e+001	1.091091e+002	-1.186835e+001	-1.489165e+002	-1.181945e+001	-1.486112e+002	-1.582218e+001	-1.587419e+002
5392201.040	-1.906503e+001	1.101049e+002	-1.188408e+001	-1.537327e+002	-1.183763e+001	-1.534410e+002	-1.597500e+001	-1.615255e+002
5416637.782	-1.957242e+001	1.115292e+002	-1.190201e+001	-1.585535e+002	-1.185915e+001	-1.582878e+002	-1.612348e+001	-1.643526e+002
5441074.523	-2.005403e+001	1.133267e+002	-1.192433e+001	-1.633852e+002	-1.188434e+001	-1.631187e+002	-1.627297e+001	-1.672274e+002
