!Agilent Technologies,E5061B,MY49101568,A.02.00
!Date: Wed Mar 01 15:02:51 2023
!Data & Calibration Information:
!Freq	S11:SOLT2(OFF)	S21:SOLT2(OFF)	S12:SOLT2(OFF)	S22:SOLT2(OFF)
# Hz S dB R 50
1800000.000	-1.300941e+001	-4.694751e+001	-1.230562e+001	-1.418183e+002	-1.231727e+001	-1.417307e+002	-1.395269e+001	-1.759854e+001
1824436.742	-1.383651e+001	-5.346482e+001	-1.179827e+001	-1.489345e+002	-1.181788e+001	-1.488172e+002	-1.484728e+001	-2.409550e+001
1848873.484	-1.485434e+001	-5.988959e+001	-1.133257e+001	-1.563989e+002	-1.135318e+001	-1.562446e+002	-1.595173e+001	-3.065387e+001
1873310.225	-1.609960e+001	-6.597620e+001	-1.092312e+001	-1.640880e+002	-1.093961e+001	-1.638881e+002	-1.727482e+001	-3.692737e+001
1897746.967	-1.763240e+001	-7.134462e+001	-1.056537e+001	-1.719512e+002	-1.057695e+001	-1.717705e+002	-1.891357e+001	-4.265490e+001
1922183.709	-1.952352e+001	-7.566016e+001	-1.026127e+001	-1.799388e+002	-1.026876e+001	-1.797321e+002	-2.093087e+001	-4.752574e+001
1946620.451	-2.192155e+001	-7.744284e+001	-1.001241e+001	1.720221e+002	-1.001416e+001	1.722195e+002	-2.353176e+001	-5.028962e+001
1971057.192	-2.492407e+001	-7.364902e+001	-9.825017e+000	1.639335e+002	-9.823101e+000	1.641321e+002	-2.694530e+001	-4.751071e+001
1995493.934	-2.815880e+001	-5.778121e+001	-9.691720e+000	1.559699e+002	-9.695582e+000	1.561761e+002	-3.094655e+001	-3.045773e+001
2019930.676	-2.911683e+001	-2.665364e+001	-9.615674e+000	1.481300e+002	-9.618670e+000	1.483293e+002	-3.209271e+001	8.364502e+000
2044367.418	-2.671475e+001	-4.448658e+000	-9.587486e+000	1.404260e+002	-9.588667e+000	1.406166e+002	-2.899844e+001	3.255005e+001
2068804.159	-2.408720e+001	2.062131e+000	-9.608954e+000	1.330157e+002	-9.610677e+000	1.332021e+002	-2.603921e+001	3.773104e+001
2093240.901	-2.210415e+001	1.678729e+000	-9.661301e+000	1.259747e+002	-9.660000e+000	1.260858e+002	-2.395143e+001	3.612470e+001
2117677.643	-2.069806e+001	-1.698720e+000	-9.734577e+000	1.192677e+002	-9.730763e+000	1.194025e+002	-2.253046e+001	3.159815e+001
2142114.385	-1.970925e+001	-5.637185e+000	-9.787215e+000	1.129412e+002	-9.785170e+000	1.130674e+002	-2.157429e+001	2.640848e+001
2166551.127	-1.890323e+001	-9.917472e+000	-9.819819e+000	1.067144e+002	-9.817167e+000	1.068365e+002	-2.084158e+001	2.115410e+001
2190987.868	-1.824442e+001	-1.478550e+001	-9.858621e+000	1.005718e+002	-9.855243e+000	1.006869e+002	-2.025672e+001	1.542318e+001
2215424.610	-1.777076e+001	-2.001239e+001	-9.894484e+000	9.460886e+001	-9.893118e+000	9.479931e+001	-1.984768e+001	9.165891e+000
2239861.352	-1.743912e+001	-2.528482e+001	-9.915017e+000	8.884640e+001	-9.917919e+000	8.904584e+001	-1.957975e+001	2.789958e+000
2264298.094	-1.719685e+001	-3.049927e+001	-9.917596e+000	8.315475e+001	-9.918420e+000	8.333433e+001	-1.940114e+001	-3.655211e+000
2288734.835	-1.703278e+001	-3.577108e+001	-9.908002e+000	7.749644e+001	-9.907966e+000	7.769385e+001	-1.930837e+001	-1.021713e+001
2313171.577	-1.693570e+001	-4.106583e+001	-9.886076e+000	7.188557e+001	-9.888677e+000	7.207813e+001	-1.927688e+001	-1.696278e+001
2337608.319	-1.691236e+001	-4.647387e+001	-9.856667e+000	6.627615e+001	-9.860471e+000	6.647602e+001	-1.930015e+001	-2.393981e+001
2362045.061	-1.695861e+001	-5.195492e+001	-9.819181e+000	6.071251e+001	-9.822490e+000	6.091154e+001	-1.939791e+001	-3.116272e+001
2386481.802	-1.708974e+001	-5.744514e+001	-9.774355e+000	5.512550e+001	-9.778933e+000	5.532588e+001	-1.954049e+001	-3.871552e+001
2410918.544	-1.729717e+001	-6.294672e+001	-9.719752e+000	4.952938e+001	-9.725259e+000	4.974046e+001	-1.974960e+001	-4.664123e+001
2435355.286	-1.757945e+001	-6.840968e+001	-9.658029e+000	4.388840e+001	-9.662109e+000	4.412981e+001	-2.001608e+001	-5.485206e+001
2459792.028	-1.793744e+001	-7.379611e+001	-9.590256e+000	3.819732e+001	-9.595340e+000	3.843691e+001	-2.032698e+001	-6.343227e+001
2484228.769	-1.838571e+001	-7.917743e+001	-9.525160e+000	3.240642e+001	-9.527681e+000	3.270321e+001	-2.068615e+001	-7.242783e+001
2508665.511	-1.893221e+001	-8.448582e+001	-9.461828e+000	2.659402e+001	-9.461009e+000	2.689568e+001	-2.108616e+001	-8.193790e+001
2533102.253	-1.958405e+001	-8.967044e+001	-9.402567e+000	2.073928e+001	-9.401526e+000	2.102422e+001	-2.152930e+001	-9.191389e+001
2557538.995	-2.037287e+001	-9.461339e+001	-9.348756e+000	1.480340e+001	-9.346706e+000	1.510061e+001	-2.198796e+001	-1.025676e+002
2581975.737	-2.130581e+001	-9.922765e+001	-9.306125e+000	8.822730e+000	-9.300865e+000	9.117973e+000	-2.245518e+001	-1.137877e+002
2606412.478	-2.242619e+001	-1.034345e+002	-9.278092e+000	2.810068e+000	-9.269306e+000	3.114096e+000	-2.291704e+001	-1.256741e+002
2630849.220	-2.377098e+001	-1.068629e+002	-9.261772e+000	-3.224519e+000	-9.251199e+000	-2.928388e+000	-2.333893e+001	-1.381354e+002
2655285.962	-2.542237e+001	-1.089385e+002	-9.257727e+000	-9.244486e+000	-9.248481e+000	-8.950275e+000	-2.370571e+001	-1.512570e+002
2679722.704	-2.742657e+001	-1.085667e+002	-9.269313e+000	-1.523721e+001	-9.258102e+000	-1.494737e+001	-2.399878e+001	-1.648459e+002
2704159.445	-2.979953e+001	-1.034576e+002	-9.287027e+000	-2.120382e+001	-9.275549e+000	-2.092727e+001	-2.419236e+001	-1.785659e+002
2728596.187	-3.216383e+001	-9.009535e+001	-9.320807e+000	-2.714054e+001	-9.307562e+000	-2.687097e+001	-2.430612e+001	1.677031e+002
2753032.929	-3.335411e+001	-6.643098e+001	-9.362182e+000	-3.303839e+001	-9.350966e+000	-3.276201e+001	-2.432030e+001	1.543196e+002
2777469.671	-3.213892e+001	-4.390421e+001	-9.413740e+000	-3.887516e+001	-9.403386e+000	-3.862225e+001	-2.427738e+001	1.414438e+002
2801906.412	-2.992179e+001	-3.156896e+001	-9.474256e+000	-4.463113e+001	-9.462966e+000	-4.438127e+001	-2.417920e+001	1.290298e+002
2826343.154	-2.783318e+001	-2.681363e+001	-9.539328e+000	-5.033110e+001	-9.530334e+000	-5.008883e+001	-2.406603e+001	1.173864e+002
2850779.896	-2.610916e+001	-2.620125e+001	-9.608723e+000	-5.595778e+001	-9.601806e+000	-5.572168e+001	-2.395360e+001	1.063487e+002
2875216.638	-2.470370e+001	-2.759848e+001	-9.680875e+000	-6.154636e+001	-9.674479e+000	-6.128063e+001	-2.386426e+001	9.588228e+001
2899653.380	-2.355273e+001	-3.014968e+001	-9.751952e+000	-6.703417e+001	-9.747920e+000	-6.677449e+001	-2.381211e+001	8.595061e+001
2924090.121	-2.260709e+001	-3.335546e+001	-9.823479e+000	-7.246252e+001	-9.820848e+000	-7.220092e+001	-2.380628e+001	7.646594e+001
2948526.863	-2.182276e+001	-3.702680e+001	-9.889883e+000	-7.782557e+001	-9.892581e+000	-7.758183e+001	-2.385867e+001	6.744345e+001
2972963.605	-2.118151e+001	-4.085790e+001	-9.956027e+000	-8.315652e+001	-9.958997e+000	-8.289376e+001	-2.395039e+001	5.863992e+001
2997400.347	-2.064266e+001	-4.483255e+001	-1.001636e+001	-8.841501e+001	-1.002253e+001	-8.815660e+001	-2.410384e+001	5.008513e+001
3021837.088	-2.020053e+001	-4.897002e+001	-1.006775e+001	-9.363835e+001	-1.007631e+001	-9.337006e+001	-2.431239e+001	4.151474e+001
3046273.830	-1.985148e+001	-5.322959e+001	-1.010699e+001	-9.884433e+001	-1.011589e+001	-9.857103e+001	-2.460529e+001	3.266978e+001
3070710.572	-1.960502e+001	-5.751190e+001	-1.013597e+001	-1.040977e+002	-1.014636e+001	-1.038212e+002	-2.503212e+001	2.355458e+001
3095147.314	-1.944920e+001	-6.171917e+001	-1.016164e+001	-1.094078e+002	-1.017368e+001	-1.091171e+002	-2.560292e+001	1.424817e+001
3119584.055	-1.936835e+001	-6.575883e+001	-1.018731e+001	-1.147337e+002	-1.019955e+001	-1.144366e+002	-2.631930e+001	4.595752e+000
3144020.797	-1.935532e+001	-6.968556e+001	-1.020844e+001	-1.200545e+002	-1.021920e+001	-1.198139e+002	-2.721256e+001	-5.923965e+000
3168457.539	-1.941806e+001	-7.348117e+001	-1.022407e+001	-1.254643e+002	-1.023379e+001	-1.252221e+002	-2.825115e+001	-1.786710e+001
3192894.281	-1.958019e+001	-7.709241e+001	-1.023632e+001	-1.309733e+002	-1.024626e+001	-1.307232e+002	-2.951703e+001	-3.222255e+001
3217331.023	-1.983249e+001	-8.026974e+001	-1.025843e+001	-1.365955e+002	-1.026507e+001	-1.363376e+002	-3.102159e+001	-5.032155e+001
3241767.764	-2.015831e+001	-8.282218e+001	-1.029526e+001	-1.422735e+002	-1.030035e+001	-1.420256e+002	-3.252638e+001	-7.371673e+001
3266204.506	-2.052466e+001	-8.465431e+001	-1.034936e+001	-1.479385e+002	-1.035335e+001	-1.476999e+002	-3.339787e+001	-1.025264e+002
3290641.248	-2.088753e+001	-8.608095e+001	-1.040327e+001	-1.534830e+002	-1.040402e+001	-1.532670e+002	-3.282313e+001	-1.308426e+002
3315077.990	-2.135067e+001	-8.723569e+001	-1.043099e+001	-1.591122e+002	-1.043019e+001	-1.589086e+002	-3.091128e+001	-1.537537e+002
3339514.731	-2.195921e+001	-8.726695e+001	-1.045897e+001	-1.649924e+002	-1.045795e+001	-1.648061e+002	-2.859371e+001	-1.720806e+002
3363951.473	-2.261304e+001	-8.534379e+001	-1.051327e+001	-1.710641e+002	-1.051122e+001	-1.708869e+002	-2.644437e+001	1.729531e+002
3388388.215	-2.315199e+001	-8.127505e+001	-1.059718e+001	-1.771830e+002	-1.059421e+001	-1.770700e+002	-2.456882e+001	1.602556e+002
3412824.957	-2.343712e+001	-7.522076e+001	-1.070840e+001	1.766160e+002	-1.070704e+001	1.767197e+002	-2.296573e+001	1.491871e+002
3437261.698	-2.331025e+001	-6.813905e+001	-1.085086e+001	1.704132e+002	-1.084961e+001	1.704753e+002	-2.156598e+001	1.391087e+002
3461698.440	-2.272844e+001	-6.147158e+001	-1.102655e+001	1.642161e+002	-1.102868e+001	1.642529e+002	-2.035895e+001	1.297399e+002
3486135.182	-2.181657e+001	-5.644410e+001	-1.123166e+001	1.580667e+002	-1.123680e+001	1.580640e+002	-1.929763e+001	1.209778e+002
3510571.924	-2.073044e+001	-5.358090e+001	-1.147058e+001	1.520346e+002	-1.148202e+001	1.519960e+002	-1.839087e+001	1.125989e+002
3535008.666	-1.962418e+001	-5.269469e+001	-1.173901e+001	1.461588e+002	-1.175780e+001	1.460828e+002	-1.761250e+001	1.046122e+002
3559445.407	-1.858430e+001	-5.330568e+001	-1.202520e+001	1.404991e+002	-1.204900e+001	1.404079e+002	-1.695884e+001	9.713646e+001
3583882.149	-1.764110e+001	-5.489024e+001	-1.231719e+001	1.350123e+002	-1.235005e+001	1.348983e+002	-1.638267e+001	9.010912e+001
3608318.891	-1.678890e+001	-5.710606e+001	-1.261500e+001	1.296739e+002	-1.265606e+001	1.295561e+002	-1.587096e+001	8.347519e+001
3632755.633	-1.602843e+001	-5.980292e+001	-1.291114e+001	1.244850e+002	-1.296599e+001	1.243898e+002	-1.542327e+001	7.716364e+001
3657192.374	-1.533569e+001	-6.277224e+001	-1.320693e+001	1.194366e+002	-1.327139e+001	1.193087e+002	-1.500967e+001	7.121196e+001
3681629.116	-1.470191e+001	-6.588565e+001	-1.350069e+001	1.144366e+002	-1.357394e+001	1.143155e+002	-1.463160e+001	6.551333e+001
3706065.858	-1.411162e+001	-6.916005e+001	-1.380216e+001	1.094701e+002	-1.388205e+001	1.093739e+002	-1.427225e+001	5.998000e+001
3730502.600	-1.356532e+001	-7.257448e+001	-1.411267e+001	1.045865e+002	-1.420168e+001	1.045333e+002	-1.394461e+001	5.454511e+001
3754939.341	-1.306473e+001	-7.610753e+001	-1.443039e+001	9.982310e+001	-1.452832e+001	9.977805e+001	-1.364421e+001	4.925742e+001
3779376.083	-1.260214e+001	-7.970528e+001	-1.475099e+001	9.514613e+001	-1.485551e+001	9.514079e+001	-1.337379e+001	4.410746e+001
3803812.825	-1.217948e+001	-8.335877e+001	-1.507590e+001	9.061590e+001	-1.519297e+001	9.064405e+001	-1.313198e+001	3.905260e+001
3828249.567	-1.178253e+001	-8.705505e+001	-1.540737e+001	8.612351e+001	-1.552474e+001	8.620326e+001	-1.290741e+001	3.417453e+001
3852686.308	-1.141900e+001	-9.078116e+001	-1.574183e+001	8.178706e+001	-1.586478e+001	8.190012e+001	-1.270496e+001	2.939938e+001
3877123.050	-1.108224e+001	-9.452123e+001	-1.607753e+001	7.754205e+001	-1.620469e+001	7.770637e+001	-1.251924e+001	2.475018e+001
3901559.792	-1.076931e+001	-9.824772e+001	-1.641235e+001	7.340539e+001	-1.654374e+001	7.360868e+001	-1.234863e+001	2.023046e+001
3925996.534	-1.047968e+001	-1.019788e+002	-1.674839e+001	6.933805e+001	-1.688380e+001	6.960526e+001	-1.218635e+001	1.581225e+001
3950433.276	-1.020943e+001	-1.057074e+002	-1.708761e+001	6.535565e+001	-1.722516e+001	6.567935e+001	-1.203648e+001	1.147722e+001
3974870.017	-9.954899e+000	-1.094450e+002	-1.743288e+001	6.144816e+001	-1.757362e+001	6.184191e+001	-1.189296e+001	7.226303e+000
3999306.759	-9.719594e+000	-1.131829e+002	-1.778602e+001	5.765183e+001	-1.792623e+001	5.812251e+001	-1.175854e+001	3.039514e+000
4023743.501	-9.498691e+000	-1.169190e+002	-1.813808e+001	5.395741e+001	-1.828215e+001	5.447858e+001	-1.162893e+001	-1.078424e+000
4048180.243	-9.292399e+000	-1.206776e+002	-1.850648e+001	5.036487e+001	-1.864842e+001	5.094313e+001	-1.150587e+001	-5.149660e+000
4072616.984	-9.100602e+000	-1.244514e+002	-1.888937e+001	4.688406e+001	-1.903044e+001	4.753045e+001	-1.138723e+001	-9.204721e+000
4097053.726	-8.923618e+000	-1.282477e+002	-1.928439e+001	4.357459e+001	-1.942202e+001	4.428024e+001	-1.127491e+001	-1.322233e+001
4121490.468	-8.761705e+000	-1.320736e+002	-1.969766e+001	4.046117e+001	-1.983405e+001	4.123683e+001	-1.116986e+001	-1.723348e+001
4145927.210	-8.613891e+000	-1.359401e+002	-2.013204e+001	3.762869e+001	-2.026618e+001	3.843271e+001	-1.107057e+001	-2.123612e+001
4170363.951	-8.484786e+000	-1.398384e+002	-2.058638e+001	3.515185e+001	-2.069540e+001	3.603268e+001	-1.098635e+001	-2.519848e+001
4194800.693	-8.377148e+000	-1.437702e+002	-2.104014e+001	3.311913e+001	-2.115535e+001	3.411748e+001	-1.091203e+001	-2.923058e+001
4219237.435	-8.292088e+000	-1.477274e+002	-2.148495e+001	3.167183e+001	-2.158541e+001	3.266893e+001	-1.085019e+001	-3.322414e+001
4243674.177	-8.227982e+000	-1.516634e+002	-2.188214e+001	3.067542e+001	-2.197346e+001	3.173150e+001	-1.080301e+001	-3.717440e+001
4268110.919	-8.181743e+000	-1.555871e+002	-2.223164e+001	3.008710e+001	-2.231409e+001	3.114800e+001	-1.076242e+001	-4.108234e+001
4292547.660	-8.156247e+000	-1.595090e+002	-2.252656e+001	2.998942e+001	-2.259957e+001	3.105090e+001	-1.073190e+001	-4.499200e+001
4316984.402	-8.152268e+000	-1.634189e+002	-2.272596e+001	3.027964e+001	-2.279255e+001	3.139733e+001	-1.071617e+001	-4.887636e+001
4341421.144	-8.174109e+000	-1.672650e+002	-2.278667e+001	3.080861e+001	-2.284672e+001	3.196667e+001	-1.071592e+001	-5.268138e+001
4365857.886	-8.210096e+000	-1.710094e+002	-2.272283e+001	3.092467e+001	-2.276637e+001	3.211696e+001	-1.072319e+001	-5.636341e+001
4390294.627	-8.244262e+000	-1.746600e+002	-2.262104e+001	3.030299e+001	-2.264846e+001	3.150553e+001	-1.071725e+001	-5.991052e+001
4414731.369	-8.269303e+000	-1.783569e+002	-2.258579e+001	2.932277e+001	-2.259986e+001	3.044420e+001	-1.068496e+001	-6.347101e+001
4439168.111	-8.294265e+000	1.777393e+002	-2.264630e+001	2.883276e+001	-2.265757e+001	2.993412e+001	-1.062995e+001	-6.727133e+001
4463604.853	-8.343494e+000	1.735686e+002	-2.271400e+001	2.958239e+001	-2.271893e+001	3.074666e+001	-1.058025e+001	-7.138279e+001
4488041.594	-8.450485e+000	1.691269e+002	-2.259276e+001	3.193303e+001	-2.260171e+001	3.314607e+001	-1.056420e+001	-7.585229e+001
4512478.336	-8.649673e+000	1.645824e+002	-2.206788e+001	3.489900e+001	-2.204951e+001	3.616191e+001	-1.062428e+001	-8.057674e+001
4536915.078	-8.951153e+000	1.603040e+002	-2.112818e+001	3.618606e+001	-2.109584e+001	3.743240e+001	-1.077737e+001	-8.523483e+001
4561351.820	-9.312567e+000	1.565879e+002	-2.008123e+001	3.466672e+001	-2.003940e+001	3.575525e+001	-1.099801e+001	-8.944488e+001
4585788.562	-9.680777e+000	1.533939e+002	-1.916444e+001	3.122902e+001	-1.911617e+001	3.226953e+001	-1.123018e+001	-9.326298e+001
4610225.303	-1.004664e+001	1.505492e+002	-1.838568e+001	2.688754e+001	-1.833448e+001	2.789478e+001	-1.146288e+001	-9.681507e+001
4634662.045	-1.040305e+001	1.480229e+002	-1.772465e+001	2.197786e+001	-1.767151e+001	2.292454e+001	-1.169134e+001	-1.000979e+002
4659098.787	-1.072255e+001	1.456779e+002	-1.720577e+001	1.681502e+001	-1.715114e+001	1.774545e+001	-1.188832e+001	-1.032414e+002
4683535.529	-1.101751e+001	1.431778e+002	-1.681000e+001	1.197543e+001	-1.675192e+001	1.285314e+001	-1.204190e+001	-1.064618e+002
4707972.270	-1.135659e+001	1.403029e+002	-1.643953e+001	8.055681e+000	-1.637612e+001	8.763298e+000	-1.219137e+001	-1.101652e+002
4732409.012	-1.183414e+001	1.373839e+002	-1.593553e+001	4.682126e+000	-1.587216e+001	5.330541e+000	-1.242926e+001	-1.145180e+002
4756845.754	-1.246823e+001	1.354075e+002	-1.524217e+001	7.031805e-001	-1.520151e+001	1.224500e+000	-1.283459e+001	-1.188324e+002
4781282.496	-1.312486e+001	1.351731e+002	-1.449497e+001	-4.777259e+000	-1.446774e+001	-4.208144e+000	-1.340292e+001	-1.223682e+002
4805719.237	-1.361690e+001	1.363781e+002	-1.384845e+001	-1.146840e+001	-1.383301e+001	-1.080176e+001	-1.402006e+001	-1.246428e+002
4830155.979	-1.387135e+001	1.380443e+002	-1.334935e+001	-1.871757e+001	-1.332706e+001	-1.792013e+001	-1.460332e+001	-1.257635e+002
4854592.721	-1.393577e+001	1.393210e+002	-1.297006e+001	-2.601531e+001	-1.293250e+001	-2.516781e+001	-1.509606e+001	-1.260667e+002
4879029.463	-1.388671e+001	1.399520e+002	-1.267202e+001	-3.321079e+001	-1.262260e+001	-3.236916e+001	-1.548366e+001	-1.258429e+002
4903466.205	-1.377277e+001	1.399021e+002	-1.243123e+001	-4.033189e+001	-1.236954e+001	-3.949540e+001	-1.576688e+001	-1.252650e+002
4927902.946	-1.363321e+001	1.392399e+002	-1.223243e+001	-4.735168e+001	-1.216538e+001	-4.657185e+001	-1.593225e+001	-1.245015e+002
4952339.688	-1.348705e+001	1.379698e+002	-1.207211e+001	-5.434955e+001	-1.200572e+001	-5.359044e+001	-1.597533e+001	-1.237797e+002
4976776.430	-1.335369e+001	1.361842e+002	-1.194794e+001	-6.129010e+001	-1.187920e+001	-6.052479e+001	-1.592183e+001	-1.232808e+002
5001213.172	-1.325303e+001	1.339487e+002	-1.185602e+001	-6.813751e+001	-1.178803e+001	-6.738725e+001	-1.577623e+001	-1.232061e+002
5025649.913	-1.319787e+001	1.313321e+002	-1.179680e+001	-7.489660e+001	-1.172784e+001	-7.415884e+001	-1.557034e+001	-1.236153e+002
5050086.655	-1.319344e+001	1.284284e+002	-1.176372e+001	-8.156825e+001	-1.169119e+001	-8.083871e+001	-1.532821e+001	-1.245223e+002
5074523.397	-1.324099e+001	1.253492e+002	-1.175191e+001	-8.814118e+001	-1.167746e+001	-8.741816e+001	-1.507386e+001	-1.259583e+002
5098960.139	-1.334258e+001	1.221228e+002	-1.175766e+001	-9.462014e+001	-1.168038e+001	-9.392022e+001	-1.481223e+001	-1.278204e+002
5123396.880	-1.349758e+001	1.188427e+002	-1.177818e+001	-1.010044e+002	-1.169942e+001	-1.003414e+002	-1.456154e+001	-1.300632e+002
5147833.622	-1.370339e+001	1.155108e+002	-1.181276e+001	-1.073060e+002	-1.172952e+001	-1.066668e+002	-1.432759e+001	-1.326461e+002
5172270.364	-1.395618e+001	1.121679e+002	-1.185676e+001	-1.135368e+002	-1.177150e+001	-1.129343e+002	-1.410963e+001	-1.354875e+002
5196707.106	-1.425928e+001	1.088302e+002	-1.191006e+001	-1.197031e+002	-1.182393e+001	-1.191517e+002	-1.390953e+001	-1.385917e+002
5221143.847	-1.460845e+001	1.055240e+002	-1.196833e+001	-1.257864e+002	-1.188710e+001	-1.253389e+002	-1.372351e+001	-1.419033e+002
5245580.589	-1.500433e+001	1.021942e+002	-1.203692e+001	-1.318784e+002	-1.195583e+001	-1.314713e+002	-1.356001e+001	-1.453859e+002
5270017.331	-1.545339e+001	9.887592e+001	-1.211340e+001	-1.379245e+002	-1.203320e+001	-1.375663e+002	-1.341569e+001	-1.490703e+002
5294454.073	-1.595202e+001	9.555664e+001	-1.219493e+001	-1.439650e+002	-1.211861e+001	-1.436402e+002	-1.328822e+001	-1.529012e+002
5318890.815	-1.651108e+001	9.220542e+001	-1.228447e+001	-1.499835e+002	-1.221135e+001	-1.497160e+002	-1.317691e+001	-1.568868e+002
5343327.556	-1.713414e+001	8.879210e+001	-1.238119e+001	-1.560017e+002	-1.231263e+001	-1.557768e+002	-1.307855e+001	-1.610098e+002
5367764.298	-1.784190e+001	8.527609e+001	-1.249089e+001	-1.620308e+002	-1.242579e+001	-1.618422e+002	-1.299522e+001	-1.653062e+002
5392201.040	-1.864684e+001	8.159945e+001	-1.261271e+001	-1.680560e+002	-1.255415e+001	-1.679066e+002	-1.292720e+001	-1.697791e+002
5416637.782	-1.958192e+001	7.776640e+001	-1.274800e+001	-1.740532e+002	-1.269623e+001	-1.739491e+002	-1.287985e+001	-1.744187e+002
5441074.523	-2.067499e+001	7.370804e+001	-1.289444e+001	1.799645e+002	-1.285007e+001	-1.799528e+002	-1.285281e+001	-1.791948e+002
