!Agilent Technologies,E5061B,MY49101568,A.02.00
!Date: Wed Mar 01 14:59:27 2023
!Data & Calibration Information:
!Freq	S11:SOLT2(OFF)	S21:SOLT2(OFF)	S12:SOLT2(OFF)	S22:SOLT2(OFF)
# Hz S dB R 50
1800000.000	-9.712527e+000	-1.647534e+001	-2.378623e+001	-1.459076e+002	-2.378560e+001	-1.459511e+002	-1.012422e+001	1.994611e+001
1824436.742	-9.828749e+000	-2.066441e+001	-2.345175e+001	-1.498310e+002	-2.344995e+001	-1.498783e+002	-1.026330e+001	1.628157e+001
1848873.484	-9.950858e+000	-2.493539e+001	-2.311265e+001	-1.538638e+002	-2.312263e+001	-1.538894e+002	-1.040501e+001	1.258604e+001
1873310.225	-1.008190e+001	-2.924114e+001	-2.275867e+001	-1.580236e+002	-2.277353e+001	-1.580074e+002	-1.054820e+001	8.866500e+000
1897746.967	-1.020868e+001	-3.361943e+001	-2.240423e+001	-1.621655e+002	-2.242365e+001	-1.622217e+002	-1.068607e+001	5.085799e+000
1922183.709	-1.034290e+001	-3.809993e+001	-2.204791e+001	-1.664890e+002	-2.206645e+001	-1.664437e+002	-1.082255e+001	1.201353e+000
1946620.451	-1.048212e+001	-4.269239e+001	-2.167192e+001	-1.708244e+002	-2.169332e+001	-1.708430e+002	-1.096048e+001	-2.752932e+000
1971057.192	-1.062732e+001	-4.739528e+001	-2.130057e+001	-1.752578e+002	-2.132588e+001	-1.753158e+002	-1.109799e+001	-6.779028e+000
1995493.934	-1.078208e+001	-5.219455e+001	-2.091823e+001	-1.798833e+002	-2.095662e+001	-1.798506e+002	-1.123400e+001	-1.089594e+001
2019930.676	-1.094759e+001	-5.710889e+001	-2.053724e+001	1.754346e+002	-2.058712e+001	1.755443e+002	-1.136550e+001	-1.505414e+001
2044367.418	-1.111754e+001	-6.213083e+001	-2.015121e+001	1.706511e+002	-2.019083e+001	1.707504e+002	-1.149503e+001	-1.936782e+001
2068804.159	-1.130058e+001	-6.729587e+001	-1.976036e+001	1.658272e+002	-1.979452e+001	1.659644e+002	-1.162378e+001	-2.378127e+001
2093240.901	-1.149888e+001	-7.260012e+001	-1.934934e+001	1.608862e+002	-1.940223e+001	1.610519e+002	-1.174916e+001	-2.824004e+001
2117677.643	-1.171119e+001	-7.805697e+001	-1.894900e+001	1.557623e+002	-1.900065e+001	1.558991e+002	-1.187801e+001	-3.277064e+001
2142114.385	-1.194398e+001	-8.363882e+001	-1.854667e+001	1.504107e+002	-1.859885e+001	1.506727e+002	-1.199597e+001	-3.743312e+001
2166551.127	-1.219203e+001	-8.935638e+001	-1.814557e+001	1.449199e+002	-1.819321e+001	1.452404e+002	-1.211420e+001	-4.220786e+001
2190987.868	-1.245668e+001	-9.520389e+001	-1.775916e+001	1.392194e+002	-1.780109e+001	1.395724e+002	-1.223132e+001	-4.703338e+001
2215424.610	-1.273756e+001	-1.012312e+002	-1.738936e+001	1.333639e+002	-1.743103e+001	1.337526e+002	-1.233667e+001	-5.195010e+001
2239861.352	-1.303460e+001	-1.074273e+002	-1.703191e+001	1.274277e+002	-1.707104e+001	1.278351e+002	-1.243132e+001	-5.697783e+001
2264298.094	-1.335067e+001	-1.137861e+002	-1.668806e+001	1.213080e+002	-1.672556e+001	1.217944e+002	-1.251098e+001	-6.213396e+001
2288734.835	-1.367669e+001	-1.203779e+002	-1.636652e+001	1.151047e+002	-1.639926e+001	1.156456e+002	-1.258277e+001	-6.737680e+001
2313171.577	-1.401807e+001	-1.271864e+002	-1.605952e+001	1.088531e+002	-1.608474e+001	1.093509e+002	-1.263985e+001	-7.278057e+001
2337608.319	-1.437851e+001	-1.342366e+002	-1.576377e+001	1.024327e+002	-1.579235e+001	1.029815e+002	-1.268308e+001	-7.830125e+001
2362045.061	-1.474546e+001	-1.415399e+002	-1.549150e+001	9.596358e+001	-1.551918e+001	9.647703e+001	-1.271294e+001	-8.392272e+001
2386481.802	-1.510514e+001	-1.489704e+002	-1.525731e+001	8.925086e+001	-1.527545e+001	8.975284e+001	-1.272739e+001	-8.961876e+001
2410918.544	-1.544759e+001	-1.568245e+002	-1.505264e+001	8.259937e+001	-1.508275e+001	8.308156e+001	-1.270308e+001	-9.544823e+001
2435355.286	-1.575606e+001	-1.650918e+002	-1.488279e+001	7.601365e+001	-1.491128e+001	7.645742e+001	-1.265750e+001	-1.014977e+002
2459792.028	-1.603498e+001	-1.739529e+002	-1.473212e+001	6.953251e+001	-1.475694e+001	7.018392e+001	-1.257206e+001	-1.079555e+002
2484228.769	-1.631851e+001	1.765709e+002	-1.457021e+001	6.307683e+001	-1.457114e+001	6.380601e+001	-1.250649e+001	-1.147190e+002
2508665.511	-1.662000e+001	1.667196e+002	-1.439223e+001	5.647891e+001	-1.438320e+001	5.723248e+001	-1.245607e+001	-1.216289e+002
2533102.253	-1.689468e+001	1.567679e+002	-1.424514e+001	4.972154e+001	-1.421599e+001	5.026862e+001	-1.242874e+001	-1.284942e+002
2557538.995	-1.712416e+001	1.468475e+002	-1.413278e+001	4.270887e+001	-1.409597e+001	4.326504e+001	-1.238872e+001	-1.354261e+002
2581975.737	-1.727129e+001	1.368618e+002	-1.406505e+001	3.567719e+001	-1.402872e+001	3.619151e+001	-1.233653e+001	-1.423322e+002
2606412.478	-1.731370e+001	1.269181e+002	-1.405460e+001	2.869438e+001	-1.400856e+001	2.921323e+001	-1.226425e+001	-1.492878e+002
2630849.220	-1.725605e+001	1.169357e+002	-1.408611e+001	2.188556e+001	-1.402887e+001	2.235990e+001	-1.218616e+001	-1.563174e+002
2655285.962	-1.712813e+001	1.068344e+002	-1.412843e+001	1.530666e+001	-1.406265e+001	1.570112e+001	-1.210591e+001	-1.634815e+002
2679722.704	-1.696878e+001	9.680476e+001	-1.416944e+001	8.838122e+000	-1.410211e+001	9.181165e+000	-1.203653e+001	-1.707785e+002
2704159.445	-1.678028e+001	8.706987e+001	-1.422224e+001	2.399725e+000	-1.415345e+001	2.675961e+000	-1.198723e+001	-1.780456e+002
2728596.187	-1.658513e+001	7.791564e+001	-1.429872e+001	-4.175233e+000	-1.422975e+001	-3.909875e+000	-1.196348e+001	1.748471e+002
2753032.929	-1.635283e+001	6.921712e+001	-1.440850e+001	-1.061558e+001	-1.433655e+001	-1.040261e+001	-1.194597e+001	1.678686e+002
2777469.671	-1.609373e+001	6.097286e+001	-1.455194e+001	-1.693180e+001	-1.447323e+001	-1.678251e+001	-1.193262e+001	1.610453e+002
2801906.412	-1.583020e+001	5.312722e+001	-1.471283e+001	-2.311395e+001	-1.463795e+001	-2.297505e+001	-1.192081e+001	1.543511e+002
2826343.154	-1.555561e+001	4.557759e+001	-1.488478e+001	-2.907418e+001	-1.482218e+001	-2.905128e+001	-1.191767e+001	1.478633e+002
2850779.896	-1.527933e+001	3.850022e+001	-1.508680e+001	-3.492082e+001	-1.502215e+001	-3.491750e+001	-1.191643e+001	1.415031e+002
2875216.638	-1.500027e+001	3.168739e+001	-1.529629e+001	-4.053339e+001	-1.523187e+001	-4.053477e+001	-1.191277e+001	1.352719e+002
2899653.380	-1.473723e+001	2.518109e+001	-1.550543e+001	-4.596168e+001	-1.544742e+001	-4.598848e+001	-1.191828e+001	1.292024e+002
2924090.121	-1.448218e+001	1.894457e+001	-1.571977e+001	-5.117544e+001	-1.566479e+001	-5.126647e+001	-1.193056e+001	1.232846e+002
2948526.863	-1.424008e+001	1.298189e+001	-1.593062e+001	-5.627649e+001	-1.588262e+001	-5.641198e+001	-1.194779e+001	1.175395e+002
2972963.605	-1.400943e+001	7.253547e+000	-1.613927e+001	-6.122754e+001	-1.609914e+001	-6.140338e+001	-1.197190e+001	1.119500e+002
2997400.347	-1.379172e+001	1.739672e+000	-1.634442e+001	-6.602730e+001	-1.631525e+001	-6.622252e+001	-1.199802e+001	1.065229e+002
3021837.088	-1.358651e+001	-3.552929e+000	-1.654625e+001	-7.072106e+001	-1.652455e+001	-7.092417e+001	-1.203005e+001	1.012466e+002
3046273.830	-1.338714e+001	-8.662514e+000	-1.674429e+001	-7.524130e+001	-1.673165e+001	-7.546488e+001	-1.205985e+001	9.612248e+001
3070710.572	-1.319931e+001	-1.360057e+001	-1.693152e+001	-7.964251e+001	-1.692773e+001	-7.987701e+001	-1.209343e+001	9.111750e+001
3095147.314	-1.302355e+001	-1.839232e+001	-1.710913e+001	-8.394655e+001	-1.711165e+001	-8.417808e+001	-1.213264e+001	8.624694e+001
3119584.055	-1.285706e+001	-2.301828e+001	-1.727526e+001	-8.817871e+001	-1.728540e+001	-8.840606e+001	-1.217511e+001	8.151218e+001
3144020.797	-1.269925e+001	-2.752336e+001	-1.742870e+001	-9.230810e+001	-1.744462e+001	-9.255439e+001	-1.222170e+001	7.691865e+001
3168457.539	-1.255386e+001	-3.189025e+001	-1.757490e+001	-9.641252e+001	-1.760142e+001	-9.664526e+001	-1.226791e+001	7.246196e+001
3192894.281	-1.241198e+001	-3.613182e+001	-1.771497e+001	-1.004599e+002	-1.774516e+001	-1.006912e+002	-1.231503e+001	6.811116e+001
3217331.023	-1.228085e+001	-4.026179e+001	-1.785034e+001	-1.044371e+002	-1.788380e+001	-1.046371e+002	-1.236537e+001	6.388823e+001
3241767.764	-1.215214e+001	-4.426727e+001	-1.797676e+001	-1.084027e+002	-1.801930e+001	-1.085654e+002	-1.241581e+001	5.978264e+001
3266204.506	-1.203037e+001	-4.819206e+001	-1.810388e+001	-1.122221e+002	-1.814799e+001	-1.124107e+002	-1.246044e+001	5.580633e+001
3290641.248	-1.190859e+001	-5.203122e+001	-1.821808e+001	-1.159899e+002	-1.826861e+001	-1.161471e+002	-1.250076e+001	5.188880e+001
3315077.990	-1.179177e+001	-5.582029e+001	-1.830973e+001	-1.196404e+002	-1.836728e+001	-1.197638e+002	-1.254154e+001	4.800024e+001
3339514.731	-1.168582e+001	-5.956601e+001	-1.838277e+001	-1.233097e+002	-1.844679e+001	-1.233964e+002	-1.258653e+001	4.420570e+001
3363951.473	-1.158582e+001	-6.323450e+001	-1.845318e+001	-1.269990e+002	-1.851662e+001	-1.270683e+002	-1.263789e+001	4.049334e+001
3388388.215	-1.149379e+001	-6.683273e+001	-1.850761e+001	-1.306768e+002	-1.857774e+001	-1.307191e+002	-1.269255e+001	3.687938e+001
3412824.957	-1.140703e+001	-7.036265e+001	-1.855880e+001	-1.343685e+002	-1.863278e+001	-1.343615e+002	-1.274421e+001	3.335497e+001
3437261.698	-1.132736e+001	-7.382381e+001	-1.860114e+001	-1.380467e+002	-1.867811e+001	-1.380114e+002	-1.279968e+001	2.992078e+001
3461698.440	-1.125263e+001	-7.722298e+001	-1.864200e+001	-1.417227e+002	-1.871851e+001	-1.416327e+002	-1.285246e+001	2.657558e+001
3486135.182	-1.118338e+001	-8.055482e+001	-1.866955e+001	-1.453635e+002	-1.875069e+001	-1.452753e+002	-1.290745e+001	2.331440e+001
3510571.924	-1.111895e+001	-8.382106e+001	-1.869490e+001	-1.490205e+002	-1.878049e+001	-1.488866e+002	-1.295943e+001	2.016229e+001
3535008.666	-1.105917e+001	-8.702470e+001	-1.871729e+001	-1.526447e+002	-1.880303e+001	-1.524794e+002	-1.300566e+001	1.709984e+001
3559445.407	-1.099957e+001	-9.015846e+001	-1.872770e+001	-1.562351e+002	-1.881641e+001	-1.560546e+002	-1.304844e+001	1.409422e+001
3583882.149	-1.094289e+001	-9.324544e+001	-1.873315e+001	-1.598538e+002	-1.881975e+001	-1.595916e+002	-1.308256e+001	1.115349e+001
3608318.891	-1.088601e+001	-9.628895e+001	-1.871949e+001	-1.634324e+002	-1.880780e+001	-1.631714e+002	-1.311520e+001	8.251551e+000
3632755.633	-1.083208e+001	-9.929107e+001	-1.870116e+001	-1.670996e+002	-1.878639e+001	-1.667412e+002	-1.314369e+001	5.388338e+000
3657192.374	-1.077969e+001	-1.022418e+002	-1.866637e+001	-1.707968e+002	-1.875756e+001	-1.703969e+002	-1.316815e+001	2.578288e+000
3681629.116	-1.073025e+001	-1.051663e+002	-1.862738e+001	-1.745710e+002	-1.872115e+001	-1.741460e+002	-1.319527e+001	-1.637102e-001
3706065.858	-1.068473e+001	-1.080201e+002	-1.859189e+001	-1.784616e+002	-1.868597e+001	-1.779985e+002	-1.321766e+001	-2.847715e+000
3730502.600	-1.063567e+001	-1.108106e+002	-1.857946e+001	1.775997e+002	-1.866516e+001	1.781052e+002	-1.323275e+001	-5.443052e+000
3754939.341	-1.058473e+001	-1.135269e+002	-1.858201e+001	1.736491e+002	-1.867008e+001	1.741747e+002	-1.323250e+001	-7.931397e+000
3779376.083	-1.052231e+001	-1.161868e+002	-1.861565e+001	1.697693e+002	-1.870036e+001	1.703195e+002	-1.321146e+001	-1.038280e+001
3803812.825	-1.044305e+001	-1.188336e+002	-1.867232e+001	1.661258e+002	-1.875717e+001	1.667093e+002	-1.316059e+001	-1.284473e+001
3828249.567	-1.034044e+001	-1.215619e+002	-1.872948e+001	1.629845e+002	-1.880976e+001	1.636077e+002	-1.308119e+001	-1.550768e+001
3852686.308	-1.022967e+001	-1.245298e+002	-1.872231e+001	1.603088e+002	-1.879752e+001	1.609135e+002	-1.299882e+001	-1.846198e+001
3877123.050	-1.014171e+001	-1.277008e+002	-1.861154e+001	1.576022e+002	-1.868416e+001	1.582245e+002	-1.295229e+001	-2.165844e+001
3901559.792	-1.009178e+001	-1.309713e+002	-1.842457e+001	1.545287e+002	-1.848714e+001	1.551963e+002	-1.295119e+001	-2.493136e+001
3925996.534	-1.008331e+001	-1.342183e+002	-1.819180e+001	1.508664e+002	-1.827001e+001	1.515759e+002	-1.299056e+001	-2.803697e+001
3950433.276	-1.009880e+001	-1.372756e+002	-1.799567e+001	1.467010e+002	-1.806923e+001	1.474393e+002	-1.305315e+001	-3.090527e+001
3974870.017	-1.012460e+001	-1.401480e+002	-1.784675e+001	1.422631e+002	-1.791286e+001	1.430067e+002	-1.312034e+001	-3.349521e+001
3999306.759	-1.014654e+001	-1.428235e+002	-1.775352e+001	1.376949e+002	-1.782091e+001	1.384806e+002	-1.316371e+001	-3.585217e+001
4023743.501	-1.014807e+001	-1.454056e+002	-1.771371e+001	1.332658e+002	-1.778345e+001	1.340098e+002	-1.317693e+001	-3.806438e+001
4048180.243	-1.013196e+001	-1.479751e+002	-1.770328e+001	1.290532e+002	-1.777262e+001	1.298249e+002	-1.315494e+001	-4.029726e+001
4072616.984	-1.010266e+001	-1.505941e+002	-1.770694e+001	1.250897e+002	-1.777183e+001	1.259527e+002	-1.310396e+001	-4.264800e+001
4097053.726	-1.007192e+001	-1.533391e+002	-1.768169e+001	1.213732e+002	-1.774631e+001	1.222908e+002	-1.304724e+001	-4.515306e+001
4121490.468	-1.004068e+001	-1.561759e+002	-1.764812e+001	1.178360e+002	-1.770446e+001	1.187905e+002	-1.298352e+001	-4.778499e+001
4145927.210	-1.001934e+001	-1.590991e+002	-1.758442e+001	1.143676e+002	-1.763297e+001	1.153513e+002	-1.292817e+001	-5.052114e+001
4170363.951	-1.001375e+001	-1.620860e+002	-1.748891e+001	1.109663e+002	-1.753030e+001	1.119049e+002	-1.288226e+001	-5.333090e+001
4194800.693	-1.002194e+001	-1.651360e+002	-1.736756e+001	1.075217e+002	-1.739575e+001	1.084144e+002	-1.284914e+001	-5.622799e+001
4219237.435	-1.005372e+001	-1.681792e+002	-1.721830e+001	1.038839e+002	-1.725014e+001	1.049105e+002	-1.281996e+001	-5.918374e+001
4243674.177	-1.009888e+001	-1.712342e+002	-1.705876e+001	1.001747e+002	-1.708440e+001	1.011934e+002	-1.281043e+001	-6.211492e+001
4268110.919	-1.016036e+001	-1.742556e+002	-1.689177e+001	9.636494e+001	-1.691298e+001	9.735586e+001	-1.280597e+001	-6.503073e+001
4292547.660	-1.023414e+001	-1.772591e+002	-1.672180e+001	9.244991e+001	-1.672745e+001	9.338949e+001	-1.281733e+001	-6.795016e+001
4316984.402	-1.032534e+001	1.797620e+002	-1.654324e+001	8.840251e+001	-1.654547e+001	8.936174e+001	-1.282716e+001	-7.086881e+001
4341421.144	-1.043294e+001	1.768286e+002	-1.636023e+001	8.427268e+001	-1.635916e+001	8.524254e+001	-1.284595e+001	-7.377760e+001
4365857.886	-1.055490e+001	1.739482e+002	-1.617523e+001	8.003580e+001	-1.617368e+001	8.099221e+001	-1.287181e+001	-7.665891e+001
4390294.627	-1.068977e+001	1.711623e+002	-1.599678e+001	7.565377e+001	-1.599091e+001	7.659345e+001	-1.290631e+001	-7.949706e+001
4414731.369	-1.083447e+001	1.684370e+002	-1.582421e+001	7.119188e+001	-1.581718e+001	7.214102e+001	-1.293856e+001	-8.231181e+001
4439168.111	-1.098502e+001	1.657923e+002	-1.566288e+001	6.660328e+001	-1.564845e+001	6.758574e+001	-1.297552e+001	-8.511942e+001
4463604.853	-1.114347e+001	1.631973e+002	-1.550992e+001	6.202150e+001	-1.548983e+001	6.299535e+001	-1.300943e+001	-8.790288e+001
4488041.594	-1.130789e+001	1.606614e+002	-1.536182e+001	5.738481e+001	-1.533939e+001	5.835206e+001	-1.304304e+001	-9.069099e+001
4512478.336	-1.147837e+001	1.581882e+002	-1.522222e+001	5.270530e+001	-1.519062e+001	5.363303e+001	-1.308270e+001	-9.347182e+001
4536915.078	-1.165650e+001	1.558020e+002	-1.508689e+001	4.792037e+001	-1.505300e+001	4.882718e+001	-1.312181e+001	-9.620918e+001
4561351.820	-1.183188e+001	1.534812e+002	-1.496723e+001	4.309815e+001	-1.493149e+001	4.399068e+001	-1.315588e+001	-9.894613e+001
4585788.562	-1.200263e+001	1.511746e+002	-1.486909e+001	3.827812e+001	-1.482951e+001	3.913730e+001	-1.317937e+001	-1.016873e+002
4610225.303	-1.216987e+001	1.488312e+002	-1.478369e+001	3.347621e+001	-1.473763e+001	3.433525e+001	-1.319521e+001	-1.044958e+002
4634662.045	-1.234630e+001	1.464419e+002	-1.470260e+001	2.873779e+001	-1.465440e+001	2.956919e+001	-1.320708e+001	-1.073952e+002
4659098.787	-1.253146e+001	1.440171e+002	-1.462677e+001	2.404342e+001	-1.457562e+001	2.483317e+001	-1.321854e+001	-1.103878e+002
4683535.529	-1.273033e+001	1.415384e+002	-1.455208e+001	1.937659e+001	-1.449722e+001	2.013338e+001	-1.323494e+001	-1.134796e+002
4707972.270	-1.294199e+001	1.390316e+002	-1.448511e+001	1.475861e+001	-1.442616e+001	1.545927e+001	-1.325231e+001	-1.166468e+002
4732409.012	-1.317988e+001	1.364388e+002	-1.441330e+001	1.018577e+001	-1.435537e+001	1.085215e+001	-1.327232e+001	-1.199756e+002
4756845.754	-1.344551e+001	1.337899e+002	-1.433903e+001	5.659918e+000	-1.427934e+001	6.297236e+000	-1.330434e+001	-1.234646e+002
4781282.496	-1.374845e+001	1.311573e+002	-1.425575e+001	1.153840e+000	-1.419075e+001	1.767192e+000	-1.335810e+001	-1.270985e+002
4805719.237	-1.409705e+001	1.285936e+002	-1.415520e+001	-3.376984e+000	-1.409274e+001	-2.817150e+000	-1.343494e+001	-1.308168e+002
4830155.979	-1.448177e+001	1.261450e+002	-1.404704e+001	-7.968155e+000	-1.398216e+001	-7.460511e+000	-1.354060e+001	-1.346027e+002
4854592.721	-1.490040e+001	1.239016e+002	-1.393399e+001	-1.268096e+001	-1.386938e+001	-1.219715e+001	-1.367197e+001	-1.384307e+002
4879029.463	-1.535264e+001	1.218095e+002	-1.382228e+001	-1.746943e+001	-1.375836e+001	-1.702826e+001	-1.382569e+001	-1.422693e+002
4903466.205	-1.583225e+001	1.199376e+002	-1.371368e+001	-2.235583e+001	-1.365478e+001	-2.194892e+001	-1.400029e+001	-1.460987e+002
4927902.946	-1.633758e+001	1.182404e+002	-1.361795e+001	-2.731847e+001	-1.356085e+001	-2.693938e+001	-1.419112e+001	-1.499264e+002
4952339.688	-1.687613e+001	1.167235e+002	-1.352905e+001	-3.235606e+001	-1.347492e+001	-3.197778e+001	-1.440149e+001	-1.537814e+002
4976776.430	-1.744328e+001	1.154532e+002	-1.345114e+001	-3.740638e+001	-1.340097e+001	-3.705234e+001	-1.462808e+001	-1.576124e+002
5001213.172	-1.804674e+001	1.144457e+002	-1.338605e+001	-4.250942e+001	-1.333667e+001	-4.216137e+001	-1.487039e+001	-1.614588e+002
5025649.913	-1.869420e+001	1.137036e+002	-1.332803e+001	-4.761470e+001	-1.328289e+001	-4.729659e+001	-1.513315e+001	-1.653164e+002
5050086.655	-1.938218e+001	1.133340e+002	-1.328280e+001	-5.275980e+001	-1.324180e+001	-5.244859e+001	-1.540941e+001	-1.691749e+002
5074523.397	-2.011793e+001	1.134059e+002	-1.325007e+001	-5.789878e+001	-1.321419e+001	-5.760186e+001	-1.570061e+001	-1.730368e+002
5098960.139	-2.090527e+001	1.140009e+002	-1.322976e+001	-6.304410e+001	-1.319546e+001	-6.276194e+001	-1.600566e+001	-1.769063e+002
5123396.880	-2.175386e+001	1.152990e+002	-1.322126e+001	-6.817069e+001	-1.319076e+001	-6.787832e+001	-1.632006e+001	1.791801e+002
5147833.622	-2.265085e+001	1.175114e+002	-1.322441e+001	-7.325559e+001	-1.319899e+001	-7.297201e+001	-1.664305e+001	1.752038e+002
5172270.364	-2.359358e+001	1.210170e+002	-1.323521e+001	-7.827990e+001	-1.321365e+001	-7.801027e+001	-1.698349e+001	1.711264e+002
5196707.106	-2.452349e+001	1.262835e+002	-1.325027e+001	-8.324822e+001	-1.323342e+001	-8.297703e+001	-1.734049e+001	1.669224e+002
5221143.847	-2.532000e+001	1.336031e+002	-1.326977e+001	-8.817341e+001	-1.325479e+001	-8.792996e+001	-1.772801e+001	1.626723e+002
5245580.589	-2.583310e+001	1.427712e+002	-1.329197e+001	-9.309679e+001	-1.328237e+001	-9.285460e+001	-1.813078e+001	1.583325e+002
5270017.331	-2.592743e+001	1.529791e+002	-1.331825e+001	-9.799486e+001	-1.331122e+001	-9.774393e+001	-1.855806e+001	1.538754e+002
5294454.073	-2.556567e+001	1.627966e+002	-1.334731e+001	-1.028650e+002	-1.334644e+001	-1.026042e+002	-1.900774e+001	1.493324e+002
5318890.815	-2.484795e+001	1.711220e+002	-1.338416e+001	-1.077118e+002	-1.338410e+001	-1.074299e+002	-1.947645e+001	1.446768e+002
5343327.556	-2.391421e+001	1.774481e+002	-1.341861e+001	-1.125212e+002	-1.342397e+001	-1.122216e+002	-1.996642e+001	1.398785e+002
5367764.298	-2.291345e+001	-1.781397e+002	-1.346003e+001	-1.173119e+002	-1.346717e+001	-1.170009e+002	-2.047475e+001	1.349745e+002
5392201.040	-2.191470e+001	-1.753395e+002	-1.350086e+001	-1.220739e+002	-1.351013e+001	-1.217314e+002	-2.100503e+001	1.298573e+002
5416637.782	-2.096676e+001	-1.737507e+002	-1.354657e+001	-1.268132e+002	-1.355795e+001	-1.264507e+002	-2.154654e+001	1.245846e+002
5441074.523	-2.008500e+001	-1.730812e+002	-1.359316e+001	-1.315079e+002	-1.360683e+001	-1.311328e+002	-2.210254e+001	1.190491e+002
