!Agilent Technologies,E5061B,MY49101568,A.02.00
!Date: Wed Mar 01 14:59:04 2023
!Data & Calibration Information:
!Freq	S11:SOLT2(OFF)	S21:SOLT2(OFF)	S12:SOLT2(OFF)	S22:SOLT2(OFF)
# Hz S dB R 50
1800000.000	-9.691807e+000	-1.656955e+001	-2.384087e+001	-1.449743e+002	-2.383668e+001	-1.450610e+002	-1.009959e+001	1.983544e+001
1824436.742	-9.806732e+000	-2.076630e+001	-2.351174e+001	-1.489331e+002	-2.351483e+001	-1.489357e+002	-1.023714e+001	1.616077e+001
1848873.484	-9.928497e+000	-2.504747e+001	-2.315517e+001	-1.529352e+002	-2.317024e+001	-1.529649e+002	-1.037986e+001	1.245248e+001
1873310.225	-1.005306e+001	-2.937191e+001	-2.281700e+001	-1.569990e+002	-2.283017e+001	-1.570089e+002	-1.051651e+001	8.710218e+000
1897746.967	-1.018043e+001	-3.376277e+001	-2.245459e+001	-1.611365e+002	-2.247274e+001	-1.611997e+002	-1.065531e+001	4.914099e+000
1922183.709	-1.031174e+001	-3.827795e+001	-2.209868e+001	-1.653646e+002	-2.212133e+001	-1.654883e+002	-1.078978e+001	1.032668e+000
1946620.451	-1.044963e+001	-4.288309e+001	-2.172173e+001	-1.697384e+002	-2.176044e+001	-1.697182e+002	-1.092077e+001	-2.947509e+000
1971057.192	-1.059001e+001	-4.759333e+001	-2.135777e+001	-1.741939e+002	-2.137079e+001	-1.741646e+002	-1.105911e+001	-7.019322e+000
1995493.934	-1.074319e+001	-5.243476e+001	-2.096725e+001	-1.787257e+002	-2.100910e+001	-1.787002e+002	-1.119217e+001	-1.113969e+001
2019930.676	-1.090324e+001	-5.736350e+001	-2.059060e+001	1.765814e+002	-2.062824e+001	1.767397e+002	-1.132270e+001	-1.533119e+001
2044367.418	-1.107266e+001	-6.243203e+001	-2.019311e+001	1.718606e+002	-2.024042e+001	1.719706e+002	-1.144720e+001	-1.966021e+001
2068804.159	-1.125136e+001	-6.765011e+001	-1.979516e+001	1.670933e+002	-1.985302e+001	1.672205e+002	-1.156960e+001	-2.407967e+001
2093240.901	-1.144147e+001	-7.295908e+001	-1.939944e+001	1.621174e+002	-1.944140e+001	1.622734e+002	-1.169739e+001	-2.856989e+001
2117677.643	-1.165165e+001	-7.845144e+001	-1.899516e+001	1.569814e+002	-1.903184e+001	1.571993e+002	-1.182201e+001	-3.316392e+001
2142114.385	-1.187895e+001	-8.410892e+001	-1.858528e+001	1.517122e+002	-1.863513e+001	1.519121e+002	-1.193753e+001	-3.782208e+001
2166551.127	-1.212285e+001	-8.990124e+001	-1.818396e+001	1.462525e+002	-1.822809e+001	1.465383e+002	-1.205234e+001	-4.263671e+001
2190987.868	-1.238657e+001	-9.583126e+001	-1.778687e+001	1.405707e+002	-1.783567e+001	1.408771e+002	-1.216369e+001	-4.749172e+001
2215424.610	-1.266174e+001	-1.019230e+002	-1.741218e+001	1.347391e+002	-1.745828e+001	1.351009e+002	-1.226616e+001	-5.245245e+001
2239861.352	-1.295750e+001	-1.081846e+002	-1.705230e+001	1.287547e+002	-1.709612e+001	1.291835e+002	-1.235755e+001	-5.752901e+001
2264298.094	-1.327101e+001	-1.146104e+002	-1.670799e+001	1.226337e+002	-1.674810e+001	1.231213e+002	-1.244226e+001	-6.268253e+001
2288734.835	-1.359422e+001	-1.213105e+002	-1.637810e+001	1.164727e+002	-1.642402e+001	1.169718e+002	-1.250345e+001	-6.797335e+001
2313171.577	-1.393179e+001	-1.282130e+002	-1.607275e+001	1.101955e+002	-1.610766e+001	1.107672e+002	-1.255707e+001	-7.341941e+001
2337608.319	-1.428730e+001	-1.353401e+002	-1.577494e+001	1.037709e+002	-1.580722e+001	1.043528e+002	-1.260132e+001	-7.897710e+001
2362045.061	-1.465287e+001	-1.426559e+002	-1.550201e+001	9.722515e+001	-1.552891e+001	9.783107e+001	-1.263275e+001	-8.461855e+001
2386481.802	-1.500576e+001	-1.502483e+002	-1.526582e+001	9.057293e+001	-1.528742e+001	9.117815e+001	-1.263671e+001	-9.036415e+001
2410918.544	-1.534590e+001	-1.580774e+002	-1.506529e+001	8.383500e+001	-1.507409e+001	8.448310e+001	-1.262346e+001	-9.625345e+001
2435355.286	-1.564185e+001	-1.663240e+002	-1.490296e+001	7.718293e+001	-1.490130e+001	7.784858e+001	-1.257377e+001	-1.023107e+002
2459792.028	-1.589407e+001	-1.752598e+002	-1.476257e+001	7.076609e+001	-1.474557e+001	7.138263e+001	-1.249888e+001	-1.086719e+002
2484228.769	-1.617013e+001	1.751363e+002	-1.459184e+001	6.435755e+001	-1.457386e+001	6.505660e+001	-1.241835e+001	-1.154190e+002
2508665.511	-1.645677e+001	1.652585e+002	-1.441544e+001	5.778475e+001	-1.439201e+001	5.841197e+001	-1.236694e+001	-1.222692e+002
2533102.253	-1.673531e+001	1.552868e+002	-1.425857e+001	5.096300e+001	-1.423092e+001	5.154921e+001	-1.232384e+001	-1.291702e+002
2557538.995	-1.694516e+001	1.454255e+002	-1.415477e+001	4.394033e+001	-1.411320e+001	4.451606e+001	-1.227765e+001	-1.360811e+002
2581975.737	-1.708165e+001	1.354631e+002	-1.409013e+001	3.690841e+001	-1.404809e+001	3.739703e+001	-1.222466e+001	-1.429569e+002
2606412.478	-1.711287e+001	1.256558e+002	-1.408617e+001	2.989445e+001	-1.403227e+001	3.036949e+001	-1.215434e+001	-1.498664e+002
2630849.220	-1.705145e+001	1.157682e+002	-1.411485e+001	2.309317e+001	-1.405114e+001	2.354630e+001	-1.206970e+001	-1.568931e+002
2655285.962	-1.692114e+001	1.057697e+002	-1.416272e+001	1.653679e+001	-1.409804e+001	1.690846e+001	-1.197881e+001	-1.640117e+002
2679722.704	-1.675933e+001	9.586447e+001	-1.420830e+001	1.003819e+001	-1.414029e+001	1.039045e+001	-1.190854e+001	-1.712889e+002
2704159.445	-1.658329e+001	8.630660e+001	-1.426113e+001	3.554370e+000	-1.420042e+001	3.835359e+000	-1.185374e+001	-1.784640e+002
2728596.187	-1.638078e+001	7.729433e+001	-1.434745e+001	-2.977982e+000	-1.427619e+001	-2.734770e+000	-1.182655e+001	1.744185e+002
2753032.929	-1.614829e+001	6.867645e+001	-1.446061e+001	-9.397039e+000	-1.438501e+001	-9.184518e+000	-1.180221e+001	1.674423e+002
2777469.671	-1.589769e+001	6.050855e+001	-1.460632e+001	-1.569262e+001	-1.453559e+001	-1.552253e+001	-1.177934e+001	1.606586e+002
2801906.412	-1.563740e+001	5.270173e+001	-1.477150e+001	-2.183841e+001	-1.470068e+001	-2.178097e+001	-1.177268e+001	1.540207e+002
2826343.154	-1.536927e+001	4.530584e+001	-1.495105e+001	-2.783624e+001	-1.488491e+001	-2.780935e+001	-1.176782e+001	1.475039e+002
2850779.896	-1.509789e+001	3.830327e+001	-1.516323e+001	-3.365927e+001	-1.509707e+001	-3.368893e+001	-1.176148e+001	1.412125e+002
2875216.638	-1.483539e+001	3.153372e+001	-1.537227e+001	-3.927385e+001	-1.531152e+001	-3.927522e+001	-1.175633e+001	1.349903e+002
2899653.380	-1.457388e+001	2.508494e+001	-1.558914e+001	-4.462856e+001	-1.553193e+001	-4.472500e+001	-1.176230e+001	1.289522e+002
2924090.121	-1.432704e+001	1.888943e+001	-1.580587e+001	-4.986859e+001	-1.575853e+001	-4.998790e+001	-1.176841e+001	1.230691e+002
2948526.863	-1.409148e+001	1.294262e+001	-1.601951e+001	-5.493263e+001	-1.597784e+001	-5.510864e+001	-1.178494e+001	1.173341e+002
2972963.605	-1.386660e+001	7.245155e+000	-1.623576e+001	-5.987366e+001	-1.620139e+001	-6.005507e+001	-1.180828e+001	1.117715e+002
2997400.347	-1.365144e+001	1.781498e+000	-1.644735e+001	-6.466330e+001	-1.642245e+001	-6.487155e+001	-1.183333e+001	1.063559e+002
3021837.088	-1.344908e+001	-3.484696e+000	-1.665585e+001	-6.929836e+001	-1.663790e+001	-6.951953e+001	-1.186150e+001	1.010945e+002
3046273.830	-1.325590e+001	-8.551943e+000	-1.685854e+001	-7.380950e+001	-1.684756e+001	-7.404337e+001	-1.189105e+001	9.597985e+001
3070710.572	-1.307071e+001	-1.347359e+001	-1.705630e+001	-7.818094e+001	-1.705108e+001	-7.843708e+001	-1.192515e+001	9.101119e+001
3095147.314	-1.289672e+001	-1.825008e+001	-1.723343e+001	-8.247990e+001	-1.724144e+001	-8.270552e+001	-1.196014e+001	8.616171e+001
3119584.055	-1.272931e+001	-2.284748e+001	-1.741221e+001	-8.665024e+001	-1.741817e+001	-8.687464e+001	-1.200007e+001	8.142623e+001
3144020.797	-1.257494e+001	-2.734049e+001	-1.756813e+001	-9.075117e+001	-1.758776e+001	-9.103238e+001	-1.204355e+001	7.685761e+001
3168457.539	-1.242872e+001	-3.168535e+001	-1.772790e+001	-9.480119e+001	-1.774797e+001	-9.507382e+001	-1.208892e+001	7.240306e+001
3192894.281	-1.228907e+001	-3.592759e+001	-1.787290e+001	-9.880739e+001	-1.789948e+001	-9.907217e+001	-1.213627e+001	6.806647e+001
3217331.023	-1.215614e+001	-4.004267e+001	-1.801139e+001	-1.027557e+002	-1.804239e+001	-1.029734e+002	-1.218176e+001	6.385559e+001
3241767.764	-1.202943e+001	-4.405629e+001	-1.814393e+001	-1.066484e+002	-1.818297e+001	-1.068570e+002	-1.222768e+001	5.976794e+001
3266204.506	-1.190474e+001	-4.796171e+001	-1.827090e+001	-1.104662e+002	-1.832079e+001	-1.106409e+002	-1.227033e+001	5.578563e+001
3290641.248	-1.178395e+001	-5.179025e+001	-1.839531e+001	-1.141646e+002	-1.844502e+001	-1.143109e+002	-1.230516e+001	5.187694e+001
3315077.990	-1.166452e+001	-5.557774e+001	-1.849309e+001	-1.177468e+002	-1.855093e+001	-1.178800e+002	-1.234309e+001	4.800522e+001
3339514.731	-1.155460e+001	-5.932071e+001	-1.857225e+001	-1.213544e+002	-1.863440e+001	-1.214642e+002	-1.238608e+001	4.420573e+001
3363951.473	-1.145262e+001	-6.298750e+001	-1.864430e+001	-1.249791e+002	-1.870685e+001	-1.250544e+002	-1.243247e+001	4.049066e+001
3388388.215	-1.135832e+001	-6.658313e+001	-1.870385e+001	-1.285973e+002	-1.877532e+001	-1.286489e+002	-1.247981e+001	3.687589e+001
3412824.957	-1.126896e+001	-7.011574e+001	-1.875986e+001	-1.322078e+002	-1.883530e+001	-1.322166e+002	-1.252834e+001	3.333893e+001
3437261.698	-1.118602e+001	-7.359069e+001	-1.880528e+001	-1.357981e+002	-1.888230e+001	-1.357695e+002	-1.257623e+001	2.989146e+001
3461698.440	-1.110851e+001	-7.700017e+001	-1.884506e+001	-1.394164e+002	-1.892508e+001	-1.393385e+002	-1.262625e+001	2.652669e+001
3486135.182	-1.103372e+001	-8.034837e+001	-1.887934e+001	-1.429709e+002	-1.896161e+001	-1.428891e+002	-1.267342e+001	2.325189e+001
3510571.924	-1.096501e+001	-8.362471e+001	-1.890576e+001	-1.465446e+002	-1.898881e+001	-1.464237e+002	-1.272100e+001	2.006651e+001
3535008.666	-1.090178e+001	-8.684841e+001	-1.892618e+001	-1.500945e+002	-1.901087e+001	-1.499226e+002	-1.276363e+001	1.696440e+001
3559445.407	-1.083790e+001	-9.001211e+001	-1.893471e+001	-1.536251e+002	-1.902302e+001	-1.534444e+002	-1.280040e+001	1.393246e+001
3583882.149	-1.077679e+001	-9.312543e+001	-1.893488e+001	-1.571157e+002	-1.902538e+001	-1.569101e+002	-1.283213e+001	1.095108e+001
3608318.891	-1.071642e+001	-9.619786e+001	-1.892033e+001	-1.606415e+002	-1.901180e+001	-1.603940e+002	-1.286116e+001	8.008760e+000
3632755.633	-1.065794e+001	-9.923329e+001	-1.889825e+001	-1.642208e+002	-1.898972e+001	-1.639157e+002	-1.288514e+001	5.094690e+000
3657192.374	-1.060168e+001	-1.022331e+002	-1.886180e+001	-1.678391e+002	-1.895621e+001	-1.674855e+002	-1.290793e+001	2.238870e+000
3681629.116	-1.054943e+001	-1.051856e+002	-1.882143e+001	-1.715526e+002	-1.891500e+001	-1.711690e+002	-1.293118e+001	-5.583638e-001
3706065.858	-1.049864e+001	-1.080905e+002	-1.878308e+001	-1.753781e+002	-1.888048e+001	-1.749460e+002	-1.295113e+001	-3.284340e+000
3730502.600	-1.044967e+001	-1.109455e+002	-1.875746e+001	-1.792429e+002	-1.885307e+001	-1.788089e+002	-1.296354e+001	-5.938881e+000
3754939.341	-1.039817e+001	-1.137170e+002	-1.875319e+001	1.768139e+002	-1.884967e+001	1.773135e+002	-1.296757e+001	-8.500028e+000
3779376.083	-1.033601e+001	-1.164318e+002	-1.877641e+001	1.729828e+002	-1.887243e+001	1.734910e+002	-1.295262e+001	-1.099327e+001
3803812.825	-1.026114e+001	-1.191296e+002	-1.882523e+001	1.693808e+002	-1.893222e+001	1.699685e+002	-1.290124e+001	-1.348778e+001
3828249.567	-1.016337e+001	-1.218819e+002	-1.887560e+001	1.661926e+002	-1.897551e+001	1.668312e+002	-1.283219e+001	-1.614934e+001
3852686.308	-1.005644e+001	-1.248154e+002	-1.887699e+001	1.634363e+002	-1.896757e+001	1.641286e+002	-1.275140e+001	-1.907204e+001
3877123.050	-9.965430e+000	-1.279744e+002	-1.877873e+001	1.607379e+002	-1.885791e+001	1.614837e+002	-1.269692e+001	-2.224792e+001
3901559.792	-9.904921e+000	-1.312570e+002	-1.859599e+001	1.577707e+002	-1.866586e+001	1.585595e+002	-1.268215e+001	-2.552581e+001
3925996.534	-9.880751e+000	-1.345304e+002	-1.838067e+001	1.542619e+002	-1.845532e+001	1.550385e+002	-1.270623e+001	-2.866697e+001
3950433.276	-9.886243e+000	-1.376686e+002	-1.818007e+001	1.502263e+002	-1.824556e+001	1.509946e+002	-1.276197e+001	-3.162165e+001
3974870.017	-9.904621e+000	-1.406287e+002	-1.802606e+001	1.459065e+002	-1.808914e+001	1.466646e+002	-1.281803e+001	-3.432357e+001
3999306.759	-9.923245e+000	-1.434375e+002	-1.791824e+001	1.414429e+002	-1.797797e+001	1.422316e+002	-1.286282e+001	-3.683273e+001
4023743.501	-9.933171e+000	-1.461402e+002	-1.785212e+001	1.370025e+002	-1.792245e+001	1.378043e+002	-1.288262e+001	-3.916204e+001
4048180.243	-9.924427e+000	-1.487831e+002	-1.783034e+001	1.327822e+002	-1.790027e+001	1.336193e+002	-1.287068e+001	-4.147072e+001
4072616.984	-9.899908e+000	-1.514768e+002	-1.782258e+001	1.288587e+002	-1.789012e+001	1.297534e+002	-1.282970e+001	-4.387257e+001
4097053.726	-9.871108e+000	-1.542495e+002	-1.780421e+001	1.251246e+002	-1.786992e+001	1.260348e+002	-1.277886e+001	-4.635756e+001
4121490.468	-9.843683e+000	-1.571235e+002	-1.776369e+001	1.215777e+002	-1.782008e+001	1.225611e+002	-1.272093e+001	-4.901668e+001
4145927.210	-9.824534e+000	-1.600926e+002	-1.769561e+001	1.181163e+002	-1.774315e+001	1.191005e+002	-1.266721e+001	-5.177212e+001
4170363.951	-9.815256e+000	-1.631259e+002	-1.760252e+001	1.147541e+002	-1.764126e+001	1.156931e+002	-1.261883e+001	-5.457961e+001
4194800.693	-9.821542e+000	-1.661951e+002	-1.748879e+001	1.112871e+002	-1.750937e+001	1.122824e+002	-1.257957e+001	-5.752374e+001
4219237.435	-9.849626e+000	-1.693324e+002	-1.733777e+001	1.077298e+002	-1.736920e+001	1.087138e+002	-1.254828e+001	-6.044068e+001
4243674.177	-9.891493e+000	-1.724668e+002	-1.717531e+001	1.040621e+002	-1.719726e+001	1.050401e+002	-1.253352e+001	-6.343126e+001
4268110.919	-9.952027e+000	-1.755719e+002	-1.700435e+001	1.002725e+002	-1.702255e+001	1.012692e+002	-1.252622e+001	-6.640654e+001
4292547.660	-1.002345e+001	-1.786746e+002	-1.683242e+001	9.639203e+001	-1.684099e+001	9.738145e+001	-1.252499e+001	-6.937975e+001
4316984.402	-1.011501e+001	1.782306e+002	-1.665027e+001	9.240932e+001	-1.665741e+001	9.340206e+001	-1.252934e+001	-7.236580e+001
4341421.144	-1.022049e+001	1.751636e+002	-1.646511e+001	8.833019e+001	-1.646503e+001	8.930539e+001	-1.254478e+001	-7.535279e+001
4365857.886	-1.034328e+001	1.721527e+002	-1.627939e+001	8.412036e+001	-1.627304e+001	8.511760e+001	-1.256589e+001	-7.833317e+001
4390294.627	-1.048207e+001	1.692034e+002	-1.609586e+001	7.978692e+001	-1.608186e+001	8.076968e+001	-1.259621e+001	-8.129499e+001
4414731.369	-1.063307e+001	1.663228e+002	-1.591857e+001	7.535143e+001	-1.590313e+001	7.633480e+001	-1.262872e+001	-8.420341e+001
4439168.111	-1.079181e+001	1.634838e+002	-1.575354e+001	7.082070e+001	-1.572818e+001	7.180318e+001	-1.266542e+001	-8.711986e+001
4463604.853	-1.096244e+001	1.607282e+002	-1.559266e+001	6.626762e+001	-1.556221e+001	6.723947e+001	-1.270061e+001	-9.001418e+001
4488041.594	-1.114362e+001	1.580204e+002	-1.543674e+001	6.165295e+001	-1.540573e+001	6.260410e+001	-1.273556e+001	-9.290865e+001
4512478.336	-1.133389e+001	1.553644e+002	-1.528978e+001	5.699270e+001	-1.525236e+001	5.790464e+001	-1.277449e+001	-9.579788e+001
4536915.078	-1.153439e+001	1.528120e+002	-1.514793e+001	5.223148e+001	-1.510854e+001	5.313185e+001	-1.281867e+001	-9.866901e+001
4561351.820	-1.173757e+001	1.503304e+002	-1.502484e+001	4.740800e+001	-1.497976e+001	4.830298e+001	-1.285870e+001	-1.015220e+002
4585788.562	-1.193701e+001	1.478923e+002	-1.491935e+001	4.258628e+001	-1.487052e+001	4.342682e+001	-1.289203e+001	-1.043516e+002
4610225.303	-1.213560e+001	1.454392e+002	-1.482888e+001	3.778774e+001	-1.477368e+001	3.862456e+001	-1.291628e+001	-1.072503e+002
4634662.045	-1.234190e+001	1.429617e+002	-1.474418e+001	3.303625e+001	-1.468625e+001	3.381861e+001	-1.293729e+001	-1.102140e+002
4659098.787	-1.255901e+001	1.404710e+002	-1.466313e+001	2.829540e+001	-1.460477e+001	2.905815e+001	-1.295659e+001	-1.132540e+002
4683535.529	-1.278842e+001	1.379151e+002	-1.458732e+001	2.361236e+001	-1.452708e+001	2.434558e+001	-1.297532e+001	-1.164094e+002
4707972.270	-1.302914e+001	1.353362e+002	-1.451893e+001	1.898420e+001	-1.445804e+001	1.965024e+001	-1.299331e+001	-1.196171e+002
4732409.012	-1.329384e+001	1.326659e+002	-1.445183e+001	1.439232e+001	-1.438790e+001	1.501777e+001	-1.301563e+001	-1.229928e+002
4756845.754	-1.358670e+001	1.299273e+002	-1.438055e+001	9.859185e+000	-1.431538e+001	1.044919e+001	-1.304424e+001	-1.265199e+002
4781282.496	-1.392005e+001	1.271774e+002	-1.429966e+001	5.343906e+000	-1.422943e+001	5.898940e+000	-1.309234e+001	-1.301906e+002
4805719.237	-1.429968e+001	1.244738e+002	-1.420499e+001	8.115071e-001	-1.413615e+001	1.335604e+000	-1.315816e+001	-1.340026e+002
4830155.979	-1.472179e+001	1.218530e+002	-1.410250e+001	-3.776793e+000	-1.403160e+001	-3.299440e+000	-1.325228e+001	-1.378885e+002
4854592.721	-1.519291e+001	1.193987e+002	-1.398972e+001	-8.440160e+000	-1.392444e+001	-8.014258e+000	-1.336947e+001	-1.418361e+002
4879029.463	-1.569893e+001	1.171269e+002	-1.388330e+001	-1.321738e+001	-1.381766e+001	-1.281358e+001	-1.350902e+001	-1.458288e+002
4903466.205	-1.624243e+001	1.150534e+002	-1.377980e+001	-1.807960e+001	-1.371730e+001	-1.771478e+001	-1.367036e+001	-1.498246e+002
4927902.946	-1.682831e+001	1.131926e+002	-1.368445e+001	-2.302046e+001	-1.362563e+001	-2.267132e+001	-1.384965e+001	-1.538476e+002
4952339.688	-1.745539e+001	1.115461e+002	-1.359840e+001	-2.804133e+001	-1.354323e+001	-2.768411e+001	-1.404627e+001	-1.579006e+002
4976776.430	-1.812873e+001	1.101456e+002	-1.352220e+001	-3.307235e+001	-1.347110e+001	-3.274737e+001	-1.426361e+001	-1.619617e+002
5001213.172	-1.885534e+001	1.090373e+002	-1.345935e+001	-3.813648e+001	-1.341051e+001	-3.782713e+001	-1.449415e+001	-1.660432e+002
5025649.913	-1.963828e+001	1.082955e+002	-1.340621e+001	-4.323485e+001	-1.336087e+001	-4.293827e+001	-1.474338e+001	-1.701520e+002
5050086.655	-2.049533e+001	1.079978e+002	-1.336368e+001	-4.833657e+001	-1.332291e+001	-4.805937e+001	-1.500641e+001	-1.742820e+002
5074523.397	-2.142363e+001	1.082882e+002	-1.333437e+001	-5.345497e+001	-1.329794e+001	-5.319257e+001	-1.528510e+001	-1.784514e+002
5098960.139	-2.243743e+001	1.093407e+002	-1.331651e+001	-5.856312e+001	-1.328522e+001	-5.832249e+001	-1.557728e+001	1.773850e+002
5123396.880	-2.354279e+001	1.114321e+002	-1.331208e+001	-6.366042e+001	-1.328625e+001	-6.341212e+001	-1.587822e+001	1.731426e+002
5147833.622	-2.474421e+001	1.150094e+002	-1.332053e+001	-6.871907e+001	-1.329710e+001	-6.847443e+001	-1.619002e+001	1.688357e+002
5172270.364	-2.600406e+001	1.208272e+002	-1.333546e+001	-7.371175e+001	-1.331626e+001	-7.345581e+001	-1.650718e+001	1.643925e+002
5196707.106	-2.719855e+001	1.297058e+002	-1.335595e+001	-7.865837e+001	-1.334265e+001	-7.841369e+001	-1.684299e+001	1.598680e+002
5221143.847	-2.803146e+001	1.420545e+002	-1.338046e+001	-8.353474e+001	-1.337007e+001	-8.332267e+001	-1.719924e+001	1.551998e+002
5245580.589	-2.818608e+001	1.564829e+002	-1.340901e+001	-8.840703e+001	-1.340375e+001	-8.818787e+001	-1.756982e+001	1.504091e+002
5270017.331	-2.754147e+001	1.700866e+002	-1.343847e+001	-9.327134e+001	-1.344137e+001	-9.305050e+001	-1.795823e+001	1.455384e+002
5294454.073	-2.640378e+001	-1.794283e+002	-1.347742e+001	-9.809050e+001	-1.348116e+001	-9.783936e+001	-1.835830e+001	1.404499e+002
5318890.815	-2.505680e+001	-1.723131e+002	-1.351582e+001	-1.028735e+002	-1.352440e+001	-1.026191e+002	-1.877647e+001	1.352952e+002
5343327.556	-2.372128e+001	-1.679513e+002	-1.355970e+001	-1.076434e+002	-1.356987e+001	-1.073469e+002	-1.920327e+001	1.299164e+002
5367764.298	-2.247532e+001	-1.654792e+002	-1.360558e+001	-1.123553e+002	-1.361998e+001	-1.120451e+002	-1.963480e+001	1.243947e+002
5392201.040	-2.133583e+001	-1.643906e+002	-1.365442e+001	-1.170428e+002	-1.367099e+001	-1.167118e+002	-2.007342e+001	1.186704e+002
5416637.782	-2.031126e+001	-1.642452e+002	-1.370529e+001	-1.217200e+002	-1.372385e+001	-1.213490e+002	-2.051522e+001	1.127619e+002
5441074.523	-1.938456e+001	-1.647582e+002	-1.375784e+001	-1.263445e+002	-1.377796e+001	-1.259464e+002	-2.095122e+001	1.065860e+002
