!Agilent Technologies,E5061B,MY49101568,A.02.00
!Date: Wed Mar 01 15:06:57 2023
!Data & Calibration Information:
!Freq	S11:SOLT2(OFF)	S21:SOLT2(OFF)	S12:SOLT2(OFF)	S22:SOLT2(OFF)
# Hz S dB R 50
1800000.000	-9.023952e+000	-1.656469e+001	-2.745270e+001	-1.277802e+002	-2.749518e+001	-1.276799e+002	-9.311417e+000	1.980735e+001
1824436.742	-9.098314e+000	-2.078520e+001	-2.708788e+001	-1.314460e+002	-2.713552e+001	-1.313799e+002	-9.409764e+000	1.614475e+001
1848873.484	-9.174004e+000	-2.507933e+001	-2.670959e+001	-1.351806e+002	-2.675994e+001	-1.350682e+002	-9.509580e+000	1.240976e+001
1873310.225	-9.251425e+000	-2.944051e+001	-2.631316e+001	-1.389073e+002	-2.637082e+001	-1.389375e+002	-9.603268e+000	8.654508e+000
1897746.967	-9.327617e+000	-3.385406e+001	-2.593625e+001	-1.427744e+002	-2.594948e+001	-1.428271e+002	-9.695570e+000	4.829226e+000
1922183.709	-9.404358e+000	-3.840982e+001	-2.552622e+001	-1.467251e+002	-2.554245e+001	-1.467746e+002	-9.784804e+000	8.869661e-001
1946620.451	-9.481930e+000	-4.307975e+001	-2.510963e+001	-1.507241e+002	-2.511679e+001	-1.508767e+002	-9.869665e+000	-3.110682e+000
1971057.192	-9.561754e+000	-4.788088e+001	-2.466691e+001	-1.548883e+002	-2.468368e+001	-1.550165e+002	-9.952180e+000	-7.215961e+000
1995493.934	-9.643561e+000	-5.278760e+001	-2.424437e+001	-1.590826e+002	-2.421080e+001	-1.594414e+002	-1.004010e+001	-1.141131e+001
2019930.676	-9.729692e+000	-5.786462e+001	-2.377728e+001	-1.634661e+002	-2.375145e+001	-1.637978e+002	-1.011621e+001	-1.567332e+001
2044367.418	-9.822640e+000	-6.305909e+001	-2.330666e+001	-1.679687e+002	-2.328946e+001	-1.682837e+002	-1.018706e+001	-2.006931e+001
2068804.159	-9.922121e+000	-6.841641e+001	-2.282945e+001	-1.726385e+002	-2.281483e+001	-1.729445e+002	-1.025648e+001	-2.455102e+001
2093240.901	-1.002695e+001	-7.391737e+001	-2.234800e+001	-1.774295e+002	-2.234409e+001	-1.776979e+002	-1.032022e+001	-2.908726e+001
2117677.643	-1.014014e+001	-7.963085e+001	-2.186456e+001	1.775089e+002	-2.186990e+001	1.773290e+002	-1.038270e+001	-3.375136e+001
2142114.385	-1.026678e+001	-8.553196e+001	-2.137833e+001	1.723140e+002	-2.138228e+001	1.721916e+002	-1.043798e+001	-3.853393e+001
2166551.127	-1.040169e+001	-9.162570e+001	-2.088915e+001	1.669397e+002	-2.089950e+001	1.668831e+002	-1.048935e+001	-4.343702e+001
2190987.868	-1.055080e+001	-9.793364e+001	-2.040778e+001	1.613679e+002	-2.041555e+001	1.613434e+002	-1.053978e+001	-4.845598e+001
2215424.610	-1.071184e+001	-1.044549e+002	-1.993929e+001	1.555621e+002	-1.995481e+001	1.556976e+002	-1.058085e+001	-5.360164e+001
2239861.352	-1.088881e+001	-1.112147e+002	-1.947352e+001	1.496082e+002	-1.949344e+001	1.498041e+002	-1.062001e+001	-5.884994e+001
2264298.094	-1.108276e+001	-1.182332e+002	-1.902198e+001	1.434552e+002	-1.903921e+001	1.437174e+002	-1.065591e+001	-6.422142e+001
2288734.835	-1.129561e+001	-1.254722e+002	-1.858407e+001	1.371458e+002	-1.860431e+001	1.374630e+002	-1.068425e+001	-6.969512e+001
2313171.577	-1.152518e+001	-1.329713e+002	-1.816458e+001	1.306488e+002	-1.818120e+001	1.310344e+002	-1.070752e+001	-7.529723e+001
2337608.319	-1.177148e+001	-1.407064e+002	-1.776540e+001	1.239633e+002	-1.778260e+001	1.244130e+002	-1.072623e+001	-8.100608e+001
2362045.061	-1.203511e+001	-1.486790e+002	-1.739432e+001	1.171343e+002	-1.741403e+001	1.176895e+002	-1.073164e+001	-8.680471e+001
2386481.802	-1.230333e+001	-1.568840e+002	-1.704699e+001	1.101695e+002	-1.706490e+001	1.107610e+002	-1.073433e+001	-9.271684e+001
2410918.544	-1.258184e+001	-1.653515e+002	-1.673639e+001	1.030577e+002	-1.674193e+001	1.036869e+002	-1.072634e+001	-9.874540e+001
2435355.286	-1.286171e+001	-1.740267e+002	-1.645460e+001	9.585553e+001	-1.645085e+001	9.653011e+001	-1.071161e+001	-1.048918e+002
2459792.028	-1.313646e+001	1.770899e+002	-1.620022e+001	8.858557e+001	-1.619176e+001	8.926741e+001	-1.068794e+001	-1.111424e+002
2484228.769	-1.340285e+001	1.680186e+002	-1.598736e+001	8.118103e+001	-1.596894e+001	8.196371e+001	-1.065469e+001	-1.175224e+002
2508665.511	-1.364767e+001	1.587924e+002	-1.580254e+001	7.378908e+001	-1.577728e+001	7.455560e+001	-1.061798e+001	-1.239967e+002
2533102.253	-1.386669e+001	1.494686e+002	-1.565560e+001	6.641507e+001	-1.562221e+001	6.713386e+001	-1.057594e+001	-1.305389e+002
2557538.995	-1.405661e+001	1.400799e+002	-1.554590e+001	5.901603e+001	-1.550076e+001	5.968831e+001	-1.053262e+001	-1.372020e+002
2581975.737	-1.420437e+001	1.306636e+002	-1.547446e+001	5.161770e+001	-1.541652e+001	5.225336e+001	-1.048606e+001	-1.439377e+002
2606412.478	-1.431323e+001	1.213216e+002	-1.543142e+001	4.427582e+001	-1.536539e+001	4.487902e+001	-1.044365e+001	-1.507323e+002
2630849.220	-1.438046e+001	1.120820e+002	-1.542280e+001	3.699868e+001	-1.534811e+001	3.753153e+001	-1.040334e+001	-1.575906e+002
2655285.962	-1.440676e+001	1.030057e+002	-1.544589e+001	2.981751e+001	-1.536574e+001	3.027289e+001	-1.036707e+001	-1.644597e+002
2679722.704	-1.439178e+001	9.411656e+001	-1.549919e+001	2.272697e+001	-1.541581e+001	2.312785e+001	-1.034059e+001	-1.713406e+002
2704159.445	-1.434559e+001	8.546418e+001	-1.557914e+001	1.577636e+001	-1.549582e+001	1.609966e+001	-1.031880e+001	-1.781978e+002
2728596.187	-1.426842e+001	7.707166e+001	-1.568502e+001	8.929470e+000	-1.559751e+001	9.188172e+000	-1.030511e+001	1.749816e+002
2753032.929	-1.416724e+001	6.896222e+001	-1.581065e+001	2.236439e+000	-1.572323e+001	2.428269e+000	-1.030172e+001	1.682367e+002
2777469.671	-1.404766e+001	6.116844e+001	-1.595724e+001	-4.300463e+000	-1.587369e+001	-4.193053e+000	-1.030797e+001	1.615731e+002
2801906.412	-1.391660e+001	5.366468e+001	-1.612333e+001	-1.068833e+001	-1.604705e+001	-1.062341e+001	-1.032446e+001	1.550034e+002
2826343.154	-1.377655e+001	4.646331e+001	-1.630545e+001	-1.690413e+001	-1.623342e+001	-1.688589e+001	-1.035043e+001	1.485742e+002
2850779.896	-1.362430e+001	3.955339e+001	-1.649824e+001	-2.294776e+001	-1.642976e+001	-2.297545e+001	-1.038350e+001	1.422873e+002
2875216.638	-1.347721e+001	3.291381e+001	-1.669701e+001	-2.885886e+001	-1.664106e+001	-2.888041e+001	-1.042417e+001	1.361285e+002
2899653.380	-1.332348e+001	2.656858e+001	-1.690733e+001	-3.454980e+001	-1.685940e+001	-3.461122e+001	-1.047104e+001	1.301358e+002
2924090.121	-1.317050e+001	2.046671e+001	-1.712215e+001	-4.005744e+001	-1.708290e+001	-4.017372e+001	-1.052407e+001	1.243143e+002
2948526.863	-1.301924e+001	1.461203e+001	-1.734060e+001	-4.543772e+001	-1.731012e+001	-4.555250e+001	-1.057966e+001	1.186482e+002
2972963.605	-1.286936e+001	8.985955e+000	-1.755788e+001	-5.063833e+001	-1.753732e+001	-5.076337e+001	-1.063919e+001	1.131308e+002
2997400.347	-1.272248e+001	3.565601e+000	-1.777446e+001	-5.568308e+001	-1.776342e+001	-5.581676e+001	-1.070118e+001	1.077810e+002
3021837.088	-1.257875e+001	-1.669851e+000	-1.798603e+001	-6.057600e+001	-1.798669e+001	-6.071812e+001	-1.076524e+001	1.025675e+002
3046273.830	-1.243852e+001	-6.717210e+000	-1.819047e+001	-6.530113e+001	-1.820222e+001	-6.544595e+001	-1.082787e+001	9.749697e+001
3070710.572	-1.230359e+001	-1.161489e+001	-1.838837e+001	-6.994161e+001	-1.841268e+001	-7.005632e+001	-1.089271e+001	9.256272e+001
3095147.314	-1.217232e+001	-1.634930e+001	-1.857755e+001	-7.445167e+001	-1.860975e+001	-7.454852e+001	-1.095928e+001	8.776403e+001
3119584.055	-1.204342e+001	-2.093823e+001	-1.876238e+001	-7.883910e+001	-1.880252e+001	-7.893243e+001	-1.102415e+001	8.310303e+001
3144020.797	-1.192604e+001	-2.542211e+001	-1.892064e+001	-8.320966e+001	-1.898430e+001	-8.318916e+001	-1.108649e+001	7.858573e+001
3168457.539	-1.180300e+001	-2.976576e+001	-1.908557e+001	-8.737685e+001	-1.915578e+001	-8.735202e+001	-1.115046e+001	7.415366e+001
3192894.281	-1.168513e+001	-3.398997e+001	-1.923812e+001	-9.146198e+001	-1.931649e+001	-9.139162e+001	-1.121201e+001	6.983182e+001
3217331.023	-1.156891e+001	-3.811555e+001	-1.938254e+001	-9.546722e+001	-1.946827e+001	-9.538946e+001	-1.127265e+001	6.561685e+001
3241767.764	-1.145903e+001	-4.215244e+001	-1.951547e+001	-9.941285e+001	-1.960746e+001	-9.931998e+001	-1.133137e+001	6.151128e+001
3266204.506	-1.135137e+001	-4.608397e+001	-1.964375e+001	-1.032877e+002	-1.973968e+001	-1.031556e+002	-1.138902e+001	5.749279e+001
3290641.248	-1.124284e+001	-4.994252e+001	-1.976389e+001	-1.070137e+002	-1.986619e+001	-1.068880e+002	-1.143957e+001	5.357782e+001
3315077.990	-1.113650e+001	-5.373909e+001	-1.985806e+001	-1.106527e+002	-1.996238e+001	-1.105123e+002	-1.148878e+001	4.969231e+001
3339514.731	-1.103504e+001	-5.749721e+001	-1.993511e+001	-1.142385e+002	-2.004157e+001	-1.141270e+002	-1.153853e+001	4.586223e+001
3363951.473	-1.094002e+001	-6.118532e+001	-1.999502e+001	-1.178739e+002	-2.010367e+001	-1.177076e+002	-1.159127e+001	4.210985e+001
3388388.215	-1.085140e+001	-6.481796e+001	-2.004176e+001	-1.214787e+002	-2.015364e+001	-1.212833e+002	-1.164309e+001	3.843743e+001
3412824.957	-1.076663e+001	-6.840194e+001	-2.007628e+001	-1.250548e+002	-2.018772e+001	-1.248491e+002	-1.169644e+001	3.482453e+001
3437261.698	-1.068671e+001	-7.193632e+001	-2.009689e+001	-1.286159e+002	-2.021077e+001	-1.283890e+002	-1.174888e+001	3.128549e+001
3461698.440	-1.061161e+001	-7.541375e+001	-2.010241e+001	-1.321746e+002	-2.021789e+001	-1.319071e+002	-1.180249e+001	2.780078e+001
3486135.182	-1.054154e+001	-7.883902e+001	-2.009337e+001	-1.357483e+002	-2.021383e+001	-1.354553e+002	-1.185776e+001	2.439043e+001
3510571.924	-1.047719e+001	-8.222000e+001	-2.007283e+001	-1.393407e+002	-2.019298e+001	-1.390054e+002	-1.191109e+001	2.104245e+001
3535008.666	-1.041639e+001	-8.553713e+001	-2.003694e+001	-1.429265e+002	-2.016125e+001	-1.425532e+002	-1.196443e+001	1.777282e+001
3559445.407	-1.035858e+001	-8.880622e+001	-1.999104e+001	-1.465223e+002	-2.011360e+001	-1.461084e+002	-1.201531e+001	1.454079e+001
3583882.149	-1.030380e+001	-9.202748e+001	-1.993122e+001	-1.500861e+002	-2.004922e+001	-1.496865e+002	-1.206428e+001	1.136465e+001
3608318.891	-1.024959e+001	-9.522223e+001	-1.985150e+001	-1.537233e+002	-1.996602e+001	-1.533000e+002	-1.211481e+001	8.214490e+000
3632755.633	-1.019867e+001	-9.838678e+001	-1.975517e+001	-1.574435e+002	-1.986190e+001	-1.570614e+002	-1.216856e+001	5.086971e+000
3657192.374	-1.014943e+001	-1.015204e+002	-1.965175e+001	-1.612347e+002	-1.974645e+001	-1.608412e+002	-1.222220e+001	2.018983e+000
3681629.116	-1.010433e+001	-1.046499e+002	-1.952585e+001	-1.651048e+002	-1.961866e+001	-1.647378e+002	-1.227789e+001	-1.019626e+000
3706065.858	-1.006507e+001	-1.077671e+002	-1.939272e+001	-1.691301e+002	-1.948394e+001	-1.687419e+002	-1.233807e+001	-4.000111e+000
3730502.600	-1.003200e+001	-1.108660e+002	-1.925722e+001	-1.732347e+002	-1.934363e+001	-1.728771e+002	-1.240244e+001	-6.937046e+000
3754939.341	-1.000311e+001	-1.139533e+002	-1.911683e+001	-1.774101e+002	-1.919919e+001	-1.770628e+002	-1.246436e+001	-9.836350e+000
3779376.083	-9.982951e+000	-1.170333e+002	-1.896976e+001	1.783248e+002	-1.905050e+001	1.786434e+002	-1.253220e+001	-1.268718e+001
3803812.825	-9.971831e+000	-1.200922e+002	-1.881729e+001	1.739541e+002	-1.889106e+001	1.742558e+002	-1.260351e+001	-1.552192e+001
3828249.567	-9.975311e+000	-1.231458e+002	-1.864729e+001	1.694642e+002	-1.871981e+001	1.696990e+002	-1.268785e+001	-1.831266e+001
3852686.308	-9.993557e+000	-1.261474e+002	-1.847975e+001	1.647819e+002	-1.854832e+001	1.650156e+002	-1.278122e+001	-2.103026e+001
3877123.050	-1.002536e+001	-1.290830e+002	-1.831480e+001	1.599560e+002	-1.837957e+001	1.601801e+002	-1.288143e+001	-2.365666e+001
3901559.792	-1.007004e+001	-1.319387e+002	-1.814934e+001	1.549368e+002	-1.820842e+001	1.552106e+002	-1.299201e+001	-2.619467e+001
3925996.534	-1.013016e+001	-1.346914e+002	-1.798926e+001	1.497446e+002	-1.805295e+001	1.500334e+002	-1.311052e+001	-2.855896e+001
3950433.276	-1.020423e+001	-1.373093e+002	-1.783729e+001	1.443216e+002	-1.790211e+001	1.446509e+002	-1.323798e+001	-3.075820e+001
3974870.017	-1.028811e+001	-1.397538e+002	-1.770251e+001	1.386858e+002	-1.777010e+001	1.390574e+002	-1.336959e+001	-3.272393e+001
3999306.759	-1.037627e+001	-1.419768e+002	-1.759164e+001	1.328114e+002	-1.766088e+001	1.332148e+002	-1.349696e+001	-3.441840e+001
4023743.501	-1.046085e+001	-1.439724e+002	-1.751686e+001	1.267408e+002	-1.758169e+001	1.271916e+002	-1.360777e+001	-3.585365e+001
4048180.243	-1.053154e+001	-1.457055e+002	-1.747833e+001	1.204261e+002	-1.754059e+001	1.209547e+002	-1.369157e+001	-3.699329e+001
4072616.984	-1.057530e+001	-1.471810e+002	-1.749356e+001	1.139380e+002	-1.755450e+001	1.145528e+002	-1.373038e+001	-3.784641e+001
4097053.726	-1.057457e+001	-1.484519e+002	-1.757339e+001	1.072926e+002	-1.762926e+001	1.079954e+002	-1.370841e+001	-3.850418e+001
4121490.468	-1.051537e+001	-1.496102e+002	-1.773254e+001	1.005549e+002	-1.778438e+001	1.013211e+002	-1.360810e+001	-3.904742e+001
4145927.210	-1.039171e+001	-1.508073e+002	-1.797718e+001	9.387569e+001	-1.802996e+001	9.466097e+001	-1.342535e+001	-3.967878e+001
4170363.951	-1.019673e+001	-1.521720e+002	-1.833850e+001	8.738145e+001	-1.837349e+001	8.819736e+001	-1.316587e+001	-4.057705e+001
4194800.693	-9.949900e+000	-1.539541e+002	-1.880591e+001	8.134497e+001	-1.883414e+001	8.219852e+001	-1.283989e+001	-4.199876e+001
4219237.435	-9.677130e+000	-1.562591e+002	-1.936557e+001	7.610027e+001	-1.938334e+001	7.697026e+001	-1.248972e+001	-4.402008e+001
4243674.177	-9.416227e+000	-1.590721e+002	-1.996121e+001	7.187120e+001	-1.997048e+001	7.275158e+001	-1.215050e+001	-4.662724e+001
4268110.919	-9.191229e+000	-1.622592e+002	-2.053049e+001	6.862279e+001	-2.053706e+001	6.951297e+001	-1.185187e+001	-4.964593e+001
4292547.660	-9.006098e+000	-1.656734e+002	-2.103789e+001	6.608355e+001	-2.104555e+001	6.700145e+001	-1.159336e+001	-5.288564e+001
4316984.402	-8.854534e+000	-1.692620e+002	-2.148724e+001	6.423276e+001	-2.148928e+001	6.522058e+001	-1.136968e+001	-5.630662e+001
4341421.144	-8.745944e+000	-1.729720e+002	-2.182293e+001	6.295198e+001	-2.182012e+001	6.388636e+001	-1.118388e+001	-5.981701e+001
4365857.886	-8.675978e+000	-1.766992e+002	-2.202658e+001	6.175090e+001	-2.202017e+001	6.269711e+001	-1.103602e+001	-6.333480e+001
4390294.627	-8.630996e+000	1.796426e+002	-2.215055e+001	6.017860e+001	-2.214146e+001	6.115172e+001	-1.090926e+001	-6.676836e+001
4414731.369	-8.593576e+000	1.760405e+002	-2.227592e+001	5.820370e+001	-2.226965e+001	5.925984e+001	-1.078086e+001	-7.010584e+001
4439168.111	-8.547933e+000	1.723740e+002	-2.247921e+001	5.626704e+001	-2.246009e+001	5.744157e+001	-1.063891e+001	-7.347823e+001
4463604.853	-8.500334e+000	1.684977e+002	-2.274074e+001	5.526587e+001	-2.270826e+001	5.645201e+001	-1.047626e+001	-7.698518e+001
4488041.594	-8.470631e+000	1.642891e+002	-2.294330e+001	5.576434e+001	-2.289896e+001	5.697166e+001	-1.030769e+001	-8.081427e+001
4512478.336	-8.497564e+000	1.597296e+002	-2.284386e+001	5.758226e+001	-2.279630e+001	5.871890e+001	-1.017104e+001	-8.503058e+001
4536915.078	-8.608524e+000	1.550474e+002	-2.234677e+001	5.888234e+001	-2.229735e+001	5.997778e+001	-1.009983e+001	-8.946636e+001
4561351.820	-8.795932e+000	1.505642e+002	-2.164200e+001	5.792261e+001	-2.157767e+001	5.899278e+001	-1.009993e+001	-9.381988e+001
4585788.562	-9.020227e+000	1.464099e+002	-2.099796e+001	5.504543e+001	-2.092279e+001	5.607249e+001	-1.013304e+001	-9.788916e+001
4610225.303	-9.248928e+000	1.424573e+002	-2.049326e+001	5.137444e+001	-2.041337e+001	5.237049e+001	-1.016314e+001	-1.017552e+002
4634662.045	-9.481662e+000	1.385287e+002	-2.008280e+001	4.758835e+001	-2.000150e+001	4.853087e+001	-1.018128e+001	-1.055801e+002
4659098.787	-9.724507e+000	1.345720e+002	-1.971857e+001	4.378366e+001	-1.963316e+001	4.469803e+001	-1.019448e+001	-1.094352e+002
4683535.529	-9.985686e+000	1.305424e+002	-1.938068e+001	4.004735e+001	-1.929195e+001	4.090464e+001	-1.020433e+001	-1.133700e+002
4707972.270	-1.027438e+001	1.264216e+002	-1.904592e+001	3.641789e+001	-1.896154e+001	3.728496e+001	-1.020982e+001	-1.174099e+002
4732409.012	-1.059952e+001	1.220782e+002	-1.867963e+001	3.300508e+001	-1.859315e+001	3.386936e+001	-1.022213e+001	-1.217020e+002
4756845.754	-1.099654e+001	1.175967e+002	-1.823200e+001	2.942905e+001	-1.813524e+001	3.033048e+001	-1.026364e+001	-1.262692e+002
4781282.496	-1.147722e+001	1.132055e+002	-1.773727e+001	2.524704e+001	-1.762024e+001	2.609442e+001	-1.036116e+001	-1.309555e+002
4805719.237	-1.202361e+001	1.090407e+002	-1.725783e+001	2.043900e+001	-1.712186e+001	2.113398e+001	-1.050552e+001	-1.355844e+002
4830155.979	-1.262043e+001	1.051071e+002	-1.682724e+001	1.521646e+001	-1.668296e+001	1.571365e+001	-1.067885e+001	-1.400992e+002
4854592.721	-1.326054e+001	1.013336e+002	-1.644483e+001	9.827973e+000	-1.630306e+001	1.008390e+001	-1.086872e+001	-1.445519e+002
4879029.463	-1.396393e+001	9.773289e+001	-1.608664e+001	4.267677e+000	-1.596544e+001	4.378394e+000	-1.107399e+001	-1.489789e+002
4903466.205	-1.473359e+001	9.432870e+001	-1.575438e+001	-1.440356e+000	-1.565872e+001	-1.395602e+000	-1.129717e+001	-1.534208e+002
4927902.946	-1.557008e+001	9.120938e+001	-1.545334e+001	-7.277207e+000	-1.537509e+001	-7.240517e+000	-1.154450e+001	-1.578758e+002
4952339.688	-1.647998e+001	8.842523e+001	-1.518012e+001	-1.328366e+001	-1.511552e+001	-1.316926e+001	-1.181604e+001	-1.623517e+002
4976776.430	-1.746613e+001	8.597300e+001	-1.493821e+001	-1.931281e+001	-1.488253e+001	-1.918065e+001	-1.211332e+001	-1.667637e+002
5001213.172	-1.853959e+001	8.395503e+001	-1.472488e+001	-2.538883e+001	-1.467565e+001	-2.524389e+001	-1.243461e+001	-1.711483e+002
5025649.913	-1.971359e+001	8.242100e+001	-1.453934e+001	-3.150776e+001	-1.449593e+001	-3.135037e+001	-1.277875e+001	-1.754678e+002
5050086.655	-2.099772e+001	8.151491e+001	-1.438025e+001	-3.762932e+001	-1.434155e+001	-3.745840e+001	-1.314126e+001	-1.797461e+002
5074523.397	-2.241961e+001	8.137865e+001	-1.424849e+001	-4.374155e+001	-1.421282e+001	-4.356368e+001	-1.352423e+001	1.760377e+002
5098960.139	-2.401856e+001	8.240814e+001	-1.413387e+001	-4.981900e+001	-1.410551e+001	-4.964012e+001	-1.392523e+001	1.718648e+002
5123396.880	-2.582349e+001	8.512802e+001	-1.403991e+001	-5.588660e+001	-1.401515e+001	-5.570017e+001	-1.434556e+001	1.677293e+002
5147833.622	-2.787934e+001	9.069343e+001	-1.396317e+001	-6.190807e+001	-1.394420e+001	-6.171764e+001	-1.478498e+001	1.636526e+002
5172270.364	-3.007421e+001	1.013333e+002	-1.390060e+001	-6.789079e+001	-1.388493e+001	-6.770250e+001	-1.524242e+001	1.596013e+002
5196707.106	-3.193442e+001	1.195503e+002	-1.385016e+001	-7.385074e+001	-1.383908e+001	-7.363826e+001	-1.572182e+001	1.555977e+002
5221143.847	-3.226440e+001	1.432572e+002	-1.381192e+001	-7.987180e+001	-1.380489e+001	-7.954679e+001	-1.622077e+001	1.516539e+002
5245580.589	-3.104741e+001	1.639195e+002	-1.378519e+001	-8.579711e+001	-1.378134e+001	-8.542396e+001	-1.673800e+001	1.477640e+002
5270017.331	-2.917317e+001	1.769586e+002	-1.376763e+001	-9.165537e+001	-1.376712e+001	-9.125645e+001	-1.727517e+001	1.439286e+002
5294454.073	-2.732945e+001	-1.756236e+002	-1.375973e+001	-9.746541e+001	-1.376414e+001	-9.705102e+001	-1.782727e+001	1.401529e+002
5318890.815	-2.569967e+001	-1.716832e+002	-1.376043e+001	-1.032145e+002	-1.376588e+001	-1.027887e+002	-1.839597e+001	1.364005e+002
5343327.556	-2.429049e+001	-1.697698e+002	-1.376605e+001	-1.089305e+002	-1.377104e+001	-1.084834e+002	-1.898991e+001	1.327021e+002
5367764.298	-2.306982e+001	-1.691429e+002	-1.377285e+001	-1.146176e+002	-1.377948e+001	-1.141639e+002	-1.960989e+001	1.290540e+002
5392201.040	-2.201964e+001	-1.694615e+002	-1.378363e+001	-1.203295e+002	-1.379064e+001	-1.198369e+002	-2.025519e+001	1.255369e+002
5416637.782	-2.111117e+001	-1.702968e+002	-1.379936e+001	-1.260298e+002	-1.380437e+001	-1.255216e+002	-2.092151e+001	1.222118e+002
5441074.523	-2.031309e+001	-1.715153e+002	-1.381805e+001	-1.317181e+002	-1.382404e+001	-1.311982e+002	-2.159824e+001	1.190567e+002
