!Agilent Technologies,E5061B,MY49101568,A.02.00
!Date: Wed Mar 01 15:04:01 2023
!Data & Calibration Information:
!Freq	S11:SOLT2(OFF)	S21:SOLT2(OFF)	S12:SOLT2(OFF)	S22:SOLT2(OFF)
# Hz S dB R 50
1800000.000	-9.628306e+000	-2.376592e+001	-2.107862e+001	-1.241212e+002	-2.108525e+001	-1.241091e+002	-1.006424e+001	1.169687e+001
1824436.742	-9.754000e+000	-2.845506e+001	-2.063334e+001	-1.283913e+002	-2.063948e+001	-1.283582e+002	-1.021202e+001	7.550822e+000
1848873.484	-9.888817e+000	-3.327358e+001	-2.015995e+001	-1.328221e+002	-2.018188e+001	-1.327834e+002	-1.036769e+001	3.287205e+000
1873310.225	-1.003627e+001	-3.818136e+001	-1.969184e+001	-1.373934e+002	-1.970815e+001	-1.373455e+002	-1.052836e+001	-1.020570e+000
1897746.967	-1.019463e+001	-4.321234e+001	-1.921842e+001	-1.420470e+002	-1.922032e+001	-1.421534e+002	-1.069966e+001	-5.442008e+000
1922183.709	-1.036936e+001	-4.843136e+001	-1.872474e+001	-1.469177e+002	-1.873583e+001	-1.469956e+002	-1.087040e+001	-9.989880e+000
1946620.451	-1.056229e+001	-5.379947e+001	-1.821332e+001	-1.520037e+002	-1.823813e+001	-1.519660e+002	-1.104765e+001	-1.468054e+001
1971057.192	-1.076820e+001	-5.936133e+001	-1.771089e+001	-1.571882e+002	-1.773561e+001	-1.571217e+002	-1.123769e+001	-1.947445e+001
1995493.934	-1.100272e+001	-6.508499e+001	-1.720582e+001	-1.626000e+002	-1.724949e+001	-1.623814e+002	-1.143219e+001	-2.436486e+001
2019930.676	-1.127301e+001	-7.101234e+001	-1.669753e+001	-1.682509e+002	-1.675305e+001	-1.679075e+002	-1.164565e+001	-2.931551e+001
2044367.418	-1.157661e+001	-7.708114e+001	-1.619256e+001	-1.741031e+002	-1.625332e+001	-1.737187e+002	-1.186974e+001	-3.447233e+001
2068804.159	-1.191652e+001	-8.329766e+001	-1.570232e+001	1.798220e+002	-1.576402e+001	-1.797607e+002	-1.211492e+001	-3.961914e+001
2093240.901	-1.230413e+001	-8.963647e+001	-1.522766e+001	1.735103e+002	-1.529464e+001	1.738866e+002	-1.238407e+001	-4.472988e+001
2117677.643	-1.272622e+001	-9.611109e+001	-1.478856e+001	1.670297e+002	-1.485789e+001	1.675384e+002	-1.264658e+001	-4.990406e+001
2142114.385	-1.319792e+001	-1.027869e+002	-1.435760e+001	1.604502e+002	-1.443348e+001	1.611120e+002	-1.290744e+001	-5.513834e+001
2166551.127	-1.372938e+001	-1.096462e+002	-1.393917e+001	1.536984e+002	-1.401294e+001	1.544927e+002	-1.318207e+001	-6.047098e+001
2190987.868	-1.430449e+001	-1.166723e+002	-1.354993e+001	1.468640e+002	-1.362262e+001	1.476577e+002	-1.347235e+001	-6.576006e+001
2215424.610	-1.499560e+001	-1.237318e+002	-1.317534e+001	1.395874e+002	-1.326453e+001	1.406806e+002	-1.376131e+001	-7.098172e+001
2239861.352	-1.571076e+001	-1.308282e+002	-1.285321e+001	1.323974e+002	-1.294304e+001	1.336967e+002	-1.402623e+001	-7.620139e+001
2264298.094	-1.648664e+001	-1.380332e+002	-1.255876e+001	1.251375e+002	-1.264317e+001	1.266348e+002	-1.428109e+001	-8.139616e+001
2288734.835	-1.727292e+001	-1.455398e+002	-1.229424e+001	1.180220e+002	-1.236689e+001	1.195090e+002	-1.451240e+001	-8.658055e+001
2313171.577	-1.811340e+001	-1.531613e+002	-1.205850e+001	1.108314e+002	-1.212073e+001	1.123411e+002	-1.472065e+001	-9.177904e+001
2337608.319	-1.899156e+001	-1.608402e+002	-1.185259e+001	1.035908e+002	-1.190609e+001	1.051283e+002	-1.488957e+001	-9.697372e+001
2362045.061	-1.996649e+001	-1.685206e+002	-1.166833e+001	9.617945e+001	-1.172203e+001	9.792041e+001	-1.501973e+001	-1.021958e+002
2386481.802	-2.082800e+001	-1.767020e+002	-1.151814e+001	8.903311e+001	-1.156062e+001	9.077606e+001	-1.509911e+001	-1.075938e+002
2410918.544	-2.165325e+001	1.746704e+002	-1.138896e+001	8.190537e+001	-1.142407e+001	8.365610e+001	-1.512887e+001	-1.131370e+002
2435355.286	-2.237855e+001	1.653439e+002	-1.127918e+001	7.486155e+001	-1.130385e+001	7.657590e+001	-1.512116e+001	-1.188996e+002
2459792.028	-2.298391e+001	1.553597e+002	-1.118680e+001	6.787499e+001	-1.120222e+001	6.952361e+001	-1.507861e+001	-1.249339e+002
2484228.769	-2.345849e+001	1.450017e+002	-1.111392e+001	6.083061e+001	-1.111643e+001	6.245827e+001	-1.502407e+001	-1.311979e+002
2508665.511	-2.365010e+001	1.338751e+002	-1.106042e+001	5.400937e+001	-1.104907e+001	5.545229e+001	-1.492656e+001	-1.377069e+002
2533102.253	-2.332388e+001	1.219108e+002	-1.103268e+001	4.769445e+001	-1.100291e+001	4.832504e+001	-1.484679e+001	-1.443011e+002
2557538.995	-2.315835e+001	1.109844e+002	-1.101280e+001	4.086112e+001	-1.097513e+001	4.140566e+001	-1.471377e+001	-1.512042e+002
2581975.737	-2.282929e+001	1.005102e+002	-1.101279e+001	3.405710e+001	-1.096796e+001	3.453353e+001	-1.457840e+001	-1.582864e+002
2606412.478	-2.235843e+001	9.056095e+001	-1.103170e+001	2.729938e+001	-1.098128e+001	2.769859e+001	-1.443974e+001	-1.654525e+002
2630849.220	-2.180430e+001	8.119709e+001	-1.107071e+001	2.060981e+001	-1.101605e+001	2.091718e+001	-1.430426e+001	-1.727436e+002
2655285.962	-2.118661e+001	7.238909e+001	-1.112886e+001	1.397479e+001	-1.106941e+001	1.419647e+001	-1.417310e+001	1.799654e+002
2679722.704	-2.054151e+001	6.406635e+001	-1.120558e+001	7.466845e+000	-1.113952e+001	7.551993e+000	-1.405844e+001	1.726265e+002
2704159.445	-1.988858e+001	5.619225e+001	-1.129326e+001	1.068099e+000	-1.122513e+001	1.000237e+000	-1.395661e+001	1.653071e+002
2728596.187	-1.925772e+001	4.874898e+001	-1.139804e+001	-5.240530e+000	-1.132698e+001	-5.435396e+000	-1.386384e+001	1.580111e+002
2753032.929	-1.866438e+001	4.163323e+001	-1.151789e+001	-1.144918e+001	-1.144457e+001	-1.168580e+001	-1.377328e+001	1.507736e+002
2777469.671	-1.810403e+001	3.483452e+001	-1.164673e+001	-1.754836e+001	-1.157486e+001	-1.781146e+001	-1.369838e+001	1.436754e+002
2801906.412	-1.757523e+001	2.832205e+001	-1.178649e+001	-2.350841e+001	-1.171565e+001	-2.385748e+001	-1.364746e+001	1.367303e+002
2826343.154	-1.708064e+001	2.206222e+001	-1.193390e+001	-2.930248e+001	-1.186514e+001	-2.970254e+001	-1.359945e+001	1.299153e+002
2850779.896	-1.662738e+001	1.604634e+001	-1.208927e+001	-3.497679e+001	-1.202158e+001	-3.544243e+001	-1.357449e+001	1.232771e+002
2875216.638	-1.620524e+001	1.026168e+001	-1.224976e+001	-4.051547e+001	-1.216457e+001	-4.125571e+001	-1.361330e+001	1.167943e+002
2899653.380	-1.582739e+001	4.638156e+000	-1.240851e+001	-4.593297e+001	-1.232548e+001	-4.670104e+001	-1.361301e+001	1.104893e+002
2924090.121	-1.548307e+001	-8.043589e-001	-1.256300e+001	-5.124754e+001	-1.248502e+001	-5.204061e+001	-1.362888e+001	1.043955e+002
2948526.863	-1.516853e+001	-6.068407e+000	-1.271645e+001	-5.643939e+001	-1.264094e+001	-5.725764e+001	-1.365743e+001	9.846089e+001
2972963.605	-1.487678e+001	-1.117996e+001	-1.286615e+001	-6.150799e+001	-1.279321e+001	-6.239967e+001	-1.370496e+001	9.270897e+001
2997400.347	-1.461039e+001	-1.613628e+001	-1.301092e+001	-6.645728e+001	-1.294265e+001	-6.736484e+001	-1.374872e+001	8.712869e+001
3021837.088	-1.436219e+001	-2.096492e+001	-1.314710e+001	-7.128430e+001	-1.308383e+001	-7.218990e+001	-1.379661e+001	8.167431e+001
3046273.830	-1.413373e+001	-2.569985e+001	-1.327148e+001	-7.599219e+001	-1.321437e+001	-7.690289e+001	-1.384722e+001	7.634535e+001
3070710.572	-1.392665e+001	-3.033402e+001	-1.338410e+001	-8.063893e+001	-1.333325e+001	-8.151553e+001	-1.390604e+001	7.112700e+001
3095147.314	-1.374564e+001	-3.484411e+001	-1.348452e+001	-8.525798e+001	-1.344678e+001	-8.603539e+001	-1.396832e+001	6.607402e+001
3119584.055	-1.357314e+001	-3.925595e+001	-1.357850e+001	-8.977455e+001	-1.355118e+001	-9.047294e+001	-1.403506e+001	6.117302e+001
3144020.797	-1.341331e+001	-4.356128e+001	-1.366340e+001	-9.417853e+001	-1.366366e+001	-9.458164e+001	-1.405387e+001	5.647403e+001
3168457.539	-1.327550e+001	-4.779617e+001	-1.372974e+001	-9.860007e+001	-1.373741e+001	-9.898404e+001	-1.415319e+001	5.175133e+001
3192894.281	-1.315547e+001	-5.199302e+001	-1.378312e+001	-1.030312e+002	-1.379665e+001	-1.033726e+002	-1.426660e+001	4.713393e+001
3217331.023	-1.305402e+001	-5.608641e+001	-1.382538e+001	-1.074735e+002	-1.384481e+001	-1.077638e+002	-1.439619e+001	4.260962e+001
3241767.764	-1.297187e+001	-6.009335e+001	-1.386070e+001	-1.119441e+002	-1.388642e+001	-1.121771e+002	-1.454203e+001	3.823375e+001
3266204.506	-1.289761e+001	-6.399940e+001	-1.389529e+001	-1.163760e+002	-1.392419e+001	-1.166036e+002	-1.469559e+001	3.402221e+001
3290641.248	-1.282733e+001	-6.782424e+001	-1.392221e+001	-1.206878e+002	-1.395533e+001	-1.208786e+002	-1.483423e+001	2.987741e+001
3315077.990	-1.276711e+001	-7.169433e+001	-1.391948e+001	-1.249672e+002	-1.395810e+001	-1.250827e+002	-1.497701e+001	2.563374e+001
3339514.731	-1.273098e+001	-7.559355e+001	-1.388739e+001	-1.293410e+002	-1.393006e+001	-1.293786e+002	-1.515733e+001	2.136622e+001
3363951.473	-1.272057e+001	-7.944831e+001	-1.384219e+001	-1.338038e+002	-1.388877e+001	-1.338135e+002	-1.538193e+001	1.715651e+001
3388388.215	-1.273362e+001	-8.325408e+001	-1.378797e+001	-1.383662e+002	-1.383883e+001	-1.383750e+002	-1.564295e+001	1.306692e+001
3412824.957	-1.277274e+001	-8.696544e+001	-1.372974e+001	-1.430334e+002	-1.377970e+001	-1.429880e+002	-1.592948e+001	9.087891e+000
3437261.698	-1.284061e+001	-9.058660e+001	-1.366552e+001	-1.478056e+002	-1.371953e+001	-1.476847e+002	-1.625308e+001	5.273570e+000
3461698.440	-1.293898e+001	-9.407319e+001	-1.360260e+001	-1.527009e+002	-1.365260e+001	-1.525090e+002	-1.662339e+001	1.654071e+000
3486135.182	-1.306940e+001	-9.740709e+001	-1.353848e+001	-1.577271e+002	-1.359515e+001	-1.574777e+002	-1.704675e+001	-1.608654e+000
3510571.924	-1.322940e+001	-1.004939e+002	-1.348946e+001	-1.628902e+002	-1.353993e+001	-1.625809e+002	-1.752293e+001	-4.483384e+000
3535008.666	-1.340903e+001	-1.033540e+002	-1.344695e+001	-1.680897e+002	-1.349634e+001	-1.677012e+002	-1.802187e+001	-6.894856e+000
3559445.407	-1.359275e+001	-1.060105e+002	-1.340697e+001	-1.732180e+002	-1.345792e+001	-1.728344e+002	-1.853970e+001	-8.831460e+000
3583882.149	-1.379177e+001	-1.083966e+002	-1.337184e+001	-1.784047e+002	-1.342466e+001	-1.780180e+002	-1.908268e+001	-1.022654e+001
3608318.891	-1.400348e+001	-1.105545e+002	-1.333022e+001	1.763509e+002	-1.338299e+001	1.767320e+002	-1.965724e+001	-1.109203e+001
3632755.633	-1.422364e+001	-1.124453e+002	-1.329079e+001	1.710242e+002	-1.334980e+001	1.712635e+002	-2.028651e+001	-1.088972e+001
3657192.374	-1.446284e+001	-1.139230e+002	-1.325468e+001	1.655288e+002	-1.330851e+001	1.658137e+002	-2.089288e+001	-9.955197e+000
3681629.116	-1.470613e+001	-1.149707e+002	-1.322846e+001	1.598669e+002	-1.327936e+001	1.601809e+002	-2.146434e+001	-7.655145e+000
3706065.858	-1.493846e+001	-1.155058e+002	-1.321617e+001	1.540679e+002	-1.326602e+001	1.543624e+002	-2.191149e+001	-3.780266e+000
3730502.600	-1.512653e+001	-1.155343e+002	-1.322870e+001	1.481877e+002	-1.327953e+001	1.484765e+002	-2.208883e+001	1.194298e+000
3754939.341	-1.524897e+001	-1.150664e+002	-1.327113e+001	1.422155e+002	-1.332196e+001	1.425120e+002	-2.194362e+001	6.522539e+000
3779376.083	-1.529320e+001	-1.142940e+002	-1.333342e+001	1.362284e+002	-1.339053e+001	1.364966e+002	-2.149323e+001	1.127070e+001
3803812.825	-1.524652e+001	-1.132454e+002	-1.341751e+001	1.301550e+002	-1.347924e+001	1.304152e+002	-2.082745e+001	1.493551e+001
3828249.567	-1.508246e+001	-1.120983e+002	-1.353690e+001	1.240148e+002	-1.360152e+001	1.243040e+002	-2.001728e+001	1.716338e+001
3852686.308	-1.480506e+001	-1.111390e+002	-1.369242e+001	1.178830e+002	-1.375816e+001	1.181689e+002	-1.914615e+001	1.799913e+001
3877123.050	-1.442613e+001	-1.105436e+002	-1.388088e+001	1.117364e+002	-1.394851e+001	1.121011e+002	-1.828496e+001	1.754583e+001
3901559.792	-1.397495e+001	-1.105080e+002	-1.410556e+001	1.056737e+002	-1.417251e+001	1.061019e+002	-1.746435e+001	1.611815e+001
3925996.534	-1.348092e+001	-1.110933e+002	-1.436516e+001	9.972367e+001	-1.443063e+001	1.001694e+002	-1.669507e+001	1.392562e+001
3950433.276	-1.297126e+001	-1.122480e+002	-1.465262e+001	9.386884e+001	-1.472087e+001	9.432957e+001	-1.599022e+001	1.117985e+001
3974870.017	-1.246095e+001	-1.139630e+002	-1.497756e+001	8.816949e+001	-1.504620e+001	8.861176e+001	-1.534560e+001	7.989049e+000
3999306.759	-1.197242e+001	-1.161366e+002	-1.532384e+001	8.263047e+001	-1.540082e+001	8.309632e+001	-1.477051e+001	4.457400e+000
4023743.501	-1.150744e+001	-1.187124e+002	-1.570037e+001	7.726341e+001	-1.578235e+001	7.770699e+001	-1.424807e+001	7.314686e-001
4048180.243	-1.107129e+001	-1.216147e+002	-1.610904e+001	7.209105e+001	-1.619590e+001	7.253162e+001	-1.377929e+001	-3.204801e+000
4072616.984	-1.066665e+001	-1.247645e+002	-1.654010e+001	6.709450e+001	-1.663658e+001	6.754321e+001	-1.335664e+001	-7.232687e+000
4097053.726	-1.029407e+001	-1.281489e+002	-1.700843e+001	6.231944e+001	-1.711066e+001	6.284722e+001	-1.297918e+001	-1.139953e+001
4121490.468	-9.953624e+000	-1.317379e+002	-1.750731e+001	5.782267e+001	-1.761141e+001	5.837816e+001	-1.263743e+001	-1.559616e+001
4145927.210	-9.646054e+000	-1.354975e+002	-1.804242e+001	5.364445e+001	-1.815492e+001	5.426731e+001	-1.233107e+001	-1.989024e+001
4170363.951	-9.373231e+000	-1.393759e+002	-1.860744e+001	4.992719e+001	-1.873370e+001	5.060122e+001	-1.205984e+001	-2.421381e+001
4194800.693	-9.136539e+000	-1.434285e+002	-1.920927e+001	4.676025e+001	-1.933548e+001	4.755851e+001	-1.182578e+001	-2.862299e+001
4219237.435	-8.943580e+000	-1.475785e+002	-1.981488e+001	4.433098e+001	-1.993725e+001	4.527954e+001	-1.163188e+001	-3.305764e+001
4243674.177	-8.793615e+000	-1.517723e+002	-2.038503e+001	4.267830e+001	-2.049331e+001	4.381397e+001	-1.147829e+001	-3.745433e+001
4268110.919	-8.681537e+000	-1.559453e+002	-2.088559e+001	4.167188e+001	-2.097437e+001	4.290683e+001	-1.135546e+001	-4.175899e+001
4292547.660	-8.603510e+000	-1.600725e+002	-2.129953e+001	4.115770e+001	-2.137475e+001	4.246059e+001	-1.125191e+001	-4.597227e+001
4316984.402	-8.551984e+000	-1.641809e+002	-2.162182e+001	4.108427e+001	-2.169012e+001	4.242147e+001	-1.116655e+001	-5.012849e+001
4341421.144	-8.533839e+000	-1.682405e+002	-2.181234e+001	4.128873e+001	-2.186721e+001	4.265054e+001	-1.110722e+001	-5.420806e+001
4365857.886	-8.538159e+000	-1.721707e+002	-2.187358e+001	4.122916e+001	-2.191404e+001	4.268927e+001	-1.106328e+001	-5.814343e+001
4390294.627	-8.549676e+000	-1.759926e+002	-2.186909e+001	4.057185e+001	-2.190140e+001	4.201531e+001	-1.101340e+001	-6.190342e+001
4414731.369	-8.553458e+000	-1.798132e+002	-2.191675e+001	3.956306e+001	-2.193361e+001	4.095975e+001	-1.094198e+001	-6.559579e+001
4439168.111	-8.550304e+000	1.762162e+002	-2.204252e+001	3.880184e+001	-2.205543e+001	4.020309e+001	-1.084417e+001	-6.943460e+001
4463604.853	-8.561686e+000	1.719752e+002	-2.218312e+001	3.918080e+001	-2.221181e+001	4.060084e+001	-1.073272e+001	-7.355377e+001
4488041.594	-8.619452e+000	1.674056e+002	-2.217876e+001	4.113060e+001	-2.221871e+001	4.278404e+001	-1.064187e+001	-7.810266e+001
4512478.336	-8.759677e+000	1.625983e+002	-2.181292e+001	4.390352e+001	-2.180545e+001	4.586266e+001	-1.061754e+001	-8.301808e+001
4536915.078	-9.010542e+000	1.578982e+002	-2.100838e+001	4.540820e+001	-2.093836e+001	4.736062e+001	-1.069460e+001	-8.798328e+001
4561351.820	-9.343028e+000	1.537041e+002	-2.005205e+001	4.403468e+001	-1.993824e+001	4.575716e+001	-1.085472e+001	-9.255811e+001
4585788.562	-9.685324e+000	1.500810e+002	-1.924510e+001	4.051342e+001	-1.913105e+001	4.192994e+001	-1.102784e+001	-9.655966e+001
4610225.303	-1.000633e+001	1.466794e+002	-1.863220e+001	3.643617e+001	-1.853251e+001	3.769063e+001	-1.116380e+001	-1.003587e+002
4634662.045	-1.032575e+001	1.432770e+002	-1.812709e+001	3.241411e+001	-1.802065e+001	3.360774e+001	-1.128309e+001	-1.042128e+002
4659098.787	-1.066273e+001	1.398289e+002	-1.766042e+001	2.850296e+001	-1.754785e+001	2.953025e+001	-1.140295e+001	-1.081727e+002
4683535.529	-1.103049e+001	1.363465e+002	-1.721826e+001	2.463231e+001	-1.710589e+001	2.549340e+001	-1.152570e+001	-1.122264e+002
4707972.270	-1.144741e+001	1.327103e+002	-1.677007e+001	2.106655e+001	-1.666807e+001	2.161058e+001	-1.165589e+001	-1.164602e+002
4732409.012	-1.195122e+001	1.290534e+002	-1.626732e+001	1.749132e+001	-1.617122e+001	1.781812e+001	-1.182741e+001	-1.210648e+002
4756845.754	-1.259819e+001	1.257425e+002	-1.565185e+001	1.344683e+001	-1.559026e+001	1.363928e+001	-1.208510e+001	-1.258712e+002
4781282.496	-1.336095e+001	1.234102e+002	-1.500321e+001	8.410509e+000	-1.497774e+001	8.575665e+000	-1.244913e+001	-1.305241e+002
4805719.237	-1.413412e+001	1.223952e+002	-1.442578e+001	2.394345e+000	-1.441803e+001	2.726440e+000	-1.288993e+001	-1.347441e+002
4830155.979	-1.484981e+001	1.223621e+002	-1.394964e+001	-3.994301e+000	-1.394245e+001	-3.571177e+000	-1.336787e+001	-1.384788e+002
4854592.721	-1.547448e+001	1.230427e+002	-1.355799e+001	-1.051991e+001	-1.354039e+001	-1.010596e+001	-1.387492e+001	-1.417541e+002
4879029.463	-1.600958e+001	1.242241e+002	-1.322594e+001	-1.703484e+001	-1.319178e+001	-1.664770e+001	-1.440108e+001	-1.447282e+002
4903466.205	-1.644437e+001	1.258030e+002	-1.293454e+001	-2.357541e+001	-1.289277e+001	-2.322071e+001	-1.494134e+001	-1.473082e+002
4927902.946	-1.676582e+001	1.276242e+002	-1.267790e+001	-3.012454e+001	-1.263702e+001	-2.983546e+001	-1.549262e+001	-1.494477e+002
4952339.688	-1.697344e+001	1.294023e+002	-1.245740e+001	-3.672643e+001	-1.241936e+001	-3.657202e+001	-1.604895e+001	-1.509324e+002
4976776.430	-1.706980e+001	1.309370e+002	-1.227106e+001	-4.332988e+001	-1.223672e+001	-4.320752e+001	-1.658216e+001	-1.520522e+002
5001213.172	-1.708518e+001	1.320126e+002	-1.211774e+001	-4.994116e+001	-1.208792e+001	-4.982931e+001	-1.707994e+001	-1.526509e+002
5025649.913	-1.705678e+001	1.325599e+002	-1.199508e+001	-5.652121e+001	-1.197091e+001	-5.643466e+001	-1.751988e+001	-1.527791e+002
5050086.655	-1.701611e+001	1.325856e+002	-1.189975e+001	-6.305804e+001	-1.187762e+001	-6.296173e+001	-1.789887e+001	-1.525995e+002
5074523.397	-1.698721e+001	1.321618e+002	-1.183080e+001	-6.953654e+001	-1.180998e+001	-6.943029e+001	-1.819181e+001	-1.521949e+002
5098960.139	-1.698681e+001	1.313835e+002	-1.178241e+001	-7.594754e+001	-1.176398e+001	-7.584648e+001	-1.839996e+001	-1.516822e+002
5123396.880	-1.701895e+001	1.303859e+002	-1.175199e+001	-8.230509e+001	-1.173623e+001	-8.220344e+001	-1.852441e+001	-1.512066e+002
5147833.622	-1.709169e+001	1.292243e+002	-1.173584e+001	-8.858971e+001	-1.171948e+001	-8.849451e+001	-1.858294e+001	-1.508936e+002
5172270.364	-1.719960e+001	1.279784e+002	-1.173031e+001	-9.482054e+001	-1.171321e+001	-9.471003e+001	-1.858330e+001	-1.507866e+002
5196707.106	-1.734227e+001	1.267487e+002	-1.173209e+001	-1.009954e+002	-1.171823e+001	-1.008644e+002	-1.853177e+001	-1.509895e+002
5221143.847	-1.751762e+001	1.255051e+002	-1.174638e+001	-1.070964e+002	-1.171080e+001	-1.067382e+002	-1.854177e+001	-1.515272e+002
5245580.589	-1.772788e+001	1.242549e+002	-1.177246e+001	-1.132147e+002	-1.173313e+001	-1.128425e+002	-1.840971e+001	-1.522782e+002
5270017.331	-1.797568e+001	1.230391e+002	-1.180783e+001	-1.193022e+002	-1.176651e+001	-1.189095e+002	-1.824552e+001	-1.534229e+002
5294454.073	-1.825553e+001	1.219078e+002	-1.184984e+001	-1.253546e+002	-1.180947e+001	-1.249508e+002	-1.806730e+001	-1.549594e+002
5318890.815	-1.857661e+001	1.209022e+002	-1.190274e+001	-1.313674e+002	-1.186104e+001	-1.309718e+002	-1.788087e+001	-1.568654e+002
5343327.556	-1.893113e+001	1.200612e+002	-1.196067e+001	-1.373557e+002	-1.191698e+001	-1.369463e+002	-1.770442e+001	-1.591002e+002
5367764.298	-1.931078e+001	1.193571e+002	-1.202070e+001	-1.433434e+002	-1.197758e+001	-1.429324e+002	-1.751937e+001	-1.616052e+002
5392201.040	-1.973082e+001	1.187291e+002	-1.208837e+001	-1.493635e+002	-1.204565e+001	-1.489464e+002	-1.733009e+001	-1.644096e+002
5416637.782	-2.020177e+001	1.182931e+002	-1.216788e+001	-1.553839e+002	-1.212649e+001	-1.549824e+002	-1.714198e+001	-1.675735e+002
5441074.523	-2.073643e+001	1.181015e+002	-1.225604e+001	-1.614045e+002	-1.221260e+001	-1.609971e+002	-1.696833e+001	-1.710032e+002
