!Agilent Technologies,E5061B,MY49101568,A.02.00
!Date: Wed Mar 01 15:04:42 2023
!Data & Calibration Information:
!Freq	S11:SOLT2(OFF)	S21:SOLT2(OFF)	S12:SOLT2(OFF)	S22:SOLT2(OFF)
# Hz S dB R 50
1800000.000	-1.373368e+001	-4.552517e+001	-1.189270e+001	-1.448378e+002	-1.190390e+001	-1.445808e+002	-1.483449e+001	-1.642483e+001
1824436.742	-1.476298e+001	-5.147803e+001	-1.142138e+001	-1.522944e+002	-1.142868e+001	-1.520148e+002	-1.598912e+001	-2.259698e+001
1848873.484	-1.604541e+001	-5.696720e+001	-1.099402e+001	-1.601109e+002	-1.100619e+001	-1.597649e+002	-1.742254e+001	-2.834224e+001
1873310.225	-1.762144e+001	-6.145773e+001	-1.063129e+001	-1.681054e+002	-1.063863e+001	-1.677524e+002	-1.920834e+001	-3.314285e+001
1897746.967	-1.954802e+001	-6.408980e+001	-1.032635e+001	-1.761708e+002	-1.033153e+001	-1.758450e+002	-2.143229e+001	-3.621926e+001
1922183.709	-2.187738e+001	-6.335022e+001	-1.008389e+001	1.756968e+002	-1.008400e+001	1.760089e+002	-2.426065e+001	-3.567005e+001
1946620.451	-2.455891e+001	-5.550364e+001	-9.893708e+000	1.675319e+002	-9.893212e+000	1.678683e+002	-2.772749e+001	-2.624316e+001
1971057.192	-2.654864e+001	-3.639382e+001	-9.774574e+000	1.594362e+002	-9.767018e+000	1.597752e+002	-3.033794e+001	1.572933e+000
1995493.934	-2.623236e+001	-1.307446e+001	-9.705053e+000	1.515182e+002	-9.696679e+000	1.518619e+002	-2.896101e+001	3.256649e+001
2019930.676	-2.425520e+001	9.984943e-001	-9.681443e+000	1.438134e+002	-9.670986e+000	1.441503e+002	-2.605625e+001	4.496374e+001
2044367.418	-2.217718e+001	5.342469e+000	-9.700536e+000	1.363001e+002	-9.688483e+000	1.366137e+002	-2.370300e+001	4.675111e+001
2068804.159	-2.051788e+001	4.490486e+000	-9.757908e+000	1.291288e+002	-9.743759e+000	1.294190e+002	-2.197632e+001	4.402441e+001
2093240.901	-1.926800e+001	1.170688e+000	-9.840148e+000	1.223215e+002	-9.823982e+000	1.225127e+002	-2.072444e+001	3.938147e+001
2117677.643	-1.837695e+001	-3.178984e+000	-9.921651e+000	1.158948e+002	-9.910963e+000	1.160893e+002	-1.987246e+001	3.385029e+001
2142114.385	-1.772391e+001	-7.682867e+000	-9.980239e+000	1.097712e+002	-9.968713e+000	1.099406e+002	-1.928283e+001	2.829467e+001
2166551.127	-1.717255e+001	-1.229350e+001	-1.001755e+001	1.036953e+002	-1.000878e+001	1.038732e+002	-1.881707e+001	2.279489e+001
2190987.868	-1.673332e+001	-1.736965e+001	-1.006009e+001	9.775274e+001	-1.005142e+001	9.789571e+001	-1.845259e+001	1.688916e+001
2215424.610	-1.643377e+001	-2.259370e+001	-1.009087e+001	9.197592e+001	-1.009462e+001	9.212962e+001	-1.820549e+001	1.070412e+001
2239861.352	-1.622742e+001	-2.779762e+001	-1.010438e+001	8.637326e+001	-1.011387e+001	8.653296e+001	-1.808218e+001	4.479206e+000
2264298.094	-1.608320e+001	-3.298899e+001	-1.009736e+001	8.078400e+001	-1.010764e+001	8.099770e+001	-1.802859e+001	-1.728695e+000
2288734.835	-1.600617e+001	-3.824186e+001	-1.008115e+001	7.524693e+001	-1.008719e+001	7.543990e+001	-1.802708e+001	-7.950321e+000
2313171.577	-1.598015e+001	-4.357390e+001	-1.005114e+001	6.970207e+001	-1.005750e+001	6.991843e+001	-1.807688e+001	-1.442527e+001
2337608.319	-1.601498e+001	-4.893605e+001	-1.001034e+001	6.418258e+001	-1.001702e+001	6.438324e+001	-1.817949e+001	-2.104681e+001
2362045.061	-1.611409e+001	-5.434268e+001	-9.959720e+000	5.868494e+001	-9.972056e+000	5.885139e+001	-1.833017e+001	-2.793032e+001
2386481.802	-1.627812e+001	-5.988523e+001	-9.903711e+000	5.315619e+001	-9.916876e+000	5.333054e+001	-1.853889e+001	-3.507031e+001
2410918.544	-1.651805e+001	-6.541811e+001	-9.839691e+000	4.760268e+001	-9.851169e+000	4.776780e+001	-1.880212e+001	-4.247698e+001
2435355.286	-1.682476e+001	-7.090647e+001	-9.765599e+000	4.201254e+001	-9.778394e+000	4.217442e+001	-1.911353e+001	-5.014424e+001
2459792.028	-1.719924e+001	-7.634277e+001	-9.686224e+000	3.634794e+001	-9.699966e+000	3.650555e+001	-1.948285e+001	-5.813128e+001
2484228.769	-1.764165e+001	-8.179395e+001	-9.606806e+000	3.056642e+001	-9.620084e+000	3.078772e+001	-1.990239e+001	-6.648156e+001
2508665.511	-1.818489e+001	-8.724256e+001	-9.531336e+000	2.476288e+001	-9.543484e+000	2.497087e+001	-2.036560e+001	-7.528658e+001
2533102.253	-1.882813e+001	-9.257764e+001	-9.459858e+000	1.892111e+001	-9.472517e+000	1.910640e+001	-2.089842e+001	-8.450437e+001
2557538.995	-1.958564e+001	-9.784643e+001	-9.397735e+000	1.297415e+001	-9.408403e+000	1.317618e+001	-2.146092e+001	-9.429502e+001
2581975.737	-2.048110e+001	-1.028758e+002	-9.344188e+000	6.991084e+000	-9.353578e+000	7.174143e+000	-2.206240e+001	-1.046429e+002
2606412.478	-2.154007e+001	-1.076507e+002	-9.305502e+000	9.488817e-001	-9.310536e+000	1.143330e+000	-2.269271e+001	-1.155523e+002
2630849.220	-2.280259e+001	-1.119881e+002	-9.278867e+000	-5.111288e+000	-9.282158e+000	-4.908897e+000	-2.331320e+001	-1.272668e+002
2655285.962	-2.433291e+001	-1.154046e+002	-9.266762e+000	-1.116114e+001	-9.268560e+000	-1.097469e+001	-2.393496e+001	-1.396875e+002
2679722.704	-2.620760e+001	-1.173270e+002	-9.267029e+000	-1.719363e+001	-9.266917e+000	-1.700780e+001	-2.452507e+001	-1.528643e+002
2704159.445	-2.849575e+001	-1.164540e+002	-9.276061e+000	-2.319876e+001	-9.276069e+000	-2.301937e+001	-2.504921e+001	-1.666151e+002
2728596.187	-3.124200e+001	-1.099800e+002	-9.299051e+000	-2.918231e+001	-9.296172e+000	-2.901356e+001	-2.547161e+001	1.792538e+002
2753032.929	-3.399356e+001	-9.253925e+001	-9.332316e+000	-3.512269e+001	-9.328977e+000	-3.496077e+001	-2.579986e+001	1.649876e+002
2777469.671	-3.472014e+001	-6.323791e+001	-9.374259e+000	-4.102215e+001	-9.371654e+000	-4.086215e+001	-2.602744e+001	1.509181e+002
2801906.412	-3.271517e+001	-4.047079e+001	-9.424374e+000	-4.684749e+001	-9.420771e+000	-4.670702e+001	-2.616805e+001	1.372836e+002
2826343.154	-3.020541e+001	-3.058513e+001	-9.481149e+000	-5.262458e+001	-9.476860e+000	-5.249639e+001	-2.623239e+001	1.242232e+002
2850779.896	-2.810396e+001	-2.767648e+001	-9.540686e+000	-5.834196e+001	-9.537307e+000	-5.820307e+001	-2.628189e+001	1.118189e+002
2875216.638	-2.644956e+001	-2.810754e+001	-9.604563e+000	-6.401969e+001	-9.600125e+000	-6.382805e+001	-2.630220e+001	9.997195e+001
2899653.380	-2.512871e+001	-3.013916e+001	-9.667881e+000	-6.961556e+001	-9.666060e+000	-6.942211e+001	-2.637960e+001	8.892207e+001
2924090.121	-2.407338e+001	-3.304132e+001	-9.730824e+000	-7.515877e+001	-9.729845e+000	-7.495465e+001	-2.650870e+001	7.832123e+001
2948526.863	-2.322209e+001	-3.647513e+001	-9.792375e+000	-8.065031e+001	-9.791612e+000	-8.044233e+001	-2.671480e+001	6.817113e+001
2972963.605	-2.254130e+001	-4.014062e+001	-9.851970e+000	-8.611405e+001	-9.853263e+000	-8.589822e+001	-2.701068e+001	5.837353e+001
2997400.347	-2.198827e+001	-4.397115e+001	-9.908009e+000	-9.152243e+001	-9.910290e+000	-9.129546e+001	-2.738541e+001	4.868579e+001
3021837.088	-2.154808e+001	-4.798776e+001	-9.956252e+000	-9.690147e+001	-9.958463e+000	-9.665568e+001	-2.786566e+001	3.882873e+001
3046273.830	-2.123023e+001	-5.208756e+001	-9.992225e+000	-1.022790e+002	-9.995967e+000	-1.020273e+002	-2.850503e+001	2.816597e+001
3070710.572	-2.102958e+001	-5.619421e+001	-1.002116e+001	-1.077182e+002	-1.002542e+001	-1.074546e+002	-2.940070e+001	1.660981e+001
3095147.314	-2.093942e+001	-6.003469e+001	-1.005066e+001	-1.132163e+002	-1.005478e+001	-1.129451e+002	-3.057965e+001	3.765917e+000
3119584.055	-2.093309e+001	-6.367785e+001	-1.008116e+001	-1.187426e+002	-1.008338e+001	-1.184489e+002	-3.201628e+001	-1.139226e+001
3144020.797	-2.102940e+001	-6.709484e+001	-1.011040e+001	-1.243108e+002	-1.011084e+001	-1.239860e+002	-3.363591e+001	-3.067992e+001
3168457.539	-2.121344e+001	-7.019479e+001	-1.013548e+001	-1.299440e+002	-1.013555e+001	-1.295994e+002	-3.505642e+001	-5.795109e+001
3192894.281	-2.150307e+001	-7.276159e+001	-1.016665e+001	-1.356801e+002	-1.016376e+001	-1.353238e+002	-3.519357e+001	-9.271317e+001
3217331.023	-2.189232e+001	-7.452136e+001	-1.020948e+001	-1.415208e+002	-1.020329e+001	-1.411441e+002	-3.354383e+001	-1.254600e+002
3241767.764	-2.232843e+001	-7.516867e+001	-1.027094e+001	-1.474063e+002	-1.026323e+001	-1.470205e+002	-3.119557e+001	-1.500238e+002
3266204.506	-2.274742e+001	-7.459578e+001	-1.035354e+001	-1.532632e+002	-1.034207e+001	-1.528718e+002	-2.900387e+001	-1.678312e+002
3290641.248	-2.309873e+001	-7.334295e+001	-1.043658e+001	-1.589983e+002	-1.042156e+001	-1.586158e+002	-2.714379e+001	1.793504e+002
3315077.990	-2.349213e+001	-7.126875e+001	-1.049952e+001	-1.648228e+002	-1.048086e+001	-1.644200e+002	-2.538366e+001	1.697048e+002
3339514.731	-2.386191e+001	-6.731329e+001	-1.056632e+001	-1.708758e+002	-1.054519e+001	-1.704828e+002	-2.368702e+001	1.607996e+002
3363951.473	-2.395158e+001	-6.137575e+001	-1.066720e+001	-1.770715e+002	-1.064131e+001	-1.767022e+002	-2.216279e+001	1.519229e+002
3388388.215	-2.363066e+001	-5.470025e+001	-1.079950e+001	1.766619e+002	-1.077308e+001	1.770242e+002	-2.084619e+001	1.432344e+002
3412824.957	-2.288251e+001	-4.889080e+001	-1.096828e+001	1.703907e+002	-1.093808e+001	1.707364e+002	-1.969508e+001	1.348245e+002
3437261.698	-2.187632e+001	-4.486814e+001	-1.116789e+001	1.641734e+002	-1.113715e+001	1.644865e+002	-1.869432e+001	1.266547e+002
3461698.440	-2.074668e+001	-4.287228e+001	-1.140200e+001	1.580240e+002	-1.137055e+001	1.582969e+002	-1.782138e+001	1.187711e+002
3486135.182	-1.962302e+001	-4.266582e+001	-1.166807e+001	1.519960e+002	-1.163929e+001	1.522634e+002	-1.707604e+001	1.110842e+002
3510571.924	-1.857071e+001	-4.385900e+001	-1.196147e+001	1.461639e+002	-1.193532e+001	1.463786e+002	-1.643016e+001	1.036708e+002
3535008.666	-1.761933e+001	-4.605371e+001	-1.227653e+001	1.405488e+002	-1.225256e+001	1.407364e+002	-1.588586e+001	9.659336e+001
3559445.407	-1.678199e+001	-4.881992e+001	-1.259175e+001	1.351733e+002	-1.257425e+001	1.353272e+002	-1.541975e+001	8.992995e+001
3583882.149	-1.604164e+001	-5.186192e+001	-1.290275e+001	1.299739e+002	-1.289407e+001	1.301021e+002	-1.501142e+001	8.366234e+001
3608318.891	-1.537017e+001	-5.507095e+001	-1.321309e+001	1.248784e+002	-1.320805e+001	1.250000e+002	-1.463769e+001	7.775285e+001
3632755.633	-1.475451e+001	-5.846092e+001	-1.352268e+001	1.198355e+002	-1.352750e+001	1.199776e+002	-1.429072e+001	7.202558e+001
3657192.374	-1.418981e+001	-6.189581e+001	-1.382712e+001	1.149170e+002	-1.384300e+001	1.150425e+002	-1.396712e+001	6.655081e+001
3681629.116	-1.366091e+001	-6.540286e+001	-1.413760e+001	1.100200e+002	-1.416140e+001	1.101705e+002	-1.366608e+001	6.124379e+001
3706065.858	-1.316973e+001	-6.904395e+001	-1.445856e+001	1.052323e+002	-1.448699e+001	1.053841e+002	-1.338454e+001	5.601967e+001
3730502.600	-1.271931e+001	-7.274582e+001	-1.478599e+001	1.005715e+002	-1.482414e+001	1.007246e+002	-1.313045e+001	5.088668e+001
3754939.341	-1.230503e+001	-7.650570e+001	-1.511269e+001	9.604680e+001	-1.515871e+001	9.620665e+001	-1.290499e+001	4.588799e+001
3779376.083	-1.192451e+001	-8.026460e+001	-1.544211e+001	9.163676e+001	-1.549318e+001	9.183518e+001	-1.270249e+001	4.102125e+001
3803812.825	-1.157118e+001	-8.399876e+001	-1.576188e+001	8.730297e+001	-1.582409e+001	8.751233e+001	-1.251505e+001	3.628448e+001
3828249.567	-1.123959e+001	-8.774825e+001	-1.609098e+001	8.304480e+001	-1.615731e+001	8.328789e+001	-1.234146e+001	3.165805e+001
3852686.308	-1.093273e+001	-9.149413e+001	-1.641617e+001	7.890822e+001	-1.648859e+001	7.917030e+001	-1.218352e+001	2.715118e+001
3877123.050	-1.064584e+001	-9.522939e+001	-1.674245e+001	7.484715e+001	-1.682157e+001	7.518070e+001	-1.204045e+001	2.272506e+001
3901559.792	-1.038062e+001	-9.894610e+001	-1.706459e+001	7.089246e+001	-1.715312e+001	7.123893e+001	-1.190258e+001	1.842674e+001
3925996.534	-1.012893e+001	-1.026656e+002	-1.739306e+001	6.697388e+001	-1.747608e+001	6.740639e+001	-1.177827e+001	1.422156e+001
3950433.276	-9.894480e+000	-1.063652e+002	-1.771604e+001	6.315943e+001	-1.780638e+001	6.362379e+001	-1.165522e+001	1.009031e+001
3974870.017	-9.672542e+000	-1.100684e+002	-1.804678e+001	5.940637e+001	-1.813992e+001	5.991055e+001	-1.153972e+001	6.013427e+000
3999306.759	-9.467769e+000	-1.137707e+002	-1.838025e+001	5.577174e+001	-1.847706e+001	5.633152e+001	-1.143118e+001	1.981384e+000
4023743.501	-9.271884e+000	-1.174613e+002	-1.871708e+001	5.216666e+001	-1.881152e+001	5.276119e+001	-1.132286e+001	-1.954557e+000
4048180.243	-9.089065e+000	-1.211663e+002	-1.906081e+001	4.866425e+001	-1.915600e+001	4.932378e+001	-1.122103e+001	-5.872982e+000
4072616.984	-8.918374e+000	-1.248830e+002	-1.942286e+001	4.527660e+001	-1.951541e+001	4.599395e+001	-1.112297e+001	-9.772565e+000
4097053.726	-8.758363e+000	-1.286317e+002	-1.979766e+001	4.202492e+001	-1.989205e+001	4.277814e+001	-1.102550e+001	-1.365859e+001
4121490.468	-8.612083e+000	-1.323978e+002	-2.018476e+001	3.898212e+001	-2.028007e+001	3.975557e+001	-1.093553e+001	-1.753349e+001
4145927.210	-8.480065e+000	-1.361995e+002	-2.059497e+001	3.616940e+001	-2.068526e+001	3.697390e+001	-1.085091e+001	-2.140207e+001
4170363.951	-8.362999e+000	-1.400326e+002	-2.102309e+001	3.370825e+001	-2.112613e+001	3.451365e+001	-1.077335e+001	-2.529771e+001
4194800.693	-8.263636e+000	-1.439185e+002	-2.146229e+001	3.168773e+001	-2.156878e+001	3.255527e+001	-1.070934e+001	-2.922090e+001
4219237.435	-8.185642e+000	-1.478289e+002	-2.189373e+001	3.021931e+001	-2.200443e+001	3.116644e+001	-1.065735e+001	-3.315075e+001
4243674.177	-8.130642e+000	-1.517403e+002	-2.228514e+001	2.933207e+001	-2.238426e+001	3.037772e+001	-1.062323e+001	-3.704773e+001
4268110.919	-8.095043e+000	-1.556248e+002	-2.260957e+001	2.887635e+001	-2.270010e+001	3.003384e+001	-1.059906e+001	-4.088517e+001
4292547.660	-8.076722e+000	-1.594942e+002	-2.286401e+001	2.878668e+001	-2.294314e+001	2.996817e+001	-1.058229e+001	-4.468267e+001
4316984.402	-8.078064e+000	-1.633497e+002	-2.303409e+001	2.907158e+001	-2.309504e+001	3.029375e+001	-1.057660e+001	-4.846139e+001
4341421.144	-8.102515e+000	-1.671513e+002	-2.307323e+001	2.951353e+001	-2.312423e+001	3.068171e+001	-1.058201e+001	-5.217627e+001
4365857.886	-8.142557e+000	-1.708547e+002	-2.298535e+001	2.961969e+001	-2.304153e+001	3.069773e+001	-1.059137e+001	-5.578471e+001
4390294.627	-8.177853e+000	-1.744756e+002	-2.286461e+001	2.892955e+001	-2.293862e+001	3.015650e+001	-1.058805e+001	-5.933192e+001
4414731.369	-8.205129e+000	-1.781474e+002	-2.281755e+001	2.790977e+001	-2.286734e+001	2.937009e+001	-1.056942e+001	-6.289953e+001
4439168.111	-8.234455e+000	1.779774e+002	-2.285468e+001	2.734706e+001	-2.286597e+001	2.896473e+001	-1.053643e+001	-6.667888e+001
4463604.853	-8.293320e+000	1.738141e+002	-2.289589e+001	2.828506e+001	-2.286349e+001	2.971404e+001	-1.050604e+001	-7.072035e+001
4488041.594	-8.413373e+000	1.694040e+002	-2.273078e+001	3.076938e+001	-2.267640e+001	3.193138e+001	-1.051301e+001	-7.509966e+001
4512478.336	-8.631109e+000	1.649483e+002	-2.211754e+001	3.366755e+001	-2.209652e+001	3.463279e+001	-1.059205e+001	-7.971872e+001
4536915.078	-8.961659e+000	1.608310e+002	-2.105638e+001	3.467660e+001	-2.107916e+001	3.546057e+001	-1.077565e+001	-8.419556e+001
4561351.820	-9.332448e+000	1.575489e+002	-1.995399e+001	3.203364e+001	-1.998185e+001	3.313144e+001	-1.102486e+001	-8.812460e+001
4585788.562	-9.661707e+000	1.547934e+002	-1.911106e+001	2.754833e+001	-1.911766e+001	2.878182e+001	-1.125651e+001	-9.146903e+001
4610225.303	-9.951065e+000	1.521299e+002	-1.848349e+001	2.285370e+001	-1.846500e+001	2.406399e+001	-1.144237e+001	-9.466165e+001
4634662.045	-1.023804e+001	1.494077e+002	-1.795071e+001	1.842173e+001	-1.791425e+001	1.958458e+001	-1.161310e+001	-9.797140e+001
4659098.787	-1.054729e+001	1.467165e+002	-1.744044e+001	1.408476e+001	-1.739639e+001	1.518092e+001	-1.179274e+001	-1.013605e+002
4683535.529	-1.088876e+001	1.440739e+002	-1.694312e+001	9.869040e+000	-1.689806e+001	1.088993e+001	-1.198537e+001	-1.048627e+002
4707972.270	-1.127874e+001	1.414957e+002	-1.643733e+001	5.857083e+000	-1.637844e+001	6.603606e+000	-1.222289e+001	-1.084632e+002
4732409.012	-1.175855e+001	1.392784e+002	-1.584076e+001	1.772743e+000	-1.578370e+001	2.379895e+000	-1.254432e+001	-1.122568e+002
4756845.754	-1.231113e+001	1.381106e+002	-1.514071e+001	-3.107493e+000	-1.509669e+001	-2.578788e+000	-1.299579e+001	-1.156768e+002
4781282.496	-1.280262e+001	1.383823e+002	-1.444488e+001	-9.257414e+000	-1.442832e+001	-8.786661e+000	-1.352906e+001	-1.180236e+002
4805719.237	-1.309105e+001	1.394489e+002	-1.387459e+001	-1.633505e+001	-1.387973e+001	-1.573604e+001	-1.403172e+001	-1.192682e+002
4830155.979	-1.318056e+001	1.403124e+002	-1.344657e+001	-2.367863e+001	-1.346040e+001	-2.291839e+001	-1.443326e+001	-1.197679e+002
4854592.721	-1.315308e+001	1.405558e+002	-1.312095e+001	-3.096040e+001	-1.311590e+001	-3.006959e+001	-1.474679e+001	-1.198769e+002
4879029.463	-1.307124e+001	1.401715e+002	-1.286088e+001	-3.809344e+001	-1.283106e+001	-3.716959e+001	-1.496945e+001	-1.197231e+002
4903466.205	-1.296162e+001	1.392620e+002	-1.264173e+001	-4.513728e+001	-1.259571e+001	-4.428137e+001	-1.509011e+001	-1.194035e+002
4927902.946	-1.283960e+001	1.378392e+002	-1.246019e+001	-5.216119e+001	-1.240169e+001	-5.133960e+001	-1.511463e+001	-1.191293e+002
4952339.688	-1.272219e+001	1.359020e+002	-1.231907e+001	-5.917754e+001	-1.224285e+001	-5.835498e+001	-1.504598e+001	-1.190435e+002
4976776.430	-1.263132e+001	1.335371e+002	-1.221340e+001	-6.609045e+001	-1.213609e+001	-6.537016e+001	-1.487553e+001	-1.193585e+002
5001213.172	-1.257554e+001	1.307662e+002	-1.214221e+001	-7.293977e+001	-1.206737e+001	-7.228489e+001	-1.465482e+001	-1.201881e+002
5025649.913	-1.256836e+001	1.276966e+002	-1.210135e+001	-7.969043e+001	-1.202711e+001	-7.907624e+001	-1.440790e+001	-1.215414e+002
5050086.655	-1.261220e+001	1.244240e+002	-1.208390e+001	-8.633539e+001	-1.200865e+001	-8.574059e+001	-1.415762e+001	-1.233467e+002
5074523.397	-1.270756e+001	1.209918e+002	-1.208660e+001	-9.289465e+001	-1.201178e+001	-9.231172e+001	-1.391041e+001	-1.255876e+002
5098960.139	-1.285241e+001	1.174564e+002	-1.210558e+001	-9.933884e+001	-1.202850e+001	-9.878899e+001	-1.367707e+001	-1.281440e+002
5123396.880	-1.304886e+001	1.138663e+002	-1.213737e+001	-1.057105e+002	-1.205981e+001	-1.051825e+002	-1.346022e+001	-1.309988e+002
5147833.622	-1.329510e+001	1.102109e+002	-1.218368e+001	-1.120119e+002	-1.209972e+001	-1.115046e+002	-1.326243e+001	-1.340815e+002
5172270.364	-1.358299e+001	1.065485e+002	-1.223484e+001	-1.182473e+002	-1.215193e+001	-1.177743e+002	-1.308094e+001	-1.373899e+002
5196707.106	-1.392098e+001	1.028459e+002	-1.229791e+001	-1.244425e+002	-1.221367e+001	-1.240076e+002	-1.291555e+001	-1.408756e+002
5221143.847	-1.430682e+001	9.904930e+001	-1.237654e+001	-1.306089e+002	-1.228283e+001	-1.301842e+002	-1.277278e+001	-1.445095e+002
5245580.589	-1.474502e+001	9.524825e+001	-1.246136e+001	-1.367309e+002	-1.236791e+001	-1.363462e+002	-1.264137e+001	-1.483666e+002
5270017.331	-1.523924e+001	9.138311e+001	-1.255577e+001	-1.428243e+002	-1.246208e+001	-1.424666e+002	-1.253065e+001	-1.523713e+002
5294454.073	-1.579996e+001	8.744110e+001	-1.266194e+001	-1.488763e+002	-1.256966e+001	-1.485485e+002	-1.244082e+001	-1.565524e+002
5318890.815	-1.643154e+001	8.343685e+001	-1.277769e+001	-1.548854e+002	-1.268502e+001	-1.545857e+002	-1.237251e+001	-1.608319e+002
5343327.556	-1.713662e+001	7.934338e+001	-1.289664e+001	-1.608588e+002	-1.280846e+001	-1.605868e+002	-1.232070e+001	-1.652324e+002
5367764.298	-1.792918e+001	7.503790e+001	-1.302604e+001	-1.668184e+002	-1.293970e+001	-1.665783e+002	-1.228541e+001	-1.697408e+002
5392201.040	-1.882769e+001	7.044786e+001	-1.316489e+001	-1.727895e+002	-1.308282e+001	-1.725648e+002	-1.226455e+001	-1.743613e+002
5416637.782	-1.986431e+001	6.546162e+001	-1.331770e+001	-1.787373e+002	-1.323733e+001	-1.785183e+002	-1.225896e+001	-1.791126e+002
5441074.523	-2.106771e+001	5.989088e+001	-1.347936e+001	1.753455e+002	-1.340569e+001	1.755410e+002	-1.227049e+001	1.760139e+002
