!Agilent Technologies,E5061B,MY49101568,A.02.00
!Date: Wed Mar 01 14:59:58 2023
!Data & Calibration Information:
!Freq	S11:SOLT2(OFF)	S21:SOLT2(OFF)	S12:SOLT2(OFF)	S22:SOLT2(OFF)
# Hz S dB R 50
1800000.000	-1.002889e+001	-1.690915e+001	-2.231973e+001	-1.497419e+002	-2.231992e+001	-1.497462e+002	-1.048971e+001	1.953793e+001
1824436.742	-1.016844e+001	-2.108889e+001	-2.199021e+001	-1.538332e+002	-2.198704e+001	-1.538172e+002	-1.065099e+001	1.588750e+001
1848873.484	-1.031540e+001	-2.534754e+001	-2.164923e+001	-1.579727e+002	-2.165872e+001	-1.579552e+002	-1.081519e+001	1.219448e+001
1873310.225	-1.047105e+001	-2.965266e+001	-2.129568e+001	-1.622049e+002	-2.130846e+001	-1.622191e+002	-1.098196e+001	8.491210e+000
1897746.967	-1.063083e+001	-3.399137e+001	-2.094936e+001	-1.665427e+002	-2.096354e+001	-1.665598e+002	-1.114472e+001	4.729384e+000
1922183.709	-1.079402e+001	-3.844600e+001	-2.059836e+001	-1.709680e+002	-2.061385e+001	-1.709608e+002	-1.130785e+001	8.669248e-001
1946620.451	-1.096915e+001	-4.300222e+001	-2.022814e+001	-1.754542e+002	-2.024514e+001	-1.754928e+002	-1.147352e+001	-3.052058e+000
1971057.192	-1.115535e+001	-4.763606e+001	-1.985924e+001	1.798478e+002	-1.988777e+001	1.798411e+002	-1.164084e+001	-7.027074e+000
1995493.934	-1.134943e+001	-5.235438e+001	-1.949693e+001	1.750895e+002	-1.952964e+001	1.751632e+002	-1.180801e+001	-1.108992e+001
2019930.676	-1.155647e+001	-5.718875e+001	-1.913312e+001	1.702736e+002	-1.917106e+001	1.703341e+002	-1.197133e+001	-1.517373e+001
2044367.418	-1.177106e+001	-6.208872e+001	-1.877446e+001	1.653207e+002	-1.880598e+001	1.654083e+002	-1.212815e+001	-1.941243e+001
2068804.159	-1.200238e+001	-6.711614e+001	-1.840209e+001	1.603146e+002	-1.844514e+001	1.604644e+002	-1.228608e+001	-2.371685e+001
2093240.901	-1.225834e+001	-7.227465e+001	-1.801419e+001	1.552235e+002	-1.805731e+001	1.553939e+002	-1.244905e+001	-2.811708e+001
2117677.643	-1.252392e+001	-7.752637e+001	-1.764823e+001	1.499362e+002	-1.769058e+001	1.501044e+002	-1.260644e+001	-3.252666e+001
2142114.385	-1.281394e+001	-8.293490e+001	-1.727163e+001	1.445331e+002	-1.731891e+001	1.447965e+002	-1.275678e+001	-3.710748e+001
2166551.127	-1.312597e+001	-8.841008e+001	-1.690884e+001	1.389619e+002	-1.694772e+001	1.392502e+002	-1.290683e+001	-4.174021e+001
2190987.868	-1.345399e+001	-9.396928e+001	-1.655658e+001	1.331939e+002	-1.658939e+001	1.335357e+002	-1.305038e+001	-4.646231e+001
2215424.610	-1.379976e+001	-9.967444e+001	-1.622167e+001	1.272915e+002	-1.625145e+001	1.277012e+002	-1.318224e+001	-5.125695e+001
2239861.352	-1.416935e+001	-1.055418e+002	-1.589418e+001	1.212925e+002	-1.593172e+001	1.217295e+002	-1.329949e+001	-5.614664e+001
2264298.094	-1.454703e+001	-1.115866e+002	-1.559156e+001	1.152236e+002	-1.562068e+001	1.156666e+002	-1.339825e+001	-6.118562e+001
2288734.835	-1.493522e+001	-1.178177e+002	-1.530877e+001	1.090997e+002	-1.533431e+001	1.095618e+002	-1.347912e+001	-6.636538e+001
2313171.577	-1.534755e+001	-1.242913e+002	-1.503608e+001	1.028610e+002	-1.505787e+001	1.033437e+002	-1.354782e+001	-7.169356e+001
2337608.319	-1.577484e+001	-1.310409e+002	-1.477127e+001	9.657742e+001	-1.479271e+001	9.705606e+001	-1.360058e+001	-7.720741e+001
2362045.061	-1.621786e+001	-1.379283e+002	-1.453276e+001	9.011085e+001	-1.455218e+001	9.064886e+001	-1.363850e+001	-8.280895e+001
2386481.802	-1.663141e+001	-1.451055e+002	-1.433108e+001	8.354285e+001	-1.434468e+001	8.403678e+001	-1.365165e+001	-8.849087e+001
2410918.544	-1.702846e+001	-1.526905e+002	-1.415962e+001	7.697846e+001	-1.416741e+001	7.756539e+001	-1.362304e+001	-9.444789e+001
2435355.286	-1.735951e+001	-1.610536e+002	-1.402739e+001	7.059717e+001	-1.402710e+001	7.115080e+001	-1.355827e+001	-1.006388e+002
2459792.028	-1.767140e+001	-1.702411e+002	-1.390658e+001	6.436538e+001	-1.388117e+001	6.491429e+001	-1.348009e+001	-1.072652e+002
2484228.769	-1.804384e+001	1.795530e+002	-1.373662e+001	5.821837e+001	-1.371512e+001	5.865222e+001	-1.341839e+001	-1.142223e+002
2508665.511	-1.842933e+001	1.690972e+002	-1.356873e+001	5.182421e+001	-1.354039e+001	5.233293e+001	-1.336302e+001	-1.214493e+002
2533102.253	-1.879604e+001	1.586133e+002	-1.341401e+001	4.511191e+001	-1.338523e+001	4.560467e+001	-1.333372e+001	-1.285764e+002
2557538.995	-1.906261e+001	1.480749e+002	-1.330964e+001	3.824818e+001	-1.327499e+001	3.869663e+001	-1.329777e+001	-1.356646e+002
2581975.737	-1.920101e+001	1.374075e+002	-1.325159e+001	3.134956e+001	-1.321813e+001	3.181461e+001	-1.323553e+001	-1.427866e+002
2606412.478	-1.918768e+001	1.266622e+002	-1.324394e+001	2.455340e+001	-1.320676e+001	2.497220e+001	-1.316028e+001	-1.499199e+002
2630849.220	-1.903165e+001	1.158705e+002	-1.327964e+001	1.790122e+001	-1.323101e+001	1.831824e+001	-1.306061e+001	-1.571745e+002
2655285.962	-1.879088e+001	1.048739e+002	-1.331982e+001	1.152040e+001	-1.326720e+001	1.185252e+001	-1.296003e+001	-1.646097e+002
2679722.704	-1.852027e+001	9.403137e+001	-1.335302e+001	5.197838e+000	-1.329863e+001	5.512182e+000	-1.288027e+001	-1.722087e+002
2704159.445	-1.823724e+001	8.389885e+001	-1.340048e+001	-1.235779e+000	-1.334494e+001	-9.041844e-001	-1.282697e+001	-1.796882e+002
2728596.187	-1.790581e+001	7.428805e+001	-1.347685e+001	-7.593350e+000	-1.341218e+001	-7.312528e+000	-1.279335e+001	1.729422e+002
2753032.929	-1.755577e+001	6.529663e+001	-1.357815e+001	-1.389574e+001	-1.351063e+001	-1.368944e+001	-1.276884e+001	1.657688e+002
2777469.671	-1.717802e+001	5.682370e+001	-1.370858e+001	-2.004931e+001	-1.364789e+001	-1.991775e+001	-1.273693e+001	1.588021e+002
2801906.412	-1.680690e+001	4.892717e+001	-1.386693e+001	-2.610856e+001	-1.379934e+001	-2.605574e+001	-1.271964e+001	1.520085e+002
2826343.154	-1.644324e+001	4.144897e+001	-1.403491e+001	-3.203763e+001	-1.397210e+001	-3.197459e+001	-1.269803e+001	1.453456e+002
2850779.896	-1.607727e+001	3.432230e+001	-1.422011e+001	-3.771398e+001	-1.416342e+001	-3.772177e+001	-1.267939e+001	1.388950e+002
2875216.638	-1.572920e+001	2.762259e+001	-1.441987e+001	-4.328986e+001	-1.436535e+001	-4.327352e+001	-1.266384e+001	1.325801e+002
2899653.380	-1.539148e+001	2.112321e+001	-1.461720e+001	-4.855492e+001	-1.456918e+001	-4.863294e+001	-1.265168e+001	1.264135e+002
2924090.121	-1.507856e+001	1.496270e+001	-1.481704e+001	-5.372600e+001	-1.477319e+001	-5.381891e+001	-1.264447e+001	1.204004e+002
2948526.863	-1.478737e+001	9.039690e+000	-1.501162e+001	-5.874736e+001	-1.497490e+001	-5.886467e+001	-1.264926e+001	1.145704e+002
2972963.605	-1.451327e+001	3.367971e+000	-1.520333e+001	-6.361137e+001	-1.517552e+001	-6.376872e+001	-1.265798e+001	1.088921e+002
2997400.347	-1.425325e+001	-2.069166e+000	-1.539544e+001	-6.833983e+001	-1.537421e+001	-6.853123e+001	-1.267258e+001	1.033833e+002
3021837.088	-1.401385e+001	-7.295066e+000	-1.558019e+001	-7.296383e+001	-1.556635e+001	-7.315550e+001	-1.268921e+001	9.803304e+001
3046273.830	-1.378627e+001	-1.234573e+001	-1.576047e+001	-7.745050e+001	-1.575424e+001	-7.765065e+001	-1.271065e+001	9.284945e+001
3070710.572	-1.357543e+001	-1.722948e+001	-1.592968e+001	-8.182951e+001	-1.592982e+001	-8.201744e+001	-1.273382e+001	8.778230e+001
3095147.314	-1.337591e+001	-2.195841e+001	-1.608664e+001	-8.608367e+001	-1.609506e+001	-8.628550e+001	-1.276367e+001	8.284408e+001
3119584.055	-1.319179e+001	-2.658402e+001	-1.622723e+001	-9.028093e+001	-1.624512e+001	-9.048696e+001	-1.279975e+001	7.803711e+001
3144020.797	-1.302243e+001	-3.104896e+001	-1.636330e+001	-9.442726e+001	-1.638595e+001	-9.462792e+001	-1.284327e+001	7.340113e+001
3168457.539	-1.286467e+001	-3.537413e+001	-1.648792e+001	-9.851095e+001	-1.651770e+001	-9.871555e+001	-1.288669e+001	6.888000e+001
3192894.281	-1.271590e+001	-3.959367e+001	-1.660762e+001	-1.025906e+002	-1.664160e+001	-1.027612e+002	-1.293685e+001	6.448203e+001
3217331.023	-1.257690e+001	-4.369203e+001	-1.671933e+001	-1.065993e+002	-1.675945e+001	-1.067638e+002	-1.298878e+001	6.022110e+001
3241767.764	-1.244693e+001	-4.766999e+001	-1.682759e+001	-1.105740e+002	-1.687354e+001	-1.107079e+002	-1.304021e+001	5.609765e+001
3266204.506	-1.232129e+001	-5.154798e+001	-1.693571e+001	-1.144872e+002	-1.698131e+001	-1.145953e+002	-1.309045e+001	5.209472e+001
3290641.248	-1.219755e+001	-5.536105e+001	-1.702875e+001	-1.182578e+002	-1.708280e+001	-1.183550e+002	-1.312942e+001	4.816846e+001
3315077.990	-1.207868e+001	-5.914569e+001	-1.710265e+001	-1.219788e+002	-1.715982e+001	-1.220573e+002	-1.317458e+001	4.424753e+001
3339514.731	-1.197483e+001	-6.288652e+001	-1.715657e+001	-1.257051e+002	-1.721599e+001	-1.257592e+002	-1.322940e+001	4.040575e+001
3363951.473	-1.188057e+001	-6.655834e+001	-1.719829e+001	-1.295003e+002	-1.726173e+001	-1.295041e+002	-1.329255e+001	3.666204e+001
3388388.215	-1.179612e+001	-7.014508e+001	-1.723348e+001	-1.332940e+002	-1.730349e+001	-1.332739e+002	-1.335798e+001	3.302417e+001
3412824.957	-1.171893e+001	-7.366010e+001	-1.726720e+001	-1.371047e+002	-1.733617e+001	-1.370686e+002	-1.342878e+001	2.949894e+001
3437261.698	-1.165105e+001	-7.711137e+001	-1.728962e+001	-1.409272e+002	-1.736668e+001	-1.408328e+002	-1.350209e+001	2.607294e+001
3461698.440	-1.158954e+001	-8.048513e+001	-1.731424e+001	-1.447616e+002	-1.738566e+001	-1.446466e+002	-1.357680e+001	2.274482e+001
3486135.182	-1.153604e+001	-8.378072e+001	-1.733219e+001	-1.485806e+002	-1.740766e+001	-1.484411e+002	-1.365172e+001	1.954614e+001
3510571.924	-1.148808e+001	-8.701124e+001	-1.734617e+001	-1.524234e+002	-1.742621e+001	-1.522751e+002	-1.372734e+001	1.647306e+001
3535008.666	-1.144396e+001	-9.016627e+001	-1.735983e+001	-1.562498e+002	-1.744020e+001	-1.560598e+002	-1.379687e+001	1.348956e+001
3559445.407	-1.140170e+001	-9.323990e+001	-1.736895e+001	-1.600347e+002	-1.745386e+001	-1.598084e+002	-1.385623e+001	1.060469e+001
3583882.149	-1.136221e+001	-9.625569e+001	-1.737035e+001	-1.638074e+002	-1.745588e+001	-1.635619e+002	-1.391285e+001	7.800462e+000
3608318.891	-1.132561e+001	-9.921415e+001	-1.736057e+001	-1.675936e+002	-1.744498e+001	-1.673215e+002	-1.396431e+001	5.030792e+000
3632755.633	-1.128903e+001	-1.021407e+002	-1.734169e+001	-1.714343e+002	-1.742590e+001	-1.711145e+002	-1.401368e+001	2.315135e+000
3657192.374	-1.125817e+001	-1.049844e+002	-1.731797e+001	-1.753343e+002	-1.740458e+001	-1.749610e+002	-1.405814e+001	-3.116868e-001
3681629.116	-1.122874e+001	-1.077779e+002	-1.729032e+001	-1.792875e+002	-1.737240e+001	-1.788804e+002	-1.410475e+001	-2.884906e+000
3706065.858	-1.120339e+001	-1.104834e+002	-1.727368e+001	1.766472e+002	-1.735318e+001	1.770594e+002	-1.414442e+001	-5.310766e+000
3730502.600	-1.117602e+001	-1.130858e+002	-1.726894e+001	1.724809e+002	-1.735462e+001	1.729521e+002	-1.416879e+001	-7.618272e+000
3754939.341	-1.113778e+001	-1.155784e+002	-1.730016e+001	1.683492e+002	-1.738193e+001	1.688399e+002	-1.417254e+001	-9.792516e+000
3779376.083	-1.108097e+001	-1.179962e+002	-1.736624e+001	1.643356e+002	-1.744598e+001	1.648682e+002	-1.413687e+001	-1.192909e+001
3803812.825	-1.099451e+001	-1.204457e+002	-1.745143e+001	1.607055e+002	-1.754400e+001	1.612749e+002	-1.405069e+001	-1.414701e+001
3828249.567	-1.087883e+001	-1.230468e+002	-1.753886e+001	1.575957e+002	-1.762324e+001	1.582145e+002	-1.393500e+001	-1.672119e+001
3852686.308	-1.075932e+001	-1.259842e+002	-1.753947e+001	1.549764e+002	-1.762432e+001	1.556349e+002	-1.382521e+001	-1.975141e+001
3877123.050	-1.067190e+001	-1.292067e+002	-1.742598e+001	1.523915e+002	-1.749576e+001	1.531054e+002	-1.377351e+001	-2.315061e+001
3901559.792	-1.064138e+001	-1.325319e+002	-1.721548e+001	1.492659e+002	-1.728020e+001	1.499748e+002	-1.380024e+001	-2.653039e+001
3925996.534	-1.066172e+001	-1.357395e+002	-1.698262e+001	1.455040e+002	-1.704487e+001	1.462380e+002	-1.387995e+001	-2.966562e+001
3950433.276	-1.071383e+001	-1.386659e+002	-1.678523e+001	1.411623e+002	-1.683874e+001	1.418553e+002	-1.399475e+001	-3.237584e+001
3974870.017	-1.077371e+001	-1.413217e+002	-1.664096e+001	1.365171e+002	-1.669925e+001	1.371764e+002	-1.409544e+001	-3.466397e+001
3999306.759	-1.081789e+001	-1.437215e+002	-1.656747e+001	1.317675e+002	-1.662838e+001	1.324070e+002	-1.415929e+001	-3.660848e+001
4023743.501	-1.083209e+001	-1.459859e+002	-1.654881e+001	1.271453e+002	-1.662237e+001	1.278472e+002	-1.416567e+001	-3.844412e+001
4048180.243	-1.081506e+001	-1.482389e+002	-1.657666e+001	1.227903e+002	-1.664792e+001	1.235814e+002	-1.412271e+001	-4.035108e+001
4072616.984	-1.077595e+001	-1.506309e+002	-1.660624e+001	1.188097e+002	-1.668103e+001	1.196393e+002	-1.404410e+001	-4.244285e+001
4097053.726	-1.072926e+001	-1.531705e+002	-1.662870e+001	1.151284e+002	-1.668971e+001	1.160619e+002	-1.395380e+001	-4.484517e+001
4121490.468	-1.068943e+001	-1.558688e+002	-1.661732e+001	1.116038e+002	-1.666712e+001	1.125946e+002	-1.387073e+001	-4.739646e+001
4145927.210	-1.065899e+001	-1.587004e+002	-1.657591e+001	1.082717e+002	-1.661734e+001	1.092113e+002	-1.379613e+001	-5.009154e+001
4170363.951	-1.065218e+001	-1.616017e+002	-1.649512e+001	1.049424e+002	-1.652779e+001	1.058466e+002	-1.373829e+001	-5.291132e+001
4194800.693	-1.066973e+001	-1.645425e+002	-1.637699e+001	1.014944e+002	-1.641149e+001	1.024022e+002	-1.369882e+001	-5.578381e+001
4219237.435	-1.070815e+001	-1.675174e+002	-1.623501e+001	9.796417e+001	-1.626443e+001	9.887539e+001	-1.367904e+001	-5.873602e+001
4243674.177	-1.076891e+001	-1.704169e+002	-1.608005e+001	9.425947e+001	-1.610484e+001	9.516853e+001	-1.367655e+001	-6.163131e+001
4268110.919	-1.084461e+001	-1.732727e+002	-1.591911e+001	9.041823e+001	-1.593361e+001	9.133171e+001	-1.368782e+001	-6.450796e+001
4292547.660	-1.093316e+001	-1.760938e+002	-1.575350e+001	8.651034e+001	-1.576560e+001	8.738616e+001	-1.370236e+001	-6.733088e+001
4316984.402	-1.104144e+001	-1.788383e+002	-1.558004e+001	8.245042e+001	-1.558756e+001	8.335200e+001	-1.372797e+001	-7.017260e+001
4341421.144	-1.116570e+001	1.784853e+002	-1.540265e+001	7.829127e+001	-1.540919e+001	7.918341e+001	-1.376281e+001	-7.295327e+001
4365857.886	-1.130385e+001	1.759174e+002	-1.522609e+001	7.399517e+001	-1.523289e+001	7.487662e+001	-1.380476e+001	-7.567726e+001
4390294.627	-1.144489e+001	1.734780e+002	-1.506153e+001	6.958276e+001	-1.506131e+001	7.045481e+001	-1.385281e+001	-7.834305e+001
4414731.369	-1.159114e+001	1.711481e+002	-1.490388e+001	6.506134e+001	-1.489904e+001	6.596976e+001	-1.389656e+001	-8.096537e+001
4439168.111	-1.173824e+001	1.688737e+002	-1.475817e+001	6.047098e+001	-1.474449e+001	6.138714e+001	-1.394362e+001	-8.355863e+001
4463604.853	-1.188322e+001	1.666917e+002	-1.462375e+001	5.586541e+001	-1.460260e+001	5.677790e+001	-1.398208e+001	-8.611907e+001
4488041.594	-1.203252e+001	1.645655e+002	-1.449016e+001	5.123608e+001	-1.446882e+001	5.211281e+001	-1.401776e+001	-8.866775e+001
4512478.336	-1.218279e+001	1.625282e+002	-1.436518e+001	4.652111e+001	-1.434077e+001	4.739716e+001	-1.405360e+001	-9.121069e+001
4536915.078	-1.232848e+001	1.605459e+002	-1.424776e+001	4.176347e+001	-1.422045e+001	4.261744e+001	-1.409020e+001	-9.373320e+001
4561351.820	-1.246026e+001	1.586223e+002	-1.414954e+001	3.695034e+001	-1.412100e+001	3.776602e+001	-1.411198e+001	-9.619599e+001
4585788.562	-1.257882e+001	1.566822e+002	-1.407234e+001	3.213485e+001	-1.404021e+001	3.297128e+001	-1.411899e+001	-9.873291e+001
4610225.303	-1.269586e+001	1.546193e+002	-1.400697e+001	2.741968e+001	-1.397021e+001	2.821114e+001	-1.411495e+001	-1.013762e+002
4634662.045	-1.282041e+001	1.524833e+002	-1.394115e+001	2.274783e+001	-1.390538e+001	2.352747e+001	-1.410833e+001	-1.041450e+002
4659098.787	-1.295454e+001	1.502480e+002	-1.388233e+001	1.813119e+001	-1.384318e+001	1.888998e+001	-1.410437e+001	-1.070323e+002
4683535.529	-1.310507e+001	1.479815e+002	-1.382168e+001	1.355128e+001	-1.378382e+001	1.430173e+001	-1.410193e+001	-1.100632e+002
4707972.270	-1.327058e+001	1.456301e+002	-1.376816e+001	9.051003e+000	-1.372291e+001	9.734329e+000	-1.410797e+001	-1.131994e+002
4732409.012	-1.346275e+001	1.431917e+002	-1.371016e+001	4.582452e+000	-1.366303e+001	5.269414e+000	-1.412180e+001	-1.165460e+002
4756845.754	-1.369340e+001	1.407228e+002	-1.364150e+001	1.948533e-001	-1.358904e+001	8.500651e-001	-1.415883e+001	-1.200549e+002
4781282.496	-1.396702e+001	1.383156e+002	-1.355667e+001	-4.189293e+000	-1.350387e+001	-3.569400e+000	-1.422170e+001	-1.236989e+002
4805719.237	-1.427890e+001	1.360186e+002	-1.345916e+001	-8.600853e+000	-1.340202e+001	-8.021055e+000	-1.431751e+001	-1.274420e+002
4830155.979	-1.462818e+001	1.339482e+002	-1.334521e+001	-1.311574e+001	-1.329148e+001	-1.256633e+001	-1.444676e+001	-1.311947e+002
4854592.721	-1.499959e+001	1.320976e+002	-1.322960e+001	-1.773026e+001	-1.317446e+001	-1.720823e+001	-1.461041e+001	-1.349745e+002
4879029.463	-1.538907e+001	1.304791e+002	-1.311237e+001	-2.246796e+001	-1.305917e+001	-2.198864e+001	-1.480087e+001	-1.386823e+002
4903466.205	-1.578786e+001	1.290820e+002	-1.300376e+001	-2.730666e+001	-1.295099e+001	-2.685463e+001	-1.501178e+001	-1.423592e+002
4927902.946	-1.620008e+001	1.278665e+002	-1.290305e+001	-3.223104e+001	-1.285121e+001	-3.179490e+001	-1.524388e+001	-1.460041e+002
4952339.688	-1.662715e+001	1.268438e+002	-1.281088e+001	-3.723394e+001	-1.276287e+001	-3.678284e+001	-1.549482e+001	-1.496517e+002
4976776.430	-1.706514e+001	1.260364e+002	-1.272934e+001	-4.226339e+001	-1.268571e+001	-4.183587e+001	-1.576330e+001	-1.532264e+002
5001213.172	-1.752099e+001	1.254358e+002	-1.265981e+001	-4.731960e+001	-1.261938e+001	-4.690380e+001	-1.605014e+001	-1.567805e+002
5025649.913	-1.799280e+001	1.250737e+002	-1.260300e+001	-5.241048e+001	-1.256272e+001	-5.201289e+001	-1.635667e+001	-1.602969e+002
5050086.655	-1.847736e+001	1.249640e+002	-1.255629e+001	-5.752299e+001	-1.251866e+001	-5.712903e+001	-1.668055e+001	-1.637964e+002
5074523.397	-1.898324e+001	1.252113e+002	-1.252137e+001	-6.264446e+001	-1.248512e+001	-6.225464e+001	-1.701907e+001	-1.672714e+002
5098960.139	-1.950887e+001	1.258025e+002	-1.249926e+001	-6.776398e+001	-1.246754e+001	-6.738237e+001	-1.736607e+001	-1.707188e+002
5123396.880	-2.005213e+001	1.268148e+002	-1.249119e+001	-7.285813e+001	-1.246174e+001	-7.249265e+001	-1.772689e+001	-1.741557e+002
5147833.622	-2.061476e+001	1.284035e+002	-1.249403e+001	-7.789810e+001	-1.246647e+001	-7.754514e+001	-1.810113e+001	-1.776982e+002
5172270.364	-2.117453e+001	1.307642e+002	-1.250271e+001	-8.289156e+001	-1.247810e+001	-8.252741e+001	-1.849360e+001	1.786545e+002
5196707.106	-2.170878e+001	1.339923e+002	-1.251657e+001	-8.781838e+001	-1.249271e+001	-8.748560e+001	-1.892118e+001	1.749445e+002
5221143.847	-2.215166e+001	1.381884e+002	-1.253056e+001	-9.269382e+001	-1.251146e+001	-9.239364e+001	-1.937398e+001	1.711580e+002
5245580.589	-2.245815e+001	1.431912e+002	-1.254667e+001	-9.758211e+001	-1.253157e+001	-9.728077e+001	-1.986607e+001	1.673612e+002
5270017.331	-2.258559e+001	1.486056e+002	-1.256828e+001	-1.024665e+002	-1.255567e+001	-1.021501e+002	-2.039217e+001	1.635248e+002
5294454.073	-2.251822e+001	1.541997e+002	-1.259279e+001	-1.073059e+002	-1.258195e+001	-1.069858e+002	-2.095422e+001	1.596139e+002
5318890.815	-2.225567e+001	1.594429e+002	-1.261879e+001	-1.121411e+002	-1.261424e+001	-1.118040e+002	-2.154487e+001	1.556426e+002
5343327.556	-2.183322e+001	1.641088e+002	-1.264791e+001	-1.169433e+002	-1.264577e+001	-1.165914e+002	-2.218652e+001	1.516402e+002
5367764.298	-2.130488e+001	1.678806e+002	-1.268103e+001	-1.217315e+002	-1.268160e+001	-1.213490e+002	-2.285322e+001	1.475367e+002
5392201.040	-2.070500e+001	1.707951e+002	-1.271534e+001	-1.264728e+002	-1.271569e+001	-1.260881e+002	-2.358475e+001	1.433347e+002
5416637.782	-2.007385e+001	1.728610e+002	-1.275057e+001	-1.312106e+002	-1.275443e+001	-1.308160e+002	-2.435864e+001	1.390372e+002
5441074.523	-1.944604e+001	1.741406e+002	-1.278863e+001	-1.359316e+002	-1.279391e+001	-1.355142e+002	-2.517980e+001	1.345494e+002
