!Agilent Technologies,E5061B,MY49101568,A.02.00
!Date: Wed Mar 01 15:06:03 2023
!Data & Calibration Information:
!Freq	S11:SOLT2(OFF)	S21:SOLT2(OFF)	S12:SOLT2(OFF)	S22:SOLT2(OFF)
# Hz S dB R 50
1800000.000	-9.424382e+000	-1.848942e+001	-2.459311e+001	-1.338428e+002	-2.460218e+001	-1.338842e+002	-9.800919e+000	1.774231e+001
1824436.742	-9.523545e+000	-2.277694e+001	-2.421436e+001	-1.377476e+002	-2.423216e+001	-1.377327e+002	-9.923680e+000	1.397813e+001
1848873.484	-9.624490e+000	-2.713854e+001	-2.382914e+001	-1.417182e+002	-2.384632e+001	-1.417413e+002	-1.004546e+001	1.018116e+001
1873310.225	-9.732008e+000	-3.157887e+001	-2.342337e+001	-1.458930e+002	-2.345537e+001	-1.458264e+002	-1.016923e+001	6.330708e+000
1897746.967	-9.841546e+000	-3.609274e+001	-2.302067e+001	-1.500257e+002	-2.305071e+001	-1.500043e+002	-1.028626e+001	2.435175e+000
1922183.709	-9.956214e+000	-4.072272e+001	-2.260277e+001	-1.543000e+002	-2.264110e+001	-1.542931e+002	-1.040439e+001	-1.581018e+000
1946620.451	-1.007350e+001	-4.547478e+001	-2.217475e+001	-1.586475e+002	-2.221608e+001	-1.586549e+002	-1.052235e+001	-5.680622e+000
1971057.192	-1.019963e+001	-5.036662e+001	-2.173694e+001	-1.631465e+002	-2.178466e+001	-1.631472e+002	-1.064093e+001	-9.868867e+000
1995493.934	-1.033654e+001	-5.538382e+001	-2.128972e+001	-1.678442e+002	-2.134625e+001	-1.677031e+002	-1.075983e+001	-1.415198e+001
2019930.676	-1.048452e+001	-6.053263e+001	-2.084133e+001	-1.726116e+002	-2.089868e+001	-1.724283e+002	-1.088082e+001	-1.849556e+001
2044367.418	-1.064380e+001	-6.580904e+001	-2.037605e+001	-1.775524e+002	-2.043643e+001	-1.773551e+002	-1.099632e+001	-2.299237e+001
2068804.159	-1.081537e+001	-7.121814e+001	-1.991903e+001	1.773466e+002	-1.998040e+001	1.775783e+002	-1.111550e+001	-2.753146e+001
2093240.901	-1.100253e+001	-7.674622e+001	-1.946205e+001	1.721116e+002	-1.952293e+001	1.723259e+002	-1.123516e+001	-3.213046e+001
2117677.643	-1.120621e+001	-8.247296e+001	-1.900811e+001	1.666488e+002	-1.907645e+001	1.669336e+002	-1.135344e+001	-3.683445e+001
2142114.385	-1.142558e+001	-8.836247e+001	-1.856023e+001	1.610986e+002	-1.863016e+001	1.613783e+002	-1.146618e+001	-4.163694e+001
2166551.127	-1.166610e+001	-9.443832e+001	-1.811257e+001	1.553470e+002	-1.818335e+001	1.556721e+002	-1.157697e+001	-4.655451e+001
2190987.868	-1.192968e+001	-1.006808e+002	-1.767810e+001	1.494072e+002	-1.774891e+001	1.497966e+002	-1.169002e+001	-5.155265e+001
2215424.610	-1.221469e+001	-1.070999e+002	-1.726220e+001	1.432540e+002	-1.733129e+001	1.437383e+002	-1.179702e+001	-5.664099e+001
2239861.352	-1.251818e+001	-1.137251e+002	-1.686010e+001	1.370279e+002	-1.692998e+001	1.375444e+002	-1.189203e+001	-6.182210e+001
2264298.094	-1.284533e+001	-1.205895e+002	-1.647097e+001	1.306764e+002	-1.653665e+001	1.312450e+002	-1.198470e+001	-6.712861e+001
2288734.835	-1.319733e+001	-1.276447e+002	-1.610295e+001	1.241506e+002	-1.616204e+001	1.247720e+002	-1.207045e+001	-7.252114e+001
2313171.577	-1.357244e+001	-1.349161e+002	-1.575483e+001	1.175098e+002	-1.580541e+001	1.181655e+002	-1.214608e+001	-7.800089e+001
2337608.319	-1.396505e+001	-1.424225e+002	-1.542877e+001	1.107474e+002	-1.547668e+001	1.114267e+002	-1.220994e+001	-8.360708e+001
2362045.061	-1.437267e+001	-1.501488e+002	-1.512931e+001	1.039249e+002	-1.516602e+001	1.045732e+002	-1.226191e+001	-8.926445e+001
2386481.802	-1.478191e+001	-1.581338e+002	-1.485591e+001	9.696653e+001	-1.488561e+001	9.764573e+001	-1.229747e+001	-9.507964e+001
2410918.544	-1.519260e+001	-1.664144e+002	-1.460612e+001	8.996131e+001	-1.463098e+001	9.063642e+001	-1.231641e+001	-1.010167e+002
2435355.286	-1.559414e+001	-1.749721e+002	-1.438521e+001	8.290141e+001	-1.440148e+001	8.360434e+001	-1.231961e+001	-1.070881e+002
2459792.028	-1.597613e+001	1.761446e+002	-1.419099e+001	7.579104e+001	-1.419703e+001	7.649437e+001	-1.230935e+001	-1.133226e+002
2484228.769	-1.632536e+001	1.669938e+002	-1.402451e+001	6.862613e+001	-1.401892e+001	6.935716e+001	-1.228722e+001	-1.197119e+002
2508665.511	-1.663397e+001	1.575545e+002	-1.388604e+001	6.148024e+001	-1.386921e+001	6.218493e+001	-1.225415e+001	-1.262222e+002
2533102.253	-1.688499e+001	1.479173e+002	-1.377543e+001	5.434848e+001	-1.374888e+001	5.499437e+001	-1.221345e+001	-1.328379e+002
2557538.995	-1.707597e+001	1.380965e+002	-1.369340e+001	4.719415e+001	-1.365845e+001	4.782116e+001	-1.216593e+001	-1.396082e+002
2581975.737	-1.719692e+001	1.282192e+002	-1.363929e+001	4.007599e+001	-1.359547e+001	4.066530e+001	-1.211339e+001	-1.464784e+002
2606412.478	-1.724180e+001	1.183089e+002	-1.361276e+001	3.298683e+001	-1.356210e+001	3.353519e+001	-1.206064e+001	-1.534339e+002
2630849.220	-1.721384e+001	1.085059e+002	-1.361495e+001	2.597425e+001	-1.355592e+001	2.646878e+001	-1.201111e+001	-1.604549e+002
2655285.962	-1.712466e+001	9.890645e+001	-1.364231e+001	1.905767e+001	-1.357922e+001	1.947147e+001	-1.196382e+001	-1.675111e+002
2679722.704	-1.696972e+001	8.953425e+001	-1.369511e+001	1.219518e+001	-1.362788e+001	1.257367e+001	-1.192485e+001	-1.745853e+002
2704159.445	-1.677451e+001	8.045203e+001	-1.376909e+001	5.462248e+000	-1.370143e+001	5.788915e+000	-1.188942e+001	1.783652e+002
2728596.187	-1.654716e+001	7.172206e+001	-1.386595e+001	-1.146752e+000	-1.379773e+001	-8.875808e-001	-1.186428e+001	1.713545e+002
2753032.929	-1.629331e+001	6.334999e+001	-1.397992e+001	-7.647946e+000	-1.391066e+001	-7.442442e+000	-1.184882e+001	1.644057e+002
2777469.671	-1.602998e+001	5.536444e+001	-1.411280e+001	-1.401470e+001	-1.404404e+001	-1.385929e+001	-1.184255e+001	1.575701e+002
2801906.412	-1.576017e+001	4.771977e+001	-1.425616e+001	-2.022803e+001	-1.419375e+001	-2.012723e+001	-1.184759e+001	1.508417e+002
2826343.154	-1.549014e+001	4.045012e+001	-1.441551e+001	-2.629642e+001	-1.435651e+001	-2.624488e+001	-1.186293e+001	1.442583e+002
2850779.896	-1.522563e+001	3.349952e+001	-1.458503e+001	-3.221198e+001	-1.452896e+001	-3.220037e+001	-1.188517e+001	1.378292e+002
2875216.638	-1.496546e+001	2.686392e+001	-1.476127e+001	-3.801050e+001	-1.471001e+001	-3.799926e+001	-1.191707e+001	1.315448e+002
2899653.380	-1.471890e+001	2.052224e+001	-1.494280e+001	-4.362344e+001	-1.489630e+001	-4.364902e+001	-1.195635e+001	1.254396e+002
2924090.121	-1.448136e+001	1.445965e+001	-1.512781e+001	-4.908672e+001	-1.508782e+001	-4.913265e+001	-1.200042e+001	1.195133e+002
2948526.863	-1.425371e+001	8.647056e+000	-1.531306e+001	-5.439891e+001	-1.528040e+001	-5.447881e+001	-1.205151e+001	1.137623e+002
2972963.605	-1.403848e+001	3.050497e+000	-1.549485e+001	-5.958302e+001	-1.547197e+001	-5.967440e+001	-1.210485e+001	1.081645e+002
2997400.347	-1.383312e+001	-2.314024e+000	-1.567931e+001	-6.461139e+001	-1.566217e+001	-6.472962e+001	-1.216179e+001	1.027325e+002
3021837.088	-1.363865e+001	-7.498110e+000	-1.585468e+001	-6.951343e+001	-1.584662e+001	-6.963233e+001	-1.222067e+001	9.744891e+001
3046273.830	-1.345303e+001	-1.251329e+001	-1.602405e+001	-7.428258e+001	-1.602148e+001	-7.441002e+001	-1.228196e+001	9.231384e+001
3070710.572	-1.328149e+001	-1.736222e+001	-1.618134e+001	-7.895293e+001	-1.618551e+001	-7.909476e+001	-1.234919e+001	8.730588e+001
3095147.314	-1.311888e+001	-2.206240e+001	-1.633042e+001	-8.355526e+001	-1.634427e+001	-8.368547e+001	-1.241853e+001	8.244965e+001
3119584.055	-1.296629e+001	-2.661544e+001	-1.647537e+001	-8.805783e+001	-1.649416e+001	-8.817989e+001	-1.248976e+001	7.773883e+001
3144020.797	-1.282100e+001	-3.103712e+001	-1.660786e+001	-9.244176e+001	-1.663137e+001	-9.259689e+001	-1.256385e+001	7.317924e+001
3168457.539	-1.268566e+001	-3.535628e+001	-1.672780e+001	-9.679442e+001	-1.676260e+001	-9.693944e+001	-1.263632e+001	6.871768e+001
3192894.281	-1.255944e+001	-3.956891e+001	-1.683642e+001	-1.010936e+002	-1.687789e+001	-1.012196e+002	-1.271423e+001	6.436046e+001
3217331.023	-1.244033e+001	-4.367519e+001	-1.693852e+001	-1.053498e+002	-1.698443e+001	-1.054576e+002	-1.279362e+001	6.012355e+001
3241767.764	-1.233118e+001	-4.766760e+001	-1.703217e+001	-1.095677e+002	-1.708260e+001	-1.096567e+002	-1.287360e+001	5.600856e+001
3266204.506	-1.222488e+001	-5.157261e+001	-1.712146e+001	-1.137105e+002	-1.717713e+001	-1.137894e+002	-1.295237e+001	5.201057e+001
3290641.248	-1.212202e+001	-5.539881e+001	-1.719985e+001	-1.177642e+002	-1.726120e+001	-1.178049e+002	-1.302195e+001	4.807915e+001
3315077.990	-1.202428e+001	-5.920680e+001	-1.725065e+001	-1.217331e+002	-1.731821e+001	-1.217466e+002	-1.309702e+001	4.416468e+001
3339514.731	-1.194042e+001	-6.296641e+001	-1.728299e+001	-1.257361e+002	-1.735266e+001	-1.257281e+002	-1.318019e+001	4.031007e+001
3363951.473	-1.186882e+001	-6.665866e+001	-1.729944e+001	-1.297971e+002	-1.737617e+001	-1.297518e+002	-1.327387e+001	3.655560e+001
3388388.215	-1.180619e+001	-7.027311e+001	-1.730817e+001	-1.338624e+002	-1.738810e+001	-1.337800e+002	-1.337276e+001	3.289022e+001
3412824.957	-1.175332e+001	-7.382743e+001	-1.730759e+001	-1.379720e+002	-1.739014e+001	-1.378585e+002	-1.347982e+001	2.932783e+001
3437261.698	-1.171110e+001	-7.731183e+001	-1.729756e+001	-1.421028e+002	-1.738373e+001	-1.419713e+002	-1.359352e+001	2.586967e+001
3461698.440	-1.167838e+001	-8.072713e+001	-1.727770e+001	-1.462834e+002	-1.736723e+001	-1.461126e+002	-1.371394e+001	2.251377e+001
3486135.182	-1.165565e+001	-8.405061e+001	-1.725827e+001	-1.504925e+002	-1.734111e+001	-1.502794e+002	-1.384086e+001	1.927350e+001
3510571.924	-1.164358e+001	-8.729631e+001	-1.722487e+001	-1.547392e+002	-1.731514e+001	-1.545169e+002	-1.397031e+001	1.617857e+001
3535008.666	-1.163809e+001	-9.044296e+001	-1.719500e+001	-1.590110e+002	-1.728162e+001	-1.587530e+002	-1.410031e+001	1.319159e+001
3559445.407	-1.163713e+001	-9.350177e+001	-1.715482e+001	-1.632854e+002	-1.724591e+001	-1.630064e+002	-1.422940e+001	1.036151e+001
3583882.149	-1.164266e+001	-9.648963e+001	-1.710143e+001	-1.675801e+002	-1.719341e+001	-1.672622e+002	-1.435664e+001	7.565628e+000
3608318.891	-1.165362e+001	-9.941089e+001	-1.703409e+001	-1.719408e+002	-1.713021e+001	-1.715794e+002	-1.449246e+001	4.875034e+000
3632755.633	-1.166551e+001	-1.022493e+002	-1.696300e+001	-1.763676e+002	-1.705707e+001	-1.760154e+002	-1.463710e+001	2.309497e+000
3657192.374	-1.168940e+001	-1.050084e+002	-1.687963e+001	1.790823e+002	-1.697382e+001	1.794951e+002	-1.478180e+001	-1.350616e-001
3681629.116	-1.171893e+001	-1.076820e+002	-1.679010e+001	1.744106e+002	-1.688075e+001	1.748500e+002	-1.493676e+001	-2.397941e+000
3706065.858	-1.175683e+001	-1.102453e+002	-1.670326e+001	1.696035e+002	-1.679197e+001	1.700628e+002	-1.509155e+001	-4.480846e+000
3730502.600	-1.180053e+001	-1.126916e+002	-1.661749e+001	1.646551e+002	-1.671042e+001	1.651145e+002	-1.524611e+001	-6.288244e+000
3754939.341	-1.184528e+001	-1.150124e+002	-1.654359e+001	1.596380e+002	-1.663482e+001	1.601178e+002	-1.538059e+001	-7.937416e+000
3779376.083	-1.189278e+001	-1.172035e+002	-1.647495e+001	1.545217e+002	-1.656721e+001	1.550100e+002	-1.550396e+001	-9.373617e+000
3803812.825	-1.194142e+001	-1.192527e+002	-1.641561e+001	1.492897e+002	-1.650099e+001	1.498041e+002	-1.561319e+001	-1.067147e+001
3828249.567	-1.199288e+001	-1.211342e+002	-1.635671e+001	1.439057e+002	-1.644914e+001	1.444097e+002	-1.570304e+001	-1.165631e+001
3852686.308	-1.203631e+001	-1.228039e+002	-1.631602e+001	1.383818e+002	-1.640971e+001	1.389155e+002	-1.576198e+001	-1.245474e+001
3877123.050	-1.206349e+001	-1.242649e+002	-1.629607e+001	1.327178e+002	-1.639244e+001	1.332846e+002	-1.578119e+001	-1.304960e+001
3901559.792	-1.206040e+001	-1.255369e+002	-1.630707e+001	1.269543e+002	-1.640083e+001	1.275299e+002	-1.574728e+001	-1.349280e+001
3925996.534	-1.202605e+001	-1.266745e+002	-1.634226e+001	1.211145e+002	-1.643437e+001	1.217097e+002	-1.565785e+001	-1.385190e+001
3950433.276	-1.195161e+001	-1.277081e+002	-1.640955e+001	1.151901e+002	-1.650049e+001	1.157929e+002	-1.550644e+001	-1.423941e+001
3974870.017	-1.183250e+001	-1.287278e+002	-1.650891e+001	1.092235e+002	-1.660192e+001	1.098002e+002	-1.529269e+001	-1.469350e+001
3999306.759	-1.166642e+001	-1.297950e+002	-1.665120e+001	1.032445e+002	-1.674577e+001	1.038317e+002	-1.502155e+001	-1.542182e+001
4023743.501	-1.145605e+001	-1.309895e+002	-1.683038e+001	9.724111e+001	-1.692979e+001	9.784452e+001	-1.470461e+001	-1.640658e+001
4048180.243	-1.120526e+001	-1.323933e+002	-1.706054e+001	9.131405e+001	-1.716140e+001	9.190879e+001	-1.435387e+001	-1.773645e+001
4072616.984	-1.092391e+001	-1.340493e+002	-1.733584e+001	8.543636e+001	-1.744108e+001	8.606374e+001	-1.398114e+001	-1.944743e+001
4097053.726	-1.062319e+001	-1.360272e+002	-1.766439e+001	7.971585e+001	-1.777484e+001	8.035856e+001	-1.359814e+001	-2.155435e+001
4121490.468	-1.031137e+001	-1.383233e+002	-1.804728e+001	7.417256e+001	-1.816016e+001	7.488674e+001	-1.321705e+001	-2.402754e+001
4145927.210	-1.000201e+001	-1.409429e+002	-1.848460e+001	6.889349e+001	-1.860305e+001	6.967728e+001	-1.284851e+001	-2.682227e+001
4170363.951	-9.700461e+000	-1.438925e+002	-1.898582e+001	6.406162e+001	-1.910551e+001	6.489575e+001	-1.249730e+001	-2.993040e+001
4194800.693	-9.421332e+000	-1.471818e+002	-1.954447e+001	5.979512e+001	-1.966737e+001	6.071750e+001	-1.217457e+001	-3.337945e+001
4219237.435	-9.175957e+000	-1.507462e+002	-2.013386e+001	5.629729e+001	-2.025266e+001	5.728119e+001	-1.188806e+001	-3.705688e+001
4243674.177	-8.973476e+000	-1.545161e+002	-2.071292e+001	5.370624e+001	-2.081945e+001	5.473917e+001	-1.165130e+001	-4.088774e+001
4268110.919	-8.814575e+000	-1.583581e+002	-2.122318e+001	5.177154e+001	-2.132697e+001	5.289613e+001	-1.145300e+001	-4.475612e+001
4292547.660	-8.691876e+000	-1.622493e+002	-2.166938e+001	5.045942e+001	-2.176394e+001	5.155358e+001	-1.128761e+001	-4.862192e+001
4316984.402	-8.601419e+000	-1.661733e+002	-2.203114e+001	4.961699e+001	-2.212429e+001	5.077334e+001	-1.114634e+001	-5.249196e+001
4341421.144	-8.545746e+000	-1.701064e+002	-2.227229e+001	4.919067e+001	-2.235857e+001	5.040959e+001	-1.103650e+001	-5.633875e+001
4365857.886	-8.519385e+000	-1.739568e+002	-2.238261e+001	4.860250e+001	-2.244939e+001	4.992504e+001	-1.095336e+001	-6.010318e+001
4390294.627	-8.506948e+000	-1.777083e+002	-2.243462e+001	4.751520e+001	-2.247183e+001	4.884417e+001	-1.087662e+001	-6.369640e+001
4414731.369	-8.491676e+000	1.785753e+002	-2.250735e+001	4.602451e+001	-2.253814e+001	4.728004e+001	-1.078371e+001	-6.719944e+001
4439168.111	-8.472078e+000	1.747340e+002	-2.265484e+001	4.476053e+001	-2.268070e+001	4.590271e+001	-1.066834e+001	-7.078024e+001
4463604.853	-8.457666e+000	1.706701e+002	-2.284715e+001	4.446551e+001	-2.287839e+001	4.565174e+001	-1.053703e+001	-7.459360e+001
4488041.594	-8.475323e+000	1.662839e+002	-2.293460e+001	4.574237e+001	-2.298133e+001	4.710022e+001	-1.041146e+001	-7.877997e+001
4512478.336	-8.563377e+000	1.616302e+002	-2.269075e+001	4.811056e+001	-2.270341e+001	4.961211e+001	-1.033949e+001	-8.331509e+001
4536915.078	-8.744503e+000	1.569774e+002	-2.202305e+001	4.952499e+001	-2.198258e+001	5.102461e+001	-1.035149e+001	-8.796886e+001
4561351.820	-9.002759e+000	1.526990e+002	-2.116447e+001	4.828294e+001	-2.109899e+001	4.961174e+001	-1.043667e+001	-9.234195e+001
4585788.562	-9.281182e+000	1.488523e+002	-2.042478e+001	4.497137e+001	-2.035993e+001	4.611755e+001	-1.053799e+001	-9.630222e+001
4610225.303	-9.545848e+000	1.452359e+002	-1.987166e+001	4.096129e+001	-1.981211e+001	4.203603e+001	-1.061694e+001	-1.000490e+002
4634662.045	-9.808030e+000	1.416040e+002	-1.942277e+001	3.698670e+001	-1.935220e+001	3.801528e+001	-1.068006e+001	-1.038057e+002
4659098.787	-1.008445e+001	1.379340e+002	-1.901969e+001	3.307237e+001	-1.894680e+001	3.405731e+001	-1.073513e+001	-1.076342e+002
4683535.529	-1.037899e+001	1.341894e+002	-1.864291e+001	2.927383e+001	-1.856440e+001	3.016854e+001	-1.078945e+001	-1.115608e+002
4707972.270	-1.071002e+001	1.303154e+002	-1.826282e+001	2.571933e+001	-1.818513e+001	2.652390e+001	-1.084239e+001	-1.156599e+002
4732409.012	-1.110235e+001	1.262623e+002	-1.783085e+001	2.232633e+001	-1.774234e+001	2.306047e+001	-1.091952e+001	-1.200937e+002
4756845.754	-1.159832e+001	1.222278e+002	-1.729297e+001	1.868617e+001	-1.720329e+001	1.930953e+001	-1.105561e+001	-1.247717e+002
4781282.496	-1.219858e+001	1.186170e+002	-1.669955e+001	1.420291e+001	-1.661951e+001	1.476687e+001	-1.126297e+001	-1.294599e+002
4805719.237	-1.286138e+001	1.156489e+002	-1.613850e+001	8.855812e+000	-1.606712e+001	9.385457e+000	-1.153380e+001	-1.339137e+002
4830155.979	-1.354586e+001	1.133063e+002	-1.565232e+001	3.022856e+000	-1.558801e+001	3.541292e+000	-1.183521e+001	-1.381307e+002
4854592.721	-1.423993e+001	1.114711e+002	-1.523727e+001	-3.014994e+000	-1.517466e+001	-2.505583e+000	-1.215589e+001	-1.421709e+002
4879029.463	-1.494193e+001	1.100962e+002	-1.487317e+001	-9.138883e+000	-1.480991e+001	-8.649895e+000	-1.249814e+001	-1.460731e+002
4903466.205	-1.565433e+001	1.092472e+002	-1.454297e+001	-1.534068e+001	-1.448371e+001	-1.486283e+001	-1.286544e+001	-1.498660e+002
4927902.946	-1.636545e+001	1.089568e+002	-1.424641e+001	-2.161005e+001	-1.419034e+001	-2.117134e+001	-1.325870e+001	-1.534833e+002
4952339.688	-1.704322e+001	1.093151e+002	-1.398281e+001	-2.805243e+001	-1.392408e+001	-2.756716e+001	-1.368418e+001	-1.569463e+002
4976776.430	-1.768146e+001	1.102071e+002	-1.375092e+001	-3.446317e+001	-1.369546e+001	-3.401753e+001	-1.412835e+001	-1.601157e+002
5001213.172	-1.824743e+001	1.115516e+002	-1.355137e+001	-4.094577e+001	-1.350127e+001	-4.050462e+001	-1.458570e+001	-1.630398e+002
5025649.913	-1.873874e+001	1.131478e+002	-1.338398e+001	-4.743768e+001	-1.333804e+001	-4.700638e+001	-1.505005e+001	-1.656712e+002
5050086.655	-1.915181e+001	1.148458e+002	-1.324724e+001	-5.392351e+001	-1.320554e+001	-5.347972e+001	-1.551600e+001	-1.680562e+002
5074523.397	-1.950329e+001	1.165536e+002	-1.313710e+001	-6.037496e+001	-1.309852e+001	-5.993187e+001	-1.597411e+001	-1.701673e+002
5098960.139	-1.980881e+001	1.181801e+002	-1.305094e+001	-6.678444e+001	-1.301325e+001	-6.632111e+001	-1.642348e+001	-1.720340e+002
5123396.880	-2.008048e+001	1.196690e+002	-1.298408e+001	-7.315266e+001	-1.294859e+001	-7.268078e+001	-1.685568e+001	-1.736703e+002
5147833.622	-2.033382e+001	1.211174e+002	-1.293241e+001	-7.946733e+001	-1.290209e+001	-7.892872e+001	-1.726821e+001	-1.751784e+002
5172270.364	-2.057173e+001	1.224968e+002	-1.289747e+001	-8.573543e+001	-1.286850e+001	-8.519703e+001	-1.765832e+001	-1.764121e+002
5196707.106	-2.080102e+001	1.238590e+002	-1.287565e+001	-9.195921e+001	-1.284728e+001	-9.141535e+001	-1.801983e+001	-1.774413e+002
5221143.847	-2.102129e+001	1.252153e+002	-1.286597e+001	-9.814140e+001	-1.283933e+001	-9.763307e+001	-1.833772e+001	-1.782580e+002
5245580.589	-2.123942e+001	1.265983e+002	-1.286731e+001	-1.043085e+002	-1.284134e+001	-1.037923e+002	-1.861532e+001	-1.790305e+002
5270017.331	-2.146085e+001	1.280379e+002	-1.288319e+001	-1.104403e+002	-1.285616e+001	-1.099364e+002	-1.884231e+001	-1.797421e+002
5294454.073	-2.167608e+001	1.296018e+002	-1.290707e+001	-1.165386e+002	-1.288211e+001	-1.160275e+002	-1.902028e+001	1.794718e+002
5318890.815	-2.188452e+001	1.313056e+002	-1.293961e+001	-1.225937e+002	-1.291693e+001	-1.220783e+002	-1.915258e+001	1.785849e+002
5343327.556	-2.207604e+001	1.331983e+002	-1.297846e+001	-1.286217e+002	-1.295532e+001	-1.281027e+002	-1.925062e+001	1.775815e+002
5367764.298	-2.224081e+001	1.351732e+002	-1.302128e+001	-1.346396e+002	-1.299781e+001	-1.341118e+002	-1.930821e+001	1.764237e+002
5392201.040	-2.238922e+001	1.372049e+002	-1.307056e+001	-1.406784e+002	-1.304912e+001	-1.401500e+002	-1.931799e+001	1.751017e+002
5416637.782	-2.253027e+001	1.392700e+002	-1.312979e+001	-1.467281e+002	-1.310885e+001	-1.462000e+002	-1.928667e+001	1.734973e+002
5441074.523	-2.267035e+001	1.414814e+002	-1.319887e+001	-1.527768e+002	-1.317935e+001	-1.522406e+002	-1.922198e+001	1.715484e+002
