!Agilent Technologies,E5061B,MY49101568,A.02.00
!Date: Wed Mar 01 15:05:16 2023
!Data & Calibration Information:
!Freq	S11:SOLT2(OFF)	S21:SOLT2(OFF)	S12:SOLT2(OFF)	S22:SOLT2(OFF)
# Hz S dB R 50
1800000.000	-9.601036e+000	-2.324688e+001	-2.094729e+001	-1.247005e+002	-2.096662e+001	-1.247624e+002	-1.003662e+001	1.220400e+001
1824436.742	-9.735974e+000	-2.794743e+001	-2.048263e+001	-1.290557e+002	-2.051464e+001	-1.290854e+002	-1.019019e+001	8.045224e+000
1848873.484	-9.884941e+000	-3.277153e+001	-2.000953e+001	-1.336017e+002	-2.004726e+001	-1.335214e+002	-1.035546e+001	3.792752e+000
1873310.225	-1.004712e+001	-3.770301e+001	-1.952463e+001	-1.382779e+002	-1.957911e+001	-1.381290e+002	-1.052419e+001	-5.138519e-001
1897746.967	-1.023337e+001	-4.279563e+001	-1.899521e+001	-1.432181e+002	-1.909674e+001	-1.428993e+002	-1.069705e+001	-4.908798e+000
1922183.709	-1.042733e+001	-4.801646e+001	-1.849200e+001	-1.482157e+002	-1.860335e+001	-1.478087e+002	-1.087975e+001	-9.466178e+000
1946620.451	-1.064278e+001	-5.340947e+001	-1.797664e+001	-1.534092e+002	-1.810183e+001	-1.528621e+002	-1.107334e+001	-1.413472e+001
1971057.192	-1.087874e+001	-5.897106e+001	-1.746677e+001	-1.587476e+002	-1.760093e+001	-1.581328e+002	-1.127584e+001	-1.891645e+001
1995493.934	-1.116316e+001	-6.472278e+001	-1.692647e+001	-1.645109e+002	-1.710077e+001	-1.635440e+002	-1.149586e+001	-2.380015e+001
2019930.676	-1.146707e+001	-7.060400e+001	-1.642299e+001	-1.702996e+002	-1.660193e+001	-1.692072e+002	-1.173145e+001	-2.873724e+001
2044367.418	-1.181379e+001	-7.662830e+001	-1.591880e+001	-1.763347e+002	-1.610110e+001	-1.750881e+002	-1.197755e+001	-3.384511e+001
2068804.159	-1.220611e+001	-8.276956e+001	-1.543207e+001	1.773948e+002	-1.561727e+001	1.787896e+002	-1.224481e+001	-3.892433e+001
2093240.901	-1.258361e+001	-8.898068e+001	-1.501587e+001	1.713705e+002	-1.515649e+001	1.724378e+002	-1.253075e+001	-4.400976e+001
2117677.643	-1.303664e+001	-9.530746e+001	-1.459974e+001	1.649096e+002	-1.472267e+001	1.659811e+002	-1.282065e+001	-4.909660e+001
2142114.385	-1.353036e+001	-1.018504e+002	-1.419384e+001	1.583994e+002	-1.430354e+001	1.594616e+002	-1.310972e+001	-5.425867e+001
2166551.127	-1.408844e+001	-1.085585e+002	-1.379758e+001	1.517116e+002	-1.389273e+001	1.527732e+002	-1.341268e+001	-5.950307e+001
2190987.868	-1.470698e+001	-1.153378e+002	-1.342880e+001	1.448313e+002	-1.350871e+001	1.458856e+002	-1.372802e+001	-6.468814e+001
2215424.610	-1.533568e+001	-1.222225e+002	-1.311113e+001	1.380123e+002	-1.315091e+001	1.387379e+002	-1.406730e+001	-6.975315e+001
2239861.352	-1.604587e+001	-1.291826e+002	-1.280686e+001	1.310140e+002	-1.283576e+001	1.316538e+002	-1.436315e+001	-7.481848e+001
2264298.094	-1.681348e+001	-1.363325e+002	-1.252443e+001	1.239493e+002	-1.254327e+001	1.245074e+002	-1.464837e+001	-7.982406e+001
2288734.835	-1.763193e+001	-1.435939e+002	-1.227147e+001	1.168385e+002	-1.228090e+001	1.173281e+002	-1.490655e+001	-8.483355e+001
2313171.577	-1.849021e+001	-1.510224e+002	-1.204429e+001	1.097253e+002	-1.204572e+001	1.101078e+002	-1.513464e+001	-8.987584e+001
2337608.319	-1.937264e+001	-1.585817e+002	-1.184629e+001	1.025770e+002	-1.183965e+001	1.028789e+002	-1.532284e+001	-9.491558e+001
2362045.061	-2.021742e+001	-1.665498e+002	-1.167978e+001	9.558862e+001	-1.165530e+001	9.543747e+001	-1.550895e+001	-9.987663e+001
2386481.802	-2.109025e+001	-1.747520e+002	-1.153034e+001	8.848335e+001	-1.150319e+001	8.831811e+001	-1.558866e+001	-1.051917e+002
2410918.544	-2.189778e+001	1.765324e+002	-1.140213e+001	8.143717e+001	-1.136886e+001	8.123163e+001	-1.562432e+001	-1.107413e+002
2435355.286	-2.264553e+001	1.670840e+002	-1.129189e+001	7.441073e+001	-1.125382e+001	7.420185e+001	-1.561777e+001	-1.165715e+002
2459792.028	-2.326883e+001	1.569779e+002	-1.119582e+001	6.743088e+001	-1.115436e+001	6.717128e+001	-1.557665e+001	-1.226425e+002
2484228.769	-2.371961e+001	1.461825e+002	-1.112074e+001	6.045831e+001	-1.107169e+001	6.021142e+001	-1.550351e+001	-1.290413e+002
2508665.511	-2.398923e+001	1.350545e+002	-1.106055e+001	5.351952e+001	-1.100994e+001	5.335211e+001	-1.538402e+001	-1.357439e+002
2533102.253	-2.402366e+001	1.235673e+002	-1.101836e+001	4.667089e+001	-1.096561e+001	4.663946e+001	-1.523286e+001	-1.427673e+002
2557538.995	-2.386440e+001	1.122293e+002	-1.099131e+001	3.978852e+001	-1.093638e+001	3.977968e+001	-1.509965e+001	-1.498617e+002
2581975.737	-2.350197e+001	1.013587e+002	-1.098603e+001	3.294997e+001	-1.092588e+001	3.295541e+001	-1.495628e+001	-1.571109e+002
2606412.478	-2.300605e+001	9.104275e+001	-1.100057e+001	2.616370e+001	-1.093582e+001	2.616577e+001	-1.481094e+001	-1.644673e+002
2630849.220	-2.239331e+001	8.139011e+001	-1.103237e+001	1.943984e+001	-1.096613e+001	1.944096e+001	-1.466607e+001	-1.719243e+002
2655285.962	-2.172533e+001	7.238331e+001	-1.108285e+001	1.279873e+001	-1.101544e+001	1.279518e+001	-1.452564e+001	-1.793818e+002
2679722.704	-2.103107e+001	6.386691e+001	-1.115138e+001	6.243938e+000	-1.108613e+001	6.239184e+000	-1.439057e+001	1.730990e+002
2704159.445	-2.033694e+001	5.589015e+001	-1.123206e+001	-2.059074e-001	-1.116942e+001	-2.147325e-001	-1.426511e+001	1.656310e+002
2728596.187	-1.967402e+001	4.834656e+001	-1.132942e+001	-6.548715e+000	-1.126640e+001	-6.578212e+000	-1.415704e+001	1.582096e+002
2753032.929	-1.904375e+001	4.117339e+001	-1.144081e+001	-1.280339e+001	-1.138080e+001	-1.282857e+001	-1.406122e+001	1.508869e+002
2777469.671	-1.845054e+001	3.433250e+001	-1.156262e+001	-1.892788e+001	-1.150572e+001	-1.895751e+001	-1.398040e+001	1.436953e+002
2801906.412	-1.789881e+001	2.781591e+001	-1.169358e+001	-2.491307e+001	-1.164242e+001	-2.496089e+001	-1.391561e+001	1.366624e+002
2826343.154	-1.738587e+001	2.152820e+001	-1.183004e+001	-3.078829e+001	-1.178656e+001	-3.082630e+001	-1.386948e+001	1.297795e+002
2850779.896	-1.691442e+001	1.546535e+001	-1.197511e+001	-3.652596e+001	-1.193602e+001	-3.656207e+001	-1.383605e+001	1.230648e+002
2875216.638	-1.647715e+001	9.657632e+000	-1.212493e+001	-4.211615e+001	-1.209098e+001	-4.211828e+001	-1.380986e+001	1.165420e+002
2899653.380	-1.608462e+001	4.016618e+000	-1.227277e+001	-4.758089e+001	-1.224766e+001	-4.758645e+001	-1.380827e+001	1.102019e+002
2924090.121	-1.572551e+001	-1.417982e+000	-1.242187e+001	-5.291046e+001	-1.239876e+001	-5.294654e+001	-1.382490e+001	1.040400e+002
2948526.863	-1.539476e+001	-6.691156e+000	-1.256636e+001	-5.812473e+001	-1.255172e+001	-5.818703e+001	-1.384979e+001	9.808366e+001
2972963.605	-1.509860e+001	-1.179917e+001	-1.270810e+001	-6.324163e+001	-1.270002e+001	-6.329655e+001	-1.388619e+001	9.228371e+001
2997400.347	-1.482425e+001	-1.675349e+001	-1.284408e+001	-6.822475e+001	-1.284206e+001	-6.829036e+001	-1.393200e+001	8.665618e+001
3021837.088	-1.457173e+001	-2.158363e+001	-1.297146e+001	-7.310188e+001	-1.297588e+001	-7.316502e+001	-1.398426e+001	8.117013e+001
3046273.830	-1.434415e+001	-2.633258e+001	-1.308545e+001	-7.788771e+001	-1.309676e+001	-7.795303e+001	-1.404750e+001	7.579446e+001
3070710.572	-1.414179e+001	-3.097452e+001	-1.318831e+001	-8.261930e+001	-1.320478e+001	-8.267012e+001	-1.412579e+001	7.053688e+001
3095147.314	-1.396151e+001	-3.549157e+001	-1.328160e+001	-8.730598e+001	-1.330284e+001	-8.734368e+001	-1.421908e+001	6.542860e+001
3119584.055	-1.379711e+001	-3.990939e+001	-1.336522e+001	-9.193751e+001	-1.339019e+001	-9.196340e+001	-1.432117e+001	6.045769e+001
3144020.797	-1.364634e+001	-4.424012e+001	-1.343790e+001	-9.644931e+001	-1.346493e+001	-9.654248e+001	-1.443545e+001	5.562554e+001
3168457.539	-1.351970e+001	-4.849844e+001	-1.349708e+001	-1.010008e+002	-1.352829e+001	-1.010807e+002	-1.456290e+001	5.086115e+001
3192894.281	-1.341121e+001	-5.269443e+001	-1.353956e+001	-1.055320e+002	-1.357740e+001	-1.056072e+002	-1.470663e+001	4.621851e+001
3217331.023	-1.332239e+001	-5.679486e+001	-1.357484e+001	-1.100932e+002	-1.361411e+001	-1.101610e+002	-1.486660e+001	4.168845e+001
3241767.764	-1.325340e+001	-6.079694e+001	-1.360387e+001	-1.146847e+002	-1.364487e+001	-1.147306e+002	-1.504886e+001	3.730189e+001
3266204.506	-1.319749e+001	-6.468439e+001	-1.363429e+001	-1.192424e+002	-1.367633e+001	-1.192757e+002	-1.523593e+001	3.309604e+001
3290641.248	-1.314239e+001	-6.850338e+001	-1.365282e+001	-1.237052e+002	-1.369866e+001	-1.237419e+002	-1.541954e+001	2.899660e+001
3315077.990	-1.310143e+001	-7.235344e+001	-1.364608e+001	-1.281157e+002	-1.369295e+001	-1.281253e+002	-1.561141e+001	2.476857e+001
3339514.731	-1.308702e+001	-7.622921e+001	-1.361048e+001	-1.326248e+002	-1.366046e+001	-1.326438e+002	-1.585273e+001	2.052209e+001
3363951.473	-1.310478e+001	-8.005583e+001	-1.356208e+001	-1.372852e+002	-1.361178e+001	-1.372821e+002	-1.614347e+001	1.637026e+001
3388388.215	-1.315406e+001	-8.377811e+001	-1.350804e+001	-1.420604e+002	-1.356104e+001	-1.420622e+002	-1.647930e+001	1.244274e+001
3412824.957	-1.323333e+001	-8.739060e+001	-1.345318e+001	-1.469442e+002	-1.350533e+001	-1.469216e+002	-1.685828e+001	8.713451e+000
3437261.698	-1.334251e+001	-9.084771e+001	-1.339832e+001	-1.519494e+002	-1.344806e+001	-1.519125e+002	-1.728944e+001	5.232700e+000
3461698.440	-1.348518e+001	-9.412355e+001	-1.334588e+001	-1.570642e+002	-1.339572e+001	-1.570201e+002	-1.777716e+001	2.155191e+000
3486135.182	-1.365823e+001	-9.718778e+001	-1.329483e+001	-1.622982e+002	-1.334756e+001	-1.622425e+002	-1.832060e+001	-4.474017e-001
3510571.924	-1.385688e+001	-9.994347e+001	-1.326072e+001	-1.676413e+002	-1.331349e+001	-1.675333e+002	-1.890285e+001	-2.415915e+000
3535008.666	-1.407109e+001	-1.023691e+002	-1.323938e+001	-1.730126e+002	-1.329352e+001	-1.728830e+002	-1.950537e+001	-3.604392e+000
3559445.407	-1.429252e+001	-1.044621e+002	-1.323168e+001	-1.783962e+002	-1.328392e+001	-1.782230e+002	-2.010347e+001	-4.027447e+000
3583882.149	-1.451787e+001	-1.062509e+002	-1.322321e+001	1.762052e+002	-1.327549e+001	1.764094e+002	-2.069555e+001	-3.603984e+000
3608318.891	-1.474693e+001	-1.076679e+002	-1.321630e+001	1.707266e+002	-1.326518e+001	1.709892e+002	-2.127120e+001	-2.270085e+000
3632755.633	-1.499122e+001	-1.084887e+002	-1.322196e+001	1.649123e+002	-1.326181e+001	1.654843e+002	-2.177562e+001	2.087592e-001
3657192.374	-1.519937e+001	-1.090166e+002	-1.323105e+001	1.592160e+002	-1.326615e+001	1.598645e+002	-2.214882e+001	3.954025e+000
3681629.116	-1.537426e+001	-1.090423e+002	-1.325212e+001	1.534071e+002	-1.328171e+001	1.541090e+002	-2.231086e+001	8.815816e+000
3706065.858	-1.549337e+001	-1.086431e+002	-1.328765e+001	1.474960e+002	-1.331943e+001	1.482289e+002	-2.216207e+001	1.414049e+001
3730502.600	-1.551122e+001	-1.078346e+002	-1.336567e+001	1.415174e+002	-1.338611e+001	1.422712e+002	-2.169454e+001	1.891932e+001
3754939.341	-1.543405e+001	-1.068846e+002	-1.346305e+001	1.355238e+002	-1.348027e+001	1.363194e+002	-2.099294e+001	2.238906e+001
3779376.083	-1.525674e+001	-1.060071e+002	-1.358582e+001	1.295735e+002	-1.359551e+001	1.303629e+002	-2.017930e+001	2.439817e+001
3803812.825	-1.498939e+001	-1.052695e+002	-1.372816e+001	1.236007e+002	-1.373491e+001	1.244063e+002	-1.932337e+001	2.506650e+001
3828249.567	-1.463746e+001	-1.048562e+002	-1.389990e+001	1.176333e+002	-1.390731e+001	1.184183e+002	-1.846583e+001	2.461236e+001
3852686.308	-1.421364e+001	-1.048671e+002	-1.410246e+001	1.116979e+002	-1.410852e+001	1.124641e+002	-1.764780e+001	2.319566e+001
3877123.050	-1.374214e+001	-1.054255e+002	-1.434407e+001	1.058285e+002	-1.434179e+001	1.065877e+002	-1.688381e+001	2.104332e+001
3901559.792	-1.325823e+001	-1.064713e+002	-1.459487e+001	1.000457e+002	-1.459789e+001	1.008303e+002	-1.619374e+001	1.830913e+001
3925996.534	-1.276241e+001	-1.080767e+002	-1.488964e+001	9.440580e+001	-1.489013e+001	9.515629e+001	-1.555180e+001	1.515165e+001
3950433.276	-1.227968e+001	-1.100590e+002	-1.520129e+001	8.883845e+001	-1.520356e+001	8.963383e+001	-1.498090e+001	1.169154e+001
3974870.017	-1.182829e+001	-1.124479e+002	-1.552435e+001	8.347603e+001	-1.554784e+001	8.421992e+001	-1.445728e+001	8.002453e+000
3999306.759	-1.139578e+001	-1.151289e+002	-1.587465e+001	7.824499e+001	-1.591224e+001	7.904838e+001	-1.399681e+001	4.141589e+000
4023743.501	-1.099801e+001	-1.180702e+002	-1.623665e+001	7.322946e+001	-1.629372e+001	7.401667e+001	-1.357964e+001	1.979483e-001
4048180.243	-1.062173e+001	-1.212342e+002	-1.662993e+001	6.831737e+001	-1.669808e+001	6.916215e+001	-1.320181e+001	-3.797771e+000
4072616.984	-1.027184e+001	-1.245846e+002	-1.705212e+001	6.361736e+001	-1.712665e+001	6.449134e+001	-1.286081e+001	-7.860788e+000
4097053.726	-9.950703e+000	-1.281036e+002	-1.750430e+001	5.910548e+001	-1.758080e+001	5.997688e+001	-1.254530e+001	-1.195783e+001
4121490.468	-9.656382e+000	-1.317653e+002	-1.798335e+001	5.484787e+001	-1.806246e+001	5.577536e+001	-1.226276e+001	-1.609966e+001
4145927.210	-9.388613e+000	-1.355516e+002	-1.849665e+001	5.089243e+001	-1.857193e+001	5.193453e+001	-1.201051e+001	-2.030497e+001
4170363.951	-9.152925e+000	-1.394517e+002	-1.903934e+001	4.738003e+001	-1.911373e+001	4.841147e+001	-1.178057e+001	-2.450938e+001
4194800.693	-8.948459e+000	-1.434948e+002	-1.962000e+001	4.445163e+001	-1.968323e+001	4.548221e+001	-1.158060e+001	-2.879311e+001
4219237.435	-8.781268e+000	-1.476146e+002	-2.019986e+001	4.220382e+001	-2.025429e+001	4.325315e+001	-1.141287e+001	-3.311356e+001
4243674.177	-8.655043e+000	-1.517628e+002	-2.073583e+001	4.073078e+001	-2.078433e+001	4.177660e+001	-1.128076e+001	-3.739474e+001
4268110.919	-8.563626e+000	-1.558849e+002	-2.120099e+001	3.988716e+001	-2.124419e+001	4.087535e+001	-1.117393e+001	-4.159676e+001
4292547.660	-8.498267e+000	-1.599564e+002	-2.158151e+001	3.939365e+001	-2.162852e+001	4.041026e+001	-1.108508e+001	-4.572020e+001
4316984.402	-8.461481e+000	-1.640201e+002	-2.187192e+001	3.939080e+001	-2.191380e+001	4.038221e+001	-1.101839e+001	-4.980092e+001
4341421.144	-8.450320e+000	-1.680216e+002	-2.204062e+001	3.957681e+001	-2.206833e+001	4.066653e+001	-1.097256e+001	-5.381033e+001
4365857.886	-8.461942e+000	-1.719195e+002	-2.207931e+001	3.950501e+001	-2.210119e+001	4.054741e+001	-1.093841e+001	-5.766200e+001
4390294.627	-8.478409e+000	-1.757128e+002	-2.206297e+001	3.886347e+001	-2.207190e+001	3.984680e+001	-1.089953e+001	-6.136519e+001
4414731.369	-8.488166e+000	-1.795095e+002	-2.209250e+001	3.787526e+001	-2.208777e+001	3.878220e+001	-1.083837e+001	-6.501733e+001
4439168.111	-8.493534e+000	1.765346e+002	-2.219760e+001	3.713601e+001	-2.219007e+001	3.812947e+001	-1.075345e+001	-6.887168e+001
4463604.853	-8.515050e+000	1.723143e+002	-2.231632e+001	3.755122e+001	-2.230647e+001	3.855779e+001	-1.066339e+001	-7.296151e+001
4488041.594	-8.582578e+000	1.677661e+002	-2.229596e+001	3.957221e+001	-2.226123e+001	4.047201e+001	-1.059727e+001	-7.742181e+001
4512478.336	-8.739133e+000	1.630158e+002	-2.187627e+001	4.234086e+001	-2.184788e+001	4.321399e+001	-1.059258e+001	-8.221718e+001
4536915.078	-9.004537e+000	1.584183e+002	-2.103343e+001	4.368021e+001	-2.100566e+001	4.446103e+001	-1.068286e+001	-8.703129e+001
4561351.820	-9.344361e+000	1.543557e+002	-2.005704e+001	4.209566e+001	-2.002488e+001	4.287270e+001	-1.085345e+001	-9.148303e+001
4585788.562	-9.685748e+000	1.508660e+002	-1.925241e+001	3.843954e+001	-1.920329e+001	3.918200e+001	-1.103479e+001	-9.542434e+001
4610225.303	-1.000745e+001	1.475815e+002	-1.863539e+001	3.429166e+001	-1.857864e+001	3.496258e+001	-1.118753e+001	-9.914495e+001
4634662.045	-1.032829e+001	1.442986e+002	-1.811302e+001	3.015415e+001	-1.805650e+001	3.079824e+001	-1.132119e+001	-1.029144e+002
4659098.787	-1.066844e+001	1.410231e+002	-1.763367e+001	2.605460e+001	-1.757631e+001	2.668486e+001	-1.145253e+001	-1.067684e+002
4683535.529	-1.103871e+001	1.377451e+002	-1.717584e+001	2.200273e+001	-1.712161e+001	2.263694e+001	-1.159026e+001	-1.107462e+002
4707972.270	-1.145163e+001	1.343954e+002	-1.672463e+001	1.819482e+001	-1.666282e+001	1.874479e+001	-1.174406e+001	-1.149391e+002
4732409.012	-1.196177e+001	1.310667e+002	-1.620370e+001	1.440065e+001	-1.613894e+001	1.495640e+001	-1.194776e+001	-1.194879e+002
4756845.754	-1.260492e+001	1.282148e+002	-1.557758e+001	1.014470e+001	-1.551360e+001	1.067200e+001	-1.225773e+001	-1.241967e+002
4781282.496	-1.333228e+001	1.265369e+002	-1.492655e+001	4.805462e+000	-1.486121e+001	5.301229e+000	-1.269193e+001	-1.285499e+002
4805719.237	-1.402886e+001	1.261594e+002	-1.435260e+001	-1.445702e+000	-1.428981e+001	-9.759968e-001	-1.319476e+001	-1.321921e+002
4830155.979	-1.461285e+001	1.266714e+002	-1.389262e+001	-8.087931e+000	-1.383071e+001	-7.618420e+000	-1.370699e+001	-1.351829e+002
4854592.721	-1.507455e+001	1.276290e+002	-1.352046e+001	-1.481401e+001	-1.345697e+001	-1.433480e+001	-1.420788e+001	-1.376903e+002
4879029.463	-1.543317e+001	1.287708e+002	-1.320538e+001	-2.149955e+001	-1.314555e+001	-2.102550e+001	-1.470185e+001	-1.398218e+002
4903466.205	-1.569114e+001	1.299722e+002	-1.293193e+001	-2.815909e+001	-1.287176e+001	-2.767565e+001	-1.519169e+001	-1.416171e+002
4927902.946	-1.584744e+001	1.311327e+002	-1.269058e+001	-3.484576e+001	-1.263347e+001	-3.436530e+001	-1.567722e+001	-1.429332e+002
4952339.688	-1.591468e+001	1.319995e+002	-1.248323e+001	-4.159464e+001	-1.242651e+001	-4.099964e+001	-1.613772e+001	-1.438839e+002
4976776.430	-1.591749e+001	1.324349e+002	-1.231383e+001	-4.829789e+001	-1.225816e+001	-4.772179e+001	-1.654649e+001	-1.442077e+002
5001213.172	-1.588324e+001	1.323496e+002	-1.217580e+001	-5.500332e+001	-1.212421e+001	-5.442109e+001	-1.688423e+001	-1.441849e+002
5025649.913	-1.584265e+001	1.317574e+002	-1.206970e+001	-6.164736e+001	-1.202012e+001	-6.107564e+001	-1.713843e+001	-1.439256e+002
5050086.655	-1.581481e+001	1.307099e+002	-1.199185e+001	-6.823933e+001	-1.194334e+001	-6.767239e+001	-1.730455e+001	-1.436148e+002
5074523.397	-1.581898e+001	1.293068e+002	-1.193746e+001	-7.477804e+001	-1.188912e+001	-7.420086e+001	-1.739102e+001	-1.433823e+002
5098960.139	-1.586388e+001	1.276440e+002	-1.190382e+001	-8.122397e+001	-1.185610e+001	-8.066604e+001	-1.740145e+001	-1.433376e+002
5123396.880	-1.594908e+001	1.258013e+002	-1.188637e+001	-8.762108e+001	-1.183780e+001	-8.705057e+001	-1.735938e+001	-1.435981e+002
5147833.622	-1.608239e+001	1.238679e+002	-1.188395e+001	-9.394750e+001	-1.183223e+001	-9.339253e+001	-1.726690e+001	-1.441122e+002
5172270.364	-1.625568e+001	1.218663e+002	-1.189158e+001	-1.002192e+002	-1.183945e+001	-9.967074e+001	-1.714270e+001	-1.449942e+002
5196707.106	-1.647276e+001	1.198522e+002	-1.190903e+001	-1.064428e+002	-1.185764e+001	-1.059212e+002	-1.699206e+001	-1.461755e+002
5221143.847	-1.673013e+001	1.178767e+002	-1.193587e+001	-1.125886e+002	-1.188623e+001	-1.121604e+002	-1.681407e+001	-1.476981e+002
5245580.589	-1.703372e+001	1.158746e+002	-1.197524e+001	-1.187419e+002	-1.192410e+001	-1.183514e+002	-1.663262e+001	-1.495635e+002
5270017.331	-1.738137e+001	1.139147e+002	-1.202478e+001	-1.248737e+002	-1.197445e+001	-1.245064e+002	-1.644640e+001	-1.518115e+002
5294454.073	-1.778199e+001	1.120248e+002	-1.208634e+001	-1.309627e+002	-1.203572e+001	-1.306416e+002	-1.626492e+001	-1.543771e+002
5318890.815	-1.823756e+001	1.103072e+002	-1.215266e+001	-1.369973e+002	-1.210499e+001	-1.367300e+002	-1.609603e+001	-1.572361e+002
5343327.556	-1.874013e+001	1.086947e+002	-1.222490e+001	-1.430302e+002	-1.218072e+001	-1.427947e+002	-1.593724e+001	-1.603315e+002
5367764.298	-1.929986e+001	1.072298e+002	-1.230140e+001	-1.490688e+002	-1.226282e+001	-1.488521e+002	-1.578883e+001	-1.636497e+002
5392201.040	-1.992609e+001	1.059017e+002	-1.238630e+001	-1.550971e+002	-1.235322e+001	-1.549404e+002	-1.564391e+001	-1.672086e+002
5416637.782	-2.064064e+001	1.047582e+002	-1.248306e+001	-1.611468e+002	-1.245457e+001	-1.610193e+002	-1.550908e+001	-1.710353e+002
5441074.523	-2.145981e+001	1.039522e+002	-1.258693e+001	-1.671850e+002	-1.256855e+001	-1.671003e+002	-1.539094e+001	-1.751021e+002
