!Agilent Technologies,E5061B,MY49101568,A.02.00
!Date: Mon Feb 27 18:00:48 2023
!Data & Calibration Information:
!Freq	S11:SOLT2(ON)	S21:SOLT2(ON)	S12:SOLT2(ON)	S22:SOLT2(ON)
# Hz S dB R 50
1800000.000	-1.104913e+001	-3.124639e+001	-1.633867e+000	-1.245705e+002	-1.620673e+000	-1.245464e+002	-1.123436e+001	-2.814567e+001
1824436.742	-1.126419e+001	-3.244994e+001	-1.631081e+000	-1.262989e+002	-1.614436e+000	-1.262326e+002	-1.142996e+001	-2.963081e+001
1848873.484	-1.147926e+001	-3.351913e+001	-1.630941e+000	-1.280187e+002	-1.600128e+000	-1.279807e+002	-1.165821e+001	-3.089645e+001
1873310.225	-1.172043e+001	-3.463080e+001	-1.611959e+000	-1.297358e+002	-1.593328e+000	-1.296633e+002	-1.188757e+001	-3.224332e+001
1897746.967	-1.195676e+001	-3.575244e+001	-1.614639e+000	-1.314081e+002	-1.594265e+000	-1.313912e+002	-1.212661e+001	-3.385771e+001
1922183.709	-1.222750e+001	-3.676034e+001	-1.608066e+000	-1.331846e+002	-1.594668e+000	-1.330979e+002	-1.236583e+001	-3.487517e+001
1946620.451	-1.249747e+001	-3.791661e+001	-1.600092e+000	-1.349086e+002	-1.583111e+000	-1.348209e+002	-1.266308e+001	-3.613044e+001
1971057.192	-1.277733e+001	-3.886169e+001	-1.586068e+000	-1.366395e+002	-1.577592e+000	-1.365444e+002	-1.295754e+001	-3.750862e+001
1995493.934	-1.307997e+001	-3.985773e+001	-1.580422e+000	-1.383192e+002	-1.566127e+000	-1.383256e+002	-1.325970e+001	-3.872229e+001
2019930.676	-1.341065e+001	-4.076214e+001	-1.575941e+000	-1.401029e+002	-1.566254e+000	-1.400241e+002	-1.358394e+001	-3.990423e+001
2044367.418	-1.374367e+001	-4.167064e+001	-1.570030e+000	-1.418437e+002	-1.561982e+000	-1.418459e+002	-1.392313e+001	-4.080974e+001
2068804.159	-1.410595e+001	-4.240493e+001	-1.567208e+000	-1.436053e+002	-1.560399e+000	-1.435506e+002	-1.428184e+001	-4.199953e+001
2093240.901	-1.445648e+001	-4.315095e+001	-1.561318e+000	-1.453414e+002	-1.564572e+000	-1.453463e+002	-1.466444e+001	-4.307380e+001
2117677.643	-1.484880e+001	-4.381471e+001	-1.563197e+000	-1.471273e+002	-1.555626e+000	-1.470148e+002	-1.507678e+001	-4.401212e+001
2142114.385	-1.528193e+001	-4.419258e+001	-1.556029e+000	-1.488628e+002	-1.554613e+000	-1.488587e+002	-1.549786e+001	-4.479603e+001
2166551.127	-1.571384e+001	-4.450442e+001	-1.562404e+000	-1.506324e+002	-1.554839e+000	-1.506119e+002	-1.595242e+001	-4.567927e+001
2190987.868	-1.618933e+001	-4.466685e+001	-1.558654e+000	-1.523795e+002	-1.550428e+000	-1.524031e+002	-1.646720e+001	-4.637489e+001
2215424.610	-1.667722e+001	-4.450123e+001	-1.544742e+000	-1.541729e+002	-1.550054e+000	-1.541448e+002	-1.700557e+001	-4.667771e+001
2239861.352	-1.720910e+001	-4.448697e+001	-1.556522e+000	-1.559688e+002	-1.546543e+000	-1.559420e+002	-1.755534e+001	-4.695451e+001
2264298.094	-1.775228e+001	-4.397361e+001	-1.555609e+000	-1.577370e+002	-1.548606e+000	-1.576648e+002	-1.818778e+001	-4.722161e+001
2288734.835	-1.829073e+001	-4.299035e+001	-1.547524e+000	-1.595001e+002	-1.551507e+000	-1.594658e+002	-1.883282e+001	-4.676037e+001
2313171.577	-1.891621e+001	-4.189553e+001	-1.553474e+000	-1.612798e+002	-1.556903e+000	-1.612240e+002	-1.955780e+001	-4.655654e+001
2337608.319	-1.951265e+001	-4.034458e+001	-1.556663e+000	-1.630744e+002	-1.553192e+000	-1.630504e+002	-2.032599e+001	-4.561348e+001
2362045.061	-2.016871e+001	-3.809059e+001	-1.562900e+000	-1.648471e+002	-1.562195e+000	-1.648617e+002	-2.110914e+001	-4.439425e+001
2386481.802	-2.079122e+001	-3.524227e+001	-1.565142e+000	-1.666338e+002	-1.568920e+000	-1.666430e+002	-2.201674e+001	-4.215442e+001
2410918.544	-2.142115e+001	-3.159199e+001	-1.578130e+000	-1.684094e+002	-1.566430e+000	-1.683703e+002	-2.296673e+001	-3.933239e+001
2435355.286	-2.196905e+001	-2.744578e+001	-1.571699e+000	-1.702083e+002	-1.583182e+000	-1.701604e+002	-2.392029e+001	-3.489345e+001
2459792.028	-2.251582e+001	-2.238826e+001	-1.581964e+000	-1.720373e+002	-1.582727e+000	-1.719504e+002	-2.483833e+001	-2.932512e+001
2484228.769	-2.291817e+001	-1.649243e+001	-1.594221e+000	-1.737882e+002	-1.597658e+000	-1.737602e+002	-2.576768e+001	-2.203689e+001
2508665.511	-2.318148e+001	-1.005472e+001	-1.594855e+000	-1.755532e+002	-1.599412e+000	-1.755317e+002	-2.643130e+001	-1.251327e+001
2533102.253	-2.327665e+001	-3.269301e+000	-1.610110e+000	-1.773478e+002	-1.612521e+000	-1.773229e+002	-2.682826e+001	-1.928579e+000
2557538.995	-2.319348e+001	3.202394e+000	-1.624157e+000	-1.791534e+002	-1.615660e+000	-1.791388e+002	-2.674719e+001	8.983033e+000
2581975.737	-2.291736e+001	9.620665e+000	-1.622640e+000	1.790716e+002	-1.629601e+000	1.791154e+002	-2.624800e+001	1.942715e+001
2606412.478	-2.249900e+001	1.531499e+001	-1.648450e+000	1.772802e+002	-1.642117e+000	1.773004e+002	-2.554371e+001	2.808895e+001
2630849.220	-2.202234e+001	2.037430e+001	-1.655241e+000	1.754888e+002	-1.658178e+000	1.755266e+002	-2.464714e+001	3.490662e+001
2655285.962	-2.145063e+001	2.442069e+001	-1.668199e+000	1.736739e+002	-1.669246e+000	1.737257e+002	-2.370763e+001	3.988733e+001
2679722.704	-2.084747e+001	2.765610e+001	-1.672076e+000	1.719333e+002	-1.688280e+000	1.719595e+002	-2.274681e+001	4.382360e+001
2704159.445	-2.025703e+001	3.046087e+001	-1.704621e+000	1.701165e+002	-1.703141e+000	1.702456e+002	-2.187569e+001	4.680909e+001
2728596.187	-1.963612e+001	3.254117e+001	-1.718056e+000	1.684079e+002	-1.723643e+000	1.684178e+002	-2.101517e+001	4.858982e+001
2753032.929	-1.906457e+001	3.434089e+001	-1.727264e+000	1.665650e+002	-1.736647e+000	1.665664e+002	-2.024469e+001	4.956452e+001
2777469.671	-1.848642e+001	3.536904e+001	-1.750054e+000	1.647925e+002	-1.760173e+000	1.648655e+002	-1.952203e+001	5.067528e+001
2801906.412	-1.796412e+001	3.623466e+001	-1.767729e+000	1.630927e+002	-1.776480e+000	1.631092e+002	-1.883848e+001	5.105594e+001
2826343.154	-1.743303e+001	3.677740e+001	-1.787551e+000	1.612630e+002	-1.800781e+000	1.613358e+002	-1.822270e+001	5.129465e+001
2850779.896	-1.693711e+001	3.709119e+001	-1.816265e+000	1.595731e+002	-1.814987e+000	1.595541e+002	-1.765748e+001	5.110154e+001
2875216.638	-1.645634e+001	3.707544e+001	-1.836505e+000	1.578148e+002	-1.831807e+000	1.578610e+002	-1.709942e+001	5.077549e+001
2899653.380	-1.603062e+001	3.694215e+001	-1.850999e+000	1.560258e+002	-1.848256e+000	1.561299e+002	-1.660111e+001	5.020823e+001
2924090.121	-1.562404e+001	3.665738e+001	-1.871980e+000	1.543457e+002	-1.883164e+000	1.543727e+002	-1.613228e+001	4.970204e+001
2948526.863	-1.522067e+001	3.620803e+001	-1.898003e+000	1.526279e+002	-1.898395e+000	1.526184e+002	-1.569475e+001	4.901467e+001
2972963.605	-1.485646e+001	3.578640e+001	-1.925359e+000	1.509101e+002	-1.925763e+000	1.508662e+002	-1.528657e+001	4.828368e+001
2997400.347	-1.452626e+001	3.516835e+001	-1.952366e+000	1.491200e+002	-1.947825e+000	1.491679e+002	-1.490868e+001	4.747350e+001
3021837.088	-1.418833e+001	3.435550e+001	-1.972408e+000	1.474268e+002	-1.969102e+000	1.474843e+002	-1.454939e+001	4.649313e+001
3046273.830	-1.386540e+001	3.358919e+001	-1.996064e+000	1.457581e+002	-1.997499e+000	1.457595e+002	-1.420185e+001	4.552013e+001
3070710.572	-1.357652e+001	3.273735e+001	-2.018372e+000	1.440294e+002	-2.021098e+000	1.440297e+002	-1.389378e+001	4.438906e+001
3095147.314	-1.328424e+001	3.193881e+001	-2.036262e+000	1.423098e+002	-2.046112e+000	1.424147e+002	-1.359154e+001	4.350626e+001
3119584.055	-1.302466e+001	3.085054e+001	-2.072614e+000	1.406938e+002	-2.075148e+000	1.406854e+002	-1.329637e+001	4.238579e+001
3144020.797	-1.278674e+001	2.988790e+001	-2.089863e+000	1.389525e+002	-2.100275e+000	1.389964e+002	-1.304573e+001	4.133279e+001
3168457.539	-1.255301e+001	2.888907e+001	-2.122342e+000	1.372629e+002	-2.121766e+000	1.373011e+002	-1.279455e+001	4.015544e+001
3192894.281	-1.232787e+001	2.782332e+001	-2.140549e+000	1.356221e+002	-2.143612e+000	1.356249e+002	-1.255180e+001	3.899648e+001
3217331.023	-1.213541e+001	2.672498e+001	-2.168192e+000	1.339241e+002	-2.173856e+000	1.339655e+002	-1.232906e+001	3.785368e+001
3241767.764	-1.192171e+001	2.558810e+001	-2.188900e+000	1.322494e+002	-2.195139e+000	1.323233e+002	-1.211532e+001	3.664200e+001
3266204.506	-1.173926e+001	2.438735e+001	-2.214546e+000	1.306555e+002	-2.224677e+000	1.306515e+002	-1.192566e+001	3.539442e+001
3290641.248	-1.156366e+001	2.333745e+001	-2.236484e+000	1.289843e+002	-2.242856e+000	1.289963e+002	-1.173389e+001	3.422011e+001
3315077.990	-1.140371e+001	2.210121e+001	-2.265939e+000	1.273311e+002	-2.266295e+000	1.273742e+002	-1.155534e+001	3.301891e+001
3339514.731	-1.124417e+001	2.096098e+001	-2.287082e+000	1.256828e+002	-2.291610e+000	1.257074e+002	-1.139720e+001	3.178910e+001
3363951.473	-1.111128e+001	1.974393e+001	-2.306947e+000	1.240295e+002	-2.314436e+000	1.240802e+002	-1.123348e+001	3.051369e+001
3388388.215	-1.096644e+001	1.843894e+001	-2.332584e+000	1.224327e+002	-2.333643e+000	1.224266e+002	-1.108545e+001	2.926185e+001
3412824.957	-1.084237e+001	1.728111e+001	-2.358384e+000	1.207905e+002	-2.357698e+000	1.208390e+002	-1.094991e+001	2.798888e+001
3437261.698	-1.072007e+001	1.601288e+001	-2.376465e+000	1.192137e+002	-2.380398e+000	1.192272e+002	-1.082123e+001	2.677391e+001
3461698.440	-1.062512e+001	1.471641e+001	-2.398201e+000	1.175543e+002	-2.405316e+000	1.176143e+002	-1.070269e+001	2.552762e+001
3486135.182	-1.051438e+001	1.356916e+001	-2.420857e+000	1.159724e+002	-2.424897e+000	1.159880e+002	-1.059286e+001	2.428027e+001
3510571.924	-1.042027e+001	1.230495e+001	-2.444646e+000	1.143611e+002	-2.443902e+000	1.143641e+002	-1.048740e+001	2.298779e+001
3535008.666	-1.034115e+001	1.113411e+001	-2.464557e+000	1.127315e+002	-2.465725e+000	1.127848e+002	-1.039115e+001	2.168825e+001
3559445.407	-1.024895e+001	9.743347e+000	-2.479329e+000	1.111447e+002	-2.485374e+000	1.111897e+002	-1.030488e+001	2.044167e+001
3583882.149	-1.018172e+001	8.449608e+000	-2.500082e+000	1.095531e+002	-2.503192e+000	1.095762e+002	-1.022543e+001	1.918570e+001
3608318.891	-1.012259e+001	7.200414e+000	-2.523141e+000	1.079820e+002	-2.524984e+000	1.079762e+002	-1.015260e+001	1.790272e+001
3632755.633	-1.006599e+001	5.897802e+000	-2.542327e+000	1.063467e+002	-2.540124e+000	1.064320e+002	-1.008555e+001	1.667451e+001
3657192.374	-1.001892e+001	4.626158e+000	-2.555581e+000	1.047505e+002	-2.560210e+000	1.048267e+002	-1.002078e+001	1.535558e+001
3681629.116	-9.961395e+000	3.315514e+000	-2.574818e+000	1.031678e+002	-2.577652e+000	1.032405e+002	-9.966962e+000	1.410400e+001
3706065.858	-9.932988e+000	2.024300e+000	-2.589128e+000	1.015901e+002	-2.593209e+000	1.016605e+002	-9.923367e+000	1.291339e+001
3730502.600	-9.910655e+000	7.747906e-001	-2.614951e+000	1.000288e+002	-2.608059e+000	1.000986e+002	-9.874554e+000	1.155859e+001
3754939.341	-9.887208e+000	-4.825001e-001	-2.619151e+000	9.846088e+001	-2.630834e+000	9.849011e+001	-9.837639e+000	1.032360e+001
3779376.083	-9.861552e+000	-1.785582e+000	-2.635105e+000	9.688152e+001	-2.638934e+000	9.692741e+001	-9.809010e+000	9.096998e+000
3803812.825	-9.875875e+000	-3.147361e+000	-2.648404e+000	9.529304e+001	-2.656009e+000	9.536771e+001	-9.788993e+000	7.767277e+000
3828249.567	-9.852836e+000	-4.475088e+000	-2.669483e+000	9.369834e+001	-2.668625e+000	9.375199e+001	-9.768262e+000	6.575491e+000
3852686.308	-9.861503e+000	-5.761841e+000	-2.676991e+000	9.214709e+001	-2.680579e+000	9.219469e+001	-9.758996e+000	5.276328e+000
3877123.050	-9.879313e+000	-7.031879e+000	-2.687497e+000	9.056501e+001	-2.693592e+000	9.063805e+001	-9.750095e+000	4.038729e+000
3901559.792	-9.895379e+000	-8.318570e+000	-2.700922e+000	8.897184e+001	-2.707675e+000	8.907208e+001	-9.750779e+000	2.793705e+000
3925996.534	-9.924017e+000	-9.693538e+000	-2.712888e+000	8.745867e+001	-2.722162e+000	8.747958e+001	-9.756382e+000	1.542136e+000
3950433.276	-9.960976e+000	-1.092284e+001	-2.724484e+000	8.585120e+001	-2.727323e+000	8.593086e+001	-9.765985e+000	2.661171e-001
3974870.017	-9.998763e+000	-1.219829e+001	-2.740945e+000	8.430689e+001	-2.738703e+000	8.436556e+001	-9.778058e+000	-1.035170e+000
3999306.759	-1.004649e+001	-1.348843e+001	-2.743630e+000	8.275030e+001	-2.751036e+000	8.279960e+001	-9.798894e+000	-2.238918e+000
4023743.501	-1.009786e+001	-1.484356e+001	-2.758233e+000	8.118845e+001	-2.759213e+000	8.123417e+001	-9.833460e+000	-3.491768e+000
4048180.243	-1.017712e+001	-1.610670e+001	-2.764117e+000	7.960766e+001	-2.770837e+000	7.966499e+001	-9.864542e+000	-4.799772e+000
4072616.984	-1.025395e+001	-1.735980e+001	-2.780839e+000	7.806664e+001	-2.781838e+000	7.811010e+001	-9.910356e+000	-5.987838e+000
4097053.726	-1.033396e+001	-1.863280e+001	-2.786665e+000	7.648976e+001	-2.788162e+000	7.657469e+001	-9.956108e+000	-7.239927e+000
4121490.468	-1.042175e+001	-1.986229e+001	-2.786463e+000	7.495403e+001	-2.798178e+000	7.499112e+001	-1.000223e+001	-8.482136e+000
4145927.210	-1.052541e+001	-2.113945e+001	-2.802879e+000	7.335888e+001	-2.802228e+000	7.343531e+001	-1.006453e+001	-9.723038e+000
4170363.951	-1.063429e+001	-2.228560e+001	-2.803512e+000	7.183376e+001	-2.808575e+000	7.188117e+001	-1.014192e+001	-1.097997e+001
4194800.693	-1.074453e+001	-2.353062e+001	-2.812163e+000	7.027970e+001	-2.816648e+000	7.032405e+001	-1.020755e+001	-1.223340e+001
4219237.435	-1.088730e+001	-2.463543e+001	-2.818670e+000	6.874626e+001	-2.826516e+000	6.877027e+001	-1.028550e+001	-1.342970e+001
4243674.177	-1.103625e+001	-2.573977e+001	-2.829385e+000	6.716720e+001	-2.830581e+000	6.722593e+001	-1.037184e+001	-1.468161e+001
4268110.919	-1.117965e+001	-2.679581e+001	-2.826334e+000	6.561382e+001	-2.833897e+000	6.565834e+001	-1.047196e+001	-1.595251e+001
4292547.660	-1.133635e+001	-2.789096e+001	-2.830532e+000	6.406313e+001	-2.835264e+000	6.412757e+001	-1.057420e+001	-1.719078e+001
4316984.402	-1.150172e+001	-2.884444e+001	-2.833527e+000	6.253362e+001	-2.841140e+000	6.260490e+001	-1.068192e+001	-1.846842e+001
4341421.144	-1.167886e+001	-2.978090e+001	-2.830691e+000	6.098992e+001	-2.843103e+000	6.103033e+001	-1.080520e+001	-1.965600e+001
4365857.886	-1.187512e+001	-3.061800e+001	-2.832398e+000	5.943932e+001	-2.840357e+000	5.950415e+001	-1.093299e+001	-2.084619e+001
4390294.627	-1.203504e+001	-3.142895e+001	-2.831717e+000	5.794533e+001	-2.841143e+000	5.794097e+001	-1.107348e+001	-2.205343e+001
4414731.369	-1.224995e+001	-3.212097e+001	-2.833584e+000	5.637625e+001	-2.836530e+000	5.642072e+001	-1.122779e+001	-2.322898e+001
4439168.111	-1.245073e+001	-3.271122e+001	-2.827386e+000	5.476893e+001	-2.833421e+000	5.487833e+001	-1.137529e+001	-2.442209e+001
4463604.853	-1.264772e+001	-3.328780e+001	-2.818536e+000	5.323286e+001	-2.823987e+000	5.330131e+001	-1.155808e+001	-2.546189e+001
4488041.594	-1.285571e+001	-3.378655e+001	-2.810316e+000	5.168789e+001	-2.816227e+000	5.176284e+001	-1.172926e+001	-2.664228e+001
4512478.336	-1.305995e+001	-3.437047e+001	-2.807331e+000	5.013565e+001	-2.814225e+000	5.020376e+001	-1.191432e+001	-2.770303e+001
4536915.078	-1.327345e+001	-3.482927e+001	-2.799763e+000	4.853904e+001	-2.801864e+000	4.861472e+001	-1.212793e+001	-2.871257e+001
4561351.820	-1.346114e+001	-3.507951e+001	-2.787307e+000	4.698189e+001	-2.786776e+000	4.701417e+001	-1.232924e+001	-2.972756e+001
4585788.562	-1.367412e+001	-3.557967e+001	-2.774397e+000	4.535179e+001	-2.779256e+000	4.544633e+001	-1.254513e+001	-3.073077e+001
4610225.303	-1.387867e+001	-3.585649e+001	-2.759945e+000	4.374039e+001	-2.766351e+000	4.383498e+001	-1.278138e+001	-3.164602e+001
4634662.045	-1.410798e+001	-3.615958e+001	-2.751200e+000	4.213193e+001	-2.757568e+000	4.220754e+001	-1.302563e+001	-3.260718e+001
4659098.787	-1.432749e+001	-3.644209e+001	-2.742718e+000	4.051070e+001	-2.741479e+000	4.056301e+001	-1.328698e+001	-3.335935e+001
4683535.529	-1.456395e+001	-3.691865e+001	-2.723866e+000	3.883766e+001	-2.734477e+000	3.891115e+001	-1.353988e+001	-3.424467e+001
4707972.270	-1.479643e+001	-3.687695e+001	-2.720343e+000	3.721713e+001	-2.720647e+000	3.728619e+001	-1.382717e+001	-3.495361e+001
4732409.012	-1.504536e+001	-3.724729e+001	-2.707095e+000	3.554530e+001	-2.714232e+000	3.562600e+001	-1.411860e+001	-3.558718e+001
4756845.754	-1.531667e+001	-3.720342e+001	-2.701720e+000	3.390169e+001	-2.704202e+000	3.399257e+001	-1.442923e+001	-3.618639e+001
4781282.496	-1.559898e+001	-3.738789e+001	-2.688987e+000	3.221735e+001	-2.696072e+000	3.227948e+001	-1.475777e+001	-3.669195e+001
4805719.237	-1.587986e+001	-3.716609e+001	-2.680972e+000	3.054851e+001	-2.686991e+000	3.061294e+001	-1.509380e+001	-3.709703e+001
4830155.979	-1.619118e+001	-3.702539e+001	-2.675531e+000	2.885361e+001	-2.677305e+000	2.890531e+001	-1.543769e+001	-3.751878e+001
4854592.721	-1.650267e+001	-3.674245e+001	-2.666010e+000	2.713828e+001	-2.669935e+000	2.723480e+001	-1.582020e+001	-3.765591e+001
4879029.463	-1.684529e+001	-3.632667e+001	-2.659396e+000	2.545673e+001	-2.667042e+000	2.549799e+001	-1.619972e+001	-3.774665e+001
4903466.205	-1.716525e+001	-3.563447e+001	-2.659629e+000	2.376415e+001	-2.660720e+000	2.385668e+001	-1.659400e+001	-3.772648e+001
4927902.946	-1.753905e+001	-3.472743e+001	-2.654595e+000	2.204970e+001	-2.655705e+000	2.213335e+001	-1.702398e+001	-3.746378e+001
4952339.688	-1.788208e+001	-3.348470e+001	-2.653028e+000	2.035082e+001	-2.656266e+000	2.041277e+001	-1.744565e+001	-3.714183e+001
4976776.430	-1.824467e+001	-3.227520e+001	-2.648274e+000	1.864330e+001	-2.653362e+000	1.871666e+001	-1.791501e+001	-3.658420e+001
5001213.172	-1.855969e+001	-3.051720e+001	-2.647289e+000	1.695404e+001	-2.652828e+000	1.701236e+001	-1.837448e+001	-3.579168e+001
5025649.913	-1.885396e+001	-2.869193e+001	-2.645389e+000	1.525076e+001	-2.652746e+000	1.529404e+001	-1.886607e+001	-3.476714e+001
5050086.655	-1.915910e+001	-2.647744e+001	-2.643974e+000	1.353731e+001	-2.652373e+000	1.363245e+001	-1.937492e+001	-3.314693e+001
5074523.397	-1.941749e+001	-2.419362e+001	-2.646774e+000	1.187088e+001	-2.650056e+000	1.191779e+001	-1.987818e+001	-3.142989e+001
5098960.139	-1.965780e+001	-2.172718e+001	-2.640275e+000	1.014693e+001	-2.646583e+000	1.023835e+001	-2.038687e+001	-2.914689e+001
5123396.880	-1.985899e+001	-1.929869e+001	-2.640742e+000	8.426672e+000	-2.649361e+000	8.501997e+000	-2.093331e+001	-2.658119e+001
5147833.622	-2.003439e+001	-1.650902e+001	-2.636538e+000	6.717394e+000	-2.644417e+000	6.780163e+000	-2.141221e+001	-2.325687e+001
5172270.364	-2.018847e+001	-1.367050e+001	-2.638092e+000	4.984166e+000	-2.643178e+000	5.062198e+000	-2.185939e+001	-1.919632e+001
5196707.106	-2.029036e+001	-1.053764e+001	-2.638181e+000	3.261014e+000	-2.643579e+000	3.316475e+000	-2.225093e+001	-1.459244e+001
5221143.847	-2.037766e+001	-7.340366e+000	-2.636482e+000	1.511845e+000	-2.646292e+000	1.586731e+000	-2.252904e+001	-9.489579e+000
5245580.589	-2.038340e+001	-4.088693e+000	-2.639734e+000	-2.363380e-001	-2.648327e+000	-1.809910e-001	-2.266667e+001	-3.929530e+000
5270017.331	-2.036528e+001	-6.029315e-001	-2.646879e+000	-1.979431e+000	-2.653034e+000	-1.914104e+000	-2.270849e+001	1.731407e+000
5294454.073	-2.022783e+001	2.899777e+000	-2.651950e+000	-3.717481e+000	-2.659669e+000	-3.666016e+000	-2.255357e+001	7.075491e+000
5318890.815	-2.005856e+001	5.953987e+000	-2.664261e+000	-5.480521e+000	-2.675112e+000	-5.410158e+000	-2.236603e+001	1.230774e+001
5343327.556	-1.988103e+001	9.142900e+000	-2.676998e+000	-7.201890e+000	-2.678479e+000	-7.147330e+000	-2.204112e+001	1.685848e+001
5367764.298	-1.960639e+001	1.190578e+001	-2.683051e+000	-8.955410e+000	-2.690154e+000	-8.870889e+000	-2.162603e+001	2.078330e+001
5392201.040	-1.931634e+001	1.441949e+001	-2.692880e+000	-1.068536e+001	-2.703321e+000	-1.061408e+001	-2.121615e+001	2.439490e+001
5416637.782	-1.898340e+001	1.669067e+001	-2.706416e+000	-1.244215e+001	-2.715983e+000	-1.234907e+001	-2.070770e+001	2.738655e+001
5441074.523	-1.864645e+001	1.869791e+001	-2.720942e+000	-1.417909e+001	-2.721686e+000	-1.408870e+001	-2.021519e+001	2.975679e+001
5465511.265	-1.827855e+001	2.041423e+001	-2.731994e+000	-1.588937e+001	-2.741233e+000	-1.580911e+001	-1.973905e+001	3.177536e+001
