!Agilent Technologies,E5061B,MY49101568,A.02.00
!Date: Mon Feb 27 18:07:14 2023
!Data & Calibration Information:
!Freq	S11:SOLT2(ON)	S21:SOLT2(ON)	S12:SOLT2(ON)	S22:SOLT2(ON)
# Hz S dB R 50
1800000.000	-1.105914e+001	-3.262406e+001	-1.672659e+000	-1.248757e+002	-1.661405e+000	-1.248478e+002	-1.118666e+001	-2.722394e+001
1824436.742	-1.127406e+001	-3.396307e+001	-1.682179e+000	-1.265925e+002	-1.656773e+000	-1.265406e+002	-1.135588e+001	-2.866717e+001
1848873.484	-1.148487e+001	-3.525325e+001	-1.671649e+000	-1.283761e+002	-1.643256e+000	-1.283001e+002	-1.157203e+001	-2.988900e+001
1873310.225	-1.172918e+001	-3.644035e+001	-1.652839e+000	-1.301163e+002	-1.638579e+000	-1.299744e+002	-1.180565e+001	-3.112397e+001
1897746.967	-1.197809e+001	-3.742280e+001	-1.656314e+000	-1.317658e+002	-1.644078e+000	-1.317234e+002	-1.204490e+001	-3.247065e+001
1922183.709	-1.223821e+001	-3.873695e+001	-1.656734e+000	-1.335145e+002	-1.633897e+000	-1.334505e+002	-1.228442e+001	-3.367871e+001
1946620.451	-1.249992e+001	-3.984319e+001	-1.640434e+000	-1.352579e+002	-1.626728e+000	-1.352335e+002	-1.253875e+001	-3.474400e+001
1971057.192	-1.279384e+001	-4.094800e+001	-1.629911e+000	-1.369900e+002	-1.623928e+000	-1.369435e+002	-1.283620e+001	-3.585473e+001
1995493.934	-1.308836e+001	-4.201707e+001	-1.621054e+000	-1.387337e+002	-1.610467e+000	-1.386598e+002	-1.312452e+001	-3.701729e+001
2019930.676	-1.343191e+001	-4.304884e+001	-1.617025e+000	-1.404638e+002	-1.612931e+000	-1.403977e+002	-1.343163e+001	-3.815602e+001
2044367.418	-1.376890e+001	-4.412385e+001	-1.623837e+000	-1.422287e+002	-1.603837e+000	-1.422516e+002	-1.374966e+001	-3.906660e+001
2068804.159	-1.411080e+001	-4.495592e+001	-1.605249e+000	-1.440114e+002	-1.603584e+000	-1.439252e+002	-1.409160e+001	-3.997373e+001
2093240.901	-1.444023e+001	-4.578518e+001	-1.600797e+000	-1.458006e+002	-1.604492e+000	-1.457215e+002	-1.446135e+001	-4.064255e+001
2117677.643	-1.489682e+001	-4.654456e+001	-1.606273e+000	-1.475241e+002	-1.602481e+000	-1.474404e+002	-1.482177e+001	-4.158058e+001
2142114.385	-1.531022e+001	-4.726938e+001	-1.598254e+000	-1.492670e+002	-1.600175e+000	-1.492184e+002	-1.526661e+001	-4.216328e+001
2166551.127	-1.573755e+001	-4.765131e+001	-1.598123e+000	-1.510966e+002	-1.589547e+000	-1.509609e+002	-1.567872e+001	-4.270742e+001
2190987.868	-1.624496e+001	-4.811557e+001	-1.602461e+000	-1.527621e+002	-1.596263e+000	-1.527842e+002	-1.614404e+001	-4.326739e+001
2215424.610	-1.672596e+001	-4.835701e+001	-1.590074e+000	-1.545782e+002	-1.596992e+000	-1.545610e+002	-1.662640e+001	-4.343520e+001
2239861.352	-1.724354e+001	-4.846738e+001	-1.591621e+000	-1.563925e+002	-1.594060e+000	-1.563216e+002	-1.712443e+001	-4.356897e+001
2264298.094	-1.784840e+001	-4.840835e+001	-1.604603e+000	-1.581465e+002	-1.595496e+000	-1.580446e+002	-1.768426e+001	-4.377200e+001
2288734.835	-1.839843e+001	-4.786841e+001	-1.594144e+000	-1.599111e+002	-1.596287e+000	-1.598724e+002	-1.826969e+001	-4.305419e+001
2313171.577	-1.906938e+001	-4.698379e+001	-1.604779e+000	-1.616714e+002	-1.598999e+000	-1.616310e+002	-1.891036e+001	-4.251457e+001
2337608.319	-1.970274e+001	-4.578939e+001	-1.606158e+000	-1.634838e+002	-1.599408e+000	-1.634532e+002	-1.954372e+001	-4.143308e+001
2362045.061	-2.040479e+001	-4.410639e+001	-1.607732e+000	-1.652261e+002	-1.600797e+000	-1.652670e+002	-2.020965e+001	-3.978138e+001
2386481.802	-2.112420e+001	-4.176934e+001	-1.606408e+000	-1.670087e+002	-1.607667e+000	-1.670223e+002	-2.093153e+001	-3.751800e+001
2410918.544	-2.186762e+001	-3.871375e+001	-1.616759e+000	-1.687965e+002	-1.610987e+000	-1.687990e+002	-2.168232e+001	-3.493319e+001
2435355.286	-2.256525e+001	-3.486847e+001	-1.627641e+000	-1.706010e+002	-1.623480e+000	-1.705544e+002	-2.240136e+001	-3.140333e+001
2459792.028	-2.328388e+001	-2.996612e+001	-1.630549e+000	-1.724089e+002	-1.625869e+000	-1.723803e+002	-2.306096e+001	-2.673158e+001
2484228.769	-2.385417e+001	-2.431490e+001	-1.626061e+000	-1.741681e+002	-1.642718e+000	-1.741667e+002	-2.371578e+001	-2.076574e+001
2508665.511	-2.437952e+001	-1.759025e+001	-1.647400e+000	-1.759599e+002	-1.644753e+000	-1.759121e+002	-2.422284e+001	-1.387761e+001
2533102.253	-2.465784e+001	-9.829973e+000	-1.653446e+000	-1.777758e+002	-1.657382e+000	-1.776801e+002	-2.455508e+001	-6.492807e+000
2557538.995	-2.471333e+001	-1.956325e+000	-1.662458e+000	-1.795585e+002	-1.668203e+000	-1.795104e+002	-2.463918e+001	1.362248e+000
2581975.737	-2.453282e+001	6.151535e+000	-1.664493e+000	1.786751e+002	-1.678890e+000	1.786700e+002	-2.443074e+001	9.347827e+000
2606412.478	-2.418809e+001	1.316973e+001	-1.686414e+000	1.768144e+002	-1.686092e+000	1.768660e+002	-2.404421e+001	1.617477e+001
2630849.220	-2.362652e+001	1.963200e+001	-1.697746e+000	1.750504e+002	-1.704263e+000	1.751180e+002	-2.353150e+001	2.287713e+001
2655285.962	-2.296227e+001	2.481906e+001	-1.716314e+000	1.732996e+002	-1.716516e+000	1.733290e+002	-2.292095e+001	2.825781e+001
2679722.704	-2.225273e+001	2.932965e+001	-1.723296e+000	1.714982e+002	-1.727967e+000	1.715683e+002	-2.215100e+001	3.232532e+001
2704159.445	-2.154894e+001	3.256047e+001	-1.746615e+000	1.697413e+002	-1.745198e+000	1.698359e+002	-2.147698e+001	3.600155e+001
2728596.187	-2.084158e+001	3.499998e+001	-1.757510e+000	1.679723e+002	-1.765948e+000	1.679979e+002	-2.080761e+001	3.827414e+001
2753032.929	-2.016386e+001	3.692878e+001	-1.774972e+000	1.661637e+002	-1.782170e+000	1.662460e+002	-2.011512e+001	4.015829e+001
2777469.671	-1.950380e+001	3.825874e+001	-1.786579e+000	1.643943e+002	-1.808576e+000	1.644942e+002	-1.951703e+001	4.149933e+001
2801906.412	-1.888683e+001	3.917645e+001	-1.814197e+000	1.626847e+002	-1.821309e+000	1.627125e+002	-1.888905e+001	4.258392e+001
2826343.154	-1.830761e+001	3.965446e+001	-1.827467e+000	1.609019e+002	-1.837842e+000	1.609565e+002	-1.832216e+001	4.308856e+001
2850779.896	-1.776044e+001	3.985327e+001	-1.855073e+000	1.591722e+002	-1.855438e+000	1.591799e+002	-1.776880e+001	4.359462e+001
2875216.638	-1.725478e+001	3.984800e+001	-1.875710e+000	1.573819e+002	-1.872853e+000	1.574970e+002	-1.726347e+001	4.359497e+001
2899653.380	-1.673663e+001	3.977686e+001	-1.888167e+000	1.556415e+002	-1.894399e+000	1.556917e+002	-1.678838e+001	4.337113e+001
2924090.121	-1.631650e+001	3.943631e+001	-1.909397e+000	1.539363e+002	-1.924909e+000	1.540044e+002	-1.632131e+001	4.318962e+001
2948526.863	-1.590907e+001	3.900027e+001	-1.936013e+000	1.522159e+002	-1.937068e+000	1.522119e+002	-1.590288e+001	4.283768e+001
2972963.605	-1.550343e+001	3.847350e+001	-1.955615e+000	1.504558e+002	-1.959987e+000	1.505252e+002	-1.551865e+001	4.227000e+001
2997400.347	-1.513263e+001	3.764738e+001	-1.977431e+000	1.487073e+002	-1.983053e+000	1.487788e+002	-1.515303e+001	4.164458e+001
3021837.088	-1.477852e+001	3.689345e+001	-2.001810e+000	1.469866e+002	-1.997302e+000	1.470530e+002	-1.479769e+001	4.096664e+001
3046273.830	-1.445409e+001	3.604161e+001	-2.025826e+000	1.453082e+002	-2.023769e+000	1.453476e+002	-1.445763e+001	4.018431e+001
3070710.572	-1.413657e+001	3.518424e+001	-2.046956e+000	1.435945e+002	-2.048862e+000	1.436470e+002	-1.414664e+001	3.931543e+001
3095147.314	-1.382096e+001	3.429354e+001	-2.071023e+000	1.419245e+002	-2.078577e+000	1.419626e+002	-1.385792e+001	3.853493e+001
3119584.055	-1.356528e+001	3.319490e+001	-2.106320e+000	1.402023e+002	-2.103583e+000	1.402302e+002	-1.358258e+001	3.762316e+001
3144020.797	-1.330217e+001	3.220595e+001	-2.118608e+000	1.385308e+002	-2.127540e+000	1.385972e+002	-1.331637e+001	3.666976e+001
3168457.539	-1.306030e+001	3.111389e+001	-2.141684e+000	1.368475e+002	-2.148922e+000	1.368705e+002	-1.307695e+001	3.557969e+001
3192894.281	-1.282387e+001	2.995643e+001	-2.163749e+000	1.351758e+002	-2.170667e+000	1.351998e+002	-1.283649e+001	3.458733e+001
3217331.023	-1.262673e+001	2.879764e+001	-2.192064e+000	1.334765e+002	-2.199486e+000	1.335091e+002	-1.262352e+001	3.356437e+001
3241767.764	-1.240867e+001	2.770941e+001	-2.211120e+000	1.318230e+002	-2.217372e+000	1.318622e+002	-1.240474e+001	3.241397e+001
3266204.506	-1.221675e+001	2.649064e+001	-2.236520e+000	1.301670e+002	-2.240082e+000	1.301943e+002	-1.221453e+001	3.131975e+001
3290641.248	-1.202832e+001	2.535085e+001	-2.254595e+000	1.284788e+002	-2.263066e+000	1.285392e+002	-1.202767e+001	3.021828e+001
3315077.990	-1.185759e+001	2.404433e+001	-2.279810e+000	1.268558e+002	-2.285926e+000	1.268901e+002	-1.185408e+001	2.904249e+001
3339514.731	-1.169898e+001	2.289760e+001	-2.304264e+000	1.252323e+002	-2.306112e+000	1.252328e+002	-1.168652e+001	2.791247e+001
3363951.473	-1.156595e+001	2.169755e+001	-2.322536e+000	1.235384e+002	-2.332543e+000	1.236017e+002	-1.154030e+001	2.676766e+001
3388388.215	-1.140885e+001	2.033963e+001	-2.346914e+000	1.219008e+002	-2.351713e+000	1.219405e+002	-1.139088e+001	2.561476e+001
3412824.957	-1.128604e+001	1.919172e+001	-2.368237e+000	1.202905e+002	-2.372643e+000	1.203430e+002	-1.125454e+001	2.438586e+001
3437261.698	-1.116125e+001	1.789729e+001	-2.393376e+000	1.186733e+002	-2.396215e+000	1.187027e+002	-1.113258e+001	2.325447e+001
3461698.440	-1.106886e+001	1.656830e+001	-2.409200e+000	1.170304e+002	-2.417213e+000	1.170842e+002	-1.101553e+001	2.201073e+001
3486135.182	-1.094159e+001	1.534868e+001	-2.432196e+000	1.154161e+002	-2.435603e+000	1.154645e+002	-1.090792e+001	2.083676e+001
3510571.924	-1.084095e+001	1.402154e+001	-2.449783e+000	1.137940e+002	-2.454306e+000	1.138345e+002	-1.080266e+001	1.961120e+001
3535008.666	-1.076384e+001	1.287739e+001	-2.471445e+000	1.121616e+002	-2.474186e+000	1.122349e+002	-1.070960e+001	1.839038e+001
3559445.407	-1.068756e+001	1.151954e+001	-2.485034e+000	1.105852e+002	-2.493863e+000	1.106221e+002	-1.062348e+001	1.716369e+001
3583882.149	-1.060409e+001	1.011220e+001	-2.507937e+000	1.089623e+002	-2.512156e+000	1.090169e+002	-1.054635e+001	1.596804e+001
3608318.891	-1.054817e+001	8.869280e+000	-2.525203e+000	1.073599e+002	-2.530831e+000	1.073892e+002	-1.048181e+001	1.477262e+001
3632755.633	-1.049420e+001	7.488035e+000	-2.544273e+000	1.057509e+002	-2.546849e+000	1.058087e+002	-1.041152e+001	1.356172e+001
3657192.374	-1.043681e+001	6.219328e+000	-2.559434e+000	1.041360e+002	-2.561493e+000	1.041751e+002	-1.034153e+001	1.232309e+001
3681629.116	-1.039297e+001	4.955605e+000	-2.578959e+000	1.025490e+002	-2.579929e+000	1.026141e+002	-1.029283e+001	1.112671e+001
3706065.858	-1.036659e+001	3.642012e+000	-2.587864e+000	1.009162e+002	-2.594776e+000	1.010253e+002	-1.026118e+001	9.912256e+000
3730502.600	-1.034153e+001	2.306469e+000	-2.606887e+000	9.934758e+001	-2.610817e+000	9.944327e+001	-1.021085e+001	8.670598e+000
3754939.341	-1.032112e+001	9.907423e-001	-2.623503e+000	9.777918e+001	-2.627437e+000	9.782255e+001	-1.017839e+001	7.438089e+000
3779376.083	-1.030109e+001	-3.369320e-001	-2.636446e+000	9.616258e+001	-2.639890e+000	9.622573e+001	-1.015725e+001	6.291323e+000
3803812.825	-1.029638e+001	-1.638933e+000	-2.649848e+000	9.459442e+001	-2.656083e+000	9.464182e+001	-1.013478e+001	4.993805e+000
3828249.567	-1.029784e+001	-2.963596e+000	-2.660742e+000	9.299565e+001	-2.666097e+000	9.302526e+001	-1.012512e+001	3.836693e+000
3852686.308	-1.030911e+001	-4.360227e+000	-2.676048e+000	9.139772e+001	-2.683067e+000	9.146188e+001	-1.011474e+001	2.643545e+000
3877123.050	-1.033180e+001	-5.583562e+000	-2.689126e+000	8.982183e+001	-2.690493e+000	8.988252e+001	-1.010430e+001	1.432312e+000
3901559.792	-1.034856e+001	-6.886958e+000	-2.702699e+000	8.821855e+001	-2.703705e+000	8.827944e+001	-1.011233e+001	2.072838e-001
3925996.534	-1.038354e+001	-8.300813e+000	-2.708711e+000	8.662920e+001	-2.715399e+000	8.668416e+001	-1.011520e+001	-9.925920e-001
3950433.276	-1.043103e+001	-9.550539e+000	-2.720336e+000	8.502670e+001	-2.723234e+000	8.510668e+001	-1.013461e+001	-2.202556e+000
3974870.017	-1.047236e+001	-1.086993e+001	-2.737168e+000	8.345015e+001	-2.736407e+000	8.351667e+001	-1.015531e+001	-3.410087e+000
3999306.759	-1.053794e+001	-1.222042e+001	-2.743493e+000	8.187142e+001	-2.746937e+000	8.194286e+001	-1.017971e+001	-4.584339e+000
4023743.501	-1.060028e+001	-1.357876e+001	-2.752065e+000	8.027806e+001	-2.756803e+000	8.033513e+001	-1.021622e+001	-5.800389e+000
4048180.243	-1.068248e+001	-1.481142e+001	-2.768051e+000	7.869116e+001	-2.772441e+000	7.874212e+001	-1.025771e+001	-7.013007e+000
4072616.984	-1.076752e+001	-1.618547e+001	-2.774756e+000	7.711680e+001	-2.778598e+000	7.716050e+001	-1.030267e+001	-8.226268e+000
4097053.726	-1.086253e+001	-1.743887e+001	-2.782898e+000	7.552367e+001	-2.788180e+000	7.559518e+001	-1.035247e+001	-9.371408e+000
4121490.468	-1.097687e+001	-1.873491e+001	-2.789704e+000	7.393013e+001	-2.802461e+000	7.398129e+001	-1.040617e+001	-1.053277e+001
4145927.210	-1.110259e+001	-1.999954e+001	-2.798656e+000	7.233920e+001	-2.808860e+000	7.241720e+001	-1.046431e+001	-1.169023e+001
4170363.951	-1.123388e+001	-2.114444e+001	-2.809706e+000	7.077519e+001	-2.811592e+000	7.082563e+001	-1.053321e+001	-1.289543e+001
4194800.693	-1.137654e+001	-2.233343e+001	-2.815870e+000	6.919334e+001	-2.823622e+000	6.924041e+001	-1.061716e+001	-1.410514e+001
4219237.435	-1.153880e+001	-2.351101e+001	-2.827087e+000	6.761651e+001	-2.836968e+000	6.766528e+001	-1.069949e+001	-1.523275e+001
4243674.177	-1.170760e+001	-2.451981e+001	-2.834369e+000	6.605305e+001	-2.844844e+000	6.610373e+001	-1.078151e+001	-1.645017e+001
4268110.919	-1.189715e+001	-2.552873e+001	-2.845869e+000	6.447455e+001	-2.850030e+000	6.451037e+001	-1.088398e+001	-1.762225e+001
4292547.660	-1.208496e+001	-2.642400e+001	-2.850946e+000	6.291190e+001	-2.856571e+000	6.297239e+001	-1.099133e+001	-1.878803e+001
4316984.402	-1.230141e+001	-2.735855e+001	-2.857323e+000	6.136342e+001	-2.863267e+000	6.142261e+001	-1.109975e+001	-2.001318e+001
4341421.144	-1.251434e+001	-2.798518e+001	-2.868258e+000	5.980856e+001	-2.868272e+000	5.986227e+001	-1.122972e+001	-2.112025e+001
4365857.886	-1.275231e+001	-2.857550e+001	-2.863764e+000	5.824180e+001	-2.874102e+000	5.829645e+001	-1.135070e+001	-2.231338e+001
4390294.627	-1.294770e+001	-2.910657e+001	-2.872883e+000	5.673417e+001	-2.879773e+000	5.675345e+001	-1.150319e+001	-2.342866e+001
4414731.369	-1.319392e+001	-2.941568e+001	-2.874635e+000	5.517687e+001	-2.878841e+000	5.522515e+001	-1.165502e+001	-2.449158e+001
4439168.111	-1.340976e+001	-2.957495e+001	-2.866969e+000	5.360322e+001	-2.880744e+000	5.370477e+001	-1.181745e+001	-2.559816e+001
4463604.853	-1.364553e+001	-2.971499e+001	-2.868202e+000	5.204997e+001	-2.874476e+000	5.212942e+001	-1.200299e+001	-2.671802e+001
4488041.594	-1.383406e+001	-2.967942e+001	-2.860615e+000	5.053170e+001	-2.872600e+000	5.059235e+001	-1.218210e+001	-2.768769e+001
4512478.336	-1.403973e+001	-2.974946e+001	-2.856755e+000	4.898118e+001	-2.865258e+000	4.903810e+001	-1.237142e+001	-2.868244e+001
4536915.078	-1.422853e+001	-2.973529e+001	-2.849934e+000	4.737438e+001	-2.856885e+000	4.746502e+001	-1.258865e+001	-2.968389e+001
4561351.820	-1.440533e+001	-2.945372e+001	-2.840331e+000	4.580548e+001	-2.847896e+000	4.587685e+001	-1.280670e+001	-3.058952e+001
4585788.562	-1.456872e+001	-2.959500e+001	-2.829454e+000	4.418244e+001	-2.839376e+000	4.428944e+001	-1.302733e+001	-3.147818e+001
4610225.303	-1.473500e+001	-2.940768e+001	-2.816847e+000	4.260081e+001	-2.827008e+000	4.268555e+001	-1.327149e+001	-3.225934e+001
4634662.045	-1.490845e+001	-2.926413e+001	-2.811238e+000	4.095258e+001	-2.817189e+000	4.106944e+001	-1.351411e+001	-3.303926e+001
4659098.787	-1.507542e+001	-2.922174e+001	-2.802244e+000	3.934092e+001	-2.803353e+000	3.943397e+001	-1.378857e+001	-3.382027e+001
4683535.529	-1.526072e+001	-2.928354e+001	-2.787214e+000	3.773959e+001	-2.796645e+000	3.778569e+001	-1.405426e+001	-3.427277e+001
4707972.270	-1.543645e+001	-2.909163e+001	-2.780489e+000	3.605951e+001	-2.787000e+000	3.613242e+001	-1.436293e+001	-3.489847e+001
4732409.012	-1.559884e+001	-2.895941e+001	-2.772870e+000	3.442579e+001	-2.778997e+000	3.448257e+001	-1.466026e+001	-3.533834e+001
4756845.754	-1.578746e+001	-2.876491e+001	-2.769889e+000	3.275895e+001	-2.771820e+000	3.285066e+001	-1.497168e+001	-3.579298e+001
4781282.496	-1.596820e+001	-2.865032e+001	-2.757776e+000	3.107072e+001	-2.767334e+000	3.114117e+001	-1.529123e+001	-3.598677e+001
4805719.237	-1.615998e+001	-2.851611e+001	-2.746528e+000	2.942403e+001	-2.756608e+000	2.949322e+001	-1.564022e+001	-3.617211e+001
4830155.979	-1.638240e+001	-2.831520e+001	-2.743638e+000	2.774276e+001	-2.750748e+000	2.781025e+001	-1.599077e+001	-3.626815e+001
4854592.721	-1.657817e+001	-2.814296e+001	-2.743707e+000	2.607792e+001	-2.745520e+000	2.614425e+001	-1.635701e+001	-3.607296e+001
4879029.463	-1.679733e+001	-2.789514e+001	-2.735018e+000	2.439756e+001	-2.735952e+000	2.445506e+001	-1.672901e+001	-3.586964e+001
4903466.205	-1.702765e+001	-2.774914e+001	-2.730227e+000	2.273989e+001	-2.735789e+000	2.278121e+001	-1.712746e+001	-3.555021e+001
4927902.946	-1.729590e+001	-2.745090e+001	-2.722738e+000	2.100674e+001	-2.727256e+000	2.108490e+001	-1.753937e+001	-3.489393e+001
4952339.688	-1.756642e+001	-2.709806e+001	-2.716323e+000	1.931435e+001	-2.719021e+000	1.940909e+001	-1.797005e+001	-3.407020e+001
4976776.430	-1.788130e+001	-2.653629e+001	-2.708260e+000	1.762269e+001	-2.716602e+000	1.767793e+001	-1.841520e+001	-3.319401e+001
5001213.172	-1.820366e+001	-2.570752e+001	-2.701746e+000	1.590490e+001	-2.710446e+000	1.599717e+001	-1.884220e+001	-3.182192e+001
5025649.913	-1.856222e+001	-2.469759e+001	-2.696835e+000	1.418307e+001	-2.706413e+000	1.424430e+001	-1.929696e+001	-3.010731e+001
5050086.655	-1.891191e+001	-2.339769e+001	-2.689930e+000	1.245507e+001	-2.698956e+000	1.253414e+001	-1.974552e+001	-2.801106e+001
5074523.397	-1.928356e+001	-2.164215e+001	-2.690636e+000	1.072579e+001	-2.694768e+000	1.078710e+001	-2.017712e+001	-2.562309e+001
5098960.139	-1.966621e+001	-1.946636e+001	-2.690773e+000	8.992577e+000	-2.692034e+000	9.060113e+000	-2.059984e+001	-2.264905e+001
5123396.880	-1.999680e+001	-1.680283e+001	-2.685577e+000	7.260451e+000	-2.694837e+000	7.323024e+000	-2.095712e+001	-1.929487e+001
5147833.622	-2.030344e+001	-1.370860e+001	-2.685022e+000	5.450326e+000	-2.692766e+000	5.559793e+000	-2.129315e+001	-1.544278e+001
5172270.364	-2.051894e+001	-1.019964e+001	-2.688885e+000	3.723722e+000	-2.695065e+000	3.800992e+000	-2.154795e+001	-1.118229e+001
5196707.106	-2.071345e+001	-6.412834e+000	-2.694815e+000	1.935480e+000	-2.699871e+000	2.041097e+000	-2.171705e+001	-6.731828e+000
5221143.847	-2.078394e+001	-2.396221e+000	-2.698084e+000	2.028693e-001	-2.706796e+000	2.915700e-001	-2.176400e+001	-1.923023e+000
5245580.589	-2.075757e+001	1.667883e+000	-2.708741e+000	-1.555539e+000	-2.711709e+000	-1.500461e+000	-2.172503e+001	2.673526e+000
5270017.331	-2.065998e+001	5.680968e+000	-2.715808e+000	-3.330467e+000	-2.723181e+000	-3.254655e+000	-2.155621e+001	7.164273e+000
5294454.073	-2.048156e+001	9.371705e+000	-2.726841e+000	-5.068904e+000	-2.734647e+000	-5.021339e+000	-2.131257e+001	1.137451e+001
5318890.815	-2.021835e+001	1.304522e+001	-2.735348e+000	-6.800776e+000	-2.749121e+000	-6.723193e+000	-2.101333e+001	1.514365e+001
5343327.556	-1.992599e+001	1.602148e+001	-2.752527e+000	-8.544130e+000	-2.753280e+000	-8.488469e+000	-2.064772e+001	1.838142e+001
5367764.298	-1.961331e+001	1.883555e+001	-2.765001e+000	-1.028340e+001	-2.772763e+000	-1.020851e+001	-2.027195e+001	2.120830e+001
5392201.040	-1.922484e+001	2.140293e+001	-2.780657e+000	-1.201316e+001	-2.784509e+000	-1.192322e+001	-1.987628e+001	2.374877e+001
5416637.782	-1.885109e+001	2.338545e+001	-2.792183e+000	-1.374047e+001	-2.801302e+000	-1.365422e+001	-1.946016e+001	2.581752e+001
5441074.523	-1.845438e+001	2.518152e+001	-2.808726e+000	-1.545702e+001	-2.812668e+000	-1.538574e+001	-1.902252e+001	2.767383e+001
5465511.265	-1.804248e+001	2.655598e+001	-2.823362e+000	-1.718643e+001	-2.827984e+000	-1.711596e+001	-1.857808e+001	2.903710e+001
