!Agilent Technologies,E5061B,MY49101568,A.02.00
!Date: Wed Mar 01 16:38:22 2023
!Data & Calibration Information:
!Freq	S11:SOLT2(OFF)	S21:SOLT2(OFF)	S12:SOLT2(OFF)	S22:SOLT2(OFF)
# Hz S dB R 50
1800000.000	-9.468763e+000	-1.826240e+001	-2.569961e+001	-1.323125e+002	-2.570423e+001	-1.324747e+002	-9.816344e+000	3.399521e+001
1824436.742	-9.569412e+000	-2.256638e+001	-2.527432e+001	-1.360670e+002	-2.529155e+001	-1.360920e+002	-9.966310e+000	3.002890e+001
1848873.484	-9.675995e+000	-2.695452e+001	-2.484588e+001	-1.398164e+002	-2.487186e+001	-1.399217e+002	-1.013416e+001	2.600616e+001
1873310.225	-9.789379e+000	-3.140396e+001	-2.439872e+001	-1.437988e+002	-2.444106e+001	-1.438577e+002	-1.031862e+001	2.205617e+001
1897746.967	-9.904703e+000	-3.594038e+001	-2.396996e+001	-1.480266e+002	-2.400333e+001	-1.478773e+002	-1.050036e+001	1.811458e+001
1922183.709	-1.002514e+001	-4.060935e+001	-2.354348e+001	-1.520644e+002	-2.356555e+001	-1.520818e+002	-1.072726e+001	1.419937e+001
1946620.451	-1.015169e+001	-4.538526e+001	-2.308261e+001	-1.563496e+002	-2.312747e+001	-1.563194e+002	-1.095001e+001	1.040317e+001
1971057.192	-1.028726e+001	-5.030684e+001	-2.263936e+001	-1.605642e+002	-2.268600e+001	-1.605927e+002	-1.114869e+001	6.791335e+000
1995493.934	-1.043460e+001	-5.534926e+001	-2.217696e+001	-1.650862e+002	-2.221714e+001	-1.650077e+002	-1.133421e+001	3.031932e+000
2019930.676	-1.059210e+001	-6.052204e+001	-2.171553e+001	-1.697822e+002	-2.174166e+001	-1.696802e+002	-1.153556e+001	-8.821458e-001
2044367.418	-1.076304e+001	-6.583757e+001	-2.122023e+001	-1.746276e+002	-2.126320e+001	-1.744453e+002	-1.174064e+001	-4.641041e+000
2068804.159	-1.094872e+001	-7.126469e+001	-2.074255e+001	-1.796290e+002	-2.078706e+001	-1.793768e+002	-1.191462e+001	-8.258583e+000
2093240.901	-1.114810e+001	-7.685218e+001	-2.024664e+001	1.755305e+002	-2.031194e+001	1.755227e+002	-1.203561e+001	-1.201654e+001
2117677.643	-1.136471e+001	-8.260559e+001	-1.978223e+001	1.700709e+002	-1.983480e+001	1.702627e+002	-1.214260e+001	-1.626111e+001
2142114.385	-1.159919e+001	-8.854692e+001	-1.928628e+001	1.646454e+002	-1.935460e+001	1.648364e+002	-1.225300e+001	-2.079429e+001
2166551.127	-1.185826e+001	-9.467726e+001	-1.881415e+001	1.589640e+002	-1.888468e+001	1.592384e+002	-1.241025e+001	-2.548938e+001
2190987.868	-1.214091e+001	-1.009693e+002	-1.835707e+001	1.530431e+002	-1.842322e+001	1.534520e+002	-1.255273e+001	-3.012492e+001
2215424.610	-1.245002e+001	-1.074574e+002	-1.789692e+001	1.470479e+002	-1.797799e+001	1.474831e+002	-1.269942e+001	-3.501172e+001
2239861.352	-1.277916e+001	-1.141214e+002	-1.747257e+001	1.409262e+002	-1.754507e+001	1.413453e+002	-1.283846e+001	-4.009330e+001
2264298.094	-1.313164e+001	-1.210285e+002	-1.705731e+001	1.345314e+002	-1.713172e+001	1.350920e+002	-1.298263e+001	-4.533641e+001
2288734.835	-1.351075e+001	-1.281332e+002	-1.665810e+001	1.281235e+002	-1.672953e+001	1.287030e+002	-1.312744e+001	-5.074682e+001
2313171.577	-1.391535e+001	-1.354578e+002	-1.630314e+001	1.215014e+002	-1.635052e+001	1.221612e+002	-1.326997e+001	-5.634423e+001
2337608.319	-1.434034e+001	-1.429894e+002	-1.593974e+001	1.148075e+002	-1.598953e+001	1.154805e+002	-1.341376e+001	-6.210976e+001
2362045.061	-1.478051e+001	-1.507350e+002	-1.561161e+001	1.080206e+002	-1.565566e+001	1.086960e+002	-1.354919e+001	-6.798758e+001
2386481.802	-1.522013e+001	-1.587569e+002	-1.530933e+001	1.010833e+002	-1.534502e+001	1.017942e+002	-1.366950e+001	-7.411939e+001
2410918.544	-1.566267e+001	-1.670556e+002	-1.504253e+001	9.412812e+001	-1.506237e+001	9.483886e+001	-1.377591e+001	-8.044462e+001
2435355.286	-1.608961e+001	-1.756159e+002	-1.478657e+001	8.708210e+001	-1.480285e+001	8.781539e+001	-1.386289e+001	-8.704212e+001
2459792.028	-1.649640e+001	1.755098e+002	-1.456188e+001	8.002248e+001	-1.456800e+001	8.076042e+001	-1.393435e+001	-9.385723e+001
2484228.769	-1.685611e+001	1.663880e+002	-1.435215e+001	7.283348e+001	-1.435713e+001	7.364040e+001	-1.398934e+001	-1.009612e+002
2508665.511	-1.717695e+001	1.569403e+002	-1.418835e+001	6.561960e+001	-1.417493e+001	6.645535e+001	-1.402453e+001	-1.083001e+002
2533102.253	-1.744253e+001	1.473929e+002	-1.404415e+001	5.859435e+001	-1.402139e+001	5.926622e+001	-1.404864e+001	-1.158380e+002
2557538.995	-1.761998e+001	1.376165e+002	-1.392942e+001	5.137940e+001	-1.389702e+001	5.204205e+001	-1.405416e+001	-1.236358e+002
2581975.737	-1.771901e+001	1.277972e+002	-1.384179e+001	4.419598e+001	-1.380239e+001	4.485408e+001	-1.404630e+001	-1.315882e+002
2606412.478	-1.774184e+001	1.180241e+002	-1.377853e+001	3.706399e+001	-1.373327e+001	3.766813e+001	-1.402431e+001	-1.396996e+002
2630849.220	-1.768034e+001	1.083285e+002	-1.374919e+001	2.997602e+001	-1.369444e+001	3.051482e+001	-1.398001e+001	-1.479468e+002
2655285.962	-1.755061e+001	9.883107e+001	-1.374212e+001	2.293034e+001	-1.368316e+001	2.341392e+001	-1.393180e+001	-1.562582e+002
2679722.704	-1.736265e+001	8.959601e+001	-1.376562e+001	1.597209e+001	-1.369818e+001	1.639697e+001	-1.387481e+001	-1.645698e+002
2704159.445	-1.712124e+001	8.064205e+001	-1.381394e+001	9.093409e+000	-1.373812e+001	9.494913e+000	-1.380977e+001	-1.728250e+002
2728596.187	-1.684612e+001	7.206016e+001	-1.387759e+001	2.316052e+000	-1.381171e+001	2.655026e+000	-1.374565e+001	1.788718e+002
2753032.929	-1.655547e+001	6.380665e+001	-1.397300e+001	-4.333160e+000	-1.390194e+001	-4.064556e+000	-1.367591e+001	1.707541e+002
2777469.671	-1.625141e+001	5.591988e+001	-1.407997e+001	-1.084114e+001	-1.400973e+001	-1.062959e+001	-1.360610e+001	1.628132e+002
2801906.412	-1.594212e+001	4.835313e+001	-1.420932e+001	-1.722710e+001	-1.414022e+001	-1.707842e+001	-1.354350e+001	1.550039e+002
2826343.154	-1.564133e+001	4.114859e+001	-1.434672e+001	-2.346821e+001	-1.428456e+001	-2.335897e+001	-1.348124e+001	1.474358e+002
2850779.896	-1.534764e+001	3.423557e+001	-1.450007e+001	-2.954290e+001	-1.444418e+001	-2.948319e+001	-1.343060e+001	1.401021e+002
2875216.638	-1.506375e+001	2.761379e+001	-1.466611e+001	-3.549940e+001	-1.461052e+001	-3.546186e+001	-1.338311e+001	1.329871e+002
2899653.380	-1.479503e+001	2.128129e+001	-1.483741e+001	-4.129192e+001	-1.478359e+001	-4.127557e+001	-1.334235e+001	1.261962e+002
2924090.121	-1.454233e+001	1.520981e+001	-1.501312e+001	-4.690079e+001	-1.496479e+001	-4.693861e+001	-1.330695e+001	1.196246e+002
2948526.863	-1.430192e+001	9.381110e+000	-1.518720e+001	-5.240178e+001	-1.514882e+001	-5.245426e+001	-1.327967e+001	1.133111e+002
2972963.605	-1.407469e+001	3.801844e+000	-1.536403e+001	-5.771963e+001	-1.533581e+001	-5.780969e+001	-1.325576e+001	1.072720e+002
2997400.347	-1.385946e+001	-1.597433e+000	-1.554047e+001	-6.291384e+001	-1.551821e+001	-6.300534e+001	-1.323447e+001	1.014261e+002
3021837.088	-1.365758e+001	-6.803403e+000	-1.571279e+001	-6.794248e+001	-1.569637e+001	-6.806570e+001	-1.321425e+001	9.582378e+001
3046273.830	-1.346837e+001	-1.185132e+001	-1.587511e+001	-7.285390e+001	-1.586601e+001	-7.300078e+001	-1.320169e+001	9.038893e+001
3070710.572	-1.329092e+001	-1.674328e+001	-1.603097e+001	-7.768390e+001	-1.602602e+001	-7.784096e+001	-1.319723e+001	8.515799e+001
3095147.314	-1.313088e+001	-2.146131e+001	-1.617655e+001	-8.243749e+001	-1.618296e+001	-8.259869e+001	-1.319595e+001	8.011027e+001
3119584.055	-1.297556e+001	-2.605447e+001	-1.632014e+001	-8.709921e+001	-1.632822e+001	-8.725007e+001	-1.319789e+001	7.524729e+001
3144020.797	-1.282933e+001	-3.051301e+001	-1.644893e+001	-9.164144e+001	-1.646543e+001	-9.181230e+001	-1.320426e+001	7.058331e+001
3168457.539	-1.269589e+001	-3.485243e+001	-1.657073e+001	-9.612321e+001	-1.659474e+001	-9.630825e+001	-1.321572e+001	6.603359e+001
3192894.281	-1.257301e+001	-3.908360e+001	-1.668297e+001	-1.005601e+002	-1.671372e+001	-1.007400e+002	-1.323077e+001	6.162005e+001
3217331.023	-1.245843e+001	-4.321530e+001	-1.678666e+001	-1.049695e+002	-1.682126e+001	-1.051364e+002	-1.325137e+001	5.735692e+001
3241767.764	-1.235235e+001	-4.723247e+001	-1.688572e+001	-1.093532e+002	-1.692526e+001	-1.094989e+002	-1.327362e+001	5.324872e+001
3266204.506	-1.225186e+001	-5.113146e+001	-1.698152e+001	-1.136587e+002	-1.702815e+001	-1.137831e+002	-1.329572e+001	4.928304e+001
3290641.248	-1.215271e+001	-5.494554e+001	-1.707229e+001	-1.178230e+002	-1.712173e+001	-1.179480e+002	-1.331076e+001	4.540707e+001
3315077.990	-1.205910e+001	-5.877341e+001	-1.713466e+001	-1.218910e+002	-1.718821e+001	-1.219912e+002	-1.332600e+001	4.152347e+001
3339514.731	-1.197659e+001	-6.252774e+001	-1.717280e+001	-1.260043e+002	-1.723136e+001	-1.260779e+002	-1.335652e+001	3.770050e+001
3363951.473	-1.190745e+001	-6.622036e+001	-1.719909e+001	-1.301590e+002	-1.726176e+001	-1.302007e+002	-1.339960e+001	3.398679e+001
3388388.215	-1.184753e+001	-6.983540e+001	-1.721374e+001	-1.343439e+002	-1.728221e+001	-1.343721e+002	-1.344931e+001	3.038315e+001
3412824.957	-1.179761e+001	-7.338569e+001	-1.722130e+001	-1.385765e+002	-1.729156e+001	-1.385638e+002	-1.350622e+001	2.688279e+001
3437261.698	-1.175545e+001	-7.685749e+001	-1.722133e+001	-1.428198e+002	-1.729433e+001	-1.427910e+002	-1.357062e+001	2.349191e+001
3461698.440	-1.172332e+001	-8.027021e+001	-1.721327e+001	-1.471252e+002	-1.729091e+001	-1.470613e+002	-1.364163e+001	2.019469e+001
3486135.182	-1.169931e+001	-8.359641e+001	-1.720217e+001	-1.514746e+002	-1.728274e+001	-1.513862e+002	-1.372048e+001	1.702174e+001
3510571.924	-1.168358e+001	-8.686376e+001	-1.718998e+001	-1.558298e+002	-1.726971e+001	-1.557246e+002	-1.380131e+001	1.394338e+001
3535008.666	-1.167477e+001	-9.004616e+001	-1.717332e+001	-1.602232e+002	-1.725475e+001	-1.600685e+002	-1.388507e+001	1.099415e+001
3559445.407	-1.167426e+001	-9.316580e+001	-1.715411e+001	-1.646048e+002	-1.723463e+001	-1.644456e+002	-1.397054e+001	8.146913e+000
3583882.149	-1.168031e+001	-9.622111e+001	-1.712639e+001	-1.690226e+002	-1.720572e+001	-1.688245e+002	-1.405775e+001	5.371586e+000
3608318.891	-1.169765e+001	-9.922311e+001	-1.708814e+001	-1.734620e+002	-1.717305e+001	-1.732475e+002	-1.415157e+001	2.683282e+000
3632755.633	-1.172317e+001	-1.021330e+002	-1.704462e+001	-1.779688e+002	-1.712539e+001	-1.776573e+002	-1.425141e+001	2.489886e-002
3657192.374	-1.176080e+001	-1.049737e+002	-1.699125e+001	1.775150e+002	-1.707136e+001	1.778090e+002	-1.436034e+001	-2.509040e+000
3681629.116	-1.181580e+001	-1.076885e+002	-1.692468e+001	1.728448e+002	-1.700708e+001	1.731655e+002	-1.448546e+001	-4.899877e+000
3706065.858	-1.188050e+001	-1.102195e+002	-1.685870e+001	1.680321e+002	-1.694112e+001	1.683790e+002	-1.462540e+001	-7.077492e+000
3730502.600	-1.194927e+001	-1.125754e+002	-1.679606e+001	1.630968e+002	-1.688075e+001	1.634716e+002	-1.476642e+001	-9.030648e+000
3754939.341	-1.201589e+001	-1.147255e+002	-1.675018e+001	1.580650e+002	-1.683104e+001	1.584486e+002	-1.490385e+001	-1.071495e+001
3779376.083	-1.207561e+001	-1.167060e+002	-1.670849e+001	1.529591e+002	-1.678701e+001	1.533718e+002	-1.503225e+001	-1.215388e+001
3803812.825	-1.212460e+001	-1.185319e+002	-1.667206e+001	1.477787e+002	-1.675444e+001	1.481751e+002	-1.513656e+001	-1.333479e+001
3828249.567	-1.216197e+001	-1.201808e+002	-1.664466e+001	1.424489e+002	-1.672350e+001	1.428924e+002	-1.521993e+001	-1.427820e+001
3852686.308	-1.217845e+001	-1.216697e+002	-1.663945e+001	1.370091e+002	-1.671290e+001	1.374616e+002	-1.526299e+001	-1.496063e+001
3877123.050	-1.217235e+001	-1.230330e+002	-1.664457e+001	1.315187e+002	-1.672207e+001	1.319758e+002	-1.526072e+001	-1.553095e+001
3901559.792	-1.213478e+001	-1.242789e+002	-1.667446e+001	1.259018e+002	-1.675279e+001	1.263876e+002	-1.520292e+001	-1.598174e+001
3925996.534	-1.206708e+001	-1.254455e+002	-1.672774e+001	1.202446e+002	-1.680539e+001	1.207317e+002	-1.509627e+001	-1.643919e+001
3950433.276	-1.196415e+001	-1.265837e+002	-1.680494e+001	1.144996e+002	-1.688694e+001	1.149986e+002	-1.493930e+001	-1.694405e+001
3974870.017	-1.182152e+001	-1.277370e+002	-1.691372e+001	1.086907e+002	-1.700066e+001	1.092624e+002	-1.473037e+001	-1.760037e+001
3999306.759	-1.163803e+001	-1.289776e+002	-1.706180e+001	1.029129e+002	-1.714144e+001	1.034829e+002	-1.448432e+001	-1.840869e+001
4023743.501	-1.142099e+001	-1.303446e+002	-1.723702e+001	9.706780e+001	-1.732147e+001	9.767770e+001	-1.419921e+001	-1.944055e+001
4048180.243	-1.117121e+001	-1.319179e+002	-1.745964e+001	9.126287e+001	-1.754262e+001	9.192760e+001	-1.388327e+001	-2.075317e+001
4072616.984	-1.089486e+001	-1.337157e+002	-1.772750e+001	8.549648e+001	-1.781040e+001	8.621753e+001	-1.354657e+001	-2.236225e+001
4097053.726	-1.059927e+001	-1.358179e+002	-1.805465e+001	7.988528e+001	-1.813608e+001	8.057619e+001	-1.319151e+001	-2.426504e+001
4121490.468	-1.029972e+001	-1.382270e+002	-1.842524e+001	7.447396e+001	-1.850965e+001	7.523720e+001	-1.284240e+001	-2.654067e+001
4145927.210	-1.000245e+001	-1.409177e+002	-1.885252e+001	6.927665e+001	-1.892876e+001	7.012855e+001	-1.249902e+001	-2.909096e+001
4170363.951	-9.711382e+000	-1.438945e+002	-1.933919e+001	6.447780e+001	-1.940618e+001	6.530552e+001	-1.216902e+001	-3.188495e+001
4194800.693	-9.440387e+000	-1.472177e+002	-1.988749e+001	6.017777e+001	-1.994990e+001	6.110619e+001	-1.185716e+001	-3.502143e+001
4219237.435	-9.199542e+000	-1.507963e+002	-2.047411e+001	5.667421e+001	-2.053112e+001	5.765006e+001	-1.157803e+001	-3.840311e+001
4243674.177	-9.002697e+000	-1.545922e+002	-2.104964e+001	5.411492e+001	-2.109741e+001	5.510929e+001	-1.133936e+001	-4.196175e+001
4268110.919	-8.852013e+000	-1.584748e+002	-2.155127e+001	5.226996e+001	-2.159309e+001	5.330874e+001	-1.114356e+001	-4.556633e+001
4292547.660	-8.735881e+000	-1.623696e+002	-2.198012e+001	5.087810e+001	-2.200844e+001	5.192171e+001	-1.097832e+001	-4.914682e+001
4316984.402	-8.649252e+000	-1.662764e+002	-2.233404e+001	4.983699e+001	-2.235798e+001	5.091352e+001	-1.083457e+001	-5.269547e+001
4341421.144	-8.590997e+000	-1.702081e+002	-2.259952e+001	4.921843e+001	-2.262715e+001	5.033870e+001	-1.070862e+001	-5.626490e+001
4365857.886	-8.562859e+000	-1.741114e+002	-2.275295e+001	4.866759e+001	-2.275518e+001	4.978994e+001	-1.061003e+001	-5.976606e+001
4390294.627	-8.556528e+000	-1.779253e+002	-2.280071e+001	4.781335e+001	-2.279820e+001	4.894348e+001	-1.052265e+001	-6.319085e+001
4414731.369	-8.555385e+000	1.783393e+002	-2.283977e+001	4.644334e+001	-2.282928e+001	4.754335e+001	-1.043395e+001	-6.649791e+001
4439168.111	-8.543000e+000	1.745603e+002	-2.295438e+001	4.484983e+001	-2.294306e+001	4.602452e+001	-1.032411e+001	-6.981648e+001
4463604.853	-8.524850e+000	1.705694e+002	-2.316702e+001	4.406465e+001	-2.314470e+001	4.522328e+001	-1.019765e+001	-7.326819e+001
4488041.594	-8.530826e+000	1.661976e+002	-2.333773e+001	4.501434e+001	-2.330883e+001	4.617531e+001	-1.006755e+001	-7.703621e+001
4512478.336	-8.604603e+000	1.614882e+002	-2.320031e+001	4.750051e+001	-2.315815e+001	4.860035e+001	-9.976248e+000	-8.113566e+001
4536915.078	-8.783796e+000	1.567799e+002	-2.257864e+001	4.924043e+001	-2.253560e+001	5.039854e+001	-9.954856e+000	-8.537813e+001
4561351.820	-9.039012e+000	1.524506e+002	-2.176761e+001	4.830948e+001	-2.171197e+001	4.944279e+001	-9.998420e+000	-8.939465e+001
4585788.562	-9.301727e+000	1.485536e+002	-2.109169e+001	4.540664e+001	-2.102338e+001	4.648563e+001	-1.005164e+001	-9.307335e+001
4610225.303	-9.556199e+000	1.447273e+002	-2.055527e+001	4.212282e+001	-2.048625e+001	4.320653e+001	-1.008695e+001	-9.667605e+001
4634662.045	-9.829507e+000	1.408336e+002	-2.006282e+001	3.887622e+001	-1.997984e+001	3.983701e+001	-1.012209e+001	-1.003311e+002
4659098.787	-1.013638e+001	1.370008e+002	-1.957875e+001	3.527714e+001	-1.949288e+001	3.621677e+001	-1.016682e+001	-1.040083e+002
4683535.529	-1.046684e+001	1.332147e+002	-1.912598e+001	3.147916e+001	-1.904215e+001	3.236091e+001	-1.021906e+001	-1.076854e+002
4707972.270	-1.082105e+001	1.294097e+002	-1.871550e+001	2.768971e+001	-1.862302e+001	2.851145e+001	-1.027145e+001	-1.114075e+002
4732409.012	-1.122024e+001	1.254326e+002	-1.828994e+001	2.409403e+001	-1.819843e+001	2.485103e+001	-1.032880e+001	-1.153045e+002
4756845.754	-1.170744e+001	1.213932e+002	-1.779208e+001	2.044587e+001	-1.769994e+001	2.112500e+001	-1.041968e+001	-1.194194e+002
4781282.496	-1.230021e+001	1.176309e+002	-1.723583e+001	1.617741e+001	-1.713928e+001	1.683211e+001	-1.056634e+001	-1.236069e+002
4805719.237	-1.297718e+001	1.144091e+002	-1.667776e+001	1.123763e+001	-1.658944e+001	1.180062e+001	-1.076127e+001	-1.276669e+002
4830155.979	-1.369898e+001	1.117868e+002	-1.617998e+001	5.766105e+000	-1.609084e+001	6.274866e+000	-1.098538e+001	-1.315442e+002
4854592.721	-1.446018e+001	1.097750e+002	-1.573161e+001	-5.073345e-004	-1.564671e+001	4.695471e-001	-1.123347e+001	-1.352963e+002
4879029.463	-1.524652e+001	1.083998e+002	-1.532890e+001	-5.953130e+000	-1.524928e+001	-5.513246e+000	-1.149881e+001	-1.389316e+002
4903466.205	-1.604854e+001	1.077321e+002	-1.496410e+001	-1.204219e+001	-1.489013e+001	-1.162995e+001	-1.178878e+001	-1.424273e+002
4927902.946	-1.684152e+001	1.078812e+002	-1.463488e+001	-1.825638e+001	-1.456797e+001	-1.786208e+001	-1.209912e+001	-1.457890e+002
4952339.688	-1.759304e+001	1.088496e+002	-1.434412e+001	-2.460535e+001	-1.428062e+001	-2.422022e+001	-1.242989e+001	-1.489924e+002
4976776.430	-1.826349e+001	1.105458e+002	-1.409183e+001	-3.099230e+001	-1.402935e+001	-3.063162e+001	-1.277157e+001	-1.519979e+002
5001213.172	-1.882275e+001	1.127587e+002	-1.387182e+001	-3.745991e+001	-1.381690e+001	-3.708269e+001	-1.312346e+001	-1.547594e+002
5025649.913	-1.926382e+001	1.152289e+002	-1.368732e+001	-4.391203e+001	-1.363692e+001	-4.353814e+001	-1.347697e+001	-1.573451e+002
5050086.655	-1.959059e+001	1.176533e+002	-1.353322e+001	-5.035206e+001	-1.348621e+001	-4.998376e+001	-1.383141e+001	-1.597327e+002
5074523.397	-1.982658e+001	1.199033e+002	-1.340540e+001	-5.675023e+001	-1.336132e+001	-5.638227e+001	-1.418024e+001	-1.619371e+002
5098960.139	-2.000119e+001	1.218580e+002	-1.330072e+001	-6.311458e+001	-1.326071e+001	-6.274652e+001	-1.452399e+001	-1.639811e+002
5123396.880	-2.013515e+001	1.234742e+002	-1.321521e+001	-6.944614e+001	-1.317638e+001	-6.905749e+001	-1.486170e+001	-1.658723e+002
5147833.622	-2.024705e+001	1.248048e+002	-1.314389e+001	-7.571573e+001	-1.310612e+001	-7.533666e+001	-1.518924e+001	-1.675910e+002
5172270.364	-2.034755e+001	1.258913e+002	-1.308737e+001	-8.195926e+001	-1.305230e+001	-8.157510e+001	-1.550213e+001	-1.691426e+002
5196707.106	-2.044882e+001	1.267308e+002	-1.304389e+001	-8.817259e+001	-1.301068e+001	-8.779976e+001	-1.579588e+001	-1.704796e+002
5221143.847	-2.056433e+001	1.274282e+002	-1.301651e+001	-9.432478e+001	-1.298319e+001	-9.403436e+001	-1.605865e+001	-1.716621e+002
5245580.589	-2.069998e+001	1.279150e+002	-1.300022e+001	-1.005219e+002	-1.296969e+001	-1.002180e+002	-1.628791e+001	-1.727734e+002
5270017.331	-2.086396e+001	1.283504e+002	-1.299905e+001	-1.066693e+002	-1.297111e+001	-1.063974e+002	-1.647948e+001	-1.738010e+002
5294454.073	-2.106533e+001	1.287920e+002	-1.301054e+001	-1.127705e+002	-1.298452e+001	-1.125252e+002	-1.663146e+001	-1.748968e+002
5318890.815	-2.130217e+001	1.293854e+002	-1.303425e+001	-1.188549e+002	-1.300774e+001	-1.186026e+002	-1.674732e+001	-1.760483e+002
5343327.556	-2.156100e+001	1.301883e+002	-1.306272e+001	-1.249021e+002	-1.303970e+001	-1.246556e+002	-1.683074e+001	-1.772808e+002
5367764.298	-2.183190e+001	1.311962e+002	-1.309788e+001	-1.309255e+002	-1.307577e+001	-1.306979e+002	-1.688322e+001	-1.785992e+002
5392201.040	-2.212245e+001	1.323851e+002	-1.314100e+001	-1.369559e+002	-1.312174e+001	-1.367371e+002	-1.689858e+001	1.799221e+002
5416637.782	-2.243819e+001	1.338784e+002	-1.319204e+001	-1.429952e+002	-1.317654e+001	-1.427853e+002	-1.688165e+001	1.782426e+002
5441074.523	-2.276938e+001	1.357787e+002	-1.325662e+001	-1.490185e+002	-1.324406e+001	-1.488391e+002	-1.683401e+001	1.762913e+002
