!Agilent Technologies,E5061B,MY49101568,A.02.00
!Date: Wed Mar 01 16:29:53 2023
!Data & Calibration Information:
!Freq	S11:SOLT2(OFF)	S21:SOLT2(OFF)	S12:SOLT2(OFF)	S22:SOLT2(OFF)
# Hz S dB R 50
1800000.000	-9.926518e+000	-1.824483e+001	-2.391764e+001	-1.478794e+002	-2.393169e+001	-1.481633e+002	-1.008914e+001	3.542617e+001
1824436.742	-1.006041e+001	-2.243118e+001	-2.351042e+001	-1.517565e+002	-2.353233e+001	-1.519902e+002	-1.026463e+001	3.148520e+001
1848873.484	-1.020337e+001	-2.669540e+001	-2.311062e+001	-1.557928e+002	-2.313010e+001	-1.559729e+002	-1.045734e+001	2.759985e+001
1873310.225	-1.035317e+001	-3.099357e+001	-2.272521e+001	-1.600332e+002	-2.273116e+001	-1.601687e+002	-1.066435e+001	2.377074e+001
1897746.967	-1.050898e+001	-3.537148e+001	-2.232920e+001	-1.640843e+002	-2.234301e+001	-1.643357e+002	-1.087028e+001	1.993286e+001
1922183.709	-1.067361e+001	-3.983212e+001	-2.194091e+001	-1.686064e+002	-2.197044e+001	-1.687164e+002	-1.109750e+001	1.622289e+001
1946620.451	-1.084708e+001	-4.436346e+001	-2.156301e+001	-1.731862e+002	-2.160901e+001	-1.732148e+002	-1.133135e+001	1.259589e+001
1971057.192	-1.102810e+001	-4.907312e+001	-2.121837e+001	-1.771540e+002	-2.128891e+001	-1.775861e+002	-1.153300e+001	9.144531e+000
1995493.934	-1.122033e+001	-5.379124e+001	-2.091125e+001	1.781476e+002	-2.091460e+001	1.783469e+002	-1.172881e+001	5.298929e+000
2019930.676	-1.143777e+001	-5.866368e+001	-2.046184e+001	1.740672e+002	-2.051390e+001	1.741354e+002	-1.194445e+001	1.472601e+000
2044367.418	-1.167210e+001	-6.360719e+001	-1.999552e+001	1.695453e+002	-2.006654e+001	1.695154e+002	-1.221703e+001	-2.226140e+000
2068804.159	-1.191976e+001	-6.855935e+001	-1.956185e+001	1.643940e+002	-1.965273e+001	1.646212e+002	-1.242847e+001	-5.443419e+000
2093240.901	-1.217401e+001	-7.358041e+001	-1.920525e+001	1.594978e+002	-1.925637e+001	1.596027e+002	-1.256425e+001	-8.785127e+000
2117677.643	-1.244462e+001	-7.874475e+001	-1.881538e+001	1.544289e+002	-1.887920e+001	1.546468e+002	-1.265042e+001	-1.268667e+001
2142114.385	-1.272252e+001	-8.407718e+001	-1.841635e+001	1.496481e+002	-1.849316e+001	1.498835e+002	-1.276500e+001	-1.729054e+001
2166551.127	-1.302601e+001	-8.960110e+001	-1.797707e+001	1.445767e+002	-1.803805e+001	1.448736e+002	-1.295414e+001	-2.192066e+001
2190987.868	-1.336174e+001	-9.539649e+001	-1.749313e+001	1.392483e+002	-1.755925e+001	1.395159e+002	-1.318301e+001	-2.649669e+001
2215424.610	-1.374407e+001	-1.012084e+002	-1.705679e+001	1.332296e+002	-1.711912e+001	1.336346e+002	-1.337956e+001	-3.094349e+001
2239861.352	-1.415246e+001	-1.071030e+002	-1.665497e+001	1.271604e+002	-1.672264e+001	1.275824e+002	-1.356035e+001	-3.554045e+001
2264298.094	-1.457794e+001	-1.130808e+002	-1.629283e+001	1.208980e+002	-1.635643e+001	1.213751e+002	-1.372615e+001	-4.028555e+001
2288734.835	-1.501409e+001	-1.191747e+002	-1.597283e+001	1.146157e+002	-1.602560e+001	1.151420e+002	-1.387628e+001	-4.527785e+001
2313171.577	-1.547267e+001	-1.255086e+002	-1.565887e+001	1.082839e+002	-1.570741e+001	1.088575e+002	-1.402870e+001	-5.048889e+001
2337608.319	-1.594774e+001	-1.320309e+002	-1.536288e+001	1.018931e+002	-1.540750e+001	1.024828e+002	-1.417716e+001	-5.587024e+001
2362045.061	-1.643650e+001	-1.388124e+002	-1.508369e+001	9.545906e+001	-1.512983e+001	9.603800e+001	-1.431601e+001	-6.150491e+001
2386481.802	-1.692105e+001	-1.458644e+002	-1.483985e+001	8.891849e+001	-1.487738e+001	8.950367e+001	-1.443991e+001	-6.735704e+001
2410918.544	-1.738380e+001	-1.532899e+002	-1.462781e+001	8.233889e+001	-1.465109e+001	8.295515e+001	-1.454350e+001	-7.354001e+001
2435355.286	-1.781426e+001	-1.612143e+002	-1.444057e+001	7.575486e+001	-1.445956e+001	7.640794e+001	-1.461468e+001	-7.998921e+001
2459792.028	-1.820733e+001	-1.698755e+002	-1.427495e+001	6.934557e+001	-1.428830e+001	7.000666e+001	-1.466408e+001	-8.696735e+001
2484228.769	-1.859222e+001	-1.795318e+002	-1.410303e+001	6.302714e+001	-1.410973e+001	6.372663e+001	-1.471688e+001	-9.447794e+001
2508665.511	-1.900014e+001	1.702502e+002	-1.390508e+001	5.655418e+001	-1.390240e+001	5.721747e+001	-1.480941e+001	-1.023218e+002
2533102.253	-1.937058e+001	1.598726e+002	-1.373466e+001	4.986082e+001	-1.372415e+001	5.048712e+001	-1.489501e+001	-1.101749e+002
2557538.995	-1.964273e+001	1.493044e+002	-1.360165e+001	4.298759e+001	-1.358573e+001	4.360371e+001	-1.496467e+001	-1.182162e+002
2581975.737	-1.977769e+001	1.384439e+002	-1.351240e+001	3.612313e+001	-1.348784e+001	3.668663e+001	-1.500124e+001	-1.264258e+002
2606412.478	-1.977903e+001	1.273949e+002	-1.345594e+001	2.928542e+001	-1.342626e+001	2.982166e+001	-1.501097e+001	-1.348137e+002
2630849.220	-1.965533e+001	1.162072e+002	-1.342675e+001	2.252699e+001	-1.338801e+001	2.304223e+001	-1.500237e+001	-1.434378e+002
2655285.962	-1.945202e+001	1.053001e+002	-1.341797e+001	1.578280e+001	-1.336972e+001	1.624384e+001	-1.498451e+001	-1.521661e+002
2679722.704	-1.915050e+001	9.486429e+001	-1.344234e+001	9.012032e+000	-1.339152e+001	9.402499e+000	-1.495187e+001	-1.608259e+002
2704159.445	-1.874726e+001	8.490341e+001	-1.351191e+001	2.419508e+000	-1.346301e+001	2.784601e+000	-1.486935e+001	-1.693615e+002
2728596.187	-1.830073e+001	7.524213e+001	-1.360090e+001	-3.980272e+000	-1.354490e+001	-3.615353e+000	-1.476973e+001	-1.780758e+002
2753032.929	-1.784330e+001	6.591517e+001	-1.369048e+001	-1.019040e+001	-1.363137e+001	-9.907324e+000	-1.467139e+001	1.732885e+002
2777469.671	-1.741389e+001	5.711785e+001	-1.378285e+001	-1.635958e+001	-1.372908e+001	-1.613132e+001	-1.458516e+001	1.647524e+002
2801906.412	-1.699135e+001	4.892344e+001	-1.390077e+001	-2.249567e+001	-1.384504e+001	-2.232631e+001	-1.450750e+001	1.565225e+002
2826343.154	-1.658277e+001	4.123221e+001	-1.403559e+001	-2.852713e+001	-1.398207e+001	-2.840244e+001	-1.442133e+001	1.485916e+002
2850779.896	-1.618604e+001	3.397674e+001	-1.419092e+001	-3.440545e+001	-1.413720e+001	-3.432883e+001	-1.434376e+001	1.409367e+002
2875216.638	-1.581483e+001	2.709613e+001	-1.435685e+001	-4.016848e+001	-1.430648e+001	-4.009255e+001	-1.426504e+001	1.335663e+002
2899653.380	-1.546694e+001	2.060019e+001	-1.453068e+001	-4.575595e+001	-1.448687e+001	-4.574840e+001	-1.419601e+001	1.265580e+002
2924090.121	-1.513435e+001	1.442375e+001	-1.472083e+001	-5.122934e+001	-1.468047e+001	-5.122966e+001	-1.411905e+001	1.198718e+002
2948526.863	-1.482296e+001	8.552036e+000	-1.491518e+001	-5.652581e+001	-1.488416e+001	-5.654843e+001	-1.404745e+001	1.134874e+002
2972963.605	-1.452526e+001	2.916382e+000	-1.512044e+001	-6.162066e+001	-1.509294e+001	-6.166494e+001	-1.396956e+001	1.073804e+002
2997400.347	-1.424352e+001	-2.509667e+000	-1.532234e+001	-6.649259e+001	-1.530058e+001	-6.657717e+001	-1.388351e+001	1.014902e+002
3021837.088	-1.397788e+001	-7.769136e+000	-1.551036e+001	-7.118901e+001	-1.549694e+001	-7.128076e+001	-1.379353e+001	9.577328e+001
3046273.830	-1.373554e+001	-1.286217e+001	-1.568519e+001	-7.577230e+001	-1.568156e+001	-7.588315e+001	-1.371923e+001	9.021781e+001
3070710.572	-1.351061e+001	-1.780133e+001	-1.585196e+001	-8.025174e+001	-1.585062e+001	-8.037611e+001	-1.365151e+001	8.483213e+001
3095147.314	-1.330551e+001	-2.258423e+001	-1.600320e+001	-8.462719e+001	-1.601081e+001	-8.478585e+001	-1.359589e+001	7.962246e+001
3119584.055	-1.311493e+001	-2.721922e+001	-1.614598e+001	-8.895677e+001	-1.615832e+001	-8.910854e+001	-1.354534e+001	7.456688e+001
3144020.797	-1.293964e+001	-3.169626e+001	-1.627820e+001	-9.322784e+001	-1.629724e+001	-9.339987e+001	-1.351001e+001	6.972835e+001
3168457.539	-1.277901e+001	-3.604329e+001	-1.640595e+001	-9.747111e+001	-1.642843e+001	-9.763350e+001	-1.348341e+001	6.504946e+001
3192894.281	-1.263123e+001	-4.027326e+001	-1.652170e+001	-1.016775e+002	-1.655324e+001	-1.018354e+002	-1.346135e+001	6.053955e+001
3217331.023	-1.249118e+001	-4.436830e+001	-1.663526e+001	-1.058433e+002	-1.667470e+001	-1.059717e+002	-1.344424e+001	5.620187e+001
3241767.764	-1.236056e+001	-4.835634e+001	-1.674684e+001	-1.099427e+002	-1.679301e+001	-1.100515e+002	-1.343166e+001	5.200923e+001
3266204.506	-1.223736e+001	-5.223203e+001	-1.685679e+001	-1.139730e+002	-1.690325e+001	-1.140768e+002	-1.341570e+001	4.796456e+001
3290641.248	-1.211495e+001	-5.602900e+001	-1.695865e+001	-1.178886e+002	-1.701081e+001	-1.179794e+002	-1.339451e+001	4.401142e+001
3315077.990	-1.200064e+001	-5.978359e+001	-1.703731e+001	-1.217297e+002	-1.709658e+001	-1.217946e+002	-1.337751e+001	4.012278e+001
3339514.731	-1.189581e+001	-6.348479e+001	-1.710318e+001	-1.255815e+002	-1.716409e+001	-1.256180e+002	-1.337195e+001	3.627531e+001
3363951.473	-1.180081e+001	-6.711255e+001	-1.715474e+001	-1.294467e+002	-1.721967e+001	-1.294596e+002	-1.337256e+001	3.254652e+001
3388388.215	-1.171483e+001	-7.066876e+001	-1.719981e+001	-1.333222e+002	-1.727052e+001	-1.333027e+002	-1.337892e+001	2.892932e+001
3412824.957	-1.163517e+001	-7.416450e+001	-1.723586e+001	-1.372021e+002	-1.731368e+001	-1.371368e+002	-1.339109e+001	2.539180e+001
3437261.698	-1.156399e+001	-7.759143e+001	-1.726795e+001	-1.411020e+002	-1.734578e+001	-1.410049e+002	-1.340701e+001	2.195671e+001
3461698.440	-1.150007e+001	-8.094682e+001	-1.729537e+001	-1.450092e+002	-1.737742e+001	-1.448837e+002	-1.342847e+001	1.861550e+001
3486135.182	-1.144001e+001	-8.425373e+001	-1.731984e+001	-1.489247e+002	-1.740283e+001	-1.487779e+002	-1.345459e+001	1.536952e+001
3510571.924	-1.138751e+001	-8.747940e+001	-1.734388e+001	-1.528630e+002	-1.742691e+001	-1.526854e+002	-1.348310e+001	1.223393e+001
3535008.666	-1.134155e+001	-9.064838e+001	-1.736266e+001	-1.568213e+002	-1.744966e+001	-1.565936e+002	-1.351253e+001	9.175172e+000
3559445.407	-1.129635e+001	-9.375354e+001	-1.738742e+001	-1.607286e+002	-1.747517e+001	-1.604754e+002	-1.353907e+001	6.241192e+000
3583882.149	-1.125397e+001	-9.679263e+001	-1.741316e+001	-1.646101e+002	-1.750257e+001	-1.643316e+002	-1.356079e+001	3.368776e+000
3608318.891	-1.121162e+001	-9.979974e+001	-1.743746e+001	-1.684151e+002	-1.752660e+001	-1.680892e+002	-1.357471e+001	5.471612e-001
3632755.633	-1.117111e+001	-1.028018e+002	-1.744520e+001	-1.721884e+002	-1.753682e+001	-1.717829e+002	-1.359102e+001	-2.284284e+000
3657192.374	-1.113953e+001	-1.057835e+002	-1.743921e+001	-1.759039e+002	-1.752583e+001	-1.754474e+002	-1.361035e+001	-5.113382e+000
3681629.116	-1.111478e+001	-1.087314e+002	-1.741261e+001	-1.796291e+002	-1.750182e+001	-1.791640e+002	-1.364176e+001	-7.904949e+000
3706065.858	-1.110145e+001	-1.116301e+002	-1.737486e+001	1.765520e+002	-1.746407e+001	1.770308e+002	-1.368296e+001	-1.062164e+001
3730502.600	-1.109572e+001	-1.144265e+002	-1.733582e+001	1.726222e+002	-1.742380e+001	1.731723e+002	-1.373191e+001	-1.323469e+001
3754939.341	-1.109260e+001	-1.171406e+002	-1.729445e+001	1.686483e+002	-1.738007e+001	1.692332e+002	-1.378342e+001	-1.572023e+001
3779376.083	-1.109196e+001	-1.197879e+002	-1.725179e+001	1.646177e+002	-1.733437e+001	1.652220e+002	-1.383820e+001	-1.808751e+001
3803812.825	-1.109261e+001	-1.223358e+002	-1.720890e+001	1.604872e+002	-1.728763e+001	1.611091e+002	-1.389214e+001	-2.033195e+001
3828249.567	-1.109094e+001	-1.247954e+002	-1.717712e+001	1.562425e+002	-1.725433e+001	1.569039e+002	-1.394015e+001	-2.240627e+001
3852686.308	-1.107986e+001	-1.271544e+002	-1.716496e+001	1.519894e+002	-1.724051e+001	1.526694e+002	-1.397137e+001	-2.432792e+001
3877123.050	-1.105760e+001	-1.294694e+002	-1.716721e+001	1.477047e+002	-1.723958e+001	1.483915e+002	-1.398798e+001	-2.615927e+001
3901559.792	-1.102527e+001	-1.317358e+002	-1.718358e+001	1.434380e+002	-1.725462e+001	1.441251e+002	-1.398097e+001	-2.791054e+001
3925996.534	-1.097221e+001	-1.339544e+002	-1.723547e+001	1.392084e+002	-1.730150e+001	1.399499e+002	-1.394546e+001	-2.958261e+001
3950433.276	-1.090272e+001	-1.362164e+002	-1.730372e+001	1.351206e+002	-1.737340e+001	1.358833e+002	-1.387766e+001	-3.126129e+001
3974870.017	-1.081353e+001	-1.385793e+002	-1.739209e+001	1.312828e+002	-1.745784e+001	1.320697e+002	-1.378178e+001	-3.301316e+001
3999306.759	-1.071004e+001	-1.410780e+002	-1.748657e+001	1.277261e+002	-1.755094e+001	1.285252e+002	-1.365666e+001	-3.491466e+001
4023743.501	-1.060233e+001	-1.437981e+002	-1.756598e+001	1.245556e+002	-1.762831e+001	1.253578e+002	-1.351194e+001	-3.704658e+001
4048180.243	-1.050273e+001	-1.467274e+002	-1.760958e+001	1.216766e+002	-1.767026e+001	1.225012e+002	-1.336508e+001	-3.942825e+001
4072616.984	-1.042772e+001	-1.498823e+002	-1.758623e+001	1.190392e+002	-1.764718e+001	1.199150e+002	-1.322827e+001	-4.209452e+001
4097053.726	-1.039010e+001	-1.531554e+002	-1.748819e+001	1.163722e+002	-1.754700e+001	1.173050e+002	-1.312272e+001	-4.495267e+001
4121490.468	-1.039195e+001	-1.564518e+002	-1.733068e+001	1.134827e+002	-1.738741e+001	1.143952e+002	-1.305551e+001	-4.785187e+001
4145927.210	-1.042851e+001	-1.596708e+002	-1.713966e+001	1.102526e+002	-1.718938e+001	1.112089e+002	-1.301671e+001	-5.073793e+001
4170363.951	-1.049221e+001	-1.627777e+002	-1.693627e+001	1.067311e+002	-1.698671e+001	1.077024e+002	-1.299880e+001	-5.350474e+001
4194800.693	-1.057186e+001	-1.657835e+002	-1.673608e+001	1.029676e+002	-1.677922e+001	1.038910e+002	-1.300043e+001	-5.619100e+001
4219237.435	-1.066693e+001	-1.686557e+002	-1.654624e+001	9.896781e+001	-1.658347e+001	9.992931e+001	-1.300680e+001	-5.879763e+001
4243674.177	-1.076841e+001	-1.713981e+002	-1.637533e+001	9.478872e+001	-1.640545e+001	9.573955e+001	-1.301742e+001	-6.127285e+001
4268110.919	-1.087575e+001	-1.740307e+002	-1.621676e+001	9.050384e+001	-1.624218e+001	9.148958e+001	-1.302041e+001	-6.366961e+001
4292547.660	-1.098001e+001	-1.765753e+002	-1.608124e+001	8.617575e+001	-1.610050e+001	8.717022e+001	-1.301823e+001	-6.601155e+001
4316984.402	-1.108271e+001	-1.790544e+002	-1.595916e+001	8.183514e+001	-1.597442e+001	8.285489e+001	-1.300476e+001	-6.832474e+001
4341421.144	-1.118027e+001	1.784520e+002	-1.585214e+001	7.757249e+001	-1.585452e+001	7.857204e+001	-1.298526e+001	-7.067260e+001
4365857.886	-1.128538e+001	1.759767e+002	-1.574398e+001	7.329522e+001	-1.574929e+001	7.432120e+001	-1.295164e+001	-7.304139e+001
4390294.627	-1.139513e+001	1.735072e+002	-1.563688e+001	6.904922e+001	-1.563628e+001	7.005873e+001	-1.292222e+001	-7.544808e+001
4414731.369	-1.151413e+001	1.710516e+002	-1.552754e+001	6.480802e+001	-1.551850e+001	6.582171e+001	-1.289232e+001	-7.792058e+001
4439168.111	-1.163744e+001	1.685782e+002	-1.542042e+001	6.056615e+001	-1.540721e+001	6.156081e+001	-1.286011e+001	-8.045457e+001
4463604.853	-1.177824e+001	1.661646e+002	-1.530030e+001	5.631697e+001	-1.528649e+001	5.727092e+001	-1.283443e+001	-8.300335e+001
4488041.594	-1.192281e+001	1.638110e+002	-1.518616e+001	5.200951e+001	-1.516301e+001	5.297034e+001	-1.281323e+001	-8.561290e+001
4512478.336	-1.208036e+001	1.614777e+002	-1.506410e+001	4.768755e+001	-1.504166e+001	4.859812e+001	-1.279569e+001	-8.822281e+001
4536915.078	-1.224546e+001	1.592298e+002	-1.494501e+001	4.329318e+001	-1.491044e+001	4.423235e+001	-1.278791e+001	-9.092194e+001
4561351.820	-1.241311e+001	1.570496e+002	-1.482810e+001	3.883940e+001	-1.479550e+001	3.972373e+001	-1.277973e+001	-9.355211e+001
4585788.562	-1.257620e+001	1.549268e+002	-1.472423e+001	3.431317e+001	-1.468719e+001	3.521402e+001	-1.277198e+001	-9.625238e+001
4610225.303	-1.273359e+001	1.527395e+002	-1.463533e+001	2.983368e+001	-1.459504e+001	3.069736e+001	-1.275788e+001	-9.897044e+001
4634662.045	-1.289854e+001	1.504999e+002	-1.455363e+001	2.538332e+001	-1.450326e+001	2.626374e+001	-1.274681e+001	-1.017827e+002
4659098.787	-1.308901e+001	1.482193e+002	-1.445756e+001	2.099275e+001	-1.440652e+001	2.182307e+001	-1.274487e+001	-1.046810e+002
4683535.529	-1.329710e+001	1.459187e+002	-1.436452e+001	1.661553e+001	-1.431414e+001	1.740708e+001	-1.274872e+001	-1.076553e+002
4707972.270	-1.352342e+001	1.436641e+002	-1.426956e+001	1.223750e+001	-1.421383e+001	1.298257e+001	-1.276653e+001	-1.106789e+002
4732409.012	-1.377861e+001	1.413870e+002	-1.416960e+001	7.880560e+000	-1.411711e+001	8.588635e+000	-1.278741e+001	-1.138091e+002
4756845.754	-1.405544e+001	1.391217e+002	-1.407141e+001	3.504712e+000	-1.401318e+001	4.180279e+000	-1.282662e+001	-1.170133e+002
4781282.496	-1.437760e+001	1.370080e+002	-1.395657e+001	-9.006723e-001	-1.389868e+001	-2.526955e-001	-1.288442e+001	-1.202908e+002
4805719.237	-1.473204e+001	1.350509e+002	-1.383257e+001	-5.328966e+000	-1.377181e+001	-4.710949e+000	-1.296390e+001	-1.236499e+002
4830155.979	-1.511402e+001	1.333001e+002	-1.370309e+001	-9.844551e+000	-1.364150e+001	-9.307113e+000	-1.306796e+001	-1.269840e+002
4854592.721	-1.552027e+001	1.318735e+002	-1.356738e+001	-1.446362e+001	-1.351036e+001	-1.394561e+001	-1.319016e+001	-1.303599e+002
4879029.463	-1.592455e+001	1.306996e+002	-1.344071e+001	-1.922440e+001	-1.338110e+001	-1.871098e+001	-1.333191e+001	-1.336784e+002
4903466.205	-1.633866e+001	1.297980e+002	-1.331619e+001	-2.404315e+001	-1.326004e+001	-2.356657e+001	-1.348929e+001	-1.369790e+002
4927902.946	-1.674930e+001	1.290945e+002	-1.320535e+001	-2.894205e+001	-1.314852e+001	-2.848728e+001	-1.366421e+001	-1.402727e+002
4952339.688	-1.716471e+001	1.285792e+002	-1.310361e+001	-3.390386e+001	-1.304943e+001	-3.345340e+001	-1.385366e+001	-1.435622e+002
4976776.430	-1.757220e+001	1.283415e+002	-1.301045e+001	-3.891550e+001	-1.296064e+001	-3.847848e+001	-1.405610e+001	-1.468112e+002
5001213.172	-1.798824e+001	1.282476e+002	-1.293213e+001	-4.391891e+001	-1.288522e+001	-4.349207e+001	-1.426762e+001	-1.500671e+002
5025649.913	-1.840627e+001	1.283974e+002	-1.286069e+001	-4.893689e+001	-1.281418e+001	-4.853474e+001	-1.450359e+001	-1.533102e+002
5050086.655	-1.881852e+001	1.287750e+002	-1.280161e+001	-5.399382e+001	-1.275792e+001	-5.360623e+001	-1.474805e+001	-1.565340e+002
5074523.397	-1.923682e+001	1.294106e+002	-1.274960e+001	-5.905378e+001	-1.271054e+001	-5.868341e+001	-1.501159e+001	-1.597440e+002
5098960.139	-1.964675e+001	1.303663e+002	-1.270908e+001	-6.410175e+001	-1.267248e+001	-6.373343e+001	-1.528907e+001	-1.629650e+002
5123396.880	-2.006263e+001	1.315743e+002	-1.267997e+001	-6.915943e+001	-1.264848e+001	-6.879426e+001	-1.558264e+001	-1.661358e+002
5147833.622	-2.047205e+001	1.331391e+002	-1.266117e+001	-7.419639e+001	-1.263219e+001	-7.381637e+001	-1.589046e+001	-1.693310e+002
5172270.364	-2.087989e+001	1.352175e+002	-1.265032e+001	-7.916472e+001	-1.262410e+001	-7.881416e+001	-1.621853e+001	-1.725053e+002
5196707.106	-2.125798e+001	1.378684e+002	-1.264709e+001	-8.411907e+001	-1.262329e+001	-8.376170e+001	-1.656409e+001	-1.757299e+002
5221143.847	-2.158223e+001	1.411510e+002	-1.264609e+001	-8.897638e+001	-1.262381e+001	-8.868688e+001	-1.693804e+001	-1.789035e+002
5245580.589	-2.180855e+001	1.449936e+002	-1.264627e+001	-9.386878e+001	-1.263141e+001	-9.355295e+001	-1.732835e+001	1.778832e+002
5270017.331	-2.192085e+001	1.492234e+002	-1.265422e+001	-9.872567e+001	-1.264059e+001	-9.841719e+001	-1.774673e+001	1.747112e+002
5294454.073	-2.188469e+001	1.535738e+002	-1.265992e+001	-1.035592e+002	-1.264787e+001	-1.032423e+002	-1.820148e+001	1.715648e+002
5318890.815	-2.171613e+001	1.577966e+002	-1.267066e+001	-1.083895e+002	-1.266121e+001	-1.080565e+002	-1.867913e+001	1.684775e+002
5343327.556	-2.141907e+001	1.616990e+002	-1.268186e+001	-1.131775e+002	-1.267613e+001	-1.128437e+002	-1.918385e+001	1.654036e+002
5367764.298	-2.102605e+001	1.650665e+002	-1.269848e+001	-1.179526e+002	-1.269228e+001	-1.176302e+002	-1.972147e+001	1.624413e+002
5392201.040	-2.056499e+001	1.677946e+002	-1.271607e+001	-1.227275e+002	-1.271234e+001	-1.223693e+002	-2.028445e+001	1.595166e+002
5416637.782	-2.005729e+001	1.699210e+002	-1.273362e+001	-1.274676e+002	-1.273332e+001	-1.271067e+002	-2.088161e+001	1.566650e+002
5441074.523	-1.952718e+001	1.714231e+002	-1.275253e+001	-1.322008e+002	-1.275595e+001	-1.318145e+002	-2.150626e+001	1.538729e+002
