!Agilent Technologies,E5061B,MY49101568,A.02.00
!Date: Wed Mar 01 16:28:43 2023
!Data & Calibration Information:
!Freq	S11:SOLT2(OFF)	S21:SOLT2(OFF)	S12:SOLT2(OFF)	S22:SOLT2(OFF)
# Hz S dB R 50
1800000.000	-1.081029e+001	3.099908e+001	-1.217349e+001	1.388462e+002	-1.214246e+001	1.388501e+002	-9.851276e+000	7.703405e+001
1824436.742	-1.067972e+001	2.602302e+001	-1.238663e+001	1.340214e+002	-1.234283e+001	1.340152e+002	-9.860293e+000	7.273729e+001
1848873.484	-1.059900e+001	2.120851e+001	-1.257794e+001	1.294540e+002	-1.254298e+001	1.294512e+002	-9.896431e+000	6.851339e+001
1873310.225	-1.054820e+001	1.654202e+001	-1.275042e+001	1.250863e+002	-1.270420e+001	1.250272e+002	-9.944459e+000	6.441776e+001
1897746.967	-1.052237e+001	1.200910e+001	-1.289267e+001	1.209086e+002	-1.287376e+001	1.207344e+002	-1.000503e+001	6.033483e+001
1922183.709	-1.050411e+001	7.419727e+000	-1.302393e+001	1.167245e+002	-1.300507e+001	1.166563e+002	-1.008235e+001	5.633729e+001
1946620.451	-1.054008e+001	2.926746e+000	-1.313765e+001	1.128285e+002	-1.312319e+001	1.127216e+002	-1.017319e+001	5.233932e+001
1971057.192	-1.057863e+001	-1.248128e+000	-1.319780e+001	1.090297e+002	-1.317997e+001	1.090516e+002	-1.029342e+001	4.844421e+001
1995493.934	-1.062419e+001	-5.190453e+000	-1.321481e+001	1.053122e+002	-1.320542e+001	1.052118e+002	-1.040024e+001	4.467175e+001
2019930.676	-1.062185e+001	-9.278095e+000	-1.321134e+001	1.013608e+002	-1.320818e+001	1.012849e+002	-1.051252e+001	4.088932e+001
2044367.418	-1.061779e+001	-1.362544e+001	-1.321000e+001	9.730106e+001	-1.321214e+001	9.722688e+001	-1.062113e+001	3.709295e+001
2068804.159	-1.065910e+001	-1.810242e+001	-1.321608e+001	9.335862e+001	-1.322569e+001	9.333943e+001	-1.074090e+001	3.321059e+001
2093240.901	-1.075061e+001	-2.250328e+001	-1.320853e+001	8.968230e+001	-1.322643e+001	8.947295e+001	-1.086653e+001	2.933459e+001
2117677.643	-1.088163e+001	-2.660527e+001	-1.316093e+001	8.617030e+001	-1.316578e+001	8.608491e+001	-1.102737e+001	2.542445e+001
2142114.385	-1.096082e+001	-3.030167e+001	-1.304702e+001	8.252851e+001	-1.306369e+001	8.252951e+001	-1.119191e+001	2.154827e+001
2166551.127	-1.097578e+001	-3.419399e+001	-1.290089e+001	7.859135e+001	-1.292069e+001	7.850435e+001	-1.134902e+001	1.773127e+001
2190987.868	-1.098335e+001	-3.854049e+001	-1.275924e+001	7.440381e+001	-1.277805e+001	7.423186e+001	-1.150857e+001	1.390782e+001
2215424.610	-1.103078e+001	-4.320747e+001	-1.263368e+001	7.009980e+001	-1.266096e+001	7.012882e+001	-1.167909e+001	9.922547e+000
2239861.352	-1.111334e+001	-4.796394e+001	-1.250362e+001	6.582077e+001	-1.253488e+001	6.584727e+001	-1.185703e+001	5.846454e+000
2264298.094	-1.122909e+001	-5.281974e+001	-1.236811e+001	6.151143e+001	-1.240761e+001	6.158093e+001	-1.204722e+001	1.697556e+000
2288734.835	-1.138562e+001	-5.768215e+001	-1.222897e+001	5.718986e+001	-1.227232e+001	5.730326e+001	-1.225894e+001	-2.568805e+000
2313171.577	-1.157561e+001	-6.250331e+001	-1.208371e+001	5.283126e+001	-1.212783e+001	5.293854e+001	-1.248476e+001	-6.847841e+000
2337608.319	-1.178486e+001	-6.734238e+001	-1.192628e+001	4.838716e+001	-1.197029e+001	4.853835e+001	-1.273328e+001	-1.125867e+001
2362045.061	-1.202702e+001	-7.215686e+001	-1.177000e+001	4.391024e+001	-1.181628e+001	4.405310e+001	-1.299760e+001	-1.569998e+001
2386481.802	-1.230143e+001	-7.689970e+001	-1.161399e+001	3.940641e+001	-1.166249e+001	3.958172e+001	-1.328314e+001	-2.038984e+001
2410918.544	-1.257929e+001	-8.148584e+001	-1.144358e+001	3.492076e+001	-1.149250e+001	3.509913e+001	-1.360064e+001	-2.525284e+001
2435355.286	-1.284560e+001	-8.608635e+001	-1.124301e+001	3.035759e+001	-1.129249e+001	3.059450e+001	-1.397793e+001	-3.028828e+001
2459792.028	-1.310572e+001	-9.095022e+001	-1.102081e+001	2.560066e+001	-1.107063e+001	2.586532e+001	-1.442387e+001	-3.539593e+001
2484228.769	-1.339824e+001	-9.618501e+001	-1.079946e+001	2.053279e+001	-1.084523e+001	2.086127e+001	-1.493920e+001	-4.046772e+001
2508665.511	-1.375345e+001	-1.017384e+002	-1.059325e+001	1.521295e+001	-1.063473e+001	1.559288e+001	-1.550710e+001	-4.528608e+001
2533102.253	-1.418366e+001	-1.073852e+002	-1.041366e+001	9.848337e+000	-1.045390e+001	1.017594e+001	-1.609722e+001	-4.993994e+001
2557538.995	-1.468494e+001	-1.131539e+002	-1.025005e+001	4.359060e+000	-1.029164e+001	4.730694e+000	-1.671515e+001	-5.475023e+001
2581975.737	-1.526228e+001	-1.189934e+002	-1.010250e+001	-1.157633e+000	-1.014232e+001	-7.507627e-001	-1.739561e+001	-5.977502e+001
2606412.478	-1.592566e+001	-1.249053e+002	-9.965310e+000	-6.753364e+000	-9.999305e+000	-6.319314e+000	-1.817856e+001	-6.487284e+001
2630849.220	-1.669472e+001	-1.309341e+002	-9.839777e+000	-1.240283e+001	-9.869116e+000	-1.197359e+001	-1.910554e+001	-6.969190e+001
2655285.962	-1.758038e+001	-1.369978e+002	-9.734962e+000	-1.815585e+001	-9.760307e+000	-1.772532e+001	-2.008725e+001	-7.434746e+001
2679722.704	-1.860707e+001	-1.431512e+002	-9.657501e+000	-2.396715e+001	-9.678004e+000	-2.352263e+001	-2.120678e+001	-7.900480e+001
2704159.445	-1.980693e+001	-1.493380e+002	-9.601156e+000	-2.977018e+001	-9.620787e+000	-2.930993e+001	-2.252601e+001	-8.358101e+001
2728596.187	-2.124901e+001	-1.554987e+002	-9.568242e+000	-3.545697e+001	-9.579914e+000	-3.502887e+001	-2.411351e+001	-8.709156e+001
2753032.929	-2.297162e+001	-1.613635e+002	-9.540052e+000	-4.112329e+001	-9.552026e+000	-4.070400e+001	-2.599680e+001	-8.904068e+001
2777469.671	-2.506997e+001	-1.668993e+002	-9.522095e+000	-4.677974e+001	-9.531565e+000	-4.636338e+001	-2.809291e+001	-8.789646e+001
2801906.412	-2.772639e+001	-1.722092e+002	-9.524206e+000	-5.244979e+001	-9.526875e+000	-5.203628e+001	-3.025232e+001	-8.311548e+001
2826343.154	-3.138875e+001	-1.765013e+002	-9.536596e+000	-5.803626e+001	-9.541391e+000	-5.764727e+001	-3.231978e+001	-7.341443e+001
2850779.896	-3.723843e+001	-1.783535e+002	-9.562636e+000	-6.358743e+001	-9.567974e+000	-6.320591e+001	-3.368982e+001	-5.751816e+001
2875216.638	-5.376362e+001	-1.337710e+002	-9.603383e+000	-6.907362e+001	-9.603134e+000	-6.868754e+001	-3.369014e+001	-4.106525e+001
2899653.380	-3.947631e+001	-2.525338e+001	-9.648736e+000	-7.449043e+001	-9.650941e+000	-7.410040e+001	-3.279642e+001	-2.900344e+001
2924090.121	-3.338950e+001	-2.553559e+001	-9.707657e+000	-7.981941e+001	-9.706795e+000	-7.943872e+001	-3.161665e+001	-2.252898e+001
2948526.863	-3.002769e+001	-2.876023e+001	-9.772241e+000	-8.504388e+001	-9.772516e+000	-8.468993e+001	-3.059837e+001	-1.965681e+001
2972963.605	-2.775175e+001	-3.261484e+001	-9.842488e+000	-9.014866e+001	-9.843705e+000	-8.979612e+001	-2.968498e+001	-1.861498e+001
2997400.347	-2.602300e+001	-3.702525e+001	-9.906757e+000	-9.509523e+001	-9.908853e+000	-9.476051e+001	-2.886376e+001	-1.906418e+001
3021837.088	-2.470001e+001	-4.189856e+001	-9.956730e+000	-9.994433e+001	-9.961054e+000	-9.961565e+001	-2.805991e+001	-2.080628e+001
3046273.830	-2.368072e+001	-4.699086e+001	-9.987990e+000	-1.047471e+002	-9.995447e+000	-1.044292e+002	-2.736334e+001	-2.414297e+001
3070710.572	-2.291624e+001	-5.198552e+001	-1.001244e+001	-1.095864e+002	-1.001569e+001	-1.092557e+002	-2.680183e+001	-2.884539e+001
3095147.314	-2.233978e+001	-5.704843e+001	-1.001409e+001	-1.144430e+002	-1.002165e+001	-1.141099e+002	-2.635616e+001	-3.467799e+001
3119584.055	-2.194069e+001	-6.200039e+001	-1.000910e+001	-1.193612e+002	-1.001821e+001	-1.190278e+002	-2.606236e+001	-4.160810e+001
3144020.797	-2.170821e+001	-6.663330e+001	-1.000272e+001	-1.243703e+002	-1.000908e+001	-1.240730e+002	-2.593760e+001	-4.961477e+001
3168457.539	-2.160348e+001	-7.082755e+001	-1.000185e+001	-1.294913e+002	-1.000622e+001	-1.291785e+002	-2.597250e+001	-5.841879e+001
3192894.281	-2.159018e+001	-7.463612e+001	-1.000503e+001	-1.346683e+002	-1.001225e+001	-1.343594e+002	-2.616981e+001	-6.800640e+001
3217331.023	-2.168166e+001	-7.793566e+001	-1.002092e+001	-1.399004e+002	-1.002501e+001	-1.395938e+002	-2.648954e+001	-7.851070e+001
3241767.764	-2.184815e+001	-8.060799e+001	-1.005219e+001	-1.451571e+002	-1.005086e+001	-1.448460e+002	-2.692046e+001	-9.003918e+001
3266204.506	-2.204842e+001	-8.278577e+001	-1.009062e+001	-1.503766e+002	-1.009139e+001	-1.500728e+002	-2.743118e+001	-1.022170e+002
3290641.248	-2.229427e+001	-8.460230e+001	-1.012817e+001	-1.555397e+002	-1.012691e+001	-1.552375e+002	-2.781041e+001	-1.152397e+002
3315077.990	-2.265156e+001	-8.610836e+001	-1.015067e+001	-1.607614e+002	-1.014997e+001	-1.604740e+002	-2.789810e+001	-1.297125e+002
3339514.731	-2.313283e+001	-8.640985e+001	-1.018127e+001	-1.661598e+002	-1.017827e+001	-1.658857e+002	-2.769833e+001	-1.461398e+002
3363951.473	-2.365359e+001	-8.503212e+001	-1.023390e+001	-1.716668e+002	-1.022994e+001	-1.714166e+002	-2.725093e+001	-1.636055e+002
3388388.215	-2.408938e+001	-8.184441e+001	-1.031181e+001	-1.772160e+002	-1.030569e+001	-1.769734e+002	-2.656358e+001	1.794287e+002
3412824.957	-2.431653e+001	-7.696110e+001	-1.041235e+001	1.772321e+002	-1.040725e+001	1.774573e+002	-2.569613e+001	1.635294e+002
3437261.698	-2.422657e+001	-7.105991e+001	-1.053733e+001	1.716988e+002	-1.053224e+001	1.718846e+002	-2.470434e+001	1.490831e+002
3461698.440	-2.376375e+001	-6.525512e+001	-1.068645e+001	1.662021e+002	-1.068354e+001	1.663656e+002	-2.370817e+001	1.360813e+002
3486135.182	-2.298555e+001	-6.052750e+001	-1.086171e+001	1.607615e+002	-1.086123e+001	1.609133e+002	-2.273727e+001	1.243131e+002
3510571.924	-2.202435e+001	-5.758283e+001	-1.106238e+001	1.554471e+002	-1.106460e+001	1.555777e+002	-2.184237e+001	1.136475e+002
3535008.666	-2.100154e+001	-5.638053e+001	-1.128635e+001	1.502798e+002	-1.129168e+001	1.503842e+002	-2.102577e+001	1.038644e+002
3559445.407	-2.001541e+001	-5.666262e+001	-1.152444e+001	1.453161e+002	-1.153519e+001	1.454164e+002	-2.032261e+001	9.487144e+001
3583882.149	-1.911614e+001	-5.797995e+001	-1.176651e+001	1.405494e+002	-1.178066e+001	1.406478e+002	-1.971371e+001	8.671652e+001
3608318.891	-1.830969e+001	-5.992315e+001	-1.200387e+001	1.359637e+002	-1.202339e+001	1.360483e+002	-1.917085e+001	7.932688e+001
3632755.633	-1.758557e+001	-6.222269e+001	-1.223470e+001	1.314433e+002	-1.225687e+001	1.315667e+002	-1.867883e+001	7.261370e+001
3657192.374	-1.691608e+001	-6.469378e+001	-1.246137e+001	1.270014e+002	-1.249149e+001	1.270985e+002	-1.820424e+001	6.644269e+001
3681629.116	-1.627271e+001	-6.741440e+001	-1.270097e+001	1.226052e+002	-1.273314e+001	1.227157e+002	-1.775604e+001	6.055948e+001
3706065.858	-1.567071e+001	-7.035653e+001	-1.294901e+001	1.183044e+002	-1.299019e+001	1.184341e+002	-1.733692e+001	5.487360e+001
3730502.600	-1.511235e+001	-7.358398e+001	-1.320903e+001	1.141738e+002	-1.325339e+001	1.142986e+002	-1.695180e+001	4.940825e+001
3754939.341	-1.460024e+001	-7.698866e+001	-1.347285e+001	1.102149e+002	-1.352297e+001	1.103617e+002	-1.660414e+001	4.410903e+001
3779376.083	-1.412656e+001	-8.049859e+001	-1.373880e+001	1.063882e+002	-1.379356e+001	1.065445e+002	-1.627499e+001	3.902906e+001
3803812.825	-1.369166e+001	-8.415126e+001	-1.401071e+001	1.027438e+002	-1.407320e+001	1.029177e+002	-1.596787e+001	3.401076e+001
3828249.567	-1.329554e+001	-8.794350e+001	-1.428843e+001	9.930756e+001	-1.435840e+001	9.951858e+001	-1.568614e+001	2.904682e+001
3852686.308	-1.293754e+001	-9.185687e+001	-1.457017e+001	9.615107e+001	-1.464090e+001	9.640822e+001	-1.543952e+001	2.409728e+001
3877123.050	-1.262592e+001	-9.582879e+001	-1.484270e+001	9.327956e+001	-1.491501e+001	9.361373e+001	-1.522727e+001	1.915503e+001
3901559.792	-1.236146e+001	-9.988845e+001	-1.509669e+001	9.079402e+001	-1.517095e+001	9.120792e+001	-1.506096e+001	1.422495e+001
3925996.534	-1.215067e+001	-1.040053e+002	-1.531389e+001	8.874349e+001	-1.539170e+001	8.916730e+001	-1.494677e+001	9.341991e+000
3950433.276	-1.199783e+001	-1.080947e+002	-1.546700e+001	8.705136e+001	-1.554629e+001	8.754207e+001	-1.490234e+001	4.598122e+000
3974870.017	-1.190957e+001	-1.120837e+002	-1.553148e+001	8.563494e+001	-1.560612e+001	8.613253e+001	-1.492027e+001	1.199138e-001
3999306.759	-1.187922e+001	-1.158516e+002	-1.548779e+001	8.425517e+001	-1.555480e+001	8.479462e+001	-1.500527e+001	-3.960174e+000
4023743.501	-1.189738e+001	-1.192597e+002	-1.533962e+001	8.258351e+001	-1.541206e+001	8.317571e+001	-1.512596e+001	-7.557013e+000
4048180.243	-1.195025e+001	-1.222400e+002	-1.511006e+001	8.047200e+001	-1.517618e+001	8.109513e+001	-1.527596e+001	-1.051802e+001
4072616.984	-1.201574e+001	-1.247142e+002	-1.482727e+001	7.773889e+001	-1.488917e+001	7.832655e+001	-1.541040e+001	-1.272550e+001
4097053.726	-1.205367e+001	-1.266727e+002	-1.454107e+001	7.432631e+001	-1.460093e+001	7.489972e+001	-1.548616e+001	-1.436178e+001
4121490.468	-1.203659e+001	-1.282607e+002	-1.428540e+001	7.032446e+001	-1.434619e+001	7.093905e+001	-1.547546e+001	-1.566532e+001
4145927.210	-1.195443e+001	-1.297278e+002	-1.408296e+001	6.598638e+001	-1.414268e+001	6.662522e+001	-1.537589e+001	-1.692223e+001
4170363.951	-1.181812e+001	-1.312324e+002	-1.393061e+001	6.151659e+001	-1.399442e+001	6.212316e+001	-1.520518e+001	-1.833789e+001
4194800.693	-1.164036e+001	-1.329196e+002	-1.382141e+001	5.698716e+001	-1.388894e+001	5.759172e+001	-1.499203e+001	-2.007180e+001
4219237.435	-1.143158e+001	-1.348349e+002	-1.375659e+001	5.245842e+001	-1.381879e+001	5.310986e+001	-1.476156e+001	-2.208354e+001
4243674.177	-1.122046e+001	-1.370141e+002	-1.371414e+001	4.806186e+001	-1.377940e+001	4.872805e+001	-1.452813e+001	-2.442467e+001
4268110.919	-1.101758e+001	-1.393794e+002	-1.368335e+001	4.379254e+001	-1.375093e+001	4.449920e+001	-1.431601e+001	-2.695279e+001
4292547.660	-1.082499e+001	-1.418865e+002	-1.365891e+001	3.962072e+001	-1.372309e+001	4.036021e+001	-1.412023e+001	-2.958560e+001
4316984.402	-1.064685e+001	-1.444719e+002	-1.362610e+001	3.552402e+001	-1.368970e+001	3.628890e+001	-1.394189e+001	-3.225582e+001
4341421.144	-1.047361e+001	-1.471422e+002	-1.359912e+001	3.142770e+001	-1.365485e+001	3.221649e+001	-1.377050e+001	-3.496375e+001
4365857.886	-1.031494e+001	-1.498372e+002	-1.355922e+001	2.735050e+001	-1.361931e+001	2.819121e+001	-1.361286e+001	-3.771014e+001
4390294.627	-1.016160e+001	-1.526196e+002	-1.352669e+001	2.329271e+001	-1.358199e+001	2.415849e+001	-1.345791e+001	-4.049598e+001
4414731.369	-1.001757e+001	-1.554653e+002	-1.349397e+001	1.921930e+001	-1.354717e+001	2.011607e+001	-1.330982e+001	-4.331090e+001
4439168.111	-9.880798e+000	-1.584005e+002	-1.346606e+001	1.513233e+001	-1.351030e+001	1.612309e+001	-1.317694e+001	-4.619855e+001
4463604.853	-9.767051e+000	-1.613312e+002	-1.342145e+001	1.114556e+001	-1.346789e+001	1.214651e+001	-1.305400e+001	-4.907762e+001
4488041.594	-9.658957e+000	-1.643306e+002	-1.338263e+001	7.129478e+000	-1.342012e+001	8.150111e+000	-1.294098e+001	-5.193708e+001
4512478.336	-9.565508e+000	-1.673640e+002	-1.333653e+001	3.111254e+000	-1.337264e+001	4.183656e+000	-1.283971e+001	-5.485070e+001
4536915.078	-9.484681e+000	-1.704589e+002	-1.329392e+001	-8.677716e-001	-1.332109e+001	1.973471e-001	-1.274675e+001	-5.775226e+001
4561351.820	-9.419206e+000	-1.735453e+002	-1.323977e+001	-4.864452e+000	-1.326293e+001	-3.791940e+000	-1.266424e+001	-6.063858e+001
4585788.562	-9.370109e+000	-1.766984e+002	-1.318787e+001	-8.844014e+000	-1.320442e+001	-7.754790e+000	-1.259354e+001	-6.357347e+001
4610225.303	-9.337003e+000	-1.798391e+002	-1.312244e+001	-1.282012e+001	-1.313435e+001	-1.170922e+001	-1.253823e+001	-6.644408e+001
4634662.045	-9.319509e+000	1.770305e+002	-1.304829e+001	-1.683529e+001	-1.305430e+001	-1.569031e+001	-1.249303e+001	-6.927771e+001
4659098.787	-9.313002e+000	1.739082e+002	-1.296871e+001	-2.089289e+001	-1.296300e+001	-1.977234e+001	-1.244568e+001	-7.203347e+001
4683535.529	-9.319355e+000	1.707865e+002	-1.288276e+001	-2.502166e+001	-1.287370e+001	-2.389241e+001	-1.240756e+001	-7.479654e+001
4707972.270	-9.336670e+000	1.676696e+002	-1.279653e+001	-2.916005e+001	-1.278192e+001	-2.807653e+001	-1.237055e+001	-7.750828e+001
4732409.012	-9.368879e+000	1.645444e+002	-1.270711e+001	-3.337241e+001	-1.268563e+001	-3.228941e+001	-1.233995e+001	-8.023336e+001
4756845.754	-9.415702e+000	1.614054e+002	-1.261855e+001	-3.764876e+001	-1.259091e+001	-3.659818e+001	-1.230993e+001	-8.293686e+001
4781282.496	-9.474004e+000	1.582770e+002	-1.252772e+001	-4.197902e+001	-1.249381e+001	-4.094413e+001	-1.228282e+001	-8.561397e+001
4805719.237	-9.545159e+000	1.551628e+002	-1.243949e+001	-4.637289e+001	-1.239964e+001	-4.534140e+001	-1.226008e+001	-8.830051e+001
4830155.979	-9.631941e+000	1.520199e+002	-1.235532e+001	-5.082666e+001	-1.231295e+001	-4.982077e+001	-1.223540e+001	-9.099753e+001
4854592.721	-9.734827e+000	1.488842e+002	-1.227524e+001	-5.531041e+001	-1.222531e+001	-5.433893e+001	-1.221414e+001	-9.371254e+001
4879029.463	-9.854093e+000	1.457426e+002	-1.219919e+001	-5.984047e+001	-1.214245e+001	-5.888221e+001	-1.220003e+001	-9.639938e+001
4903466.205	-9.991817e+000	1.426071e+002	-1.213116e+001	-6.440382e+001	-1.206738e+001	-6.346343e+001	-1.218995e+001	-9.912150e+001
4927902.946	-1.014941e+001	1.394994e+002	-1.206300e+001	-6.897835e+001	-1.199660e+001	-6.808811e+001	-1.218429e+001	-1.018459e+002
4952339.688	-1.032327e+001	1.363946e+002	-1.200011e+001	-7.363938e+001	-1.192703e+001	-7.271643e+001	-1.218631e+001	-1.045811e+002
4976776.430	-1.052040e+001	1.333425e+002	-1.194172e+001	-7.826080e+001	-1.186791e+001	-7.738407e+001	-1.219153e+001	-1.073027e+002
5001213.172	-1.073712e+001	1.303130e+002	-1.188766e+001	-8.292343e+001	-1.181030e+001	-8.208409e+001	-1.220129e+001	-1.100324e+002
5025649.913	-1.097393e+001	1.273493e+002	-1.183847e+001	-8.759643e+001	-1.175539e+001	-8.680197e+001	-1.221619e+001	-1.127451e+002
5050086.655	-1.123212e+001	1.244199e+002	-1.179251e+001	-9.229205e+001	-1.171066e+001	-9.153297e+001	-1.223457e+001	-1.154739e+002
5074523.397	-1.150816e+001	1.215745e+002	-1.175146e+001	-9.701701e+001	-1.166782e+001	-9.628841e+001	-1.225528e+001	-1.181750e+002
5098960.139	-1.180746e+001	1.187557e+002	-1.171675e+001	-1.017538e+002	-1.163062e+001	-1.010652e+002	-1.227743e+001	-1.208882e+002
5123396.880	-1.212597e+001	1.160085e+002	-1.168799e+001	-1.064919e+002	-1.160057e+001	-1.058516e+002	-1.230486e+001	-1.236179e+002
5147833.622	-1.247250e+001	1.133085e+002	-1.166594e+001	-1.112404e+002	-1.157740e+001	-1.106413e+002	-1.233575e+001	-1.263525e+002
5172270.364	-1.284733e+001	1.107026e+002	-1.164397e+001	-1.159773e+002	-1.155728e+001	-1.154119e+002	-1.236772e+001	-1.290878e+002
5196707.106	-1.324905e+001	1.082075e+002	-1.162711e+001	-1.207101e+002	-1.154086e+001	-1.201942e+002	-1.240025e+001	-1.318365e+002
5221143.847	-1.367923e+001	1.058632e+002	-1.161282e+001	-1.254135e+002	-1.152800e+001	-1.249702e+002	-1.243711e+001	-1.345842e+002
5245580.589	-1.413485e+001	1.036302e+002	-1.160112e+001	-1.301609e+002	-1.151729e+001	-1.297649e+002	-1.247349e+001	-1.373768e+002
5270017.331	-1.461148e+001	1.015751e+002	-1.159289e+001	-1.349291e+002	-1.151235e+001	-1.345484e+002	-1.251278e+001	-1.402089e+002
5294454.073	-1.511803e+001	9.966072e+001	-1.158590e+001	-1.396966e+002	-1.150863e+001	-1.393575e+002	-1.255321e+001	-1.430829e+002
5318890.815	-1.565050e+001	9.790357e+001	-1.158454e+001	-1.444813e+002	-1.150986e+001	-1.441623e+002	-1.259892e+001	-1.460126e+002
5343327.556	-1.621431e+001	9.631023e+001	-1.158750e+001	-1.492670e+002	-1.151493e+001	-1.489811e+002	-1.264638e+001	-1.489664e+002
5367764.298	-1.680435e+001	9.490457e+001	-1.159207e+001	-1.540651e+002	-1.152332e+001	-1.538044e+002	-1.269983e+001	-1.519666e+002
5392201.040	-1.743944e+001	9.371798e+001	-1.160060e+001	-1.588572e+002	-1.153541e+001	-1.586263e+002	-1.275624e+001	-1.550331e+002
5416637.782	-1.810999e+001	9.276578e+001	-1.161406e+001	-1.636776e+002	-1.155277e+001	-1.634677e+002	-1.281937e+001	-1.581481e+002
5441074.523	-1.882725e+001	9.209313e+001	-1.163131e+001	-1.684999e+002	-1.157338e+001	-1.683061e+002	-1.288664e+001	-1.613097e+002
