!Agilent Technologies,E5061B,MY49101568,A.02.00
!Date: Wed Mar 01 16:30:44 2023
!Data & Calibration Information:
!Freq	S11:SOLT2(OFF)	S21:SOLT2(OFF)	S12:SOLT2(OFF)	S22:SOLT2(OFF)
# Hz S dB R 50
1800000.000	-9.892764e+000	-1.843510e+001	-2.399672e+001	-1.466205e+002	-2.399754e+001	-1.470202e+002	-1.006671e+001	3.536566e+001
1824436.742	-1.002455e+001	-2.262716e+001	-2.358294e+001	-1.507329e+002	-2.359756e+001	-1.507811e+002	-1.023708e+001	3.141788e+001
1848873.484	-1.016354e+001	-2.691993e+001	-2.317146e+001	-1.544942e+002	-2.318917e+001	-1.547140e+002	-1.042191e+001	2.748539e+001
1873310.225	-1.031397e+001	-3.122518e+001	-2.273984e+001	-1.589145e+002	-2.279852e+001	-1.588083e+002	-1.061870e+001	2.365376e+001
1897746.967	-1.046649e+001	-3.563462e+001	-2.236449e+001	-1.628604e+002	-2.240134e+001	-1.630385e+002	-1.083176e+001	1.982135e+001
1922183.709	-1.062631e+001	-4.013245e+001	-2.198577e+001	-1.672329e+002	-2.202028e+001	-1.673618e+002	-1.105048e+001	1.602664e+001
1946620.451	-1.079384e+001	-4.470854e+001	-2.161725e+001	-1.717815e+002	-2.165505e+001	-1.717831e+002	-1.127879e+001	1.234943e+001
1971057.192	-1.096833e+001	-4.942886e+001	-2.129363e+001	-1.760278e+002	-2.134240e+001	-1.761465e+002	-1.146994e+001	8.884390e+000
1995493.934	-1.116621e+001	-5.423891e+001	-2.088685e+001	1.797491e+002	-2.094808e+001	1.796626e+002	-1.169187e+001	5.040468e+000
2019930.676	-1.137460e+001	-5.915222e+001	-2.049228e+001	1.754871e+002	-2.054847e+001	1.755403e+002	-1.188867e+001	1.077027e+000
2044367.418	-1.160049e+001	-6.412039e+001	-2.006412e+001	1.709180e+002	-2.010289e+001	1.710133e+002	-1.215599e+001	-2.691699e+000
2068804.159	-1.184473e+001	-6.920193e+001	-1.961474e+001	1.661159e+002	-1.967642e+001	1.661669e+002	-1.238071e+001	-6.064599e+000
2093240.901	-1.210089e+001	-7.430066e+001	-1.922404e+001	1.610154e+002	-1.928572e+001	1.610477e+002	-1.250872e+001	-9.274631e+000
2117677.643	-1.236539e+001	-7.951913e+001	-1.885203e+001	1.560339e+002	-1.889550e+001	1.561879e+002	-1.261106e+001	-1.333029e+001
2142114.385	-1.264558e+001	-8.490759e+001	-1.845471e+001	1.510899e+002	-1.850724e+001	1.514366e+002	-1.271502e+001	-1.789207e+001
2166551.127	-1.293712e+001	-9.058178e+001	-1.799837e+001	1.463282e+002	-1.805554e+001	1.465374e+002	-1.289767e+001	-2.266536e+001
2190987.868	-1.327961e+001	-9.642012e+001	-1.751870e+001	1.407126e+002	-1.758797e+001	1.411011e+002	-1.310155e+001	-2.725560e+001
2215424.610	-1.365178e+001	-1.023578e+002	-1.706892e+001	1.348781e+002	-1.714460e+001	1.353076e+002	-1.330795e+001	-3.181775e+001
2239861.352	-1.405751e+001	-1.084225e+002	-1.666666e+001	1.287693e+002	-1.673016e+001	1.291888e+002	-1.349816e+001	-3.641871e+001
2264298.094	-1.448515e+001	-1.145583e+002	-1.629892e+001	1.225290e+002	-1.635756e+001	1.229911e+002	-1.366854e+001	-4.121543e+001
2288734.835	-1.492780e+001	-1.208113e+002	-1.595860e+001	1.162196e+002	-1.601727e+001	1.167391e+002	-1.382031e+001	-4.623762e+001
2313171.577	-1.538868e+001	-1.272955e+002	-1.565306e+001	1.098517e+002	-1.570250e+001	1.104397e+002	-1.397117e+001	-5.149655e+001
2337608.319	-1.586253e+001	-1.340190e+002	-1.535373e+001	1.034991e+002	-1.539570e+001	1.040805e+002	-1.412229e+001	-5.696836e+001
2362045.061	-1.635329e+001	-1.409153e+002	-1.507760e+001	9.701043e+001	-1.511490e+001	9.761623e+001	-1.426168e+001	-6.260267e+001
2386481.802	-1.683631e+001	-1.481554e+002	-1.482602e+001	9.046192e+001	-1.485918e+001	9.106444e+001	-1.438264e+001	-6.849786e+001
2410918.544	-1.729479e+001	-1.556835e+002	-1.461854e+001	8.382023e+001	-1.463907e+001	8.450206e+001	-1.447446e+001	-7.471743e+001
2435355.286	-1.772081e+001	-1.637257e+002	-1.442957e+001	7.724215e+001	-1.444745e+001	7.792378e+001	-1.454608e+001	-8.119174e+001
2459792.028	-1.811020e+001	-1.724786e+002	-1.426708e+001	7.079259e+001	-1.427694e+001	7.145435e+001	-1.458612e+001	-8.811924e+001
2484228.769	-1.847480e+001	1.777870e+002	-1.409389e+001	6.447347e+001	-1.409003e+001	6.514291e+001	-1.463155e+001	-9.563121e+001
2508665.511	-1.886239e+001	1.675624e+002	-1.390291e+001	5.796041e+001	-1.389755e+001	5.866090e+001	-1.469220e+001	-1.034348e+002
2533102.253	-1.919531e+001	1.571366e+002	-1.373416e+001	5.127657e+001	-1.372386e+001	5.189811e+001	-1.477649e+001	-1.113019e+002
2557538.995	-1.943265e+001	1.465667e+002	-1.360479e+001	4.440102e+001	-1.358289e+001	4.500668e+001	-1.483155e+001	-1.193693e+002
2581975.737	-1.954479e+001	1.358212e+002	-1.352047e+001	3.751447e+001	-1.348741e+001	3.806930e+001	-1.485804e+001	-1.275418e+002
2606412.478	-1.950408e+001	1.249053e+002	-1.347250e+001	3.070644e+001	-1.343286e+001	3.121823e+001	-1.484919e+001	-1.359039e+002
2630849.220	-1.937212e+001	1.139807e+002	-1.344212e+001	2.392533e+001	-1.339818e+001	2.442806e+001	-1.482209e+001	-1.444775e+002
2655285.962	-1.916506e+001	1.033334e+002	-1.343445e+001	1.715828e+001	-1.338083e+001	1.760696e+001	-1.479797e+001	-1.531489e+002
2679722.704	-1.885966e+001	9.319802e+001	-1.346360e+001	1.037762e+001	-1.341117e+001	1.081568e+001	-1.474738e+001	-1.617448e+002
2704159.445	-1.847863e+001	8.343332e+001	-1.353183e+001	3.749814e+000	-1.347761e+001	4.155830e+000	-1.466225e+001	-1.702439e+002
2728596.187	-1.800226e+001	7.411107e+001	-1.364453e+001	-2.589086e+000	-1.357171e+001	-2.330154e+000	-1.455758e+001	-1.787620e+002
2753032.929	-1.757254e+001	6.495234e+001	-1.372911e+001	-8.797824e+000	-1.366420e+001	-8.561691e+000	-1.444214e+001	1.726441e+002
2777469.671	-1.715413e+001	5.633102e+001	-1.382584e+001	-1.497768e+001	-1.376429e+001	-1.475729e+001	-1.434486e+001	1.641959e+002
2801906.412	-1.674405e+001	4.831721e+001	-1.394497e+001	-2.113091e+001	-1.388889e+001	-2.096288e+001	-1.426027e+001	1.560684e+002
2826343.154	-1.633892e+001	4.074640e+001	-1.409296e+001	-2.709895e+001	-1.403323e+001	-2.702696e+001	-1.417285e+001	1.481698e+002
2850779.896	-1.595515e+001	3.360732e+001	-1.425233e+001	-3.297360e+001	-1.419544e+001	-3.291216e+001	-1.408479e+001	1.406117e+002
2875216.638	-1.559475e+001	2.682434e+001	-1.442013e+001	-3.873348e+001	-1.436881e+001	-3.869355e+001	-1.400747e+001	1.332939e+002
2899653.380	-1.525252e+001	2.040818e+001	-1.460650e+001	-4.429639e+001	-1.455955e+001	-4.432004e+001	-1.393027e+001	1.263351e+002
2924090.121	-1.493026e+001	1.429955e+001	-1.480062e+001	-4.974157e+001	-1.475841e+001	-4.979076e+001	-1.385576e+001	1.196957e+002
2948526.863	-1.462751e+001	8.483119e+000	-1.500432e+001	-5.501797e+001	-1.496650e+001	-5.508365e+001	-1.378119e+001	1.133464e+002
2972963.605	-1.433598e+001	2.905771e+000	-1.521296e+001	-6.009226e+001	-1.518255e+001	-6.019366e+001	-1.370432e+001	1.072861e+002
2997400.347	-1.406124e+001	-2.474325e+000	-1.542086e+001	-6.495421e+001	-1.539835e+001	-6.506892e+001	-1.362020e+001	1.014604e+002
3021837.088	-1.380065e+001	-7.696685e+000	-1.561841e+001	-6.963672e+001	-1.560334e+001	-6.976578e+001	-1.353518e+001	9.578782e+001
3046273.830	-1.356156e+001	-1.275757e+001	-1.580216e+001	-7.416765e+001	-1.579608e+001	-7.432294e+001	-1.345809e+001	9.026421e+001
3070710.572	-1.334204e+001	-1.765088e+001	-1.597544e+001	-7.861465e+001	-1.597123e+001	-7.877997e+001	-1.339011e+001	8.489920e+001
3095147.314	-1.313908e+001	-2.239664e+001	-1.613663e+001	-8.298780e+001	-1.614073e+001	-8.314990e+001	-1.333345e+001	7.972298e+001
3119584.055	-1.294902e+001	-2.700138e+001	-1.628312e+001	-8.723760e+001	-1.629633e+001	-8.742074e+001	-1.328234e+001	7.470876e+001
3144020.797	-1.277537e+001	-3.147193e+001	-1.642403e+001	-9.147277e+001	-1.644335e+001	-9.166808e+001	-1.324622e+001	6.990190e+001
3168457.539	-1.261498e+001	-3.579272e+001	-1.655732e+001	-9.569186e+001	-1.658180e+001	-9.585501e+001	-1.321648e+001	6.522822e+001
3192894.281	-1.246723e+001	-3.999660e+001	-1.668191e+001	-9.983902e+001	-1.671258e+001	-9.999465e+001	-1.319257e+001	6.073916e+001
3217331.023	-1.232653e+001	-4.408385e+001	-1.680436e+001	-1.039237e+002	-1.684428e+001	-1.040813e+002	-1.317326e+001	5.640007e+001
3241767.764	-1.219421e+001	-4.804948e+001	-1.692376e+001	-1.079837e+002	-1.696499e+001	-1.081125e+002	-1.315417e+001	5.221257e+001
3266204.506	-1.206793e+001	-5.192509e+001	-1.703892e+001	-1.119532e+002	-1.708499e+001	-1.120636e+002	-1.313780e+001	4.817505e+001
3290641.248	-1.194379e+001	-5.570277e+001	-1.714470e+001	-1.158283e+002	-1.719839e+001	-1.158926e+002	-1.311457e+001	4.422943e+001
3315077.990	-1.182684e+001	-5.945578e+001	-1.723423e+001	-1.195747e+002	-1.729280e+001	-1.196551e+002	-1.309290e+001	4.033377e+001
3339514.731	-1.171916e+001	-6.314048e+001	-1.730388e+001	-1.233474e+002	-1.736712e+001	-1.233910e+002	-1.308168e+001	3.651638e+001
3363951.473	-1.161919e+001	-6.677869e+001	-1.736242e+001	-1.271411e+002	-1.742977e+001	-1.271521e+002	-1.307778e+001	3.278057e+001
3388388.215	-1.152784e+001	-7.033427e+001	-1.741536e+001	-1.309103e+002	-1.748481e+001	-1.309075e+002	-1.307894e+001	2.913917e+001
3412824.957	-1.144272e+001	-7.382378e+001	-1.745869e+001	-1.347086e+002	-1.752994e+001	-1.346531e+002	-1.308386e+001	2.559960e+001
3437261.698	-1.136550e+001	-7.725955e+001	-1.749152e+001	-1.385139e+002	-1.757199e+001	-1.384261e+002	-1.309583e+001	2.214526e+001
3461698.440	-1.129412e+001	-8.063529e+001	-1.752222e+001	-1.423222e+002	-1.760044e+001	-1.422042e+002	-1.310905e+001	1.876335e+001
3486135.182	-1.122718e+001	-8.395625e+001	-1.754869e+001	-1.461521e+002	-1.762764e+001	-1.459982e+002	-1.312566e+001	1.548011e+001
3510571.924	-1.116779e+001	-8.722684e+001	-1.757001e+001	-1.499828e+002	-1.765321e+001	-1.497990e+002	-1.314587e+001	1.229036e+001
3535008.666	-1.111319e+001	-9.042762e+001	-1.759327e+001	-1.538371e+002	-1.767686e+001	-1.536052e+002	-1.316894e+001	9.187735e+000
3559445.407	-1.106326e+001	-9.358468e+001	-1.761569e+001	-1.576489e+002	-1.770062e+001	-1.573936e+002	-1.319007e+001	6.196559e+000
3583882.149	-1.101368e+001	-9.667027e+001	-1.763933e+001	-1.614353e+002	-1.772513e+001	-1.611461e+002	-1.320776e+001	3.262119e+000
3608318.891	-1.096568e+001	-9.972783e+001	-1.765624e+001	-1.651609e+002	-1.774399e+001	-1.648266e+002	-1.321938e+001	3.737617e-001
3632755.633	-1.091963e+001	-1.027710e+002	-1.766887e+001	-1.688188e+002	-1.775687e+001	-1.684156e+002	-1.322702e+001	-2.513666e+000
3657192.374	-1.087781e+001	-1.058105e+002	-1.765706e+001	-1.724212e+002	-1.774246e+001	-1.719722e+002	-1.324065e+001	-5.405331e+000
3681629.116	-1.084835e+001	-1.088331e+002	-1.762482e+001	-1.760559e+002	-1.771012e+001	-1.756070e+002	-1.326578e+001	-8.257392e+000
3706065.858	-1.082725e+001	-1.118054e+002	-1.758085e+001	-1.798059e+002	-1.766999e+001	-1.792975e+002	-1.329976e+001	-1.105427e+001
3730502.600	-1.081388e+001	-1.146998e+002	-1.753684e+001	1.763938e+002	-1.762132e+001	1.769315e+002	-1.334038e+001	-1.375563e+001
3754939.341	-1.080586e+001	-1.175172e+002	-1.748731e+001	1.725074e+002	-1.756981e+001	1.730818e+002	-1.338545e+001	-1.636310e+001
3779376.083	-1.080131e+001	-1.202753e+002	-1.743327e+001	1.685664e+002	-1.751297e+001	1.691461e+002	-1.343595e+001	-1.887019e+001
3803812.825	-1.080212e+001	-1.229453e+002	-1.737936e+001	1.644920e+002	-1.745694e+001	1.651007e+002	-1.349071e+001	-2.124803e+001
3828249.567	-1.079930e+001	-1.255456e+002	-1.733182e+001	1.603728e+002	-1.741035e+001	1.609855e+002	-1.353929e+001	-2.349321e+001
3852686.308	-1.079366e+001	-1.280442e+002	-1.730415e+001	1.561498e+002	-1.737443e+001	1.567975e+002	-1.357740e+001	-2.559899e+001
3877123.050	-1.078238e+001	-1.304742e+002	-1.728717e+001	1.518818e+002	-1.736569e+001	1.525831e+002	-1.360199e+001	-2.757074e+001
3901559.792	-1.076127e+001	-1.328393e+002	-1.729247e+001	1.476194e+002	-1.737004e+001	1.483628e+002	-1.360817e+001	-2.945900e+001
3925996.534	-1.072374e+001	-1.351568e+002	-1.732827e+001	1.433880e+002	-1.739749e+001	1.441532e+002	-1.359501e+001	-3.125442e+001
3950433.276	-1.066716e+001	-1.374889e+002	-1.738597e+001	1.393108e+002	-1.745334e+001	1.400628e+002	-1.355385e+001	-3.302156e+001
3974870.017	-1.059541e+001	-1.398835e+002	-1.745856e+001	1.354134e+002	-1.752770e+001	1.362039e+002	-1.348111e+001	-3.481883e+001
3999306.759	-1.050413e+001	-1.423872e+002	-1.755004e+001	1.318124e+002	-1.761445e+001	1.326130e+002	-1.337837e+001	-3.670090e+001
4023743.501	-1.040514e+001	-1.450658e+002	-1.763137e+001	1.285523e+002	-1.769449e+001	1.294078e+002	-1.324873e+001	-3.877855e+001
4048180.243	-1.030708e+001	-1.479765e+002	-1.767509e+001	1.256563e+002	-1.774128e+001	1.265182e+002	-1.310894e+001	-4.108937e+001
4072616.984	-1.022987e+001	-1.510893e+002	-1.766414e+001	1.229768e+002	-1.772450e+001	1.238790e+002	-1.297751e+001	-4.367808e+001
4097053.726	-1.018213e+001	-1.543630e+002	-1.758091e+001	1.203370e+002	-1.763321e+001	1.212805e+002	-1.286804e+001	-4.649095e+001
4121490.468	-1.017426e+001	-1.576992e+002	-1.742878e+001	1.174942e+002	-1.747822e+001	1.184511e+002	-1.279317e+001	-4.939667e+001
4145927.210	-1.019655e+001	-1.610036e+002	-1.724567e+001	1.143501e+002	-1.728570e+001	1.153311e+002	-1.274621e+001	-5.230440e+001
4170363.951	-1.025291e+001	-1.642134e+002	-1.704166e+001	1.109214e+002	-1.708362e+001	1.118792e+002	-1.272378e+001	-5.512545e+001
4194800.693	-1.032643e+001	-1.673435e+002	-1.683983e+001	1.072115e+002	-1.687437e+001	1.081767e+002	-1.271715e+001	-5.790006e+001
4219237.435	-1.041670e+001	-1.703673e+002	-1.664995e+001	1.032733e+002	-1.667872e+001	1.042600e+002	-1.271974e+001	-6.056600e+001
4243674.177	-1.051672e+001	-1.732863e+002	-1.647122e+001	9.918126e+001	-1.649132e+001	1.001773e+002	-1.272890e+001	-6.316908e+001
4268110.919	-1.062957e+001	-1.761124e+002	-1.630252e+001	9.496495e+001	-1.632392e+001	9.597101e+001	-1.273645e+001	-6.566981e+001
4292547.660	-1.073990e+001	-1.788397e+002	-1.616144e+001	9.070707e+001	-1.617174e+001	9.167035e+001	-1.273978e+001	-6.810349e+001
4316984.402	-1.085451e+001	1.784810e+002	-1.602969e+001	8.641867e+001	-1.603658e+001	8.740761e+001	-1.273332e+001	-7.052367e+001
4341421.144	-1.097060e+001	1.758311e+002	-1.590982e+001	8.214784e+001	-1.591420e+001	8.313086e+001	-1.272045e+001	-7.292026e+001
4365857.886	-1.108749e+001	1.732092e+002	-1.580188e+001	7.787915e+001	-1.579412e+001	7.885980e+001	-1.270243e+001	-7.535278e+001
4390294.627	-1.121380e+001	1.705646e+002	-1.568923e+001	7.367735e+001	-1.568071e+001	7.463785e+001	-1.267730e+001	-7.781608e+001
4414731.369	-1.134760e+001	1.679321e+002	-1.557924e+001	6.947085e+001	-1.556959e+001	7.041625e+001	-1.264736e+001	-8.031320e+001
4439168.111	-1.149172e+001	1.653402e+002	-1.547087e+001	6.519062e+001	-1.544718e+001	6.620791e+001	-1.262270e+001	-8.293025e+001
4463604.853	-1.165523e+001	1.627337e+002	-1.534296e+001	6.096360e+001	-1.531751e+001	6.193747e+001	-1.260465e+001	-8.554913e+001
4488041.594	-1.182721e+001	1.602186e+002	-1.522198e+001	5.667177e+001	-1.518992e+001	5.764897e+001	-1.258654e+001	-8.822251e+001
4512478.336	-1.201074e+001	1.576942e+002	-1.510087e+001	5.239884e+001	-1.507379e+001	5.331453e+001	-1.256825e+001	-9.089868e+001
4536915.078	-1.220967e+001	1.552770e+002	-1.497408e+001	4.803316e+001	-1.493490e+001	4.887556e+001	-1.257042e+001	-9.362798e+001
4561351.820	-1.241644e+001	1.529517e+002	-1.485207e+001	4.356965e+001	-1.481788e+001	4.451137e+001	-1.256017e+001	-9.641743e+001
4585788.562	-1.261822e+001	1.507072e+002	-1.474583e+001	3.904970e+001	-1.470067e+001	3.992609e+001	-1.256439e+001	-9.913734e+001
4610225.303	-1.282132e+001	1.484454e+002	-1.465030e+001	3.456280e+001	-1.460266e+001	3.542122e+001	-1.255923e+001	-1.019205e+002
4634662.045	-1.302780e+001	1.460792e+002	-1.456347e+001	3.016502e+001	-1.451005e+001	3.096997e+001	-1.255260e+001	-1.047955e+002
4659098.787	-1.325253e+001	1.437667e+002	-1.447516e+001	2.570581e+001	-1.441615e+001	2.653017e+001	-1.255191e+001	-1.077409e+002
4683535.529	-1.350364e+001	1.413900e+002	-1.437941e+001	2.132350e+001	-1.432352e+001	2.209002e+001	-1.255985e+001	-1.107575e+002
4707972.270	-1.377360e+001	1.390447e+002	-1.428396e+001	1.696397e+001	-1.422218e+001	1.765625e+001	-1.257615e+001	-1.138610e+002
4732409.012	-1.407198e+001	1.367231e+002	-1.418482e+001	1.256788e+001	-1.413090e+001	1.320750e+001	-1.259892e+001	-1.170110e+002
4756845.754	-1.439750e+001	1.343620e+002	-1.408882e+001	8.195863e+000	-1.402951e+001	8.822908e+000	-1.263257e+001	-1.203072e+002
4781282.496	-1.477100e+001	1.320710e+002	-1.397894e+001	3.851074e+000	-1.391297e+001	4.431722e+000	-1.268776e+001	-1.237168e+002
4805719.237	-1.518763e+001	1.299624e+002	-1.385952e+001	-5.886376e-001	-1.379591e+001	-2.049238e-002	-1.275964e+001	-1.271676e+002
4830155.979	-1.564621e+001	1.280928e+002	-1.373150e+001	-5.067597e+000	-1.366898e+001	-4.547057e+000	-1.285326e+001	-1.306576e+002
4854592.721	-1.613429e+001	1.265374e+002	-1.360165e+001	-9.676007e+000	-1.353759e+001	-9.204512e+000	-1.297599e+001	-1.341734e+002
4879029.463	-1.664819e+001	1.253261e+002	-1.347487e+001	-1.437308e+001	-1.341278e+001	-1.391342e+001	-1.310966e+001	-1.377063e+002
4903466.205	-1.717880e+001	1.244230e+002	-1.335587e+001	-1.916129e+001	-1.329676e+001	-1.874773e+001	-1.326441e+001	-1.412113e+002
4927902.946	-1.771795e+001	1.238927e+002	-1.324612e+001	-2.401917e+001	-1.318976e+001	-2.360423e+001	-1.343261e+001	-1.447431e+002
4952339.688	-1.826888e+001	1.236374e+002	-1.314566e+001	-2.895324e+001	-1.309230e+001	-2.857805e+001	-1.362007e+001	-1.482368e+002
4976776.430	-1.882553e+001	1.238200e+002	-1.305512e+001	-3.391491e+001	-1.300290e+001	-3.353899e+001	-1.382693e+001	-1.517893e+002
5001213.172	-1.938279e+001	1.243470e+002	-1.297494e+001	-3.890872e+001	-1.292664e+001	-3.852339e+001	-1.404189e+001	-1.553202e+002
5025649.913	-1.994573e+001	1.252949e+002	-1.290641e+001	-4.389876e+001	-1.286014e+001	-4.355568e+001	-1.428082e+001	-1.588477e+002
5050086.655	-2.050984e+001	1.267096e+002	-1.284655e+001	-4.889056e+001	-1.280650e+001	-4.857410e+001	-1.452795e+001	-1.624050e+002
5074523.397	-2.104665e+001	1.285710e+002	-1.280008e+001	-5.392689e+001	-1.276330e+001	-5.359773e+001	-1.479275e+001	-1.659545e+002
5098960.139	-2.156880e+001	1.310284e+002	-1.276156e+001	-5.894978e+001	-1.272830e+001	-5.862796e+001	-1.508389e+001	-1.695485e+002
5123396.880	-2.205627e+001	1.339810e+002	-1.273419e+001	-6.395854e+001	-1.270426e+001	-6.364237e+001	-1.538727e+001	-1.731186e+002
5147833.622	-2.249686e+001	1.375813e+002	-1.271515e+001	-6.893572e+001	-1.269270e+001	-6.863991e+001	-1.570760e+001	-1.767291e+002
5172270.364	-2.287897e+001	1.417594e+002	-1.270998e+001	-7.388348e+001	-1.268688e+001	-7.358163e+001	-1.604627e+001	1.796029e+002
5196707.106	-2.315262e+001	1.466210e+002	-1.270757e+001	-7.880093e+001	-1.269010e+001	-7.848625e+001	-1.640356e+001	1.758978e+002
5221143.847	-2.328256e+001	1.520752e+002	-1.271077e+001	-8.362390e+001	-1.269755e+001	-8.335000e+001	-1.678624e+001	1.721517e+002
5245580.589	-2.322605e+001	1.577278e+002	-1.271651e+001	-8.846564e+001	-1.270776e+001	-8.818576e+001	-1.719427e+001	1.683710e+002
5270017.331	-2.298505e+001	1.632661e+002	-1.272731e+001	-9.325850e+001	-1.271969e+001	-9.297586e+001	-1.763177e+001	1.645201e+002
5294454.073	-2.257830e+001	1.682429e+002	-1.274014e+001	-9.804268e+001	-1.273582e+001	-9.775011e+001	-1.809886e+001	1.605884e+002
5318890.815	-2.204624e+001	1.724247e+002	-1.275495e+001	-1.028021e+002	-1.275381e+001	-1.024969e+002	-1.859825e+001	1.566332e+002
5343327.556	-2.142765e+001	1.757852e+002	-1.276887e+001	-1.075307e+002	-1.277342e+001	-1.072175e+002	-1.912835e+001	1.526508e+002
5367764.298	-2.077097e+001	1.782719e+002	-1.279024e+001	-1.122451e+002	-1.279486e+001	-1.118984e+002	-1.969147e+001	1.485798e+002
5392201.040	-2.010438e+001	1.799554e+002	-1.281146e+001	-1.169346e+002	-1.281892e+001	-1.165833e+002	-2.030195e+001	1.444474e+002
5416637.782	-1.944360e+001	-1.790123e+002	-1.283347e+001	-1.215955e+002	-1.284408e+001	-1.212193e+002	-2.093794e+001	1.402025e+002
5441074.523	-1.880497e+001	-1.785791e+002	-1.285882e+001	-1.262623e+002	-1.287064e+001	-1.258496e+002	-2.161570e+001	1.358792e+002
