!Agilent Technologies,E5061B,MY49101568,A.02.00
!Date: Wed Mar 01 16:34:12 2023
!Data & Calibration Information:
!Freq	S11:SOLT2(OFF)	S21:SOLT2(OFF)	S12:SOLT2(OFF)	S22:SOLT2(OFF)
# Hz S dB R 50
1800000.000	-1.258867e+001	-4.833660e+001	-1.304901e+001	-1.358884e+002	-1.307080e+001	-1.360074e+002	-1.386665e+001	1.328266e+001
1824436.742	-1.340884e+001	-5.534482e+001	-1.246383e+001	-1.429964e+002	-1.248619e+001	-1.431027e+002	-1.473781e+001	8.081215e+000
1848873.484	-1.444722e+001	-6.240224e+001	-1.192644e+001	-1.505947e+002	-1.195736e+001	-1.506396e+002	-1.580052e+001	3.550512e+000
1873310.225	-1.572550e+001	-6.928602e+001	-1.146299e+001	-1.584241e+002	-1.148735e+001	-1.584614e+002	-1.706281e+001	2.033064e-001
1897746.967	-1.732243e+001	-7.565902e+001	-1.105314e+001	-1.664598e+002	-1.107921e+001	-1.664783e+002	-1.852053e+001	-1.615863e+000
1922183.709	-1.935380e+001	-8.142548e+001	-1.070227e+001	-1.746629e+002	-1.072774e+001	-1.746553e+002	-2.016641e+001	-7.914445e-001
1946620.451	-2.204800e+001	-8.526218e+001	-1.041994e+001	1.770347e+002	-1.044014e+001	1.770829e+002	-2.185551e+001	4.229213e+000
1971057.192	-2.582448e+001	-8.421423e+001	-1.020695e+001	1.687706e+002	-1.023097e+001	1.687849e+002	-2.311976e+001	1.432005e+001
1995493.934	-3.097200e+001	-6.544702e+001	-1.005332e+001	1.605348e+002	-1.007192e+001	1.606743e+002	-2.342966e+001	2.654362e+001
2019930.676	-3.187577e+001	-1.133260e+001	-9.956009e+000	1.524555e+002	-9.973632e+000	1.525804e+002	-2.277399e+001	3.714711e+001
2044367.418	-2.712269e+001	1.170751e+001	-9.917006e+000	1.445103e+002	-9.935145e+000	1.446621e+002	-2.162541e+001	4.277783e+001
2068804.159	-2.374953e+001	1.386932e+001	-9.938904e+000	1.368866e+002	-9.951179e+000	1.370597e+002	-2.047789e+001	4.397713e+001
2093240.901	-2.154988e+001	1.062682e+001	-9.996657e+000	1.297122e+002	-1.000361e+001	1.298638e+002	-1.954824e+001	4.254246e+001
2117677.643	-2.004180e+001	5.886919e+000	-1.006463e+001	1.228809e+002	-1.007111e+001	1.231013e+002	-1.880985e+001	3.959909e+001
2142114.385	-1.896501e+001	7.804611e-001	-1.011997e+001	1.164107e+002	-1.012172e+001	1.166137e+002	-1.826752e+001	3.599211e+001
2166551.127	-1.811247e+001	-4.423351e+000	-1.015618e+001	1.100674e+002	-1.015748e+001	1.102552e+002	-1.783907e+001	3.192366e+001
2190987.868	-1.743583e+001	-9.996496e+000	-1.019607e+001	1.038371e+002	-1.019961e+001	1.039879e+002	-1.750411e+001	2.731531e+001
2215424.610	-1.692312e+001	-1.586761e+001	-1.023969e+001	9.771141e+001	-1.023724e+001	9.796570e+001	-1.729927e+001	2.226456e+001
2239861.352	-1.658510e+001	-2.177980e+001	-1.028048e+001	9.184606e+001	-1.027973e+001	9.210836e+001	-1.719870e+001	1.695697e+001
2264298.094	-1.636359e+001	-2.748182e+001	-1.030183e+001	8.617541e+001	-1.029867e+001	8.643988e+001	-1.721042e+001	1.157597e+001
2288734.835	-1.622658e+001	-3.291220e+001	-1.029803e+001	8.057768e+001	-1.029573e+001	8.083990e+001	-1.729368e+001	6.334927e+000
2313171.577	-1.613540e+001	-3.829094e+001	-1.028131e+001	7.494765e+001	-1.027912e+001	7.521314e+001	-1.742405e+001	9.987915e-001
2337608.319	-1.609392e+001	-4.372203e+001	-1.025791e+001	6.934474e+001	-1.025675e+001	6.960935e+001	-1.762027e+001	-4.514528e+000
2362045.061	-1.611106e+001	-4.928465e+001	-1.023267e+001	6.379359e+001	-1.023141e+001	6.406164e+001	-1.789204e+001	-1.005945e+001
2386481.802	-1.621037e+001	-5.490591e+001	-1.020033e+001	5.830077e+001	-1.019945e+001	5.857424e+001	-1.823629e+001	-1.572009e+001
2410918.544	-1.639424e+001	-6.046715e+001	-1.014371e+001	5.287715e+001	-1.015090e+001	5.317576e+001	-1.863405e+001	-2.125469e+001
2435355.286	-1.661056e+001	-6.585880e+001	-1.006581e+001	4.738821e+001	-1.007316e+001	4.768604e+001	-1.905787e+001	-2.705526e+001
2459792.028	-1.688228e+001	-7.148268e+001	-9.980276e+000	4.177996e+001	-9.988274e+000	4.207955e+001	-1.955329e+001	-3.340646e+001
2484228.769	-1.725953e+001	-7.718489e+001	-9.897706e+000	3.599634e+001	-9.900298e+000	3.637879e+001	-2.016917e+001	-4.023074e+001
2508665.511	-1.773919e+001	-8.284327e+001	-9.816937e+000	3.017884e+001	-9.825000e+000	3.057784e+001	-2.092478e+001	-4.726388e+001
2533102.253	-1.831633e+001	-8.831644e+001	-9.749506e+000	2.435392e+001	-9.756794e+000	2.472639e+001	-2.181268e+001	-5.450636e+001
2557538.995	-1.898346e+001	-9.371019e+001	-9.686802e+000	1.848888e+001	-9.691611e+000	1.886364e+001	-2.283775e+001	-6.225791e+001
2581975.737	-1.978360e+001	-9.908049e+001	-9.624695e+000	1.257232e+001	-9.627808e+000	1.295316e+001	-2.403559e+001	-7.082399e+001
2606412.478	-2.074673e+001	-1.043626e+002	-9.569270e+000	6.611420e+000	-9.569299e+000	6.992225e+000	-2.546584e+001	-8.055676e+001
2630849.220	-2.192988e+001	-1.093290e+002	-9.524909e+000	5.802285e-001	-9.526339e+000	9.695101e-001	-2.717840e+001	-9.184836e+001
2655285.962	-2.336957e+001	-1.136310e+002	-9.495866e+000	-5.477471e+000	-9.495558e+000	-5.094693e+000	-2.924132e+001	-1.060919e+002
2679722.704	-2.517272e+001	-1.169574e+002	-9.481229e+000	-1.155324e+001	-9.479218e+000	-1.118576e+001	-3.156580e+001	-1.257680e+002
2704159.445	-2.751031e+001	-1.181176e+002	-9.481576e+000	-1.764580e+001	-9.475801e+000	-1.725088e+001	-3.360700e+001	-1.541820e+002
2728596.187	-3.048772e+001	-1.147258e+002	-9.497543e+000	-2.366872e+001	-9.496240e+000	-2.331010e+001	-3.412682e+001	1.696832e+002
2753032.929	-3.405744e+001	-9.921692e+001	-9.527239e+000	-2.965717e+001	-9.522880e+000	-2.930335e+001	-3.261278e+001	1.381485e+002
2777469.671	-3.581053e+001	-6.323869e+001	-9.566487e+000	-3.560190e+001	-9.563717e+000	-3.524424e+001	-3.055209e+001	1.162236e+002
2801906.412	-3.329432e+001	-3.370990e+001	-9.614825e+000	-4.146696e+001	-9.610812e+000	-4.113111e+001	-2.868706e+001	1.003692e+002
2826343.154	-3.015849e+001	-2.243690e+001	-9.669916e+000	-4.727205e+001	-9.667096e+000	-4.695568e+001	-2.715778e+001	8.817627e+001
2850779.896	-2.765866e+001	-1.997282e+001	-9.732856e+000	-5.302065e+001	-9.731551e+000	-5.271768e+001	-2.592996e+001	7.782038e+001
2875216.638	-2.576052e+001	-2.094107e+001	-9.801246e+000	-5.871456e+001	-9.799685e+000	-5.841358e+001	-2.499026e+001	6.877163e+001
2899653.380	-2.427734e+001	-2.359872e+001	-9.871042e+000	-6.431571e+001	-9.870198e+000	-6.402944e+001	-2.422801e+001	6.042470e+001
2924090.121	-2.310050e+001	-2.697135e+001	-9.940346e+000	-6.985937e+001	-9.942216e+000	-6.958102e+001	-2.363569e+001	5.263892e+001
2948526.863	-2.214428e+001	-3.075710e+001	-1.001053e+001	-7.533648e+001	-1.001455e+001	-7.506793e+001	-2.318782e+001	4.530436e+001
2972963.605	-2.137201e+001	-3.478782e+001	-1.007962e+001	-8.076894e+001	-1.008366e+001	-8.050935e+001	-2.287881e+001	3.824677e+001
2997400.347	-2.073244e+001	-3.888257e+001	-1.014559e+001	-8.614287e+001	-1.015308e+001	-8.589424e+001	-2.268347e+001	3.147619e+001
3021837.088	-2.020268e+001	-4.304919e+001	-1.020886e+001	-9.145370e+001	-1.021868e+001	-9.121093e+001	-2.257582e+001	2.494847e+001
3046273.830	-1.976713e+001	-4.726537e+001	-1.026603e+001	-9.671481e+001	-1.027657e+001	-9.647903e+001	-2.254573e+001	1.849318e+001
3070710.572	-1.942416e+001	-5.154143e+001	-1.031146e+001	-1.019534e+002	-1.032488e+001	-1.017158e+002	-2.259048e+001	1.199044e+001
3095147.314	-1.916729e+001	-5.583397e+001	-1.034543e+001	-1.072023e+002	-1.035882e+001	-1.069667e+002	-2.273430e+001	5.253822e+000
3119584.055	-1.899658e+001	-6.011875e+001	-1.036774e+001	-1.124849e+002	-1.038362e+001	-1.122551e+002	-2.299322e+001	-1.742097e+000
3144020.797	-1.890562e+001	-6.422186e+001	-1.038885e+001	-1.177737e+002	-1.040308e+001	-1.176303e+002	-2.340600e+001	-9.105575e+000
3168457.539	-1.890468e+001	-6.820154e+001	-1.040585e+001	-1.231900e+002	-1.041908e+001	-1.230634e+002	-2.397395e+001	-1.671571e+001
3192894.281	-1.898553e+001	-7.187923e+001	-1.042603e+001	-1.286961e+002	-1.043958e+001	-1.285675e+002	-2.473698e+001	-2.479063e+001
3217331.023	-1.914162e+001	-7.519227e+001	-1.045061e+001	-1.342609e+002	-1.046516e+001	-1.341568e+002	-2.574276e+001	-3.335767e+001
3241767.764	-1.935412e+001	-7.802533e+001	-1.049003e+001	-1.398777e+002	-1.050288e+001	-1.397894e+002	-2.705740e+001	-4.252775e+001
3266204.506	-1.959932e+001	-8.039322e+001	-1.053903e+001	-1.454605e+002	-1.055097e+001	-1.453843e+002	-2.868899e+001	-5.249245e+001
3290641.248	-1.987044e+001	-8.253939e+001	-1.058061e+001	-1.509452e+002	-1.059221e+001	-1.509103e+002	-3.053847e+001	-6.482277e+001
3315077.990	-2.025019e+001	-8.446670e+001	-1.059600e+001	-1.565598e+002	-1.060866e+001	-1.565539e+002	-3.254948e+001	-8.436880e+001
3339514.731	-2.077380e+001	-8.545725e+001	-1.061331e+001	-1.624428e+002	-1.062879e+001	-1.624507e+002	-3.424435e+001	-1.167809e+002
3363951.473	-2.135113e+001	-8.480842e+001	-1.065881e+001	-1.685008e+002	-1.067530e+001	-1.685451e+002	-3.371761e+001	-1.580317e+002
3388388.215	-2.188770e+001	-8.235083e+001	-1.073348e+001	-1.746581e+002	-1.075086e+001	-1.747327e+002	-3.108359e+001	1.698311e+002
3412824.957	-2.226214e+001	-7.804074e+001	-1.083561e+001	1.791261e+002	-1.085902e+001	1.790093e+002	-2.823929e+001	1.487910e+002
3437261.698	-2.232003e+001	-7.239245e+001	-1.097381e+001	1.729001e+002	-1.099893e+001	1.727395e+002	-2.581801e+001	1.338365e+002
3461698.440	-2.199834e+001	-6.651081e+001	-1.114223e+001	1.667084e+002	-1.117351e+001	1.664868e+002	-2.384184e+001	1.219197e+002
3486135.182	-2.132323e+001	-6.152828e+001	-1.134539e+001	1.605616e+002	-1.138169e+001	1.603336e+002	-2.222622e+001	1.117151e+002
3510571.924	-2.044343e+001	-5.829018e+001	-1.157329e+001	1.545470e+002	-1.162095e+001	1.542923e+002	-2.088280e+001	1.026043e+002
3535008.666	-1.948444e+001	-5.682716e+001	-1.182709e+001	1.487110e+002	-1.188093e+001	1.484375e+002	-1.977378e+001	9.438849e+001
3559445.407	-1.854509e+001	-5.672020e+001	-1.209236e+001	1.430119e+002	-1.215615e+001	1.427380e+002	-1.884134e+001	8.685432e+001
3583882.149	-1.765987e+001	-5.762331e+001	-1.236711e+001	1.374595e+002	-1.243500e+001	1.371718e+002	-1.803672e+001	7.998046e+001
3608318.891	-1.684438e+001	-5.923948e+001	-1.264195e+001	1.320410e+002	-1.272380e+001	1.317321e+002	-1.734117e+001	7.357637e+001
3632755.633	-1.610178e+001	-6.140470e+001	-1.291989e+001	1.267119e+002	-1.301068e+001	1.264382e+002	-1.673345e+001	6.761607e+001
3657192.374	-1.539923e+001	-6.381770e+001	-1.320265e+001	1.214057e+002	-1.329852e+001	1.211419e+002	-1.617605e+001	6.206927e+001
3681629.116	-1.473676e+001	-6.654131e+001	-1.350023e+001	1.161170e+002	-1.360280e+001	1.159000e+002	-1.566332e+001	5.670696e+001
3706065.858	-1.411299e+001	-6.957888e+001	-1.381871e+001	1.109116e+002	-1.392733e+001	1.107303e+002	-1.518752e+001	5.147800e+001
3730502.600	-1.353887e+001	-7.289003e+001	-1.415530e+001	1.058724e+002	-1.427040e+001	1.057084e+002	-1.475964e+001	4.637605e+001
3754939.341	-1.301895e+001	-7.640448e+001	-1.450250e+001	1.009842e+002	-1.462510e+001	1.008869e+002	-1.437934e+001	4.141820e+001
3779376.083	-1.254620e+001	-8.003500e+001	-1.485526e+001	9.630844e+001	-1.498128e+001	9.622584e+001	-1.403143e+001	3.661645e+001
3803812.825	-1.211845e+001	-8.371220e+001	-1.520302e+001	9.175744e+001	-1.533831e+001	9.172078e+001	-1.371729e+001	3.200015e+001
3828249.567	-1.172344e+001	-8.743256e+001	-1.555524e+001	8.732214e+001	-1.569259e+001	8.735825e+001	-1.342401e+001	2.751159e+001
3852686.308	-1.136476e+001	-9.115169e+001	-1.590182e+001	8.301486e+001	-1.604247e+001	8.309755e+001	-1.314969e+001	2.314683e+001
3877123.050	-1.103418e+001	-9.488975e+001	-1.625039e+001	7.880937e+001	-1.639361e+001	7.895090e+001	-1.288995e+001	1.885590e+001
3901559.792	-1.072865e+001	-9.861182e+001	-1.659667e+001	7.469378e+001	-1.674228e+001	7.490031e+001	-1.264679e+001	1.464828e+001
3925996.534	-1.044481e+001	-1.023341e+002	-1.694582e+001	7.067656e+001	-1.709156e+001	7.092596e+001	-1.242205e+001	1.050453e+001
3950433.276	-1.018000e+001	-1.060468e+002	-1.729302e+001	6.672176e+001	-1.744303e+001	6.703793e+001	-1.220944e+001	6.397644e+000
3974870.017	-9.931728e+000	-1.097613e+002	-1.765151e+001	6.284627e+001	-1.779887e+001	6.325945e+001	-1.201113e+001	2.357488e+000
3999306.759	-9.702439e+000	-1.134922e+002	-1.801594e+001	5.913352e+001	-1.816104e+001	5.961861e+001	-1.183011e+001	-1.636761e+000
4023743.501	-9.487260e+000	-1.172100e+002	-1.838171e+001	5.549817e+001	-1.852349e+001	5.603253e+001	-1.166072e+001	-5.566576e+000
4048180.243	-9.287164e+000	-1.209429e+002	-1.875548e+001	5.196472e+001	-1.889398e+001	5.258760e+001	-1.150092e+001	-9.466490e+000
4072616.984	-9.099914e+000	-1.247057e+002	-1.914571e+001	4.856187e+001	-1.927996e+001	4.929307e+001	-1.135163e+001	-1.332683e+001
4097053.726	-8.929098e+000	-1.284869e+002	-1.954701e+001	4.540967e+001	-1.967365e+001	4.614872e+001	-1.121273e+001	-1.715356e+001
4121490.468	-8.772335e+000	-1.322938e+002	-1.995640e+001	4.238792e+001	-2.007636e+001	4.322661e+001	-1.108249e+001	-2.095483e+001
4145927.210	-8.630268e+000	-1.361236e+002	-2.038348e+001	3.962840e+001	-2.049612e+001	4.051809e+001	-1.096210e+001	-2.474181e+001
4170363.951	-8.503299e+000	-1.400021e+002	-2.083346e+001	3.721118e+001	-2.092038e+001	3.813611e+001	-1.085135e+001	-2.846011e+001
4194800.693	-8.394081e+000	-1.439255e+002	-2.129479e+001	3.516691e+001	-2.136621e+001	3.613909e+001	-1.074957e+001	-3.224580e+001
4219237.435	-8.308208e+000	-1.478917e+002	-2.175196e+001	3.369137e+001	-2.181034e+001	3.473150e+001	-1.066345e+001	-3.604387e+001
4243674.177	-8.248524e+000	-1.518636e+002	-2.216573e+001	3.287867e+001	-2.221445e+001	3.391675e+001	-1.059308e+001	-3.980965e+001
4268110.919	-8.211734e+000	-1.558097e+002	-2.251193e+001	3.257922e+001	-2.253936e+001	3.362410e+001	-1.054044e+001	-4.353114e+001
4292547.660	-8.192926e+000	-1.597066e+002	-2.276496e+001	3.251155e+001	-2.279618e+001	3.358216e+001	-1.049376e+001	-4.719572e+001
4316984.402	-8.191626e+000	-1.636184e+002	-2.295776e+001	3.279629e+001	-2.296955e+001	3.388176e+001	-1.045694e+001	-5.083608e+001
4341421.144	-8.211991e+000	-1.674914e+002	-2.303230e+001	3.330485e+001	-2.304049e+001	3.441006e+001	-1.043219e+001	-5.445048e+001
4365857.886	-8.256796e+000	-1.712936e+002	-2.296741e+001	3.370533e+001	-2.295936e+001	3.476473e+001	-1.042270e+001	-5.795326e+001
4390294.627	-8.308192e+000	-1.749789e+002	-2.282366e+001	3.339726e+001	-2.280840e+001	3.448826e+001	-1.041084e+001	-6.135077e+001
4414731.369	-8.355246e+000	-1.786359e+002	-2.269958e+001	3.251784e+001	-2.267822e+001	3.354526e+001	-1.038210e+001	-6.468652e+001
4439168.111	-8.389595e+000	1.775675e+002	-2.268827e+001	3.152673e+001	-2.264807e+001	3.260106e+001	-1.033042e+001	-6.812605e+001
4463604.853	-8.433525e+000	1.735000e+002	-2.273408e+001	3.161983e+001	-2.269765e+001	3.266040e+001	-1.026523e+001	-7.180571e+001
4488041.594	-8.527498e+000	1.690699e+002	-2.268371e+001	3.346488e+001	-2.263970e+001	3.444758e+001	-1.021767e+001	-7.584660e+001
4512478.336	-8.721949e+000	1.644337e+002	-2.222659e+001	3.646514e+001	-2.218859e+001	3.744748e+001	-1.023646e+001	-8.023553e+001
4536915.078	-9.040098e+000	1.600623e+002	-2.129484e+001	3.793729e+001	-2.125284e+001	3.892602e+001	-1.035133e+001	-8.458413e+001
4561351.820	-9.419076e+000	1.564468e+002	-2.025136e+001	3.606099e+001	-2.019178e+001	3.709151e+001	-1.053416e+001	-8.846901e+001
4585788.562	-9.770893e+000	1.533751e+002	-1.942411e+001	3.233708e+001	-1.936246e+001	3.334192e+001	-1.070329e+001	-9.190434e+001
4610225.303	-1.010364e+001	1.503800e+002	-1.876282e+001	2.838986e+001	-1.869592e+001	2.937543e+001	-1.085184e+001	-9.528998e+001
4634662.045	-1.046206e+001	1.474309e+002	-1.814401e+001	2.442940e+001	-1.807572e+001	2.535080e+001	-1.100997e+001	-9.869361e+001
4659098.787	-1.084174e+001	1.447409e+002	-1.755555e+001	2.007840e+001	-1.748627e+001	2.097489e+001	-1.118599e+001	-1.020172e+002
4683535.529	-1.123011e+001	1.422221e+002	-1.702908e+001	1.555478e+001	-1.696250e+001	1.645894e+001	-1.135932e+001	-1.053199e+002
4707972.270	-1.164036e+001	1.397233e+002	-1.654559e+001	1.128088e+001	-1.647438e+001	1.211587e+001	-1.154213e+001	-1.087078e+002
4732409.012	-1.214100e+001	1.373007e+002	-1.601078e+001	7.214575e+000	-1.593616e+001	8.018840e+000	-1.177172e+001	-1.123857e+002
4756845.754	-1.276250e+001	1.356760e+002	-1.536450e+001	2.774925e+000	-1.529066e+001	3.523939e+000	-1.211009e+001	-1.160378e+002
4781282.496	-1.340976e+001	1.355522e+002	-1.468260e+001	-2.739355e+000	-1.460789e+001	-2.022631e+000	-1.255680e+001	-1.191270e+002
4805719.237	-1.391224e+001	1.368621e+002	-1.407327e+001	-9.251989e+000	-1.400394e+001	-8.560074e+000	-1.304109e+001	-1.212469e+002
4830155.979	-1.419499e+001	1.387419e+002	-1.358298e+001	-1.623247e+001	-1.351818e+001	-1.556226e+001	-1.349342e+001	-1.225428e+002
4854592.721	-1.427893e+001	1.404382e+002	-1.319064e+001	-2.334640e+001	-1.312751e+001	-2.265918e+001	-1.387894e+001	-1.232655e+002
4879029.463	-1.421323e+001	1.416068e+002	-1.286988e+001	-3.047173e+001	-1.280969e+001	-2.977591e+001	-1.419595e+001	-1.235425e+002
4903466.205	-1.405118e+001	1.420468e+002	-1.260600e+001	-3.757450e+001	-1.254753e+001	-3.687228e+001	-1.443723e+001	-1.235144e+002
4927902.946	-1.383583e+001	1.416854e+002	-1.239312e+001	-4.466713e+001	-1.233680e+001	-4.395545e+001	-1.458362e+001	-1.232798e+002
4952339.688	-1.360654e+001	1.405459e+002	-1.222737e+001	-5.175888e+001	-1.217426e+001	-5.102983e+001	-1.462865e+001	-1.230507e+002
4976776.430	-1.339989e+001	1.387007e+002	-1.210540e+001	-5.873604e+001	-1.205258e+001	-5.799595e+001	-1.459184e+001	-1.229814e+002
5001213.172	-1.324082e+001	1.363008e+002	-1.202566e+001	-6.562054e+001	-1.196727e+001	-6.487439e+001	-1.448488e+001	-1.232266e+002
5025649.913	-1.313555e+001	1.334862e+002	-1.197325e+001	-7.237893e+001	-1.191421e+001	-7.162996e+001	-1.432831e+001	-1.238696e+002
5050086.655	-1.309396e+001	1.303722e+002	-1.194906e+001	-7.901642e+001	-1.188478e+001	-7.829720e+001	-1.414194e+001	-1.248924e+002
5074523.397	-1.310983e+001	1.270720e+002	-1.194127e+001	-8.554356e+001	-1.187561e+001	-8.482955e+001	-1.394078e+001	-1.263016e+002
5098960.139	-1.318490e+001	1.236508e+002	-1.195280e+001	-9.196153e+001	-1.188070e+001	-9.127504e+001	-1.373684e+001	-1.280286e+002
5123396.880	-1.331150e+001	1.201419e+002	-1.197377e+001	-9.830909e+001	-1.190068e+001	-9.764407e+001	-1.353382e+001	-1.300196e+002
5147833.622	-1.349098e+001	1.165903e+002	-1.200666e+001	-1.045759e+002	-1.192934e+001	-1.039453e+002	-1.333263e+001	-1.322950e+002
5172270.364	-1.371631e+001	1.129831e+002	-1.204826e+001	-1.107819e+002	-1.197010e+001	-1.102016e+002	-1.313802e+001	-1.347707e+002
5196707.106	-1.398993e+001	1.093390e+002	-1.210391e+001	-1.169485e+002	-1.202255e+001	-1.164225e+002	-1.294870e+001	-1.375004e+002
5221143.847	-1.431763e+001	1.056964e+002	-1.216514e+001	-1.230148e+002	-1.208921e+001	-1.226435e+002	-1.276263e+001	-1.404342e+002
5245580.589	-1.469955e+001	1.019508e+002	-1.224166e+001	-1.290973e+002	-1.216908e+001	-1.287933e+002	-1.258943e+001	-1.435911e+002
5270017.331	-1.514318e+001	9.815988e+001	-1.233087e+001	-1.351193e+002	-1.226048e+001	-1.348861e+002	-1.243477e+001	-1.469835e+002
5294454.073	-1.565131e+001	9.435565e+001	-1.242807e+001	-1.410796e+002	-1.236229e+001	-1.409212e+002	-1.229971e+001	-1.505690e+002
5318890.815	-1.622927e+001	9.053464e+001	-1.253130e+001	-1.470014e+002	-1.247442e+001	-1.468981e+002	-1.218615e+001	-1.542970e+002
5343327.556	-1.687920e+001	8.665719e+001	-1.263875e+001	-1.528805e+002	-1.259073e+001	-1.528393e+002	-1.208885e+001	-1.581639e+002
5367764.298	-1.760989e+001	8.267795e+001	-1.275439e+001	-1.587661e+002	-1.271201e+001	-1.587579e+002	-1.200711e+001	-1.621423e+002
5392201.040	-1.844910e+001	7.851274e+001	-1.288038e+001	-1.646365e+002	-1.284467e+001	-1.646741e+002	-1.194440e+001	-1.662705e+002
5416637.782	-1.941167e+001	7.407550e+001	-1.301321e+001	-1.704922e+002	-1.298992e+001	-1.705873e+002	-1.189560e+001	-1.705295e+002
5441074.523	-2.054779e+001	6.930740e+001	-1.316027e+001	-1.763277e+002	-1.314630e+001	-1.764798e+002	-1.186587e+001	-1.749315e+002
