!Agilent Technologies,E5061B,MY49101568,A.02.00
!Date: Wed Mar 01 16:38:54 2023
!Data & Calibration Information:
!Freq	S11:SOLT2(OFF)	S21:SOLT2(OFF)	S12:SOLT2(OFF)	S22:SOLT2(OFF)
# Hz S dB R 50
1800000.000	-9.079507e+000	-1.675832e+001	-2.900234e+001	-1.272367e+002	-2.894666e+001	-1.277293e+002	-9.390046e+000	3.464053e+001
1824436.742	-9.152439e+000	-2.096085e+001	-2.857284e+001	-1.304775e+002	-2.854615e+001	-1.309430e+002	-9.524269e+000	3.071513e+001
1848873.484	-9.227908e+000	-2.526592e+001	-2.814992e+001	-1.338633e+002	-2.812736e+001	-1.343517e+002	-9.666783e+000	2.680169e+001
1873310.225	-9.306371e+000	-2.962237e+001	-2.773945e+001	-1.373108e+002	-2.771157e+001	-1.378570e+002	-9.820741e+000	2.292124e+001
1897746.967	-9.383111e+000	-3.406285e+001	-2.728863e+001	-1.407326e+002	-2.727213e+001	-1.414225e+002	-9.987655e+000	1.899793e+001
1922183.709	-9.461772e+000	-3.861914e+001	-2.682668e+001	-1.447061e+002	-2.683289e+001	-1.451454e+002	-1.018050e+001	1.517562e+001
1946620.451	-9.540640e+000	-4.329987e+001	-2.639477e+001	-1.482894e+002	-2.638809e+001	-1.489383e+002	-1.037576e+001	1.146945e+001
1971057.192	-9.623185e+000	-4.810634e+001	-2.591772e+001	-1.525576e+002	-2.593497e+001	-1.527285e+002	-1.056896e+001	7.988215e+000
1995493.934	-9.709222e+000	-5.304582e+001	-2.543521e+001	-1.562037e+002	-2.545780e+001	-1.565210e+002	-1.071885e+001	4.590460e+000
2019930.676	-9.800215e+000	-5.810912e+001	-2.489704e+001	-1.602780e+002	-2.495708e+001	-1.606124e+002	-1.083368e+001	1.046803e+000
2044367.418	-9.896909e+000	-6.333804e+001	-2.437378e+001	-1.647235e+002	-2.444671e+001	-1.649197e+002	-1.093785e+001	-2.601512e+000
2068804.159	-1.000081e+001	-6.870341e+001	-2.384830e+001	-1.693594e+002	-2.392674e+001	-1.693708e+002	-1.101169e+001	-6.308343e+000
2093240.901	-1.010939e+001	-7.422182e+001	-2.333311e+001	-1.741700e+002	-2.339814e+001	-1.740725e+002	-1.105239e+001	-1.028547e+001
2117677.643	-1.022973e+001	-7.995519e+001	-2.281334e+001	-1.790624e+002	-2.287614e+001	-1.789741e+002	-1.109285e+001	-1.456633e+001
2142114.385	-1.035908e+001	-8.586608e+001	-2.228359e+001	1.757790e+002	-2.236359e+001	1.759618e+002	-1.113768e+001	-1.914715e+001
2166551.127	-1.050063e+001	-9.198980e+001	-2.177387e+001	1.706547e+002	-2.184986e+001	1.707795e+002	-1.119438e+001	-2.395140e+001
2190987.868	-1.065356e+001	-9.833800e+001	-2.122822e+001	1.652041e+002	-2.132597e+001	1.654289e+002	-1.126435e+001	-2.892706e+001
2215424.610	-1.082777e+001	-1.049124e+002	-2.071842e+001	1.593870e+002	-2.080741e+001	1.598081e+002	-1.135129e+001	-3.404696e+001
2239861.352	-1.101593e+001	-1.117191e+002	-2.021576e+001	1.534828e+002	-2.029823e+001	1.539516e+002	-1.143835e+001	-3.928151e+001
2264298.094	-1.122332e+001	-1.187575e+002	-1.971945e+001	1.473547e+002	-1.981026e+001	1.478688e+002	-1.152574e+001	-4.465106e+001
2288734.835	-1.144860e+001	-1.260547e+002	-1.924903e+001	1.410383e+002	-1.933730e+001	1.416782e+002	-1.161363e+001	-5.016920e+001
2313171.577	-1.169194e+001	-1.335975e+002	-1.880019e+001	1.345866e+002	-1.888064e+001	1.352777e+002	-1.169796e+001	-5.581885e+001
2337608.319	-1.195464e+001	-1.413712e+002	-1.836429e+001	1.279285e+002	-1.843878e+001	1.286586e+002	-1.178256e+001	-6.167027e+001
2362045.061	-1.223983e+001	-1.493854e+002	-1.795460e+001	1.210941e+002	-1.802687e+001	1.219316e+002	-1.186317e+001	-6.760596e+001
2386481.802	-1.252769e+001	-1.576287e+002	-1.756665e+001	1.141119e+002	-1.763628e+001	1.149807e+002	-1.193236e+001	-7.377462e+001
2410918.544	-1.282536e+001	-1.661015e+002	-1.721638e+001	1.070318e+002	-1.727818e+001	1.079443e+002	-1.199465e+001	-8.008849e+001
2435355.286	-1.312482e+001	-1.748080e+002	-1.690439e+001	9.986454e+001	-1.694857e+001	1.008131e+002	-1.204490e+001	-8.659145e+001
2459792.028	-1.341789e+001	1.762815e+002	-1.661450e+001	9.258525e+001	-1.664690e+001	9.357059e+001	-1.208211e+001	-9.328283e+001
2484228.769	-1.370032e+001	1.671883e+002	-1.635617e+001	8.520913e+001	-1.637655e+001	8.622443e+001	-1.210725e+001	-1.002270e+002
2508665.511	-1.395921e+001	1.579773e+002	-1.613025e+001	7.778252e+001	-1.614114e+001	7.880542e+001	-1.212641e+001	-1.073217e+002
2533102.253	-1.419488e+001	1.486691e+002	-1.594123e+001	7.037593e+001	-1.593867e+001	7.132358e+001	-1.213382e+001	-1.145668e+002
2557538.995	-1.438889e+001	1.393227e+002	-1.578537e+001	6.290507e+001	-1.577648e+001	6.384432e+001	-1.213494e+001	-1.219958e+002
2581975.737	-1.454303e+001	1.299576e+002	-1.566865e+001	5.545793e+001	-1.564218e+001	5.634319e+001	-1.211956e+001	-1.295761e+002
2606412.478	-1.464968e+001	1.206720e+002	-1.558461e+001	4.801255e+001	-1.554880e+001	4.885783e+001	-1.209834e+001	-1.372906e+002
2630849.220	-1.471267e+001	1.114984e+002	-1.553050e+001	4.062545e+001	-1.548933e+001	4.140401e+001	-1.207150e+001	-1.450879e+002
2655285.962	-1.472776e+001	1.024999e+002	-1.551498e+001	3.331587e+001	-1.546162e+001	3.401876e+001	-1.204115e+001	-1.529644e+002
2679722.704	-1.469801e+001	9.367133e+001	-1.553021e+001	2.608904e+001	-1.547159e+001	2.670363e+001	-1.200894e+001	-1.608726e+002
2704159.445	-1.463159e+001	8.509642e+001	-1.557087e+001	1.894702e+001	-1.550832e+001	1.949964e+001	-1.197174e+001	-1.687607e+002
2728596.187	-1.453662e+001	7.679421e+001	-1.564272e+001	1.194381e+001	-1.557682e+001	1.240155e+001	-1.193783e+001	-1.766346e+002
2753032.929	-1.441399e+001	6.876172e+001	-1.574154e+001	5.043314e+000	-1.566996e+001	5.441377e+000	-1.190419e+001	1.756051e+002
2777469.671	-1.427099e+001	6.102470e+001	-1.585759e+001	-1.680138e+000	-1.578952e+001	-1.369364e+000	-1.187461e+001	1.679347e+002
2801906.412	-1.411419e+001	5.359496e+001	-1.599860e+001	-8.255762e+000	-1.593384e+001	-8.029438e+000	-1.185151e+001	1.603983e+002
2826343.154	-1.395194e+001	4.644606e+001	-1.615597e+001	-1.466079e+001	-1.609351e+001	-1.452851e+001	-1.183072e+001	1.530487e+002
2850779.896	-1.378261e+001	3.956875e+001	-1.633116e+001	-2.091069e+001	-1.626959e+001	-2.082458e+001	-1.181774e+001	1.459157e+002
2875216.638	-1.361190e+001	3.297534e+001	-1.651699e+001	-2.701186e+001	-1.645189e+001	-2.699567e+001	-1.181211e+001	1.389499e+002
2899653.380	-1.344435e+001	2.664406e+001	-1.670625e+001	-3.291136e+001	-1.665113e+001	-3.295811e+001	-1.180576e+001	1.322541e+002
2924090.121	-1.327854e+001	2.055433e+001	-1.690862e+001	-3.864647e+001	-1.685688e+001	-3.873999e+001	-1.180609e+001	1.257823e+002
2948526.863	-1.311557e+001	1.469659e+001	-1.711668e+001	-4.423073e+001	-1.706948e+001	-4.436203e+001	-1.181084e+001	1.195424e+002
2972963.605	-1.295641e+001	9.068496e+000	-1.732447e+001	-4.962216e+001	-1.728429e+001	-4.979290e+001	-1.181295e+001	1.135327e+002
2997400.347	-1.280318e+001	3.643362e+000	-1.753210e+001	-5.485083e+001	-1.749833e+001	-5.504074e+001	-1.181590e+001	1.077302e+002
3021837.088	-1.265194e+001	-1.598491e+000	-1.773836e+001	-5.994062e+001	-1.771064e+001	-6.014937e+001	-1.182065e+001	1.021396e+002
3046273.830	-1.250753e+001	-6.662776e+000	-1.793193e+001	-6.489235e+001	-1.791620e+001	-6.511031e+001	-1.182722e+001	9.672758e+001
3070710.572	-1.236823e+001	-1.156537e+001	-1.812304e+001	-6.971340e+001	-1.811558e+001	-6.994308e+001	-1.183497e+001	9.150135e+001
3095147.314	-1.223509e+001	-1.631417e+001	-1.831183e+001	-7.443322e+001	-1.831043e+001	-7.467043e+001	-1.184202e+001	8.645277e+001
3119584.055	-1.210485e+001	-2.092126e+001	-1.849529e+001	-7.900893e+001	-1.849761e+001	-7.927054e+001	-1.185169e+001	8.158221e+001
3144020.797	-1.197989e+001	-2.538314e+001	-1.867240e+001	-8.344554e+001	-1.867246e+001	-8.377267e+001	-1.185890e+001	7.687802e+001
3168457.539	-1.186088e+001	-2.973603e+001	-1.883660e+001	-8.785219e+001	-1.884244e+001	-8.815856e+001	-1.186932e+001	7.229177e+001
3192894.281	-1.174612e+001	-3.397749e+001	-1.899176e+001	-9.212869e+001	-1.900436e+001	-9.246666e+001	-1.187816e+001	6.784256e+001
3217331.023	-1.163510e+001	-3.810580e+001	-1.914153e+001	-9.635687e+001	-1.915753e+001	-9.669118e+001	-1.188795e+001	6.352878e+001
3241767.764	-1.152804e+001	-4.214012e+001	-1.928191e+001	-1.005106e+002	-1.930175e+001	-1.008425e+002	-1.189780e+001	5.932846e+001
3266204.506	-1.142403e+001	-4.606803e+001	-1.942104e+001	-1.046000e+002	-1.944437e+001	-1.049048e+002	-1.190607e+001	5.526136e+001
3290641.248	-1.131996e+001	-4.991106e+001	-1.954661e+001	-1.084997e+002	-1.957635e+001	-1.088080e+002	-1.190870e+001	5.129164e+001
3315077.990	-1.121788e+001	-5.370452e+001	-1.965684e+001	-1.123206e+002	-1.969032e+001	-1.126139e+002	-1.190935e+001	4.737572e+001
3339514.731	-1.111986e+001	-5.744793e+001	-1.974175e+001	-1.160821e+002	-1.977821e+001	-1.163674e+002	-1.191440e+001	4.352309e+001
3363951.473	-1.102723e+001	-6.114198e+001	-1.980984e+001	-1.198363e+002	-1.985178e+001	-1.201071e+002	-1.192224e+001	3.974608e+001
3388388.215	-1.093865e+001	-6.476424e+001	-1.986362e+001	-1.236062e+002	-1.991055e+001	-1.238310e+002	-1.193301e+001	3.604395e+001
3412824.957	-1.085558e+001	-6.834158e+001	-1.990551e+001	-1.273460e+002	-1.995642e+001	-1.275533e+002	-1.194769e+001	3.241704e+001
3437261.698	-1.077586e+001	-7.187328e+001	-1.993408e+001	-1.310886e+002	-1.998784e+001	-1.312435e+002	-1.196207e+001	2.887151e+001
3461698.440	-1.069978e+001	-7.535844e+001	-1.994872e+001	-1.348510e+002	-2.000769e+001	-1.349921e+002	-1.198260e+001	2.538161e+001
3486135.182	-1.062857e+001	-7.880430e+001	-1.995424e+001	-1.386037e+002	-2.001807e+001	-1.386923e+002	-1.200447e+001	2.196746e+001
3510571.924	-1.056257e+001	-8.220432e+001	-1.995295e+001	-1.423698e+002	-2.001701e+001	-1.424267e+002	-1.202906e+001	1.863259e+001
3535008.666	-1.050138e+001	-8.557530e+001	-1.993976e+001	-1.461379e+002	-2.000794e+001	-1.461550e+002	-1.205489e+001	1.534727e+001
3559445.407	-1.044382e+001	-8.891062e+001	-1.991507e+001	-1.499094e+002	-1.998713e+001	-1.498732e+002	-1.208183e+001	1.212984e+001
3583882.149	-1.039177e+001	-9.221933e+001	-1.988099e+001	-1.536646e+002	-1.995311e+001	-1.536076e+002	-1.211035e+001	8.958978e+000
3608318.891	-1.034608e+001	-9.549928e+001	-1.983330e+001	-1.574245e+002	-1.990921e+001	-1.573282e+002	-1.213955e+001	5.842796e+000
3632755.633	-1.030652e+001	-9.876574e+001	-1.976881e+001	-1.612470e+002	-1.984913e+001	-1.610559e+002	-1.217562e+001	2.738156e+000
3657192.374	-1.027530e+001	-1.019926e+002	-1.968766e+001	-1.650378e+002	-1.976785e+001	-1.648117e+002	-1.221495e+001	-3.156202e-001
3681629.116	-1.025295e+001	-1.051959e+002	-1.958578e+001	-1.689056e+002	-1.966611e+001	-1.686497e+002	-1.226338e+001	-3.341111e+000
3706065.858	-1.024098e+001	-1.083504e+002	-1.947033e+001	-1.729410e+002	-1.955318e+001	-1.725990e+002	-1.231915e+001	-6.302595e+000
3730502.600	-1.023712e+001	-1.114447e+002	-1.934534e+001	-1.770318e+002	-1.943139e+001	-1.766658e+002	-1.238495e+001	-9.168911e+000
3754939.341	-1.024180e+001	-1.144649e+002	-1.921700e+001	1.787442e+002	-1.929886e+001	1.791622e+002	-1.245576e+001	-1.194836e+001
3779376.083	-1.025291e+001	-1.174405e+002	-1.907760e+001	1.744064e+002	-1.915993e+001	1.748827e+002	-1.253124e+001	-1.464191e+001
3803812.825	-1.026951e+001	-1.203540e+002	-1.893239e+001	1.699624e+002	-1.901413e+001	1.704500e+002	-1.261169e+001	-1.722048e+001
3828249.567	-1.029448e+001	-1.232060e+002	-1.877769e+001	1.653538e+002	-1.886088e+001	1.659030e+002	-1.269648e+001	-1.971681e+001
3852686.308	-1.032833e+001	-1.259900e+002	-1.862942e+001	1.605548e+002	-1.870984e+001	1.611564e+002	-1.278404e+001	-2.208499e+001
3877123.050	-1.037044e+001	-1.286857e+002	-1.848489e+001	1.556073e+002	-1.856464e+001	1.562535e+002	-1.287142e+001	-2.434057e+001
3901559.792	-1.042017e+001	-1.312811e+002	-1.834601e+001	1.504985e+002	-1.842457e+001	1.511827e+002	-1.295741e+001	-2.646903e+001
3925996.534	-1.047488e+001	-1.337646e+002	-1.821839e+001	1.452223e+002	-1.829762e+001	1.459554e+002	-1.304281e+001	-2.845960e+001
3950433.276	-1.053638e+001	-1.361039e+002	-1.810736e+001	1.397445e+002	-1.817896e+001	1.405361e+002	-1.312830e+001	-3.030366e+001
3974870.017	-1.059839e+001	-1.382733e+002	-1.801364e+001	1.340916e+002	-1.808279e+001	1.349130e+002	-1.320702e+001	-3.195430e+001
3999306.759	-1.065513e+001	-1.402705e+002	-1.794599e+001	1.282860e+002	-1.801059e+001	1.291340e+002	-1.327343e+001	-3.343297e+001
4023743.501	-1.069959e+001	-1.420636e+002	-1.790505e+001	1.222834e+002	-1.796681e+001	1.231432e+002	-1.332278e+001	-3.467697e+001
4048180.243	-1.072220e+001	-1.436598e+002	-1.790555e+001	1.161152e+002	-1.796618e+001	1.169544e+002	-1.333853e+001	-3.570547e+001
4072616.984	-1.070944e+001	-1.450778e+002	-1.796318e+001	1.097540e+002	-1.801970e+001	1.106056e+002	-1.330719e+001	-3.656363e+001
4097053.726	-1.065160e+001	-1.464035e+002	-1.807569e+001	1.033113e+002	-1.813457e+001	1.041901e+002	-1.321943e+001	-3.733618e+001
4121490.468	-1.054012e+001	-1.477259e+002	-1.827044e+001	9.683332e+001	-1.832193e+001	9.775844e+001	-1.307084e+001	-3.814345e+001
4145927.210	-1.037474e+001	-1.491701e+002	-1.853683e+001	9.045585e+001	-1.858903e+001	9.139058e+001	-1.286227e+001	-3.912264e+001
4170363.951	-1.015956e+001	-1.508785e+002	-1.889615e+001	8.436869e+001	-1.896269e+001	8.515796e+001	-1.259700e+001	-4.031641e+001
4194800.693	-9.905573e+000	-1.529246e+002	-1.935582e+001	7.857197e+001	-1.942427e+001	7.944209e+001	-1.229148e+001	-4.198179e+001
4219237.435	-9.638127e+000	-1.554735e+002	-1.990277e+001	7.356131e+001	-1.997452e+001	7.446790e+001	-1.197041e+001	-4.411698e+001
4243674.177	-9.388088e+000	-1.584744e+002	-2.048042e+001	6.955050e+001	-2.055515e+001	7.052264e+001	-1.166492e+001	-4.674335e+001
4268110.919	-9.178237e+000	-1.618073e+002	-2.102494e+001	6.649944e+001	-2.109583e+001	6.754804e+001	-1.139868e+001	-4.969079e+001
4292547.660	-9.008535e+000	-1.653178e+002	-2.150206e+001	6.405611e+001	-2.157218e+001	6.515876e+001	-1.117057e+001	-5.278604e+001
4316984.402	-8.871056e+000	-1.689397e+002	-2.192206e+001	6.211606e+001	-2.198468e+001	6.327769e+001	-1.097018e+001	-5.597051e+001
4341421.144	-8.766167e+000	-1.726714e+002	-2.226147e+001	6.070779e+001	-2.232282e+001	6.193969e+001	-1.079490e+001	-5.924782e+001
4365857.886	-8.699496e+000	-1.764596e+002	-2.248995e+001	5.959087e+001	-2.253478e+001	6.088210e+001	-1.065012e+001	-6.256768e+001
4390294.627	-8.661899e+000	1.798092e+002	-2.260962e+001	5.825146e+001	-2.264718e+001	5.957054e+001	-1.052752e+001	-6.582801e+001
4414731.369	-8.639705e+000	1.761479e+002	-2.269645e+001	5.644127e+001	-2.272970e+001	5.779581e+001	-1.041248e+001	-6.899103e+001
4439168.111	-8.609837e+000	1.724990e+002	-2.285012e+001	5.432081e+001	-2.286980e+001	5.577348e+001	-1.028690e+001	-7.213174e+001
4463604.853	-8.567969e+000	1.686724e+002	-2.310106e+001	5.290846e+001	-2.311260e+001	5.436697e+001	-1.013824e+001	-7.534148e+001
4488041.594	-8.535906e+000	1.644867e+002	-2.335651e+001	5.310170e+001	-2.335129e+001	5.461872e+001	-9.978653e+000	-7.884230e+001
4512478.336	-8.558325e+000	1.598953e+002	-2.333883e+001	5.497574e+001	-2.331857e+001	5.655240e+001	-9.843476e+000	-8.272678e+001
4536915.078	-8.676985e+000	1.551585e+002	-2.287108e+001	5.656460e+001	-2.283682e+001	5.807298e+001	-9.770368e+000	-8.680447e+001
4561351.820	-8.874951e+000	1.506801e+002	-2.217988e+001	5.582088e+001	-2.213310e+001	5.723639e+001	-9.759492e+000	-9.077198e+001
4585788.562	-9.096286e+000	1.465754e+002	-2.157341e+001	5.312899e+001	-2.152136e+001	5.449533e+001	-9.770507e+000	-9.445941e+001
4610225.303	-9.314713e+000	1.425533e+002	-2.109993e+001	4.995891e+001	-2.103244e+001	5.128008e+001	-9.772549e+000	-9.805599e+001
4634662.045	-9.550984e+000	1.384930e+002	-2.066345e+001	4.673293e+001	-2.058736e+001	4.800327e+001	-9.772736e+000	-1.016874e+002
4659098.787	-9.816223e+000	1.344091e+002	-2.023107e+001	4.328487e+001	-2.015069e+001	4.447076e+001	-9.781162e+000	-1.053447e+002
4683535.529	-1.010636e+001	1.303619e+002	-1.982988e+001	3.957962e+001	-1.974577e+001	4.070465e+001	-9.795743e+000	-1.090085e+002
4707972.270	-1.041528e+001	1.262861e+002	-1.946752e+001	3.586061e+001	-1.937198e+001	3.686039e+001	-9.810726e+000	-1.126855e+002
4732409.012	-1.075859e+001	1.220288e+002	-1.909143e+001	3.229006e+001	-1.899539e+001	3.322610e+001	-9.828402e+000	-1.165297e+002
4756845.754	-1.116630e+001	1.176181e+002	-1.866047e+001	2.871675e+001	-1.856035e+001	2.960122e+001	-9.862296e+000	-1.205703e+002
4781282.496	-1.166189e+001	1.132398e+002	-1.816675e+001	2.469107e+001	-1.806703e+001	2.549705e+001	-9.936210e+000	-1.247070e+002
4805719.237	-1.223046e+001	1.090903e+002	-1.767925e+001	2.007664e+001	-1.757957e+001	2.078888e+001	-1.004594e+001	-1.288233e+002
4830155.979	-1.285997e+001	1.052159e+002	-1.723026e+001	1.501920e+001	-1.712895e+001	1.565105e+001	-1.018194e+001	-1.328859e+002
4854592.721	-1.354329e+001	1.015885e+002	-1.682131e+001	9.675496e+000	-1.672120e+001	1.026367e+001	-1.033411e+001	-1.369062e+002
4879029.463	-1.428860e+001	9.819556e+001	-1.644356e+001	4.204180e+000	-1.634908e+001	4.720703e+000	-1.050638e+001	-1.409117e+002
4903466.205	-1.510214e+001	9.508707e+001	-1.609375e+001	-1.420380e+000	-1.600288e+001	-9.788509e-001	-1.069938e+001	-1.448930e+002
4927902.946	-1.598590e+001	9.234529e+001	-1.577056e+001	-7.168846e+000	-1.568658e+001	-6.770440e+000	-1.091207e+001	-1.488433e+002
4952339.688	-1.694498e+001	9.004680e+001	-1.547723e+001	-1.307131e+001	-1.539868e+001	-1.272362e+001	-1.114867e+001	-1.527699e+002
4976776.430	-1.797760e+001	8.833375e+001	-1.521306e+001	-1.904452e+001	-1.513895e+001	-1.875552e+001	-1.140624e+001	-1.566256e+002
5001213.172	-1.908274e+001	8.727588e+001	-1.498078e+001	-2.508665e+001	-1.491054e+001	-2.482257e+001	-1.168158e+001	-1.603981e+002
5025649.913	-2.026437e+001	8.701683e+001	-1.477256e+001	-3.116626e+001	-1.470969e+001	-3.093496e+001	-1.197439e+001	-1.641270e+002
5050086.655	-2.152144e+001	8.770976e+001	-1.459318e+001	-3.725651e+001	-1.453635e+001	-3.704425e+001	-1.228405e+001	-1.677577e+002
5074523.397	-2.284136e+001	8.960936e+001	-1.443636e+001	-4.335241e+001	-1.438731e+001	-4.314923e+001	-1.261089e+001	-1.713489e+002
5098960.139	-2.422394e+001	9.305489e+001	-1.430012e+001	-4.940964e+001	-1.425585e+001	-4.922800e+001	-1.294872e+001	-1.748598e+002
5123396.880	-2.561570e+001	9.859202e+001	-1.418154e+001	-5.546257e+001	-1.414435e+001	-5.527254e+001	-1.330745e+001	-1.783226e+002
5147833.622	-2.690572e+001	1.066520e+002	-1.407351e+001	-6.149531e+001	-1.404521e+001	-6.130886e+001	-1.368043e+001	1.782983e+002
5172270.364	-2.789695e+001	1.174679e+002	-1.398708e+001	-6.749421e+001	-1.396072e+001	-6.730419e+001	-1.407302e+001	1.750067e+002
5196707.106	-2.837491e+001	1.300693e+002	-1.391056e+001	-7.350488e+001	-1.388769e+001	-7.330170e+001	-1.448356e+001	1.718230e+002
5221143.847	-2.823237e+001	1.426706e+002	-1.384156e+001	-7.945836e+001	-1.382951e+001	-7.928118e+001	-1.490844e+001	1.687994e+002
5245580.589	-2.760930e+001	1.532272e+002	-1.379015e+001	-8.543455e+001	-1.378121e+001	-8.525169e+001	-1.534891e+001	1.659003e+002
5270017.331	-2.673579e+001	1.612087e+002	-1.375120e+001	-9.141138e+001	-1.374585e+001	-9.119183e+001	-1.579727e+001	1.631518e+002
5294454.073	-2.580861e+001	1.668883e+002	-1.372306e+001	-9.733916e+001	-1.372140e+001	-9.711556e+001	-1.624956e+001	1.605592e+002
5318890.815	-2.489331e+001	1.708907e+002	-1.370517e+001	-1.032504e+002	-1.370618e+001	-1.030018e+002	-1.671034e+001	1.581282e+002
5343327.556	-2.402246e+001	1.736399e+002	-1.369686e+001	-1.091309e+002	-1.369794e+001	-1.088536e+002	-1.716912e+001	1.558667e+002
5367764.298	-2.321751e+001	1.753932e+002	-1.369122e+001	-1.149860e+002	-1.369457e+001	-1.146908e+002	-1.763048e+001	1.537465e+002
5392201.040	-2.248496e+001	1.763916e+002	-1.368751e+001	-1.208430e+002	-1.369699e+001	-1.205266e+002	-1.808790e+001	1.518543e+002
5416637.782	-2.182019e+001	1.768241e+002	-1.369781e+001	-1.266873e+002	-1.370495e+001	-1.263587e+002	-1.853128e+001	1.501887e+002
5441074.523	-2.123485e+001	1.768465e+002	-1.371018e+001	-1.325533e+002	-1.372039e+001	-1.322029e+002	-1.894911e+001	1.487162e+002
