!Agilent Technologies,E5061B,MY49101568,A.02.00
!Date: Wed Mar 01 16:30:22 2023
!Data & Calibration Information:
!Freq	S11:SOLT2(OFF)	S21:SOLT2(OFF)	S12:SOLT2(OFF)	S22:SOLT2(OFF)
# Hz S dB R 50
1800000.000	-9.598721e+000	-1.785265e+001	-2.556405e+001	-1.439302e+002	-2.556445e+001	-1.441294e+002	-9.824307e+000	3.514130e+001
1824436.742	-9.708185e+000	-2.205022e+001	-2.515315e+001	-1.475504e+002	-2.515670e+001	-1.477194e+002	-9.983062e+000	3.117834e+001
1848873.484	-9.823378e+000	-2.633359e+001	-2.474638e+001	-1.513185e+002	-2.475750e+001	-1.514777e+002	-1.016168e+001	2.725054e+001
1873310.225	-9.947230e+000	-3.067190e+001	-2.434081e+001	-1.552489e+002	-2.436928e+001	-1.553336e+002	-1.034260e+001	2.339095e+001
1897746.967	-1.007071e+001	-3.507156e+001	-2.394826e+001	-1.592428e+002	-2.397351e+001	-1.593709e+002	-1.054541e+001	1.956054e+001
1922183.709	-1.020230e+001	-3.957809e+001	-2.356805e+001	-1.634806e+002	-2.358423e+001	-1.635149e+002	-1.076394e+001	1.580335e+001
1946620.451	-1.033691e+001	-4.417815e+001	-2.320315e+001	-1.676405e+002	-2.321549e+001	-1.677575e+002	-1.098813e+001	1.222034e+001
1971057.192	-1.048025e+001	-4.889873e+001	-2.283693e+001	-1.718562e+002	-2.287245e+001	-1.718070e+002	-1.117153e+001	8.767951e+000
1995493.934	-1.063332e+001	-5.372016e+001	-2.247940e+001	-1.760629e+002	-2.249172e+001	-1.756307e+002	-1.133191e+001	5.090905e+000
2019930.676	-1.079955e+001	-5.871774e+001	-2.199932e+001	-1.795929e+002	-2.205089e+001	-1.795240e+002	-1.151628e+001	1.226892e+000
2044367.418	-1.097800e+001	-6.376405e+001	-2.152370e+001	1.760679e+002	-2.157054e+001	1.761572e+002	-1.172065e+001	-2.436552e+000
2068804.159	-1.116633e+001	-6.893040e+001	-2.105717e+001	1.714873e+002	-2.109033e+001	1.714780e+002	-1.188322e+001	-5.887180e+000
2093240.901	-1.136966e+001	-7.417939e+001	-2.058695e+001	1.664423e+002	-2.065556e+001	1.665307e+002	-1.197423e+001	-9.500857e+000
2117677.643	-1.158222e+001	-7.956186e+001	-2.017792e+001	1.614173e+002	-2.024757e+001	1.616565e+002	-1.203558e+001	-1.365758e+001
2142114.385	-1.179986e+001	-8.514639e+001	-1.973795e+001	1.567043e+002	-1.981760e+001	1.568601e+002	-1.212130e+001	-1.825539e+001
2166551.127	-1.203674e+001	-9.093434e+001	-1.928045e+001	1.515703e+002	-1.932808e+001	1.519308e+002	-1.227019e+001	-2.308675e+001
2190987.868	-1.229413e+001	-9.700821e+001	-1.878284e+001	1.464119e+002	-1.883861e+001	1.464903e+002	-1.243409e+001	-2.776997e+001
2215424.610	-1.259645e+001	-1.031836e+002	-1.830571e+001	1.404097e+002	-1.836265e+001	1.407210e+002	-1.259129e+001	-3.248947e+001
2239861.352	-1.292471e+001	-1.095138e+002	-1.786108e+001	1.343510e+002	-1.792576e+001	1.347787e+002	-1.274362e+001	-3.740524e+001
2264298.094	-1.327057e+001	-1.160112e+002	-1.745429e+001	1.281161e+002	-1.752169e+001	1.286265e+002	-1.288819e+001	-4.242275e+001
2288734.835	-1.363258e+001	-1.226519e+002	-1.708293e+001	1.218148e+002	-1.713878e+001	1.223289e+002	-1.302684e+001	-4.760532e+001
2313171.577	-1.401267e+001	-1.295158e+002	-1.673616e+001	1.154247e+002	-1.678910e+001	1.160145e+002	-1.315346e+001	-5.296468e+001
2337608.319	-1.441010e+001	-1.366095e+002	-1.640391e+001	1.089990e+002	-1.645467e+001	1.095979e+002	-1.327629e+001	-5.853932e+001
2362045.061	-1.481666e+001	-1.439055e+002	-1.609212e+001	1.024331e+002	-1.613940e+001	1.030543e+002	-1.340205e+001	-6.424995e+001
2386481.802	-1.522590e+001	-1.514792e+002	-1.580681e+001	9.579620e+001	-1.584840e+001	9.641006e+001	-1.350420e+001	-7.017482e+001
2410918.544	-1.562436e+001	-1.592623e+002	-1.557090e+001	8.899221e+001	-1.559958e+001	8.974507e+001	-1.358851e+001	-7.633544e+001
2435355.286	-1.599622e+001	-1.674381e+002	-1.535178e+001	8.226734e+001	-1.537408e+001	8.300055e+001	-1.364671e+001	-8.270613e+001
2459792.028	-1.632762e+001	-1.761125e+002	-1.516633e+001	7.565802e+001	-1.518218e+001	7.636706e+001	-1.368050e+001	-8.945783e+001
2484228.769	-1.663246e+001	1.745430e+002	-1.498032e+001	6.912087e+001	-1.498167e+001	6.989069e+001	-1.370934e+001	-9.667741e+001
2508665.511	-1.695091e+001	1.647998e+002	-1.477379e+001	6.244646e+001	-1.476837e+001	6.318356e+001	-1.375968e+001	-1.041622e+002
2533102.253	-1.723742e+001	1.548734e+002	-1.459518e+001	5.561005e+001	-1.458176e+001	5.628253e+001	-1.380945e+001	-1.117784e+002
2557538.995	-1.745752e+001	1.449352e+002	-1.445928e+001	4.856719e+001	-1.443396e+001	4.924814e+001	-1.384155e+001	-1.195340e+002
2581975.737	-1.758555e+001	1.349133e+002	-1.436286e+001	4.152955e+001	-1.433167e+001	4.214507e+001	-1.385663e+001	-1.273917e+002
2606412.478	-1.761987e+001	1.247925e+002	-1.430689e+001	3.453338e+001	-1.426700e+001	3.511472e+001	-1.384802e+001	-1.353814e+002
2630849.220	-1.757036e+001	1.146817e+002	-1.427701e+001	2.763430e+001	-1.422423e+001	2.815036e+001	-1.382523e+001	-1.436100e+002
2655285.962	-1.746699e+001	1.047136e+002	-1.426755e+001	2.070100e+001	-1.420831e+001	2.119856e+001	-1.379736e+001	-1.519168e+002
2679722.704	-1.729242e+001	9.507913e+001	-1.429328e+001	1.380252e+001	-1.423402e+001	1.423574e+001	-1.376719e+001	-1.601553e+002
2704159.445	-1.703059e+001	8.580708e+001	-1.437173e+001	7.082293e+000	-1.430206e+001	7.427469e+000	-1.370285e+001	-1.683522e+002
2728596.187	-1.674519e+001	7.680786e+001	-1.446384e+001	4.644018e-001	-1.439323e+001	8.258608e-001	-1.362634e+001	-1.765606e+002
2753032.929	-1.643290e+001	6.798140e+001	-1.456561e+001	-5.855855e+000	-1.449609e+001	-5.581954e+000	-1.354394e+001	1.752061e+002
2777469.671	-1.611850e+001	5.960620e+001	-1.467637e+001	-1.215814e+001	-1.460380e+001	-1.196403e+001	-1.348123e+001	1.670971e+002
2801906.412	-1.581496e+001	5.167868e+001	-1.480632e+001	-1.839163e+001	-1.473102e+001	-1.825702e+001	-1.341679e+001	1.591533e+002
2826343.154	-1.551147e+001	4.415478e+001	-1.495424e+001	-2.452731e+001	-1.488565e+001	-2.443395e+001	-1.336135e+001	1.515187e+002
2850779.896	-1.521447e+001	3.702894e+001	-1.511809e+001	-3.050386e+001	-1.505415e+001	-3.045649e+001	-1.330717e+001	1.441033e+002
2875216.638	-1.492707e+001	3.022421e+001	-1.530265e+001	-3.636827e+001	-1.523916e+001	-3.632580e+001	-1.325865e+001	1.369479e+002
2899653.380	-1.465032e+001	2.375727e+001	-1.549289e+001	-4.204582e+001	-1.543782e+001	-4.207983e+001	-1.320947e+001	1.300951e+002
2924090.121	-1.438409e+001	1.760280e+001	-1.569876e+001	-4.758011e+001	-1.564901e+001	-4.762817e+001	-1.316701e+001	1.235373e+002
2948526.863	-1.412915e+001	1.170515e+001	-1.591366e+001	-5.291773e+001	-1.586993e+001	-5.301073e+001	-1.312233e+001	1.172396e+002
2972963.605	-1.388411e+001	6.069196e+000	-1.613381e+001	-5.808317e+001	-1.609837e+001	-5.819981e+001	-1.307167e+001	1.112172e+002
2997400.347	-1.364674e+001	6.364054e-001	-1.635302e+001	-6.302560e+001	-1.632309e+001	-6.317350e+001	-1.301305e+001	1.053999e+002
3021837.088	-1.342305e+001	-4.620471e+000	-1.656527e+001	-6.781298e+001	-1.654154e+001	-6.795991e+001	-1.295661e+001	9.973966e+001
3046273.830	-1.321396e+001	-9.720951e+000	-1.676035e+001	-7.243526e+001	-1.674761e+001	-7.259855e+001	-1.290522e+001	9.426181e+001
3070710.572	-1.301899e+001	-1.464679e+001	-1.695163e+001	-7.693722e+001	-1.694512e+001	-7.712922e+001	-1.285703e+001	8.892450e+001
3095147.314	-1.283678e+001	-1.941478e+001	-1.713076e+001	-8.137447e+001	-1.713096e+001	-8.155729e+001	-1.281732e+001	8.378305e+001
3119584.055	-1.266557e+001	-2.403379e+001	-1.729768e+001	-8.569104e+001	-1.730509e+001	-8.590780e+001	-1.278660e+001	7.879566e+001
3144020.797	-1.250717e+001	-2.850213e+001	-1.745647e+001	-8.995415e+001	-1.747161e+001	-9.019947e+001	-1.276017e+001	7.399486e+001
3168457.539	-1.235738e+001	-3.283765e+001	-1.761001e+001	-9.418053e+001	-1.762905e+001	-9.441517e+001	-1.273813e+001	6.937124e+001
3192894.281	-1.221775e+001	-3.706176e+001	-1.775684e+001	-9.833803e+001	-1.778490e+001	-9.855387e+001	-1.272070e+001	6.488662e+001
3217331.023	-1.208335e+001	-4.114449e+001	-1.790049e+001	-1.024576e+002	-1.793378e+001	-1.026579e+002	-1.270292e+001	6.056062e+001
3241767.764	-1.195613e+001	-4.512379e+001	-1.803890e+001	-1.065003e+002	-1.807705e+001	-1.066816e+002	-1.268949e+001	5.637112e+001
3266204.506	-1.183377e+001	-4.900220e+001	-1.817387e+001	-1.104644e+002	-1.821868e+001	-1.106120e+002	-1.267183e+001	5.231675e+001
3290641.248	-1.171214e+001	-5.278666e+001	-1.830098e+001	-1.142920e+002	-1.835326e+001	-1.144392e+002	-1.265162e+001	4.835978e+001
3315077.990	-1.159587e+001	-5.652922e+001	-1.841521e+001	-1.180560e+002	-1.846719e+001	-1.181650e+002	-1.263253e+001	4.446605e+001
3339514.731	-1.148605e+001	-6.020640e+001	-1.850615e+001	-1.217873e+002	-1.856749e+001	-1.218623e+002	-1.261855e+001	4.063876e+001
3363951.473	-1.138344e+001	-6.381728e+001	-1.858511e+001	-1.254988e+002	-1.865585e+001	-1.255459e+002	-1.261035e+001	3.691184e+001
3388388.215	-1.128571e+001	-6.736701e+001	-1.865926e+001	-1.292080e+002	-1.872927e+001	-1.292205e+002	-1.260192e+001	3.326961e+001
3412824.957	-1.119309e+001	-7.085469e+001	-1.872391e+001	-1.328921e+002	-1.879576e+001	-1.328818e+002	-1.259994e+001	2.970771e+001
3437261.698	-1.110489e+001	-7.428534e+001	-1.877775e+001	-1.365857e+002	-1.885633e+001	-1.365521e+002	-1.259976e+001	2.623676e+001
3461698.440	-1.102198e+001	-7.765989e+001	-1.882551e+001	-1.402855e+002	-1.890726e+001	-1.402127e+002	-1.260102e+001	2.284067e+001
3486135.182	-1.094332e+001	-8.099017e+001	-1.886766e+001	-1.439631e+002	-1.895292e+001	-1.438609e+002	-1.260660e+001	1.952366e+001
3510571.924	-1.086966e+001	-8.427007e+001	-1.890490e+001	-1.476354e+002	-1.899117e+001	-1.475178e+002	-1.261217e+001	1.627967e+001
3535008.666	-1.079914e+001	-8.750112e+001	-1.893932e+001	-1.513179e+002	-1.902730e+001	-1.511468e+002	-1.261966e+001	1.312735e+001
3559445.407	-1.073310e+001	-9.067368e+001	-1.897190e+001	-1.550011e+002	-1.906293e+001	-1.547784e+002	-1.262750e+001	1.004992e+001
3583882.149	-1.066763e+001	-9.380548e+001	-1.900193e+001	-1.586168e+002	-1.909451e+001	-1.583734e+002	-1.263039e+001	7.037503e+000
3608318.891	-1.060312e+001	-9.690923e+001	-1.902776e+001	-1.621588e+002	-1.911906e+001	-1.618798e+002	-1.262925e+001	4.066760e+000
3632755.633	-1.054123e+001	-1.000074e+002	-1.904054e+001	-1.656599e+002	-1.913382e+001	-1.653152e+002	-1.262912e+001	1.096061e+000
3657192.374	-1.048367e+001	-1.030965e+002	-1.903327e+001	-1.690997e+002	-1.912439e+001	-1.687128e+002	-1.263041e+001	-1.849629e+000
3681629.116	-1.043498e+001	-1.061579e+002	-1.900715e+001	-1.725770e+002	-1.909960e+001	-1.721405e+002	-1.263697e+001	-4.765281e+000
3706065.858	-1.039260e+001	-1.091747e+002	-1.896938e+001	-1.761520e+002	-1.906130e+001	-1.756400e+002	-1.265240e+001	-7.626724e+000
3730502.600	-1.035689e+001	-1.121512e+002	-1.892050e+001	-1.797504e+002	-1.901071e+001	-1.792202e+002	-1.267188e+001	-1.040374e+001
3754939.341	-1.032283e+001	-1.150880e+002	-1.886176e+001	1.766165e+002	-1.895289e+001	1.771615e+002	-1.269442e+001	-1.312770e+001
3779376.083	-1.029441e+001	-1.179617e+002	-1.880128e+001	1.728912e+002	-1.888812e+001	1.734710e+002	-1.271768e+001	-1.576864e+001
3803812.825	-1.026958e+001	-1.207916e+002	-1.873225e+001	1.690391e+002	-1.881617e+001	1.696710e+002	-1.274317e+001	-1.831878e+001
3828249.567	-1.024651e+001	-1.235748e+002	-1.866321e+001	1.651274e+002	-1.875114e+001	1.657700e+002	-1.276652e+001	-2.078092e+001
3852686.308	-1.022274e+001	-1.262834e+002	-1.860962e+001	1.611066e+002	-1.869489e+001	1.617902e+002	-1.278493e+001	-2.313955e+001
3877123.050	-1.019539e+001	-1.289527e+002	-1.856768e+001	1.570307e+002	-1.864634e+001	1.577172e+002	-1.279771e+001	-2.542152e+001
3901559.792	-1.016716e+001	-1.315713e+002	-1.853570e+001	1.528910e+002	-1.861969e+001	1.536293e+002	-1.279982e+001	-2.762481e+001
3925996.534	-1.012775e+001	-1.341593e+002	-1.853414e+001	1.488160e+002	-1.861169e+001	1.495658e+002	-1.278738e+001	-2.975847e+001
3950433.276	-1.008042e+001	-1.367440e+002	-1.854589e+001	1.447943e+002	-1.862608e+001	1.455705e+002	-1.275673e+001	-3.183824e+001
3974870.017	-1.002191e+001	-1.393351e+002	-1.858186e+001	1.408811e+002	-1.866016e+001	1.417057e+002	-1.270765e+001	-3.391212e+001
3999306.759	-9.951312e+000	-1.419932e+002	-1.863049e+001	1.372302e+002	-1.870079e+001	1.380492e+002	-1.263892e+001	-3.602040e+001
4023743.501	-9.873406e+000	-1.447656e+002	-1.867810e+001	1.338241e+002	-1.874380e+001	1.346898e+002	-1.254867e+001	-3.823457e+001
4048180.243	-9.794677e+000	-1.476791e+002	-1.870008e+001	1.307614e+002	-1.876470e+001	1.316534e+002	-1.244323e+001	-4.059012e+001
4072616.984	-9.727551e+000	-1.507801e+002	-1.867194e+001	1.279188e+002	-1.873600e+001	1.288357e+002	-1.233685e+001	-4.313830e+001
4097053.726	-9.681487e+000	-1.539953e+002	-1.858312e+001	1.250993e+002	-1.864249e+001	1.260717e+002	-1.224241e+001	-4.587326e+001
4121490.468	-9.664562e+000	-1.572857e+002	-1.843492e+001	1.221478e+002	-1.848923e+001	1.231169e+002	-1.217500e+001	-4.868748e+001
4145927.210	-9.674959e+000	-1.605574e+002	-1.825425e+001	1.189128e+002	-1.830390e+001	1.199349e+002	-1.212380e+001	-5.154539e+001
4170363.951	-9.706168e+000	-1.637904e+002	-1.806440e+001	1.154846e+002	-1.810730e+001	1.164483e+002	-1.209302e+001	-5.432148e+001
4194800.693	-9.757674e+000	-1.669542e+002	-1.787119e+001	1.117265e+002	-1.790826e+001	1.127498e+002	-1.207333e+001	-5.709103e+001
4219237.435	-9.821325e+000	-1.700889e+002	-1.767741e+001	1.078598e+002	-1.771417e+001	1.088632e+002	-1.205983e+001	-5.980486e+001
4243674.177	-9.897843e+000	-1.731319e+002	-1.749997e+001	1.038042e+002	-1.752567e+001	1.048354e+002	-1.205499e+001	-6.247367e+001
4268110.919	-9.981388e+000	-1.761166e+002	-1.733282e+001	9.963653e+001	-1.735467e+001	1.006567e+002	-1.205119e+001	-6.506263e+001
4292547.660	-1.007154e+001	-1.790421e+002	-1.718509e+001	9.539728e+001	-1.719915e+001	9.643807e+001	-1.204337e+001	-6.762046e+001
4316984.402	-1.016613e+001	1.780745e+002	-1.704917e+001	9.113532e+001	-1.705599e+001	9.219646e+001	-1.203076e+001	-7.014842e+001
4341421.144	-1.026327e+001	1.752069e+002	-1.692570e+001	8.688531e+001	-1.692496e+001	8.795238e+001	-1.201294e+001	-7.266579e+001
4365857.886	-1.036884e+001	1.723156e+002	-1.680396e+001	8.269843e+001	-1.679756e+001	8.372010e+001	-1.199065e+001	-7.520498e+001
4390294.627	-1.048039e+001	1.694407e+002	-1.668525e+001	7.849408e+001	-1.667293e+001	7.952703e+001	-1.196269e+001	-7.778458e+001
4414731.369	-1.060209e+001	1.665273e+002	-1.656260e+001	7.432927e+001	-1.654241e+001	7.534968e+001	-1.193586e+001	-8.043101e+001
4439168.111	-1.074086e+001	1.636453e+002	-1.643383e+001	7.005889e+001	-1.640701e+001	7.113769e+001	-1.191187e+001	-8.312540e+001
4463604.853	-1.088908e+001	1.607438e+002	-1.631000e+001	6.589073e+001	-1.628144e+001	6.690231e+001	-1.188366e+001	-8.582562e+001
4488041.594	-1.105607e+001	1.578934e+002	-1.617408e+001	6.160881e+001	-1.614190e+001	6.266146e+001	-1.186321e+001	-8.859885e+001
4512478.336	-1.123426e+001	1.550514e+002	-1.604133e+001	5.732787e+001	-1.600239e+001	5.833604e+001	-1.184760e+001	-9.139409e+001
4536915.078	-1.143129e+001	1.522779e+002	-1.590303e+001	5.294608e+001	-1.586318e+001	5.392621e+001	-1.184025e+001	-9.421393e+001
4561351.820	-1.164189e+001	1.495247e+002	-1.576657e+001	4.854448e+001	-1.571792e+001	4.947898e+001	-1.183808e+001	-9.706730e+001
4585788.562	-1.185959e+001	1.468551e+002	-1.564168e+001	4.405329e+001	-1.558926e+001	4.494740e+001	-1.183645e+001	-9.993051e+001
4610225.303	-1.208243e+001	1.442153e+002	-1.552999e+001	3.953010e+001	-1.547211e+001	4.038673e+001	-1.183685e+001	-1.027963e+002
4634662.045	-1.231123e+001	1.415512e+002	-1.542480e+001	3.501673e+001	-1.536689e+001	3.591750e+001	-1.183026e+001	-1.057478e+002
4659098.787	-1.256315e+001	1.388525e+002	-1.531665e+001	3.056278e+001	-1.525746e+001	3.138050e+001	-1.183751e+001	-1.087435e+002
4683535.529	-1.283223e+001	1.361563e+002	-1.521159e+001	2.606808e+001	-1.514589e+001	2.687192e+001	-1.184490e+001	-1.118194e+002
4707972.270	-1.312425e+001	1.334620e+002	-1.510632e+001	2.164555e+001	-1.503878e+001	2.234244e+001	-1.186084e+001	-1.149186e+002
4732409.012	-1.343970e+001	1.307484e+002	-1.500378e+001	1.716784e+001	-1.493584e+001	1.786410e+001	-1.187856e+001	-1.181329e+002
4756845.754	-1.378766e+001	1.280571e+002	-1.489684e+001	1.268727e+001	-1.482698e+001	1.336401e+001	-1.190719e+001	-1.214171e+002
4781282.496	-1.417425e+001	1.253555e+002	-1.478443e+001	8.230606e+000	-1.471352e+001	8.837067e+000	-1.195138e+001	-1.247831e+002
4805719.237	-1.460284e+001	1.227408e+002	-1.466955e+001	3.750165e+000	-1.459448e+001	4.301487e+000	-1.200877e+001	-1.282231e+002
4830155.979	-1.507623e+001	1.202785e+002	-1.454517e+001	-8.252630e-001	-1.447004e+001	-3.186961e-001	-1.208356e+001	-1.317356e+002
4854592.721	-1.559954e+001	1.180224e+002	-1.441811e+001	-5.475418e+000	-1.434551e+001	-5.014751e+000	-1.217583e+001	-1.352631e+002
4879029.463	-1.616116e+001	1.159732e+002	-1.429236e+001	-1.020186e+001	-1.422015e+001	-9.767907e+000	-1.228555e+001	-1.388540e+002
4903466.205	-1.676116e+001	1.141960e+002	-1.417392e+001	-1.500529e+001	-1.410397e+001	-1.460798e+001	-1.241083e+001	-1.424469e+002
4927902.946	-1.739515e+001	1.126825e+002	-1.406579e+001	-1.988457e+001	-1.399867e+001	-1.951695e+001	-1.254903e+001	-1.460472e+002
4952339.688	-1.806823e+001	1.114696e+002	-1.396718e+001	-2.485388e+001	-1.390368e+001	-2.450071e+001	-1.270312e+001	-1.496819e+002
4976776.430	-1.878924e+001	1.106323e+002	-1.387311e+001	-2.981279e+001	-1.381656e+001	-2.947154e+001	-1.286974e+001	-1.533340e+002
5001213.172	-1.955389e+001	1.101418e+002	-1.379702e+001	-3.479303e+001	-1.374066e+001	-3.448270e+001	-1.305334e+001	-1.570147e+002
5025649.913	-2.036866e+001	1.101926e+002	-1.372509e+001	-3.983064e+001	-1.367557e+001	-3.953382e+001	-1.325305e+001	-1.607007e+002
5050086.655	-2.124032e+001	1.107943e+002	-1.366584e+001	-4.484818e+001	-1.362256e+001	-4.457904e+001	-1.346359e+001	-1.644143e+002
5074523.397	-2.215684e+001	1.121874e+002	-1.361537e+001	-4.987258e+001	-1.357216e+001	-4.961625e+001	-1.369803e+001	-1.682028e+002
5098960.139	-2.312028e+001	1.144969e+002	-1.357486e+001	-5.492202e+001	-1.353789e+001	-5.466640e+001	-1.394059e+001	-1.719820e+002
5123396.880	-2.411696e+001	1.180562e+002	-1.354586e+001	-5.995196e+001	-1.351267e+001	-5.969796e+001	-1.420061e+001	-1.757907e+002
5147833.622	-2.511753e+001	1.230727e+002	-1.352736e+001	-6.494927e+001	-1.349970e+001	-6.472313e+001	-1.447626e+001	-1.796238e+002
5172270.364	-2.603044e+001	1.300376e+002	-1.352031e+001	-6.994369e+001	-1.349282e+001	-6.969822e+001	-1.476645e+001	1.764879e+002
5196707.106	-2.676130e+001	1.391613e+002	-1.351349e+001	-7.487498e+001	-1.349668e+001	-7.464175e+001	-1.507525e+001	1.725560e+002
5221143.847	-2.710411e+001	1.500945e+002	-1.351835e+001	-7.973973e+001	-1.350346e+001	-7.954732e+001	-1.539844e+001	1.685773e+002
5245580.589	-2.692477e+001	1.614368e+002	-1.352460e+001	-8.461704e+001	-1.351381e+001	-8.441587e+001	-1.574534e+001	1.645209e+002
5270017.331	-2.627828e+001	1.715959e+002	-1.353309e+001	-8.946201e+001	-1.352989e+001	-8.923807e+001	-1.610470e+001	1.603948e+002
5294454.073	-2.532213e+001	1.795559e+002	-1.355007e+001	-9.427409e+001	-1.354832e+001	-9.403590e+001	-1.649006e+001	1.561790e+002
5318890.815	-2.422889e+001	-1.747015e+002	-1.356670e+001	-9.905175e+001	-1.356797e+001	-9.880677e+001	-1.690173e+001	1.519077e+002
5343327.556	-2.312745e+001	-1.709027e+002	-1.358678e+001	-1.038099e+002	-1.359326e+001	-1.035409e+002	-1.732803e+001	1.475725e+002
5367764.298	-2.207377e+001	-1.686321e+002	-1.360864e+001	-1.085632e+002	-1.362019e+001	-1.082682e+002	-1.777663e+001	1.431569e+002
5392201.040	-2.108061e+001	-1.674376e+002	-1.363324e+001	-1.132488e+002	-1.364724e+001	-1.129469e+002	-1.824994e+001	1.386351e+002
5416637.782	-2.016938e+001	-1.670807e+002	-1.366086e+001	-1.179367e+002	-1.367802e+001	-1.176129e+002	-1.874051e+001	1.339857e+002
5441074.523	-1.932729e+001	-1.673290e+002	-1.368995e+001	-1.226073e+002	-1.370885e+001	-1.222414e+002	-1.924927e+001	1.292214e+002
