!Agilent Technologies,E5061B,MY49101568,A.02.00
!Date: Wed Mar 01 16:29:11 2023
!Data & Calibration Information:
!Freq	S11:SOLT2(OFF)	S21:SOLT2(OFF)	S12:SOLT2(OFF)	S22:SOLT2(OFF)
# Hz S dB R 50
1800000.000	-1.558403e+001	3.528649e-002	-1.366778e+001	1.780445e+002	-1.366309e+001	1.780524e+002	-1.373847e+001	5.858918e+001
1824436.742	-1.556775e+001	2.326726e-001	-1.355253e+001	1.717421e+002	-1.354632e+001	1.717963e+002	-1.373513e+001	5.716165e+001
1848873.484	-1.547759e+001	-5.547689e-002	-1.346467e+001	1.655329e+002	-1.345897e+001	1.656151e+002	-1.370049e+001	5.553034e+001
1873310.225	-1.531038e+001	-8.806423e-001	-1.341384e+001	1.594309e+002	-1.340330e+001	1.595927e+002	-1.363512e+001	5.364955e+001
1897746.967	-1.513487e+001	-2.079855e+000	-1.336405e+001	1.535721e+002	-1.338681e+001	1.536566e+002	-1.354352e+001	5.147003e+001
1922183.709	-1.494226e+001	-4.049731e+000	-1.335042e+001	1.478121e+002	-1.334232e+001	1.479219e+002	-1.348175e+001	4.905219e+001
1946620.451	-1.477764e+001	-6.672362e+000	-1.336011e+001	1.423337e+002	-1.334541e+001	1.423274e+002	-1.339885e+001	4.626390e+001
1971057.192	-1.464966e+001	-9.249682e+000	-1.334054e+001	1.370036e+002	-1.333788e+001	1.370673e+002	-1.335328e+001	4.324465e+001
1995493.934	-1.461935e+001	-1.189874e+001	-1.330113e+001	1.320620e+002	-1.331574e+001	1.321841e+002	-1.334613e+001	3.991802e+001
2019930.676	-1.450264e+001	-1.443571e+001	-1.323212e+001	1.269435e+002	-1.323098e+001	1.270420e+002	-1.335891e+001	3.677751e+001
2044367.418	-1.434270e+001	-1.745755e+001	-1.316607e+001	1.216211e+002	-1.317205e+001	1.217267e+002	-1.336848e+001	3.357326e+001
2068804.159	-1.420957e+001	-2.104003e+001	-1.313556e+001	1.164135e+002	-1.314348e+001	1.165104e+002	-1.336876e+001	3.012508e+001
2093240.901	-1.414331e+001	-2.518591e+001	-1.314186e+001	1.113884e+002	-1.316595e+001	1.115283e+002	-1.335183e+001	2.637720e+001
2117677.643	-1.422631e+001	-2.895721e+001	-1.310598e+001	1.069393e+002	-1.312674e+001	1.069976e+002	-1.341368e+001	2.237844e+001
2142114.385	-1.429381e+001	-3.207174e+001	-1.299799e+001	1.025106e+002	-1.301830e+001	1.025884e+002	-1.352275e+001	1.830590e+001
2166551.127	-1.427507e+001	-3.512407e+001	-1.285093e+001	9.783179e+001	-1.286283e+001	9.779311e+001	-1.365857e+001	1.446084e+001
2190987.868	-1.418267e+001	-3.884940e+001	-1.270514e+001	9.271191e+001	-1.272404e+001	9.293149e+001	-1.379653e+001	1.046789e+001
2215424.610	-1.416934e+001	-4.298516e+001	-1.259003e+001	8.766091e+001	-1.260655e+001	8.779368e+001	-1.392160e+001	6.486199e+000
2239861.352	-1.417836e+001	-4.746097e+001	-1.247515e+001	8.254767e+001	-1.250138e+001	8.267527e+001	-1.406118e+001	2.343434e+000
2264298.094	-1.424011e+001	-5.220395e+001	-1.237276e+001	7.744094e+001	-1.239765e+001	7.759144e+001	-1.421854e+001	-1.977669e+000
2288734.835	-1.437283e+001	-5.700402e+001	-1.227443e+001	7.238706e+001	-1.229972e+001	7.253800e+001	-1.438830e+001	-6.464378e+000
2313171.577	-1.455215e+001	-6.173799e+001	-1.217079e+001	6.738374e+001	-1.219973e+001	6.756031e+001	-1.458558e+001	-1.116535e+001
2337608.319	-1.476459e+001	-6.647128e+001	-1.205932e+001	6.238187e+001	-1.209093e+001	6.258976e+001	-1.480105e+001	-1.602327e+001
2362045.061	-1.502124e+001	-7.119254e+001	-1.195130e+001	5.740589e+001	-1.198436e+001	5.763505e+001	-1.503308e+001	-2.106848e+001
2386481.802	-1.531030e+001	-7.586623e+001	-1.183553e+001	5.244665e+001	-1.186964e+001	5.270048e+001	-1.528989e+001	-2.641682e+001
2410918.544	-1.561320e+001	-8.048232e+001	-1.170109e+001	4.753185e+001	-1.173224e+001	4.783514e+001	-1.559425e+001	-3.229947e+001
2435355.286	-1.592743e+001	-8.523108e+001	-1.154307e+001	4.255798e+001	-1.157198e+001	4.284884e+001	-1.595643e+001	-3.852862e+001
2459792.028	-1.627024e+001	-9.030050e+001	-1.137029e+001	3.738029e+001	-1.139901e+001	3.771529e+001	-1.640815e+001	-4.507960e+001
2484228.769	-1.666860e+001	-9.571808e+001	-1.119762e+001	3.199060e+001	-1.122078e+001	3.239060e+001	-1.696647e+001	-5.175822e+001
2508665.511	-1.713925e+001	-1.014155e+002	-1.102955e+001	2.646922e+001	-1.105477e+001	2.683532e+001	-1.759938e+001	-5.831740e+001
2533102.253	-1.771899e+001	-1.074226e+002	-1.088740e+001	2.083082e+001	-1.090706e+001	2.117308e+001	-1.826309e+001	-6.495399e+001
2557538.995	-1.840526e+001	-1.136693e+002	-1.075645e+001	1.506320e+001	-1.077589e+001	1.544042e+001	-1.894296e+001	-7.204983e+001
2581975.737	-1.922909e+001	-1.201857e+002	-1.064302e+001	9.251325e+000	-1.066028e+001	9.641674e+000	-1.967497e+001	-7.987725e+001
2606412.478	-2.021011e+001	-1.269634e+002	-1.054721e+001	3.379305e+000	-1.056084e+001	3.797412e+000	-2.050737e+001	-8.863872e+001
2630849.220	-2.140756e+001	-1.341828e+002	-1.046519e+001	-2.490372e+000	-1.047492e+001	-2.113898e+000	-2.145533e+001	-9.798038e+001
2655285.962	-2.284775e+001	-1.417798e+002	-1.040412e+001	-8.495576e+000	-1.040770e+001	-8.101062e+000	-2.246971e+001	-1.082821e+002
2679722.704	-2.460868e+001	-1.502519e+002	-1.037042e+001	-1.449926e+001	-1.037216e+001	-1.413994e+001	-2.349943e+001	-1.198832e+002
2704159.445	-2.684286e+001	-1.607328e+002	-1.036933e+001	-2.049158e+001	-1.036307e+001	-2.011743e+001	-2.453151e+001	-1.334463e+002
2728596.187	-2.986096e+001	-1.746464e+002	-1.038277e+001	-2.633654e+001	-1.037388e+001	-2.599439e+001	-2.554960e+001	-1.492379e+002
2753032.929	-3.404050e+001	1.616160e+002	-1.040086e+001	-3.209890e+001	-1.039231e+001	-3.177085e+001	-2.644090e+001	-1.672090e+002
2777469.671	-3.763378e+001	1.104718e+002	-1.042984e+001	-3.784700e+001	-1.042007e+001	-3.753445e+001	-2.699512e+001	1.739448e+002
2801906.412	-3.484084e+001	5.682553e+001	-1.046889e+001	-4.359324e+001	-1.045946e+001	-4.329054e+001	-2.714272e+001	1.553257e+002
2826343.154	-3.082190e+001	3.279507e+001	-1.053313e+001	-4.925457e+001	-1.052217e+001	-4.898258e+001	-2.687703e+001	1.380861e+002
2850779.896	-2.793268e+001	1.920554e+001	-1.060800e+001	-5.483303e+001	-1.059585e+001	-5.457773e+001	-2.634960e+001	1.227919e+002
2875216.638	-2.579611e+001	9.708276e+000	-1.069443e+001	-6.035453e+001	-1.068036e+001	-6.009538e+001	-2.573011e+001	1.097454e+002
2899653.380	-2.416293e+001	1.930868e+000	-1.078547e+001	-6.575729e+001	-1.077548e+001	-6.551325e+001	-2.509667e+001	9.864033e+001
2924090.121	-2.285103e+001	-4.727594e+000	-1.088877e+001	-7.105925e+001	-1.087954e+001	-7.082736e+001	-2.449326e+001	8.906516e+001
2948526.863	-2.176915e+001	-1.078694e+001	-1.099934e+001	-7.624397e+001	-1.099256e+001	-7.603285e+001	-2.393166e+001	8.073017e+001
2972963.605	-2.084613e+001	-1.634802e+001	-1.111307e+001	-8.127102e+001	-1.110935e+001	-8.108450e+001	-2.341648e+001	7.334706e+001
2997400.347	-2.004870e+001	-2.170994e+001	-1.122571e+001	-8.614702e+001	-1.122298e+001	-8.596839e+001	-2.294100e+001	6.647542e+001
3021837.088	-1.936665e+001	-2.699298e+001	-1.132402e+001	-9.089652e+001	-1.132306e+001	-9.072640e+001	-2.252233e+001	5.992851e+001
3046273.830	-1.879331e+001	-3.219244e+001	-1.140562e+001	-9.557166e+001	-1.140982e+001	-9.540141e+001	-2.217770e+001	5.362714e+001
3070710.572	-1.831122e+001	-3.726001e+001	-1.147267e+001	-1.002047e+002	-1.147945e+001	-1.000289e+002	-2.191124e+001	4.750253e+001
3095147.314	-1.791241e+001	-4.216898e+001	-1.153072e+001	-1.048295e+002	-1.153967e+001	-1.046609e+002	-2.174418e+001	4.163065e+001
3119584.055	-1.758916e+001	-4.696761e+001	-1.156861e+001	-1.094670e+002	-1.158410e+001	-1.092980e+002	-2.165614e+001	3.601595e+001
3144020.797	-1.733518e+001	-5.152807e+001	-1.160645e+001	-1.141097e+002	-1.162156e+001	-1.139827e+002	-2.166001e+001	3.073826e+001
3168457.539	-1.714163e+001	-5.590281e+001	-1.164035e+001	-1.188322e+002	-1.165780e+001	-1.186991e+002	-2.174654e+001	2.583173e+001
3192894.281	-1.699303e+001	-6.004286e+001	-1.167121e+001	-1.235946e+002	-1.169235e+001	-1.234443e+002	-2.190601e+001	2.131839e+001
3217331.023	-1.688857e+001	-6.397500e+001	-1.170677e+001	-1.283608e+002	-1.172846e+001	-1.282040e+002	-2.212628e+001	1.725023e+001
3241767.764	-1.682011e+001	-6.768065e+001	-1.174546e+001	-1.331429e+002	-1.176825e+001	-1.329824e+002	-2.240488e+001	1.380645e+001
3266204.506	-1.677458e+001	-7.117940e+001	-1.178926e+001	-1.379114e+002	-1.181249e+001	-1.377293e+002	-2.270692e+001	1.086082e+001
3290641.248	-1.674420e+001	-7.457022e+001	-1.182824e+001	-1.426046e+002	-1.185247e+001	-1.424039e+002	-2.300467e+001	8.192839e+000
3315077.990	-1.675613e+001	-7.794276e+001	-1.184633e+001	-1.473051e+002	-1.187264e+001	-1.470975e+002	-2.337636e+001	5.535863e+000
3339514.731	-1.682260e+001	-8.111048e+001	-1.186075e+001	-1.521352e+002	-1.188579e+001	-1.519221e+002	-2.388074e+001	3.383356e+000
3363951.473	-1.693464e+001	-8.390640e+001	-1.188017e+001	-1.570817e+002	-1.190651e+001	-1.568554e+002	-2.447959e+001	2.415968e+000
3388388.215	-1.707135e+001	-8.630882e+001	-1.191391e+001	-1.620885e+002	-1.193817e+001	-1.618478e+002	-2.511062e+001	2.744032e+000
3412824.957	-1.722568e+001	-8.831138e+001	-1.195655e+001	-1.671252e+002	-1.198180e+001	-1.668978e+002	-2.572701e+001	4.647658e+000
3437261.698	-1.738586e+001	-8.985087e+001	-1.201432e+001	-1.722096e+002	-1.203926e+001	-1.719811e+002	-2.622799e+001	8.201035e+000
3461698.440	-1.753339e+001	-9.093459e+001	-1.208701e+001	-1.773104e+002	-1.211259e+001	-1.770791e+002	-2.650003e+001	1.325421e+001
3486135.182	-1.765279e+001	-9.154441e+001	-1.217542e+001	1.775901e+002	-1.220269e+001	1.778181e+002	-2.645657e+001	1.910948e+001
3510571.924	-1.772043e+001	-9.171547e+001	-1.228567e+001	1.725153e+002	-1.231279e+001	1.727366e+002	-2.604309e+001	2.471240e+001
3535008.666	-1.771510e+001	-9.159643e+001	-1.241638e+001	1.674963e+002	-1.244363e+001	1.677253e+002	-2.534903e+001	2.906836e+001
3559445.407	-1.763212e+001	-9.140718e+001	-1.256279e+001	1.626022e+002	-1.259129e+001	1.628350e+002	-2.450021e+001	3.161180e+001
3583882.149	-1.747755e+001	-9.130479e+001	-1.271709e+001	1.578459e+002	-1.275012e+001	1.580886e+002	-2.362998e+001	3.249960e+001
3608318.891	-1.727616e+001	-9.138721e+001	-1.287230e+001	1.532256e+002	-1.290472e+001	1.534785e+002	-2.283726e+001	3.224812e+001
3632755.633	-1.704129e+001	-9.166092e+001	-1.302408e+001	1.486463e+002	-1.305636e+001	1.489163e+002	-2.211786e+001	3.141430e+001
3657192.374	-1.678227e+001	-9.201676e+001	-1.316936e+001	1.441015e+002	-1.320515e+001	1.443999e+002	-2.145761e+001	3.016976e+001
3681629.116	-1.648686e+001	-9.245545e+001	-1.332261e+001	1.395770e+002	-1.336348e+001	1.398713e+002	-2.081749e+001	2.869857e+001
3706065.858	-1.614300e+001	-9.305271e+001	-1.349605e+001	1.350931e+002	-1.353446e+001	1.353899e+002	-2.019797e+001	2.685986e+001
3730502.600	-1.576657e+001	-9.398626e+001	-1.367804e+001	1.307125e+002	-1.371881e+001	1.310258e+002	-1.961062e+001	2.468945e+001
3754939.341	-1.537609e+001	-9.521593e+001	-1.386804e+001	1.264577e+002	-1.391308e+001	1.267546e+002	-1.905391e+001	2.226773e+001
3779376.083	-1.497308e+001	-9.675769e+001	-1.406817e+001	1.222935e+002	-1.411469e+001	1.225986e+002	-1.852770e+001	1.963112e+001
3803812.825	-1.456704e+001	-9.855988e+001	-1.427801e+001	1.182031e+002	-1.432983e+001	1.185377e+002	-1.801580e+001	1.680722e+001
3828249.567	-1.416028e+001	-1.007713e+002	-1.450667e+001	1.143774e+002	-1.455919e+001	1.146936e+002	-1.752820e+001	1.366583e+001
3852686.308	-1.377013e+001	-1.033075e+002	-1.474433e+001	1.107447e+002	-1.479664e+001	1.110955e+002	-1.707767e+001	1.024193e+001
3877123.050	-1.340589e+001	-1.061157e+002	-1.497848e+001	1.073881e+002	-1.504291e+001	1.077878e+002	-1.666091e+001	6.506924e+000
3901559.792	-1.307128e+001	-1.092602e+002	-1.521480e+001	1.044083e+002	-1.527602e+001	1.048097e+002	-1.629923e+001	2.564387e+000
3925996.534	-1.277934e+001	-1.126370e+002	-1.542661e+001	1.018073e+002	-1.549183e+001	1.022657e+002	-1.599916e+001	-1.653335e+000
3950433.276	-1.254362e+001	-1.162381e+002	-1.558928e+001	9.964861e+001	-1.565773e+001	1.001117e+002	-1.577357e+001	-5.971495e+000
3974870.017	-1.237723e+001	-1.199338e+002	-1.567084e+001	9.779992e+001	-1.574550e+001	9.826042e+001	-1.563132e+001	-1.026315e+001
3999306.759	-1.226967e+001	-1.235997e+002	-1.566913e+001	9.602577e+001	-1.573256e+001	9.658723e+001	-1.557960e+001	-1.444423e+001
4023743.501	-1.223380e+001	-1.271181e+002	-1.556033e+001	9.414419e+001	-1.562782e+001	9.472438e+001	-1.559450e+001	-1.830205e+001
4048180.243	-1.225330e+001	-1.303758e+002	-1.537543e+001	9.192088e+001	-1.543605e+001	9.253099e+001	-1.567164e+001	-2.171723e+001
4072616.984	-1.231906e+001	-1.332306e+002	-1.512520e+001	8.917116e+001	-1.518798e+001	8.979910e+001	-1.578438e+001	-2.455018e+001
4097053.726	-1.239693e+001	-1.355945e+002	-1.486076e+001	8.582462e+001	-1.491949e+001	8.648048e+001	-1.589519e+001	-2.675385e+001
4121490.468	-1.246139e+001	-1.375174e+002	-1.461092e+001	8.196315e+001	-1.466584e+001	8.262438e+001	-1.597118e+001	-2.843609e+001
4145927.210	-1.248586e+001	-1.391119e+002	-1.439794e+001	7.774251e+001	-1.445004e+001	7.842514e+001	-1.598835e+001	-2.977982e+001
4170363.951	-1.246533e+001	-1.405036e+002	-1.422172e+001	7.333926e+001	-1.427446e+001	7.400161e+001	-1.593763e+001	-3.096574e+001
4194800.693	-1.239071e+001	-1.418795e+002	-1.409373e+001	6.881390e+001	-1.414468e+001	6.949502e+001	-1.582630e+001	-3.225595e+001
4219237.435	-1.228062e+001	-1.433279e+002	-1.399358e+001	6.427610e+001	-1.404633e+001	6.496677e+001	-1.567188e+001	-3.368101e+001
4243674.177	-1.214195e+001	-1.449273e+002	-1.391926e+001	5.977255e+001	-1.397351e+001	6.049537e+001	-1.549577e+001	-3.532260e+001
4268110.919	-1.198682e+001	-1.467228e+002	-1.386697e+001	5.537549e+001	-1.391738e+001	5.609716e+001	-1.530972e+001	-3.719616e+001
4292547.660	-1.183206e+001	-1.486577e+002	-1.381623e+001	5.103557e+001	-1.386514e+001	5.178220e+001	-1.512726e+001	-3.920847e+001
4316984.402	-1.167850e+001	-1.507038e+002	-1.376515e+001	4.674506e+001	-1.381224e+001	4.751121e+001	-1.495200e+001	-4.133198e+001
4341421.144	-1.152738e+001	-1.528516e+002	-1.371687e+001	4.248686e+001	-1.376314e+001	4.328103e+001	-1.478225e+001	-4.355918e+001
4365857.886	-1.137975e+001	-1.550773e+002	-1.366832e+001	3.822630e+001	-1.371369e+001	3.902562e+001	-1.461170e+001	-4.581619e+001
4390294.627	-1.123238e+001	-1.573864e+002	-1.362210e+001	3.395401e+001	-1.366119e+001	3.479905e+001	-1.445498e+001	-4.815650e+001
4414731.369	-1.109446e+001	-1.597792e+002	-1.357323e+001	2.971725e+001	-1.361383e+001	3.056791e+001	-1.429639e+001	-5.056453e+001
4439168.111	-1.095813e+001	-1.622605e+002	-1.352892e+001	2.541756e+001	-1.356142e+001	2.637737e+001	-1.415162e+001	-5.306840e+001
4463604.853	-1.083153e+001	-1.648291e+002	-1.348378e+001	2.119433e+001	-1.351170e+001	2.214272e+001	-1.400558e+001	-5.558114e+001
4488041.594	-1.071948e+001	-1.674704e+002	-1.343586e+001	1.698703e+001	-1.346368e+001	1.795980e+001	-1.387484e+001	-5.818152e+001
4512478.336	-1.061600e+001	-1.701612e+002	-1.338747e+001	1.277861e+001	-1.341034e+001	1.375930e+001	-1.375307e+001	-6.080718e+001
4536915.078	-1.052341e+001	-1.729107e+002	-1.333750e+001	8.543862e+000	-1.336013e+001	9.555803e+000	-1.363996e+001	-6.347046e+001
4561351.820	-1.044042e+001	-1.757499e+002	-1.329161e+001	4.311585e+000	-1.330009e+001	5.347075e+000	-1.353937e+001	-6.613132e+001
4585788.562	-1.037644e+001	-1.786357e+002	-1.323801e+001	1.196443e-001	-1.324519e+001	1.148688e+000	-1.344532e+001	-6.887901e+001
4610225.303	-1.032967e+001	1.784383e+002	-1.317951e+001	-4.081782e+000	-1.318359e+001	-3.048774e+000	-1.336649e+001	-7.159781e+001
4634662.045	-1.029806e+001	1.754951e+002	-1.311818e+001	-8.299259e+000	-1.311649e+001	-7.269237e+000	-1.329724e+001	-7.430644e+001
4659098.787	-1.027873e+001	1.725526e+002	-1.305042e+001	-1.258697e+001	-1.304387e+001	-1.154412e+001	-1.323299e+001	-7.700059e+001
4683535.529	-1.027652e+001	1.695783e+002	-1.298038e+001	-1.687097e+001	-1.296766e+001	-1.582893e+001	-1.318041e+001	-7.969228e+001
4707972.270	-1.028756e+001	1.665843e+002	-1.291419e+001	-2.117708e+001	-1.289363e+001	-2.019201e+001	-1.312914e+001	-8.236324e+001
4732409.012	-1.031551e+001	1.635827e+002	-1.284303e+001	-2.555496e+001	-1.282006e+001	-2.456863e+001	-1.308573e+001	-8.506953e+001
4756845.754	-1.035645e+001	1.605547e+002	-1.277445e+001	-2.996045e+001	-1.274397e+001	-2.899697e+001	-1.304919e+001	-8.776772e+001
4781282.496	-1.041883e+001	1.575355e+002	-1.270624e+001	-3.440477e+001	-1.267080e+001	-3.344493e+001	-1.301793e+001	-9.047309e+001
4805719.237	-1.049630e+001	1.545051e+002	-1.263923e+001	-3.888840e+001	-1.259964e+001	-3.794180e+001	-1.299138e+001	-9.318189e+001
4830155.979	-1.059324e+001	1.514742e+002	-1.257575e+001	-4.340773e+001	-1.252836e+001	-4.248230e+001	-1.297248e+001	-9.589617e+001
4854592.721	-1.070865e+001	1.484481e+002	-1.251529e+001	-4.795371e+001	-1.246630e+001	-4.704413e+001	-1.296014e+001	-9.864603e+001
4879029.463	-1.084313e+001	1.454339e+002	-1.245818e+001	-5.253131e+001	-1.240523e+001	-5.165203e+001	-1.295168e+001	-1.013838e+002
4903466.205	-1.099882e+001	1.424347e+002	-1.240581e+001	-5.713130e+001	-1.234814e+001	-5.626737e+001	-1.295282e+001	-1.041324e+002
4927902.946	-1.117919e+001	1.394765e+002	-1.235686e+001	-6.173410e+001	-1.229492e+001	-6.092437e+001	-1.296246e+001	-1.068826e+002
4952339.688	-1.137946e+001	1.365263e+002	-1.231260e+001	-6.640331e+001	-1.224895e+001	-6.557213e+001	-1.297694e+001	-1.096586e+002
4976776.430	-1.160522e+001	1.336579e+002	-1.227055e+001	-7.104558e+001	-1.220236e+001	-7.023243e+001	-1.300057e+001	-1.124164e+002
5001213.172	-1.185563e+001	1.308556e+002	-1.223254e+001	-7.570520e+001	-1.216215e+001	-7.493918e+001	-1.302953e+001	-1.151703e+002
5025649.913	-1.213007e+001	1.281563e+002	-1.219920e+001	-8.035621e+001	-1.212813e+001	-7.963439e+001	-1.306555e+001	-1.179182e+002
5050086.655	-1.242903e+001	1.255277e+002	-1.217159e+001	-8.504207e+001	-1.209659e+001	-8.434595e+001	-1.310805e+001	-1.206799e+002
5074523.397	-1.274460e+001	1.230377e+002	-1.214313e+001	-8.970261e+001	-1.206916e+001	-8.905313e+001	-1.315658e+001	-1.234281e+002
5098960.139	-1.308169e+001	1.206538e+002	-1.211956e+001	-9.439630e+001	-1.204501e+001	-9.377416e+001	-1.321058e+001	-1.261787e+002
5123396.880	-1.343885e+001	1.183770e+002	-1.209806e+001	-9.908138e+001	-1.202300e+001	-9.848931e+001	-1.327069e+001	-1.289447e+002
5147833.622	-1.381680e+001	1.161987e+002	-1.208017e+001	-1.037657e+002	-1.200684e+001	-1.032325e+002	-1.333690e+001	-1.316943e+002
5172270.364	-1.422281e+001	1.141223e+002	-1.206665e+001	-1.084852e+002	-1.199343e+001	-1.079632e+002	-1.340946e+001	-1.344733e+002
5196707.106	-1.466023e+001	1.122215e+002	-1.205585e+001	-1.131892e+002	-1.198519e+001	-1.126959e+002	-1.348863e+001	-1.372627e+002
5221143.847	-1.512845e+001	1.105305e+002	-1.205052e+001	-1.178399e+002	-1.198038e+001	-1.174306e+002	-1.357600e+001	-1.400261e+002
5245580.589	-1.561883e+001	1.090855e+002	-1.204336e+001	-1.225284e+002	-1.197777e+001	-1.221395e+002	-1.367118e+001	-1.428436e+002
5270017.331	-1.613457e+001	1.078928e+002	-1.204097e+001	-1.272364e+002	-1.197532e+001	-1.268778e+002	-1.377324e+001	-1.456236e+002
5294454.073	-1.666846e+001	1.069644e+002	-1.203845e+001	-1.319308e+002	-1.197618e+001	-1.315913e+002	-1.388432e+001	-1.484269e+002
5318890.815	-1.721976e+001	1.063599e+002	-1.203793e+001	-1.366396e+002	-1.198068e+001	-1.363136e+002	-1.400192e+001	-1.512202e+002
5343327.556	-1.778792e+001	1.060584e+002	-1.203946e+001	-1.413560e+002	-1.198405e+001	-1.410479e+002	-1.412559e+001	-1.539707e+002
5367764.298	-1.837410e+001	1.061405e+002	-1.204415e+001	-1.460887e+002	-1.199173e+001	-1.457882e+002	-1.425096e+001	-1.567490e+002
5392201.040	-1.897109e+001	1.066086e+002	-1.205195e+001	-1.508194e+002	-1.200147e+001	-1.505443e+002	-1.437940e+001	-1.594879e+002
5416637.782	-1.957641e+001	1.075324e+002	-1.206082e+001	-1.555623e+002	-1.201437e+001	-1.553019e+002	-1.451151e+001	-1.622413e+002
5441074.523	-2.018273e+001	1.089559e+002	-1.207500e+001	-1.603172e+002	-1.203145e+001	-1.600719e+002	-1.464227e+001	-1.650078e+002
