!Agilent Technologies,E5061B,MY49101568,A.02.00
!Date: Wed Mar 01 16:27:43 2023
!Data & Calibration Information:
!Freq	S11:SOLT2(OFF)	S21:SOLT2(OFF)	S12:SOLT2(OFF)	S22:SOLT2(OFF)
# Hz S dB R 50
1800000.000	-1.128585e+001	3.491932e+001	-1.160163e+001	1.423629e+002	-1.156414e+001	1.424570e+002	-1.018118e+001	8.013445e+001
1824436.742	-1.111036e+001	2.974887e+001	-1.182338e+001	1.373443e+002	-1.178301e+001	1.373680e+002	-1.015536e+001	7.567151e+001
1848873.484	-1.097477e+001	2.472090e+001	-1.202644e+001	1.325010e+002	-1.199088e+001	1.325432e+002	-1.016307e+001	7.129335e+001
1873310.225	-1.088995e+001	1.984820e+001	-1.221534e+001	1.279324e+002	-1.218101e+001	1.279698e+002	-1.018744e+001	6.706657e+001
1897746.967	-1.082345e+001	1.507532e+001	-1.237971e+001	1.235268e+002	-1.234922e+001	1.234403e+002	-1.022850e+001	6.291567e+001
1922183.709	-1.079976e+001	1.046991e+001	-1.251649e+001	1.193177e+002	-1.249495e+001	1.192399e+002	-1.029390e+001	5.877908e+001
1946620.451	-1.081009e+001	5.880036e+000	-1.264197e+001	1.152704e+002	-1.262897e+001	1.151792e+002	-1.037449e+001	5.468437e+001
1971057.192	-1.086313e+001	1.626441e+000	-1.272240e+001	1.114950e+002	-1.269969e+001	1.113656e+002	-1.048508e+001	5.073496e+001
1995493.934	-1.087420e+001	-2.423361e+000	-1.275343e+001	1.075725e+002	-1.272464e+001	1.075469e+002	-1.060166e+001	4.690523e+001
2019930.676	-1.086149e+001	-6.493799e+000	-1.275426e+001	1.035658e+002	-1.274854e+001	1.034833e+002	-1.070376e+001	4.307097e+001
2044367.418	-1.084421e+001	-1.090438e+001	-1.276402e+001	9.939231e+001	-1.276271e+001	9.932630e+001	-1.080701e+001	3.922883e+001
2068804.159	-1.087884e+001	-1.550815e+001	-1.279134e+001	9.537394e+001	-1.279473e+001	9.532536e+001	-1.092147e+001	3.528462e+001
2093240.901	-1.098618e+001	-1.993277e+001	-1.280307e+001	9.171413e+001	-1.281257e+001	9.163308e+001	-1.105509e+001	3.128831e+001
2117677.643	-1.111533e+001	-2.407781e+001	-1.277268e+001	8.816608e+001	-1.277494e+001	8.808021e+001	-1.121494e+001	2.733099e+001
2142114.385	-1.118964e+001	-2.765840e+001	-1.265430e+001	8.450759e+001	-1.266140e+001	8.444184e+001	-1.138872e+001	2.346887e+001
2166551.127	-1.119756e+001	-3.163649e+001	-1.252231e+001	8.048953e+001	-1.253942e+001	8.039538e+001	-1.154926e+001	1.966507e+001
2190987.868	-1.120385e+001	-3.592002e+001	-1.239421e+001	7.627364e+001	-1.241760e+001	7.623855e+001	-1.171463e+001	1.576919e+001
2215424.610	-1.124662e+001	-4.055867e+001	-1.228263e+001	7.197049e+001	-1.230955e+001	7.199032e+001	-1.188416e+001	1.174942e+001
2239861.352	-1.132480e+001	-4.534368e+001	-1.216301e+001	6.766254e+001	-1.219872e+001	6.769189e+001	-1.206667e+001	7.677020e+000
2264298.094	-1.144503e+001	-5.022430e+001	-1.204617e+001	6.335329e+001	-1.207931e+001	6.338826e+001	-1.226708e+001	3.480788e+000
2288734.835	-1.160917e+001	-5.509730e+001	-1.191935e+001	5.902532e+001	-1.195614e+001	5.909980e+001	-1.248964e+001	-7.893594e-001
2313171.577	-1.180048e+001	-5.990314e+001	-1.178475e+001	5.466997e+001	-1.182409e+001	5.479017e+001	-1.272837e+001	-5.167141e+000
2337608.319	-1.202158e+001	-6.474963e+001	-1.163741e+001	5.023104e+001	-1.168063e+001	5.038376e+001	-1.299296e+001	-9.603885e+000
2362045.061	-1.227856e+001	-6.956017e+001	-1.149524e+001	4.578934e+001	-1.153950e+001	4.590499e+001	-1.327327e+001	-1.411660e+001
2386481.802	-1.257169e+001	-7.428459e+001	-1.134858e+001	4.127746e+001	-1.139620e+001	4.146275e+001	-1.357750e+001	-1.885760e+001
2410918.544	-1.287707e+001	-7.874622e+001	-1.118490e+001	3.684442e+001	-1.123375e+001	3.702375e+001	-1.392832e+001	-2.378348e+001
2435355.286	-1.316755e+001	-8.320456e+001	-1.099952e+001	3.230722e+001	-1.104484e+001	3.253249e+001	-1.433598e+001	-2.890362e+001
2459792.028	-1.344723e+001	-8.787602e+001	-1.078864e+001	2.758096e+001	-1.082817e+001	2.783091e+001	-1.483045e+001	-3.408420e+001
2484228.769	-1.375437e+001	-9.295086e+001	-1.057151e+001	2.252078e+001	-1.061122e+001	2.285465e+001	-1.539126e+001	-3.914819e+001
2508665.511	-1.412488e+001	-9.832071e+001	-1.037175e+001	1.727669e+001	-1.041518e+001	1.761172e+001	-1.599299e+001	-4.408006e+001
2533102.253	-1.458501e+001	-1.038177e+002	-1.020312e+001	1.191039e+001	-1.024378e+001	1.221610e+001	-1.665577e+001	-4.879829e+001
2557538.995	-1.512115e+001	-1.094196e+002	-1.005421e+001	6.445082e+000	-1.009071e+001	6.799339e+000	-1.735083e+001	-5.371750e+001
2581975.737	-1.574250e+001	-1.149867e+002	-9.915854e+000	9.494133e-001	-9.950397e+000	1.346186e+000	-1.813348e+001	-5.884064e+001
2606412.478	-1.645706e+001	-1.206389e+002	-9.790633e+000	-4.545420e+000	-9.818359e+000	-4.176291e+000	-1.905185e+001	-6.402241e+001
2630849.220	-1.727976e+001	-1.263005e+002	-9.675418e+000	-1.020419e+001	-9.701260e+000	-9.786949e+000	-2.011060e+001	-6.908847e+001
2655285.962	-1.824732e+001	-1.319609e+002	-9.582593e+000	-1.588717e+001	-9.603879e+000	-1.548833e+001	-2.129368e+001	-7.384595e+001
2679722.704	-1.937646e+001	-1.375526e+002	-9.515776e+000	-2.163244e+001	-9.530888e+000	-2.122598e+001	-2.266396e+001	-7.852561e+001
2704159.445	-2.070887e+001	-1.428658e+002	-9.458224e+000	-2.735302e+001	-9.482097e+000	-2.696519e+001	-2.430892e+001	-8.313229e+001
2728596.187	-2.232602e+001	-1.481375e+002	-9.438423e+000	-3.304524e+001	-9.454470e+000	-3.264358e+001	-2.641083e+001	-8.685662e+001
2753032.929	-2.434696e+001	-1.525941e+002	-9.425456e+000	-3.863049e+001	-9.433922e+000	-3.823881e+001	-2.911440e+001	-8.778413e+001
2777469.671	-2.688057e+001	-1.556436e+002	-9.422024e+000	-4.419245e+001	-9.428799e+000	-4.380920e+001	-3.255481e+001	-8.304981e+001
2801906.412	-3.024197e+001	-1.559437e+002	-9.429473e+000	-4.977969e+001	-9.436350e+000	-4.939290e+001	-3.644383e+001	-6.612292e+001
2826343.154	-3.516769e+001	-1.479171e+002	-9.453951e+000	-5.529558e+001	-9.456948e+000	-5.493879e+001	-3.808343e+001	-2.804688e+001
2850779.896	-4.095232e+001	-1.026316e+002	-9.491035e+000	-6.073943e+001	-9.494605e+000	-6.039425e+001	-3.557621e+001	4.297254e-001
2875216.638	-3.673828e+001	-4.690727e+001	-9.538768e+000	-6.614695e+001	-9.540074e+000	-6.576968e+001	-3.268111e+001	1.085553e+001
2899653.380	-3.197867e+001	-3.536692e+001	-9.594249e+000	-7.145145e+001	-9.594960e+000	-7.107712e+001	-3.048944e+001	1.322344e+001
2924090.121	-2.889451e+001	-3.391062e+001	-9.660851e+000	-7.665055e+001	-9.658837e+000	-7.630412e+001	-2.888039e+001	1.255258e+001
2948526.863	-2.671543e+001	-3.542245e+001	-9.732733e+000	-8.177270e+001	-9.732668e+000	-8.142990e+001	-2.768452e+001	1.058742e+001
2972963.605	-2.505286e+001	-3.814056e+001	-9.810539e+000	-8.674532e+001	-9.809657e+000	-8.641873e+001	-2.671818e+001	8.125054e+000
2997400.347	-2.371227e+001	-4.162148e+001	-9.882719e+000	-9.158753e+001	-9.883596e+000	-9.125804e+001	-2.587686e+001	5.181791e+000
3021837.088	-2.261224e+001	-4.567362e+001	-9.941118e+000	-9.628487e+001	-9.943350e+000	-9.597651e+001	-2.512901e+001	1.581859e+000
3046273.830	-2.173070e+001	-5.017367e+001	-9.982815e+000	-1.009405e+002	-9.984433e+000	-1.006589e+002	-2.452568e+001	-2.820906e+000
3070710.572	-2.104152e+001	-5.481784e+001	-1.000808e+001	-1.055988e+002	-1.001232e+001	-1.053057e+002	-2.401535e+001	-7.753034e+000
3095147.314	-2.049295e+001	-5.957348e+001	-1.001741e+001	-1.102711e+002	-1.002496e+001	-1.099840e+002	-2.364295e+001	-1.333023e+001
3119584.055	-2.008147e+001	-6.434693e+001	-1.001601e+001	-1.149884e+002	-1.002518e+001	-1.146962e+002	-2.338459e+001	-1.943190e+001
3144020.797	-1.980184e+001	-6.904149e+001	-1.000701e+001	-1.197700e+002	-1.001700e+001	-1.195137e+002	-2.328002e+001	-2.595627e+001
3168457.539	-1.962629e+001	-7.349818e+001	-1.000050e+001	-1.246687e+002	-1.001046e+001	-1.243989e+002	-2.332153e+001	-3.289612e+001
3192894.281	-1.954980e+001	-7.774413e+001	-9.994516e+000	-1.296385e+002	-1.000806e+001	-1.293588e+002	-2.349383e+001	-4.001405e+001
3217331.023	-1.955048e+001	-8.173079e+001	-9.996379e+000	-1.346548e+002	-1.001051e+001	-1.343581e+002	-2.380980e+001	-4.740084e+001
3241767.764	-1.962521e+001	-8.536477e+001	-1.001027e+001	-1.397096e+002	-1.002108e+001	-1.393966e+002	-2.426287e+001	-5.507431e+001
3266204.506	-1.973805e+001	-8.864038e+001	-1.003150e+001	-1.447314e+002	-1.004316e+001	-1.444214e+002	-2.485510e+001	-6.273507e+001
3290641.248	-1.989271e+001	-9.184356e+001	-1.004880e+001	-1.496902e+002	-1.005955e+001	-1.493707e+002	-2.545878e+001	-7.063201e+001
3315077.990	-2.013983e+001	-9.503654e+001	-1.004970e+001	-1.547015e+002	-1.005909e+001	-1.543907e+002	-2.607679e+001	-8.011227e+001
3339514.731	-2.052804e+001	-9.780386e+001	-1.005143e+001	-1.599186e+002	-1.005795e+001	-1.595955e+002	-2.682690e+001	-9.185850e+001
3363951.473	-2.102738e+001	-9.970186e+001	-1.006996e+001	-1.652576e+002	-1.007534e+001	-1.649463e+002	-2.774578e+001	-1.060690e+002
3388388.215	-2.160936e+001	-1.004853e+002	-1.010925e+001	-1.706731e+002	-1.011393e+001	-1.703532e+002	-2.869601e+001	-1.230100e+002
3412824.957	-2.222674e+001	-9.984649e+001	-1.017205e+001	-1.761180e+002	-1.017310e+001	-1.758242e+002	-2.945448e+001	-1.434576e+002
3437261.698	-2.282067e+001	-9.755159e+001	-1.025607e+001	1.784136e+002	-1.025633e+001	1.786799e+002	-2.970536e+001	-1.666173e+002
3461698.440	-2.327680e+001	-9.341678e+001	-1.036577e+001	1.729437e+002	-1.036520e+001	1.732104e+002	-2.923551e+001	1.699623e+002
3486135.182	-2.346726e+001	-8.783833e+001	-1.050035e+001	1.675019e+002	-1.050000e+001	1.677466e+002	-2.816393e+001	1.488100e+002
3510571.924	-2.326749e+001	-8.173823e+001	-1.066306e+001	1.621494e+002	-1.066418e+001	1.623751e+002	-2.685405e+001	1.309769e+002
3535008.666	-2.271962e+001	-7.631643e+001	-1.085236e+001	1.569001e+002	-1.085184e+001	1.571194e+002	-2.552743e+001	1.162754e+002
3559445.407	-2.193018e+001	-7.263123e+001	-1.105762e+001	1.518641e+002	-1.106382e+001	1.520397e+002	-2.433293e+001	1.037846e+002
3583882.149	-2.106229e+001	-7.062202e+001	-1.127258e+001	1.470064e+002	-1.128291e+001	1.471895e+002	-2.330247e+001	9.324717e+001
3608318.891	-2.020962e+001	-6.997170e+001	-1.148317e+001	1.423199e+002	-1.149827e+001	1.424972e+002	-2.240587e+001	8.430561e+001
3632755.633	-1.939810e+001	-7.014463e+001	-1.169241e+001	1.376561e+002	-1.170761e+001	1.378871e+002	-2.159059e+001	7.663711e+001
3657192.374	-1.862935e+001	-7.089821e+001	-1.189989e+001	1.330939e+002	-1.191477e+001	1.333116e+002	-2.083776e+001	6.981863e+001
3681629.116	-1.787919e+001	-7.220993e+001	-1.211748e+001	1.285620e+002	-1.213817e+001	1.287803e+002	-2.013038e+001	6.341466e+001
3706065.858	-1.714665e+001	-7.405236e+001	-1.235592e+001	1.241278e+002	-1.237600e+001	1.243436e+002	-1.947935e+001	5.730949e+001
3730502.600	-1.646643e+001	-7.640373e+001	-1.260286e+001	1.198371e+002	-1.262464e+001	1.200531e+002	-1.889233e+001	5.149302e+001
3754939.341	-1.584002e+001	-7.915365e+001	-1.285421e+001	1.157280e+002	-1.288197e+001	1.158995e+002	-1.835843e+001	4.593629e+001
3779376.083	-1.525651e+001	-8.215967e+001	-1.311584e+001	1.117156e+002	-1.314407e+001	1.119224e+002	-1.787394e+001	4.056817e+001
3803812.825	-1.472232e+001	-8.542545e+001	-1.338091e+001	1.079105e+002	-1.342443e+001	1.080786e+002	-1.740881e+001	3.526970e+001
3828249.567	-1.422603e+001	-8.902486e+001	-1.367041e+001	1.043280e+002	-1.371542e+001	1.045283e+002	-1.699703e+001	2.995136e+001
3852686.308	-1.378603e+001	-9.277762e+001	-1.395644e+001	1.010237e+002	-1.400584e+001	1.012443e+002	-1.663100e+001	2.468950e+001
3877123.050	-1.340005e+001	-9.670491e+001	-1.423829e+001	9.804279e+001	-1.429660e+001	9.829572e+001	-1.631385e+001	1.937374e+001
3901559.792	-1.306834e+001	-1.008176e+002	-1.451238e+001	9.548233e+001	-1.457407e+001	9.575389e+001	-1.605452e+001	1.405252e+001
3925996.534	-1.280164e+001	-1.050260e+002	-1.475145e+001	9.334679e+001	-1.481739e+001	9.363271e+001	-1.586747e+001	8.755734e+000
3950433.276	-1.260690e+001	-1.092785e+002	-1.492884e+001	9.165413e+001	-1.499642e+001	9.200284e+001	-1.576279e+001	3.514163e+000
3974870.017	-1.248556e+001	-1.134662e+002	-1.501605e+001	9.025491e+001	-1.509170e+001	9.065034e+001	-1.573981e+001	-1.487437e+000
3999306.759	-1.244304e+001	-1.174557e+002	-1.498886e+001	8.894856e+001	-1.506351e+001	8.935489e+001	-1.580226e+001	-6.060897e+000
4023743.501	-1.246289e+001	-1.211359e+002	-1.485935e+001	8.743155e+001	-1.493519e+001	8.791133e+001	-1.592907e+001	-1.018642e+001
4048180.243	-1.253839e+001	-1.243554e+002	-1.463390e+001	8.548221e+001	-1.470588e+001	8.602260e+001	-1.611090e+001	-1.357688e+001
4072616.984	-1.264897e+001	-1.270331e+002	-1.434590e+001	8.294622e+001	-1.441546e+001	8.349323e+001	-1.631056e+001	-1.619150e+001
4097053.726	-1.274786e+001	-1.290141e+002	-1.404487e+001	7.966085e+001	-1.411196e+001	8.024279e+001	-1.646716e+001	-1.795273e+001
4121490.468	-1.279944e+001	-1.304433e+002	-1.376651e+001	7.573997e+001	-1.383206e+001	7.636925e+001	-1.653831e+001	-1.906372e+001
4145927.210	-1.277572e+001	-1.316233e+002	-1.354447e+001	7.146628e+001	-1.360437e+001	7.210243e+001	-1.650410e+001	-1.995224e+001
4170363.951	-1.267930e+001	-1.327066e+002	-1.337026e+001	6.701252e+001	-1.342990e+001	6.763709e+001	-1.637740e+001	-2.089068e+001
4194800.693	-1.252774e+001	-1.339296e+002	-1.324194e+001	6.244797e+001	-1.330218e+001	6.305041e+001	-1.617430e+001	-2.206209e+001
4219237.435	-1.232450e+001	-1.353919e+002	-1.315855e+001	5.787753e+001	-1.321720e+001	5.851062e+001	-1.593362e+001	-2.363760e+001
4243674.177	-1.210318e+001	-1.371482e+002	-1.310490e+001	5.340758e+001	-1.316105e+001	5.408441e+001	-1.568398e+001	-2.558644e+001
4268110.919	-1.188410e+001	-1.391594e+002	-1.306490e+001	4.908495e+001	-1.312464e+001	4.975362e+001	-1.543444e+001	-2.780721e+001
4292547.660	-1.167255e+001	-1.413371e+002	-1.303009e+001	4.483552e+001	-1.309002e+001	4.552598e+001	-1.520683e+001	-3.017522e+001
4316984.402	-1.147012e+001	-1.436752e+002	-1.300053e+001	4.066511e+001	-1.305263e+001	4.138413e+001	-1.500164e+001	-3.266650e+001
4341421.144	-1.127889e+001	-1.460754e+002	-1.296345e+001	3.651599e+001	-1.301496e+001	3.725751e+001	-1.480337e+001	-3.521532e+001
4365857.886	-1.109677e+001	-1.485585e+002	-1.292531e+001	3.238453e+001	-1.298022e+001	3.315116e+001	-1.461498e+001	-3.784220e+001
4390294.627	-1.092108e+001	-1.511281e+002	-1.288917e+001	2.826041e+001	-1.294331e+001	2.905729e+001	-1.443595e+001	-4.050727e+001
4414731.369	-1.075644e+001	-1.537871e+002	-1.285304e+001	2.415526e+001	-1.290476e+001	2.498338e+001	-1.427055e+001	-4.323807e+001
4439168.111	-1.060016e+001	-1.565431e+002	-1.282216e+001	2.002493e+001	-1.286922e+001	2.091080e+001	-1.411054e+001	-4.602521e+001
4463604.853	-1.045467e+001	-1.593453e+002	-1.278818e+001	1.592531e+001	-1.282893e+001	1.686720e+001	-1.396971e+001	-4.884085e+001
4488041.594	-1.032677e+001	-1.622188e+002	-1.275219e+001	1.187568e+001	-1.278980e+001	1.285038e+001	-1.383909e+001	-5.169515e+001
4512478.336	-1.021373e+001	-1.651504e+002	-1.271448e+001	7.844213e+000	-1.274466e+001	8.840487e+000	-1.372185e+001	-5.457393e+001
4536915.078	-1.011314e+001	-1.680914e+002	-1.266878e+001	3.799789e+000	-1.270211e+001	4.822939e+000	-1.361265e+001	-5.748664e+001
4561351.820	-1.002992e+001	-1.711226e+002	-1.262630e+001	-2.175365e-001	-1.264898e+001	8.119013e-001	-1.352020e+001	-6.035646e+001
4585788.562	-9.964502e+000	-1.741861e+002	-1.258189e+001	-4.197809e+000	-1.259841e+001	-3.173830e+000	-1.344238e+001	-6.328793e+001
4610225.303	-9.919912e+000	-1.772488e+002	-1.252466e+001	-8.166617e+000	-1.253801e+001	-7.131529e+000	-1.338375e+001	-6.620270e+001
4634662.045	-9.893108e+000	1.797018e+002	-1.245785e+001	-1.215627e+001	-1.246512e+001	-1.110676e+001	-1.333969e+001	-6.904037e+001
4659098.787	-9.873807e+000	1.766874e+002	-1.238290e+001	-1.623626e+001	-1.238207e+001	-1.515264e+001	-1.330243e+001	-7.180446e+001
4683535.529	-9.871856e+000	1.736725e+002	-1.230241e+001	-2.034064e+001	-1.229863e+001	-1.927272e+001	-1.326656e+001	-7.454577e+001
4707972.270	-9.880703e+000	1.706639e+002	-1.222268e+001	-2.444698e+001	-1.221293e+001	-2.342484e+001	-1.323882e+001	-7.724053e+001
4732409.012	-9.904380e+000	1.676456e+002	-1.213982e+001	-2.863940e+001	-1.212328e+001	-2.762858e+001	-1.321757e+001	-7.993577e+001
4756845.754	-9.942579e+000	1.646487e+002	-1.205205e+001	-3.288788e+001	-1.203088e+001	-3.188048e+001	-1.320139e+001	-8.257635e+001
4781282.496	-9.992700e+000	1.616546e+002	-1.196673e+001	-3.720184e+001	-1.193908e+001	-3.619635e+001	-1.318924e+001	-8.519979e+001
4805719.237	-1.005552e+001	1.586674e+002	-1.188302e+001	-4.157010e+001	-1.184929e+001	-4.057249e+001	-1.317640e+001	-8.781223e+001
4830155.979	-1.013348e+001	1.556939e+002	-1.180073e+001	-4.598421e+001	-1.176403e+001	-4.502496e+001	-1.316540e+001	-9.040728e+001
4854592.721	-1.022484e+001	1.527091e+002	-1.172373e+001	-5.045055e+001	-1.168288e+001	-4.947867e+001	-1.316296e+001	-9.302705e+001
4879029.463	-1.033431e+001	1.497226e+002	-1.165311e+001	-5.493967e+001	-1.160686e+001	-5.401439e+001	-1.316131e+001	-9.562864e+001
4903466.205	-1.046209e+001	1.467555e+002	-1.158566e+001	-5.946275e+001	-1.153387e+001	-5.855743e+001	-1.316566e+001	-9.823003e+001
4927902.946	-1.060936e+001	1.438115e+002	-1.152361e+001	-6.401463e+001	-1.146948e+001	-6.312069e+001	-1.317845e+001	-1.008416e+002
4952339.688	-1.077507e+001	1.408965e+002	-1.146436e+001	-6.861515e+001	-1.140586e+001	-6.772458e+001	-1.319539e+001	-1.034655e+002
4976776.430	-1.096230e+001	1.380348e+002	-1.141091e+001	-7.320660e+001	-1.134706e+001	-7.233862e+001	-1.322025e+001	-1.060369e+002
5001213.172	-1.116984e+001	1.352241e+002	-1.135865e+001	-7.782459e+001	-1.129390e+001	-7.698285e+001	-1.324896e+001	-1.085935e+002
5025649.913	-1.139594e+001	1.324884e+002	-1.131327e+001	-8.243848e+001	-1.124575e+001	-8.163121e+001	-1.328473e+001	-1.111497e+002
5050086.655	-1.164029e+001	1.298156e+002	-1.127219e+001	-8.709894e+001	-1.120207e+001	-8.631368e+001	-1.332304e+001	-1.136684e+002
5074523.397	-1.190819e+001	1.272292e+002	-1.123527e+001	-9.174713e+001	-1.116130e+001	-9.100669e+001	-1.336488e+001	-1.161737e+002
5098960.139	-1.219069e+001	1.247376e+002	-1.120333e+001	-9.641561e+001	-1.113082e+001	-9.571048e+001	-1.340999e+001	-1.186765e+002
5123396.880	-1.249221e+001	1.223122e+002	-1.117760e+001	-1.010937e+002	-1.110383e+001	-1.004230e+002	-1.345625e+001	-1.211502e+002
5147833.622	-1.281984e+001	1.199649e+002	-1.115592e+001	-1.057638e+002	-1.108002e+001	-1.051250e+002	-1.350727e+001	-1.236112e+002
5172270.364	-1.317084e+001	1.177564e+002	-1.113952e+001	-1.104252e+002	-1.106344e+001	-1.098143e+002	-1.355860e+001	-1.260668e+002
5196707.106	-1.354387e+001	1.157003e+002	-1.112338e+001	-1.150811e+002	-1.104928e+001	-1.144994e+002	-1.361118e+001	-1.285108e+002
5221143.847	-1.394049e+001	1.138390e+002	-1.111036e+001	-1.196972e+002	-1.103802e+001	-1.191881e+002	-1.366261e+001	-1.309318e+002
5245580.589	-1.435379e+001	1.121596e+002	-1.109872e+001	-1.243618e+002	-1.102703e+001	-1.238869e+002	-1.371208e+001	-1.333856e+002
5270017.331	-1.478235e+001	1.106623e+002	-1.109050e+001	-1.290179e+002	-1.102139e+001	-1.285767e+002	-1.376522e+001	-1.358789e+002
5294454.073	-1.522279e+001	1.093921e+002	-1.108409e+001	-1.336959e+002	-1.101592e+001	-1.332662e+002	-1.381578e+001	-1.383784e+002
5318890.815	-1.567730e+001	1.083035e+002	-1.108143e+001	-1.383669e+002	-1.101297e+001	-1.379719e+002	-1.386840e+001	-1.409229e+002
5343327.556	-1.614193e+001	1.074492e+002	-1.107897e+001	-1.430593e+002	-1.101340e+001	-1.426735e+002	-1.392271e+001	-1.434835e+002
5367764.298	-1.661670e+001	1.068403e+002	-1.108044e+001	-1.477341e+002	-1.101611e+001	-1.473760e+002	-1.397950e+001	-1.460899e+002
5392201.040	-1.710066e+001	1.064521e+002	-1.108428e+001	-1.524239e+002	-1.102370e+001	-1.520908e+002	-1.404005e+001	-1.487465e+002
5416637.782	-1.759456e+001	1.063215e+002	-1.109028e+001	-1.571249e+002	-1.103259e+001	-1.568165e+002	-1.410107e+001	-1.514374e+002
5441074.523	-1.809298e+001	1.064594e+002	-1.109981e+001	-1.618368e+002	-1.104531e+001	-1.615428e+002	-1.416611e+001	-1.541842e+002
