!Agilent Technologies,E5061B,MY49101568,A.02.00
!Date: Wed Mar 01 16:36:03 2023
!Data & Calibration Information:
!Freq	S11:SOLT2(OFF)	S21:SOLT2(OFF)	S12:SOLT2(OFF)	S22:SOLT2(OFF)
# Hz S dB R 50
1800000.000	-1.335517e+001	-4.980407e+001	-1.265648e+001	-1.397900e+002	-1.269808e+001	-1.396845e+002	-1.463201e+001	1.310815e+001
1824436.742	-1.437715e+001	-5.664135e+001	-1.210282e+001	-1.473183e+002	-1.214283e+001	-1.471148e+002	-1.567444e+001	8.636242e+000
1848873.484	-1.566476e+001	-6.313393e+001	-1.161629e+001	-1.552643e+002	-1.165035e+001	-1.550211e+002	-1.694285e+001	5.389130e+000
1873310.225	-1.728793e+001	-6.891936e+001	-1.119792e+001	-1.634454e+002	-1.122469e+001	-1.631765e+002	-1.840762e+001	4.219006e+000
1897746.967	-1.933980e+001	-7.334547e+001	-1.084910e+001	-1.717176e+002	-1.087241e+001	-1.714896e+002	-2.001511e+001	5.852900e+000
1922183.709	-2.199618e+001	-7.508806e+001	-1.056584e+001	1.799041e+002	-1.058614e+001	-1.798215e+002	-2.157441e+001	1.167529e+001
1946620.451	-2.549266e+001	-6.993314e+001	-1.035118e+001	1.715374e+002	-1.036786e+001	1.717924e+002	-2.261463e+001	2.220634e+001
1971057.192	-2.911234e+001	-4.733073e+001	-1.021411e+001	1.632096e+002	-1.021616e+001	1.635171e+002	-2.265978e+001	3.413308e+001
1995493.934	-2.884692e+001	-8.743602e+000	-1.012456e+001	1.551042e+002	-1.013019e+001	1.554036e+002	-2.187344e+001	4.336094e+001
2019930.676	-2.543441e+001	9.444037e+000	-1.008816e+001	1.471774e+002	-1.008993e+001	1.474866e+002	-2.073108e+001	4.795255e+001
2044367.418	-2.259802e+001	1.236416e+001	-1.010138e+001	1.394579e+002	-1.010194e+001	1.397394e+002	-1.961921e+001	4.882760e+001
2068804.159	-2.059359e+001	1.000041e+001	-1.016152e+001	1.321126e+002	-1.015902e+001	1.323551e+002	-1.867500e+001	4.695473e+001
2093240.901	-1.918607e+001	5.418931e+000	-1.024927e+001	1.251953e+002	-1.024100e+001	1.253760e+002	-1.794590e+001	4.374435e+001
2117677.643	-1.818378e+001	3.985064e-001	-1.033551e+001	1.186876e+002	-1.033570e+001	1.188162e+002	-1.740340e+001	3.986200e+001
2142114.385	-1.742192e+001	-4.788668e+000	-1.039740e+001	1.124769e+002	-1.040242e+001	1.125919e+002	-1.700243e+001	3.559297e+001
2166551.127	-1.682070e+001	-9.854340e+000	-1.044762e+001	1.063804e+002	-1.044584e+001	1.064710e+002	-1.670183e+001	3.107266e+001
2190987.868	-1.631374e+001	-1.545296e+001	-1.048001e+001	1.003508e+002	-1.047920e+001	1.004283e+002	-1.648489e+001	2.619157e+001
2215424.610	-1.595836e+001	-2.101179e+001	-1.052279e+001	9.447300e+001	-1.052817e+001	9.458010e+001	-1.634749e+001	2.105860e+001
2239861.352	-1.571596e+001	-2.674013e+001	-1.055408e+001	8.877277e+001	-1.056885e+001	8.890705e+001	-1.630767e+001	1.576024e+001
2264298.094	-1.557408e+001	-3.230774e+001	-1.056821e+001	8.323405e+001	-1.058211e+001	8.338534e+001	-1.636672e+001	1.047467e+001
2288734.835	-1.549484e+001	-3.766149e+001	-1.055370e+001	7.775727e+001	-1.056807e+001	7.788761e+001	-1.648644e+001	5.297371e+000
2313171.577	-1.544888e+001	-4.294766e+001	-1.052473e+001	7.225218e+001	-1.054441e+001	7.238801e+001	-1.663241e+001	9.860598e-002
2337608.319	-1.544995e+001	-4.830059e+001	-1.049394e+001	6.673863e+001	-1.051237e+001	6.690395e+001	-1.683901e+001	-5.268518e+000
2362045.061	-1.549649e+001	-5.373186e+001	-1.045217e+001	6.131999e+001	-1.047844e+001	6.144654e+001	-1.711060e+001	-1.063545e+001
2386481.802	-1.560980e+001	-5.931284e+001	-1.040809e+001	5.588337e+001	-1.043552e+001	5.603370e+001	-1.744238e+001	-1.605304e+001
2410918.544	-1.579111e+001	-6.487838e+001	-1.034396e+001	5.052381e+001	-1.037169e+001	5.069095e+001	-1.781604e+001	-2.141144e+001
2435355.286	-1.601087e+001	-7.036807e+001	-1.025745e+001	4.508639e+001	-1.028308e+001	4.525441e+001	-1.820577e+001	-2.696074e+001
2459792.028	-1.629152e+001	-7.604069e+001	-1.016094e+001	3.952338e+001	-1.018509e+001	3.969856e+001	-1.865706e+001	-3.299755e+001
2484228.769	-1.665916e+001	-8.184121e+001	-1.005881e+001	3.380971e+001	-1.008678e+001	3.405555e+001	-1.922007e+001	-3.933641e+001
2508665.511	-1.711502e+001	-8.758880e+001	-9.969942e+000	2.801577e+001	-9.994889e+000	2.827837e+001	-1.989960e+001	-4.587892e+001
2533102.253	-1.765923e+001	-9.328701e+001	-9.889237e+000	2.221110e+001	-9.913719e+000	2.243181e+001	-2.071103e+001	-5.250688e+001
2557538.995	-1.828684e+001	-9.895899e+001	-9.814010e+000	1.634490e+001	-9.837710e+000	1.659046e+001	-2.161080e+001	-5.932618e+001
2581975.737	-1.902471e+001	-1.047229e+002	-9.741497e+000	1.043857e+001	-9.761674e+000	1.069947e+001	-2.265634e+001	-6.656961e+001
2606412.478	-1.991400e+001	-1.105050e+002	-9.673956e+000	4.451975e+000	-9.692475e+000	4.728803e+000	-2.390133e+001	-7.444270e+001
2630849.220	-2.098874e+001	-1.161453e+002	-9.619816e+000	-1.585709e+000	-9.633913e+000	-1.308429e+000	-2.538251e+001	-8.312048e+001
2655285.962	-2.228870e+001	-1.215856e+002	-9.578593e+000	-7.674843e+000	-9.591353e+000	-7.380182e+000	-2.718186e+001	-9.269121e+001
2679722.704	-2.389387e+001	-1.265690e+002	-9.552116e+000	-1.377413e+001	-9.562730e+000	-1.349252e+001	-2.940719e+001	-1.044654e+002
2704159.445	-2.593199e+001	-1.305761e+002	-9.544871e+000	-1.989053e+001	-9.549501e+000	-1.959700e+001	-3.219287e+001	-1.201685e+002
2728596.187	-2.857299e+001	-1.327955e+002	-9.549576e+000	-2.596922e+001	-9.555386e+000	-2.568470e+001	-3.558466e+001	-1.451356e+002
2753032.929	-3.218269e+001	-1.302144e+002	-9.570835e+000	-3.200454e+001	-9.573696e+000	-3.172915e+001	-3.795761e+001	1.724459e+002
2777469.671	-3.707465e+001	-1.131429e+002	-9.600796e+000	-3.799518e+001	-9.601158e+000	-3.771883e+001	-3.648193e+001	1.272941e+002
2801906.412	-3.916783e+001	-5.999573e+001	-9.637736e+000	-4.392282e+001	-9.639500e+000	-4.365898e+001	-3.355363e+001	1.003323e+002
2826343.154	-3.464901e+001	-2.776379e+001	-9.686431e+000	-4.980759e+001	-9.685262e+000	-4.954269e+001	-3.115280e+001	8.369593e+001
2850779.896	-3.088649e+001	-2.049952e+001	-9.738299e+000	-5.563231e+001	-9.739168e+000	-5.537574e+001	-2.933204e+001	7.157051e+001
2875216.638	-2.829872e+001	-2.046429e+001	-9.798931e+000	-6.143462e+001	-9.797432e+000	-6.110712e+001	-2.795190e+001	6.144306e+001
2899653.380	-2.640310e+001	-2.277640e+001	-9.860336e+000	-6.712937e+001	-9.859357e+000	-6.681147e+001	-2.693746e+001	5.250966e+001
2924090.121	-2.497131e+001	-2.615162e+001	-9.924245e+000	-7.276617e+001	-9.922492e+000	-7.245629e+001	-2.617865e+001	4.427400e+001
2948526.863	-2.384548e+001	-2.997712e+001	-9.987195e+000	-7.835573e+001	-9.987780e+000	-7.804264e+001	-2.564188e+001	3.647680e+001
2972963.605	-2.295685e+001	-3.400395e+001	-1.004910e+001	-8.391232e+001	-1.005110e+001	-8.358867e+001	-2.527825e+001	2.894968e+001
2997400.347	-2.224705e+001	-3.812098e+001	-1.011007e+001	-8.941298e+001	-1.011331e+001	-8.908644e+001	-2.507245e+001	2.163855e+001
3021837.088	-2.167131e+001	-4.223427e+001	-1.016988e+001	-9.488087e+001	-1.017461e+001	-9.454329e+001	-2.500272e+001	1.456455e+001
3046273.830	-2.121888e+001	-4.638758e+001	-1.022561e+001	-1.002913e+002	-1.022844e+001	-9.994766e+001	-2.503607e+001	7.458700e+000
3070710.572	-2.086866e+001	-5.053597e+001	-1.027096e+001	-1.056944e+002	-1.027475e+001	-1.053397e+002	-2.517930e+001	1.562742e-001
3095147.314	-2.063006e+001	-5.467635e+001	-1.030531e+001	-1.111153e+002	-1.030971e+001	-1.107416e+002	-2.544702e+001	-7.678343e+000
3119584.055	-2.049393e+001	-5.868089e+001	-1.033283e+001	-1.165803e+002	-1.033755e+001	-1.162070e+002	-2.588162e+001	-1.623234e+001
3144020.797	-2.048037e+001	-6.242524e+001	-1.035984e+001	-1.221398e+002	-1.036229e+001	-1.217559e+002	-2.651845e+001	-2.554136e+001
3168457.539	-2.054957e+001	-6.581761e+001	-1.038749e+001	-1.277649e+002	-1.038967e+001	-1.273758e+002	-2.739261e+001	-3.606538e+001
3192894.281	-2.070532e+001	-6.872663e+001	-1.042184e+001	-1.334793e+002	-1.042043e+001	-1.330684e+002	-2.852196e+001	-4.836926e+001
3217331.023	-2.093605e+001	-7.100981e+001	-1.046514e+001	-1.392657e+002	-1.046384e+001	-1.388382e+002	-2.995510e+001	-6.347915e+001
3241767.764	-2.121020e+001	-7.251198e+001	-1.052623e+001	-1.450757e+002	-1.052219e+001	-1.446498e+002	-3.160424e+001	-8.290175e+001
3266204.506	-2.148858e+001	-7.326842e+001	-1.060046e+001	-1.508447e+002	-1.059342e+001	-1.504028e+002	-3.300511e+001	-1.080624e+002
3290641.248	-2.176605e+001	-7.358769e+001	-1.066801e+001	-1.565379e+002	-1.065835e+001	-1.561004e+002	-3.318149e+001	-1.371770e+002
3315077.990	-2.212948e+001	-7.327351e+001	-1.071541e+001	-1.623453e+002	-1.070308e+001	-1.619074e+002	-3.162079e+001	-1.637886e+002
3339514.731	-2.252739e+001	-7.127673e+001	-1.077492e+001	-1.683907e+002	-1.076001e+001	-1.679678e+002	-2.927236e+001	1.747055e+002
3363951.473	-2.278872e+001	-6.742249e+001	-1.086416e+001	-1.745804e+002	-1.084495e+001	-1.741779e+002	-2.697789e+001	1.580731e+002
3388388.215	-2.275723e+001	-6.227348e+001	-1.098699e+001	1.791620e+002	-1.096625e+001	1.795557e+002	-2.495763e+001	1.445491e+002
3412824.957	-2.237248e+001	-5.692018e+001	-1.113985e+001	1.729043e+002	-1.112023e+001	1.732724e+002	-2.323195e+001	1.330216e+002
3437261.698	-2.165966e+001	-5.242374e+001	-1.132920e+001	1.666669e+002	-1.130628e+001	1.670040e+002	-2.175029e+001	1.228249e+002
3461698.440	-2.074951e+001	-4.948135e+001	-1.154882e+001	1.605261e+002	-1.152623e+001	1.607985e+002	-2.048261e+001	1.135418e+002
3486135.182	-1.974320e+001	-4.816741e+001	-1.179704e+001	1.544601e+002	-1.177656e+001	1.547363e+002	-1.941442e+001	1.049497e+002
3510571.924	-1.875741e+001	-4.839788e+001	-1.207123e+001	1.485918e+002	-1.205569e+001	1.488268e+002	-1.849753e+001	9.688186e+001
3535008.666	-1.783198e+001	-4.974749e+001	-1.236445e+001	1.429149e+002	-1.235214e+001	1.430975e+002	-1.772012e+001	8.938048e+001
3559445.407	-1.699381e+001	-5.177050e+001	-1.266236e+001	1.373988e+002	-1.265725e+001	1.375696e+002	-1.705671e+001	8.239966e+001
3583882.149	-1.623007e+001	-5.427144e+001	-1.296264e+001	1.320141e+002	-1.296622e+001	1.321899e+002	-1.647785e+001	7.588224e+001
3608318.891	-1.553662e+001	-5.714085e+001	-1.327132e+001	1.267916e+002	-1.327726e+001	1.269407e+002	-1.596988e+001	6.978419e+001
3632755.633	-1.490821e+001	-6.019434e+001	-1.357080e+001	1.216245e+002	-1.358986e+001	1.217777e+002	-1.550715e+001	6.405156e+001
3657192.374	-1.432694e+001	-6.337081e+001	-1.387282e+001	1.165535e+002	-1.390218e+001	1.166675e+002	-1.508485e+001	5.865449e+001
3681629.116	-1.377701e+001	-6.665088e+001	-1.418455e+001	1.114966e+002	-1.422227e+001	1.116203e+002	-1.469330e+001	5.347686e+001
3706065.858	-1.326016e+001	-7.011527e+001	-1.451795e+001	1.065191e+002	-1.456131e+001	1.066703e+002	-1.433002e+001	4.840420e+001
3730502.600	-1.278376e+001	-7.372522e+001	-1.486223e+001	1.017162e+002	-1.491342e+001	1.018591e+002	-1.400128e+001	4.350020e+001
3754939.341	-1.235033e+001	-7.741776e+001	-1.521192e+001	9.707941e+001	-1.527227e+001	9.723830e+001	-1.370373e+001	3.872471e+001
3779376.083	-1.195265e+001	-8.114777e+001	-1.556520e+001	9.260742e+001	-1.563187e+001	9.279450e+001	-1.343176e+001	3.412644e+001
3803812.825	-1.159161e+001	-8.489479e+001	-1.591165e+001	8.827164e+001	-1.598980e+001	8.847055e+001	-1.317883e+001	2.966394e+001
3828249.567	-1.125619e+001	-8.864536e+001	-1.625805e+001	8.403466e+001	-1.633818e+001	8.429065e+001	-1.294284e+001	2.536160e+001
3852686.308	-1.094912e+001	-9.238483e+001	-1.659931e+001	7.991607e+001	-1.668832e+001	8.019008e+001	-1.271507e+001	2.115210e+001
3877123.050	-1.066283e+001	-9.610034e+001	-1.693959e+001	7.588598e+001	-1.703259e+001	7.621004e+001	-1.249988e+001	1.701689e+001
3901559.792	-1.039779e+001	-9.980010e+001	-1.727652e+001	7.195529e+001	-1.737338e+001	7.232009e+001	-1.229758e+001	1.294585e+001
3925996.534	-1.014875e+001	-1.034828e+002	-1.761033e+001	6.809548e+001	-1.771332e+001	6.851651e+001	-1.210731e+001	8.934539e+000
3950433.276	-9.914673e+000	-1.071524e+002	-1.794544e+001	6.429683e+001	-1.805362e+001	6.475834e+001	-1.192530e+001	4.976358e+000
3974870.017	-9.694950e+000	-1.108219e+002	-1.828631e+001	6.058737e+001	-1.839873e+001	6.111286e+001	-1.175588e+001	1.049834e+000
3999306.759	-9.490358e+000	-1.144954e+002	-1.863492e+001	5.700967e+001	-1.874435e+001	5.756138e+001	-1.159661e+001	-2.804099e+000
4023743.501	-9.297533e+000	-1.181564e+002	-1.898395e+001	5.348773e+001	-1.909536e+001	5.409105e+001	-1.144687e+001	-6.626303e+000
4048180.243	-9.116320e+000	-1.218314e+002	-1.933920e+001	5.009875e+001	-1.945509e+001	5.072999e+001	-1.130654e+001	-1.042659e+001
4072616.984	-8.947341e+000	-1.255235e+002	-1.970629e+001	4.679181e+001	-1.982534e+001	4.752606e+001	-1.117500e+001	-1.418598e+001
4097053.726	-8.791659e+000	-1.292475e+002	-2.008691e+001	4.373364e+001	-2.020618e+001	4.449209e+001	-1.105115e+001	-1.792739e+001
4121490.468	-8.648494e+000	-1.329835e+002	-2.047725e+001	4.081416e+001	-2.059202e+001	4.164221e+001	-1.093788e+001	-2.162742e+001
4145927.210	-8.519244e+000	-1.367543e+002	-2.087830e+001	3.816884e+001	-2.098758e+001	3.900527e+001	-1.082911e+001	-2.531772e+001
4170363.951	-8.403936e+000	-1.405359e+002	-2.128560e+001	3.579154e+001	-2.141134e+001	3.665334e+001	-1.072893e+001	-2.899017e+001
4194800.693	-8.303663e+000	-1.443952e+002	-2.172034e+001	3.382018e+001	-2.183333e+001	3.473554e+001	-1.063907e+001	-3.268295e+001
4219237.435	-8.225856e+000	-1.482832e+002	-2.214278e+001	3.240739e+001	-2.225522e+001	3.340953e+001	-1.056295e+001	-3.639659e+001
4243674.177	-8.170835e+000	-1.521742e+002	-2.252266e+001	3.154752e+001	-2.263184e+001	3.262968e+001	-1.050084e+001	-4.008820e+001
4268110.919	-8.136916e+000	-1.560415e+002	-2.283955e+001	3.120380e+001	-2.293829e+001	3.235431e+001	-1.045291e+001	-4.372266e+001
4292547.660	-8.120655e+000	-1.598835e+002	-2.306767e+001	3.112195e+001	-2.316051e+001	3.231746e+001	-1.041378e+001	-4.730988e+001
4316984.402	-8.121477e+000	-1.637214e+002	-2.323308e+001	3.129777e+001	-2.331361e+001	3.256818e+001	-1.038169e+001	-5.088015e+001
4341421.144	-8.145288e+000	-1.675423e+002	-2.328012e+001	3.182811e+001	-2.335692e+001	3.310962e+001	-1.036226e+001	-5.443222e+001
4365857.886	-8.189525e+000	-1.712954e+002	-2.319819e+001	3.213363e+001	-2.325787e+001	3.337554e+001	-1.035614e+001	-5.787932e+001
4390294.627	-8.241327e+000	-1.749341e+002	-2.303985e+001	3.175584e+001	-2.308551e+001	3.305620e+001	-1.034882e+001	-6.122509e+001
4414731.369	-8.287624e+000	-1.785399e+002	-2.289331e+001	3.077057e+001	-2.293674e+001	3.208702e+001	-1.032369e+001	-6.451409e+001
4439168.111	-8.323267e+000	1.777307e+002	-2.284912e+001	2.965658e+001	-2.288353e+001	3.111516e+001	-1.027839e+001	-6.791359e+001
4463604.853	-8.374380e+000	1.737058e+002	-2.287928e+001	2.972155e+001	-2.290232e+001	3.114146e+001	-1.022137e+001	-7.155295e+001
4488041.594	-8.475282e+000	1.693381e+002	-2.279116e+001	3.152093e+001	-2.279545e+001	3.292606e+001	-1.018904e+001	-7.556012e+001
4512478.336	-8.676832e+000	1.648164e+002	-2.231306e+001	3.433151e+001	-2.229812e+001	3.574247e+001	-1.022403e+001	-7.985382e+001
4536915.078	-8.998141e+000	1.606110e+002	-2.135272e+001	3.554823e+001	-2.132396e+001	3.685385e+001	-1.035636e+001	-8.405753e+001
4561351.820	-9.372982e+000	1.571856e+002	-2.029850e+001	3.346051e+001	-2.025627e+001	3.473040e+001	-1.054791e+001	-8.777571e+001
4585788.562	-9.713247e+000	1.542811e+002	-1.947393e+001	2.955509e+001	-1.942673e+001	3.069089e+001	-1.072276e+001	-9.104542e+001
4610225.303	-1.003186e+001	1.514433e+002	-1.881148e+001	2.546390e+001	-1.875920e+001	2.652322e+001	-1.087409e+001	-9.425320e+001
4634662.045	-1.037224e+001	1.486911e+002	-1.819009e+001	2.129771e+001	-1.813611e+001	2.227684e+001	-1.103709e+001	-9.749410e+001
4659098.787	-1.072778e+001	1.461915e+002	-1.760607e+001	1.680375e+001	-1.755097e+001	1.772898e+001	-1.121295e+001	-1.006279e+002
4683535.529	-1.108717e+001	1.438447e+002	-1.708396e+001	1.213409e+001	-1.703029e+001	1.304990e+001	-1.139005e+001	-1.037034e+002
4707972.270	-1.146853e+001	1.415375e+002	-1.659812e+001	7.729827e+000	-1.654020e+001	8.555804e+000	-1.157278e+001	-1.068861e+002
4732409.012	-1.193399e+001	1.394107e+002	-1.605097e+001	3.508888e+000	-1.600060e+001	4.297068e+000	-1.180891e+001	-1.102670e+002
4756845.754	-1.248538e+001	1.381520e+002	-1.540247e+001	-1.192384e+000	-1.534939e+001	-4.300721e-001	-1.215382e+001	-1.135215e+002
4781282.496	-1.301412e+001	1.383766e+002	-1.472650e+001	-6.982188e+000	-1.467449e+001	-6.290308e+000	-1.259121e+001	-1.160054e+002
4805719.237	-1.335822e+001	1.396037e+002	-1.414300e+001	-1.375991e+001	-1.409162e+001	-1.308503e+001	-1.302505e+001	-1.175061e+002
4830155.979	-1.348759e+001	1.409581e+002	-1.368120e+001	-2.094297e+001	-1.363142e+001	-2.027712e+001	-1.338756e+001	-1.182376e+002
4854592.721	-1.345395e+001	1.418295e+002	-1.332046e+001	-2.820461e+001	-1.327059e+001	-2.753855e+001	-1.366000e+001	-1.185385e+002
4879029.463	-1.332237e+001	1.419900e+002	-1.303114e+001	-3.543624e+001	-1.298207e+001	-3.476593e+001	-1.384276e+001	-1.185960e+002
4903466.205	-1.313828e+001	1.413979e+002	-1.280318e+001	-4.264366e+001	-1.274980e+001	-4.196324e+001	-1.393880e+001	-1.185863e+002
4927902.946	-1.293783e+001	1.400960e+002	-1.261829e+001	-4.978470e+001	-1.256697e+001	-4.910117e+001	-1.394110e+001	-1.186088e+002
4952339.688	-1.274679e+001	1.381229e+002	-1.248874e+001	-5.690658e+001	-1.242662e+001	-5.616165e+001	-1.387204e+001	-1.188783e+002
4976776.430	-1.259587e+001	1.355948e+002	-1.239610e+001	-6.388473e+001	-1.233222e+001	-6.317094e+001	-1.373817e+001	-1.194408e+002
5001213.172	-1.249730e+001	1.326405e+002	-1.233965e+001	-7.076532e+001	-1.227047e+001	-7.004084e+001	-1.355818e+001	-1.204221e+002
5025649.913	-1.245538e+001	1.293547e+002	-1.231386e+001	-7.749660e+001	-1.224000e+001	-7.678732e+001	-1.335923e+001	-1.217975e+002
5050086.655	-1.247372e+001	1.258634e+002	-1.230943e+001	-8.411683e+001	-1.223061e+001	-8.342070e+001	-1.315212e+001	-1.235467e+002
5074523.397	-1.255053e+001	1.222264e+002	-1.232336e+001	-9.059861e+001	-1.224024e+001	-8.992195e+001	-1.294735e+001	-1.255929e+002
5098960.139	-1.267880e+001	1.185047e+002	-1.235185e+001	-9.697712e+001	-1.226482e+001	-9.633408e+001	-1.275017e+001	-1.279325e+002
5123396.880	-1.286049e+001	1.147144e+002	-1.239008e+001	-1.032740e+002	-1.229858e+001	-1.026646e+002	-1.256019e+001	-1.304859e+002
5147833.622	-1.308834e+001	1.108708e+002	-1.243932e+001	-1.095081e+002	-1.234371e+001	-1.089233e+002	-1.238379e+001	-1.332402e+002
5172270.364	-1.336479e+001	1.069835e+002	-1.249513e+001	-1.156897e+002	-1.239804e+001	-1.151480e+002	-1.221587e+001	-1.361845e+002
5196707.106	-1.368917e+001	1.030221e+002	-1.256483e+001	-1.218562e+002	-1.246559e+001	-1.213316e+002	-1.205877e+001	-1.393034e+002
5221143.847	-1.406459e+001	9.895396e+001	-1.265109e+001	-1.279495e+002	-1.254369e+001	-1.274757e+002	-1.191206e+001	-1.425768e+002
5245580.589	-1.450043e+001	9.483476e+001	-1.274129e+001	-1.340077e+002	-1.263506e+001	-1.335807e+002	-1.177656e+001	-1.460571e+002
5270017.331	-1.499841e+001	9.064991e+001	-1.284853e+001	-1.400156e+002	-1.274041e+001	-1.396328e+002	-1.166040e+001	-1.497163e+002
5294454.073	-1.556541e+001	8.637923e+001	-1.296271e+001	-1.459786e+002	-1.285566e+001	-1.456280e+002	-1.156324e+001	-1.535269e+002
5318890.815	-1.620769e+001	8.201854e+001	-1.308351e+001	-1.518838e+002	-1.297911e+001	-1.515621e+002	-1.148496e+001	-1.574575e+002
5343327.556	-1.692719e+001	7.754747e+001	-1.321074e+001	-1.577405e+002	-1.310927e+001	-1.574571e+002	-1.142330e+001	-1.615021e+002
5367764.298	-1.773767e+001	7.283122e+001	-1.334145e+001	-1.635850e+002	-1.324469e+001	-1.633379e+002	-1.137944e+001	-1.656559e+002
5392201.040	-1.865800e+001	6.776564e+001	-1.348570e+001	-1.694329e+002	-1.339223e+001	-1.692122e+002	-1.134781e+001	-1.699242e+002
5416637.782	-1.971519e+001	6.221905e+001	-1.363942e+001	-1.752539e+002	-1.354995e+001	-1.750631e+002	-1.133367e+001	-1.743138e+002
5441074.523	-2.094069e+001	5.598445e+001	-1.380435e+001	1.789366e+002	-1.372195e+001	1.791170e+002	-1.133809e+001	-1.788095e+002
5465511.265	-2.238655e+001	4.856239e+001	-1.398160e+001	1.731756e+002	-1.390457e+001	1.733407e+002	-1.136118e+001	1.765874e+002
