!Agilent Technologies,E5061B,MY49101568,A.02.00
!Date: Wed Mar 01 16:35:23 2023
!Data & Calibration Information:
!Freq	S11:SOLT2(OFF)	S21:SOLT2(OFF)	S12:SOLT2(OFF)	S22:SOLT2(OFF)
# Hz S dB R 50
1800000.000	-9.446542e+000	-2.392672e+001	-2.235576e+001	-1.203014e+002	-2.236623e+001	-1.205004e+002	-9.937206e+000	3.130898e+001
1824436.742	-9.570714e+000	-2.861380e+001	-2.185030e+001	-1.244887e+002	-2.185792e+001	-1.245594e+002	-1.007820e+001	2.701069e+001
1848873.484	-9.704293e+000	-3.344852e+001	-2.131888e+001	-1.287148e+002	-2.135129e+001	-1.288187e+002	-1.023503e+001	2.268405e+001
1873310.225	-9.852802e+000	-3.835509e+001	-2.079647e+001	-1.331603e+002	-2.082654e+001	-1.332347e+002	-1.039956e+001	1.835190e+001
1897746.967	-1.001670e+001	-4.340734e+001	-2.024174e+001	-1.377466e+002	-2.031313e+001	-1.377647e+002	-1.058000e+001	1.401747e+001
1922183.709	-1.018626e+001	-4.863083e+001	-1.971865e+001	-1.425544e+002	-1.978629e+001	-1.425501e+002	-1.077898e+001	9.494274e+000
1946620.451	-1.037293e+001	-5.402239e+001	-1.918061e+001	-1.475113e+002	-1.925352e+001	-1.474311e+002	-1.098329e+001	5.001228e+000
1971057.192	-1.058402e+001	-5.961067e+001	-1.863677e+001	-1.526023e+002	-1.872810e+001	-1.524754e+002	-1.120740e+001	4.822210e-001
1995493.934	-1.082459e+001	-6.540611e+001	-1.809105e+001	-1.578494e+002	-1.818483e+001	-1.576639e+002	-1.143634e+001	-4.210503e+000
2019930.676	-1.109592e+001	-7.136724e+001	-1.753774e+001	-1.634665e+002	-1.764371e+001	-1.631104e+002	-1.168339e+001	-8.929829e+000
2044367.418	-1.140131e+001	-7.750112e+001	-1.699806e+001	-1.692988e+002	-1.710327e+001	-1.688802e+002	-1.195332e+001	-1.385724e+001
2068804.159	-1.174493e+001	-8.379023e+001	-1.647588e+001	-1.754309e+002	-1.658355e+001	-1.748615e+002	-1.224916e+001	-1.879871e+001
2093240.901	-1.213382e+001	-9.023448e+001	-1.597156e+001	1.783781e+002	-1.607700e+001	1.788727e+002	-1.257440e+001	-2.378482e+001
2117677.643	-1.256426e+001	-9.688391e+001	-1.549977e+001	1.719637e+002	-1.560323e+001	1.725922e+002	-1.292354e+001	-2.857450e+001
2142114.385	-1.304727e+001	-1.037178e+002	-1.503974e+001	1.655360e+002	-1.513787e+001	1.661472e+002	-1.326012e+001	-3.339022e+001
2166551.127	-1.358566e+001	-1.107605e+002	-1.459173e+001	1.588104e+002	-1.468716e+001	1.595337e+002	-1.360967e+001	-3.832694e+001
2190987.868	-1.420249e+001	-1.179478e+002	-1.416097e+001	1.519095e+002	-1.425336e+001	1.526714e+002	-1.395688e+001	-4.344029e+001
2215424.610	-1.491924e+001	-1.252064e+002	-1.376185e+001	1.445632e+002	-1.385742e+001	1.455457e+002	-1.434796e+001	-4.860139e+001
2239861.352	-1.565713e+001	-1.325374e+002	-1.342388e+001	1.373214e+002	-1.351487e+001	1.383907e+002	-1.474003e+001	-5.370823e+001
2264298.094	-1.645075e+001	-1.400497e+002	-1.312680e+001	1.301056e+002	-1.320597e+001	1.312234e+002	-1.512394e+001	-5.887416e+001
2288734.835	-1.729342e+001	-1.478305e+002	-1.285410e+001	1.228869e+002	-1.292354e+001	1.240506e+002	-1.551127e+001	-6.408895e+001
2313171.577	-1.820681e+001	-1.558987e+002	-1.260831e+001	1.156588e+002	-1.266804e+001	1.168757e+002	-1.588655e+001	-6.925192e+001
2337608.319	-1.917497e+001	-1.641906e+002	-1.239461e+001	1.084717e+002	-1.244515e+001	1.096614e+002	-1.622910e+001	-7.456562e+001
2362045.061	-2.021844e+001	-1.726537e+002	-1.220664e+001	1.012750e+002	-1.224798e+001	1.025145e+002	-1.655059e+001	-7.988508e+001
2386481.802	-2.123194e+001	1.786802e+002	-1.204313e+001	9.421323e+001	-1.207525e+001	9.544173e+001	-1.682666e+001	-8.533150e+001
2410918.544	-2.217777e+001	1.695110e+002	-1.189609e+001	8.725246e+001	-1.191587e+001	8.848858e+001	-1.701569e+001	-9.098925e+001
2435355.286	-2.303456e+001	1.594088e+002	-1.174582e+001	8.033494e+001	-1.175683e+001	8.153306e+001	-1.712761e+001	-9.706179e+001
2459792.028	-2.378558e+001	1.489337e+002	-1.161122e+001	7.337419e+001	-1.161905e+001	7.448127e+001	-1.719221e+001	-1.037736e+002
2484228.769	-2.430357e+001	1.380874e+002	-1.150505e+001	6.638169e+001	-1.149804e+001	6.739137e+001	-1.722506e+001	-1.110705e+002
2508665.511	-2.458679e+001	1.269214e+002	-1.142494e+001	5.939852e+001	-1.140953e+001	6.034999e+001	-1.724436e+001	-1.188144e+002
2533102.253	-2.449980e+001	1.154433e+002	-1.136979e+001	5.273433e+001	-1.134272e+001	5.336526e+001	-1.723588e+001	-1.266935e+002
2557538.995	-2.433353e+001	1.046758e+002	-1.131976e+001	4.591812e+001	-1.128815e+001	4.646471e+001	-1.716748e+001	-1.348905e+002
2581975.737	-2.396633e+001	9.463293e+001	-1.128410e+001	3.908495e+001	-1.124461e+001	3.957978e+001	-1.704868e+001	-1.434007e+002
2606412.478	-2.344143e+001	8.536944e+001	-1.126371e+001	3.227534e+001	-1.122014e+001	3.270780e+001	-1.690317e+001	-1.521564e+002
2630849.220	-2.278265e+001	7.673668e+001	-1.126723e+001	2.550444e+001	-1.121578e+001	2.583907e+001	-1.673058e+001	-1.611403e+002
2655285.962	-2.207085e+001	6.875672e+001	-1.128669e+001	1.879104e+001	-1.123366e+001	1.902046e+001	-1.654063e+001	-1.701235e+002
2679722.704	-2.132246e+001	6.123959e+001	-1.132906e+001	1.210888e+001	-1.127211e+001	1.225126e+001	-1.633812e+001	-1.791506e+002
2704159.445	-2.056920e+001	5.417343e+001	-1.139017e+001	5.483095e+000	-1.133291e+001	5.566093e+000	-1.612145e+001	1.719354e+002
2728596.187	-1.984073e+001	4.730561e+001	-1.147637e+001	-9.976390e-001	-1.141342e+001	-1.011313e+000	-1.590589e+001	1.632061e+002
2753032.929	-1.914461e+001	4.066956e+001	-1.157609e+001	-7.380332e+000	-1.151530e+001	-7.467706e+000	-1.569572e+001	1.546676e+002
2777469.671	-1.848853e+001	3.424308e+001	-1.169061e+001	-1.365190e+001	-1.162733e+001	-1.378513e+001	-1.548161e+001	1.463335e+002
2801906.412	-1.788381e+001	2.804243e+001	-1.181525e+001	-1.977890e+001	-1.175251e+001	-2.001057e+001	-1.528500e+001	1.382275e+002
2826343.154	-1.732825e+001	2.205853e+001	-1.194757e+001	-2.578349e+001	-1.188723e+001	-2.606431e+001	-1.509892e+001	1.304157e+002
2850779.896	-1.681349e+001	1.621099e+001	-1.209272e+001	-3.164681e+001	-1.203260e+001	-3.199770e+001	-1.493261e+001	1.228712e+002
2875216.638	-1.633857e+001	1.054066e+001	-1.224561e+001	-3.738359e+001	-1.217995e+001	-3.783990e+001	-1.480196e+001	1.156134e+002
2899653.380	-1.591437e+001	5.016478e+000	-1.239924e+001	-4.300668e+001	-1.233768e+001	-4.347918e+001	-1.467094e+001	1.086179e+002
2924090.121	-1.552825e+001	-3.510333e-001	-1.255004e+001	-4.846250e+001	-1.249565e+001	-4.894643e+001	-1.455112e+001	1.019629e+002
2948526.863	-1.517415e+001	-5.557517e+000	-1.270206e+001	-5.379728e+001	-1.265344e+001	-5.430686e+001	-1.445523e+001	9.554693e+001
2972963.605	-1.485482e+001	-1.062637e+001	-1.285568e+001	-5.902497e+001	-1.281084e+001	-5.954739e+001	-1.438120e+001	8.941636e+001
2997400.347	-1.455960e+001	-1.556199e+001	-1.300287e+001	-6.412444e+001	-1.296459e+001	-6.463875e+001	-1.431644e+001	8.353352e+001
3021837.088	-1.429184e+001	-2.036008e+001	-1.314633e+001	-6.911574e+001	-1.311344e+001	-6.962547e+001	-1.426446e+001	7.788025e+001
3046273.830	-1.404551e+001	-2.503476e+001	-1.328189e+001	-7.397496e+001	-1.325452e+001	-7.448545e+001	-1.422109e+001	7.245641e+001
3070710.572	-1.381864e+001	-2.963546e+001	-1.340367e+001	-7.871414e+001	-1.338524e+001	-7.922149e+001	-1.418490e+001	6.718443e+001
3095147.314	-1.361132e+001	-3.414867e+001	-1.351619e+001	-8.337274e+001	-1.350070e+001	-8.388383e+001	-1.416551e+001	6.205594e+001
3119584.055	-1.342591e+001	-3.857957e+001	-1.361064e+001	-8.797223e+001	-1.360428e+001	-8.844363e+001	-1.415368e+001	5.705603e+001
3144020.797	-1.325807e+001	-4.294265e+001	-1.369564e+001	-9.248272e+001	-1.370170e+001	-9.284572e+001	-1.413297e+001	5.228957e+001
3168457.539	-1.311324e+001	-4.723591e+001	-1.376318e+001	-9.703125e+001	-1.377849e+001	-9.733757e+001	-1.415587e+001	4.756851e+001
3192894.281	-1.298727e+001	-5.143915e+001	-1.382144e+001	-1.015344e+002	-1.384169e+001	-1.018322e+002	-1.419673e+001	4.297209e+001
3217331.023	-1.288105e+001	-5.556904e+001	-1.387012e+001	-1.060511e+002	-1.389640e+001	-1.063069e+002	-1.425038e+001	3.853680e+001
3241767.764	-1.278901e+001	-5.961129e+001	-1.391083e+001	-1.105659e+002	-1.394413e+001	-1.107558e+002	-1.431541e+001	3.424527e+001
3266204.506	-1.270963e+001	-6.354378e+001	-1.394836e+001	-1.150414e+002	-1.398719e+001	-1.151749e+002	-1.438525e+001	3.011832e+001
3290641.248	-1.263707e+001	-6.741672e+001	-1.397544e+001	-1.194158e+002	-1.401880e+001	-1.195029e+002	-1.445514e+001	2.607876e+001
3315077.990	-1.257456e+001	-7.132615e+001	-1.397342e+001	-1.237726e+002	-1.401999e+001	-1.237997e+002	-1.453401e+001	2.196873e+001
3339514.731	-1.253590e+001	-7.525486e+001	-1.394563e+001	-1.281849e+002	-1.399656e+001	-1.281826e+002	-1.464554e+001	1.785008e+001
3363951.473	-1.252559e+001	-7.912086e+001	-1.390545e+001	-1.327487e+002	-1.396029e+001	-1.326793e+002	-1.479063e+001	1.384057e+001
3388388.215	-1.254066e+001	-8.292283e+001	-1.385527e+001	-1.373981e+002	-1.391400e+001	-1.372861e+002	-1.496697e+001	9.954377e+000
3412824.957	-1.258113e+001	-8.664045e+001	-1.380456e+001	-1.421401e+002	-1.386310e+001	-1.419818e+002	-1.517085e+001	6.205291e+000
3437261.698	-1.264901e+001	-9.025780e+001	-1.374799e+001	-1.470021e+002	-1.380785e+001	-1.467929e+002	-1.540842e+001	2.621530e+000
3461698.440	-1.274266e+001	-9.375787e+001	-1.369026e+001	-1.519678e+002	-1.375379e+001	-1.517073e+002	-1.567686e+001	-7.499925e-001
3486135.182	-1.286067e+001	-9.711172e+001	-1.363620e+001	-1.570142e+002	-1.369927e+001	-1.567205e+002	-1.598188e+001	-3.905118e+000
3510571.924	-1.300453e+001	-1.002614e+002	-1.359354e+001	-1.621554e+002	-1.365438e+001	-1.618323e+002	-1.631379e+001	-6.729422e+000
3535008.666	-1.317081e+001	-1.032185e+002	-1.355633e+001	-1.673788e+002	-1.361639e+001	-1.669990e+002	-1.666429e+001	-9.220550e+000
3559445.407	-1.335528e+001	-1.059833e+002	-1.352143e+001	-1.726140e+002	-1.358159e+001	-1.722139e+002	-1.703327e+001	-1.138291e+001
3583882.149	-1.356095e+001	-1.084950e+002	-1.349384e+001	-1.779290e+002	-1.355186e+001	-1.775021e+002	-1.742835e+001	-1.317503e+001
3608318.891	-1.378497e+001	-1.107674e+002	-1.346593e+001	1.767082e+002	-1.352488e+001	1.771591e+002	-1.783506e+001	-1.456733e+001
3632755.633	-1.402854e+001	-1.126961e+002	-1.344705e+001	1.711921e+002	-1.350076e+001	1.717487e+002	-1.826452e+001	-1.553050e+001
3657192.374	-1.428697e+001	-1.143395e+002	-1.342020e+001	1.656674e+002	-1.347443e+001	1.662359e+002	-1.870943e+001	-1.594641e+001
3681629.116	-1.456167e+001	-1.154744e+002	-1.340381e+001	1.599702e+002	-1.345114e+001	1.605298e+002	-1.918712e+001	-1.552477e+001
3706065.858	-1.482829e+001	-1.159847e+002	-1.340854e+001	1.541003e+002	-1.345353e+001	1.546565e+002	-1.961574e+001	-1.395778e+001
3730502.600	-1.505189e+001	-1.158421e+002	-1.344223e+001	1.481325e+002	-1.348532e+001	1.486510e+002	-1.993633e+001	-1.128929e+001
3754939.341	-1.519352e+001	-1.151109e+002	-1.350804e+001	1.420748e+002	-1.355037e+001	1.426095e+002	-2.006622e+001	-7.799376e+000
3779376.083	-1.522567e+001	-1.140290e+002	-1.360360e+001	1.360235e+002	-1.364703e+001	1.365501e+002	-1.996410e+001	-4.041581e+000
3803812.825	-1.513424e+001	-1.128432e+002	-1.372924e+001	1.300211e+002	-1.376801e+001	1.304885e+002	-1.964538e+001	-5.574398e-001
3828249.567	-1.493702e+001	-1.117288e+002	-1.387272e+001	1.239633e+002	-1.392455e+001	1.244463e+002	-1.912671e+001	2.222365e+000
3852686.308	-1.462519e+001	-1.109289e+002	-1.405625e+001	1.179274e+002	-1.410348e+001	1.184272e+002	-1.849203e+001	4.016985e+000
3877123.050	-1.423406e+001	-1.106080e+002	-1.426540e+001	1.119776e+002	-1.431671e+001	1.124697e+002	-1.778184e+001	4.702542e+000
3901559.792	-1.379118e+001	-1.108395e+002	-1.450319e+001	1.060938e+002	-1.455869e+001	1.065846e+002	-1.705722e+001	4.365082e+000
3925996.534	-1.331854e+001	-1.115872e+002	-1.476527e+001	1.002769e+002	-1.482936e+001	1.007910e+002	-1.635196e+001	3.168195e+000
3950433.276	-1.283481e+001	-1.128780e+002	-1.506069e+001	9.458162e+001	-1.512894e+001	9.508971e+001	-1.568395e+001	1.303275e+000
3974870.017	-1.235158e+001	-1.146541e+002	-1.538616e+001	8.898956e+001	-1.546211e+001	8.950565e+001	-1.506257e+001	-1.120854e+000
3999306.759	-1.188121e+001	-1.168493e+002	-1.574160e+001	8.353917e+001	-1.582464e+001	8.410390e+001	-1.449571e+001	-3.969822e+000
4023743.501	-1.143558e+001	-1.194173e+002	-1.612685e+001	7.829851e+001	-1.621146e+001	7.887714e+001	-1.398283e+001	-7.099995e+000
4048180.243	-1.101496e+001	-1.222966e+002	-1.653945e+001	7.322147e+001	-1.662909e+001	7.383232e+001	-1.351694e+001	-1.047632e+001
4072616.984	-1.062457e+001	-1.254517e+002	-1.698432e+001	6.839914e+001	-1.707925e+001	6.902081e+001	-1.309632e+001	-1.401785e+001
4097053.726	-1.026733e+001	-1.288252e+002	-1.745134e+001	6.382723e+001	-1.755557e+001	6.451481e+001	-1.271985e+001	-1.771029e+001
4121490.468	-9.943416e+000	-1.323868e+002	-1.795053e+001	5.955909e+001	-1.805397e+001	6.027133e+001	-1.238393e+001	-2.146065e+001
4145927.210	-9.652558e+000	-1.361143e+002	-1.847037e+001	5.563682e+001	-1.857784e+001	5.639283e+001	-1.208259e+001	-2.527823e+001
4170363.951	-9.390239e+000	-1.399424e+002	-1.901819e+001	5.211036e+001	-1.913024e+001	5.294691e+001	-1.181147e+001	-2.913473e+001
4194800.693	-9.163646e+000	-1.439381e+002	-1.959775e+001	4.908275e+001	-1.970782e+001	4.998331e+001	-1.157013e+001	-3.307130e+001
4219237.435	-8.975732e+000	-1.480533e+002	-2.018122e+001	4.676199e+001	-2.028747e+001	4.775214e+001	-1.136047e+001	-3.704604e+001
4243674.177	-8.831751e+000	-1.522119e+002	-2.073250e+001	4.526425e+001	-2.082661e+001	4.632359e+001	-1.119054e+001	-4.104168e+001
4268110.919	-8.725829e+000	-1.563442e+002	-2.119272e+001	4.433973e+001	-2.128918e+001	4.546526e+001	-1.105095e+001	-4.497521e+001
4292547.660	-8.649610e+000	-1.604421e+002	-2.157874e+001	4.381435e+001	-2.166581e+001	4.501984e+001	-1.093258e+001	-4.881872e+001
4316984.402	-8.597457e+000	-1.645282e+002	-2.188941e+001	4.365213e+001	-2.196558e+001	4.494012e+001	-1.083145e+001	-5.264020e+001
4341421.144	-8.576175e+000	-1.686070e+002	-2.208607e+001	4.388846e+001	-2.214951e+001	4.524541e+001	-1.074896e+001	-5.641650e+001
4365857.886	-8.587541e+000	-1.726172e+002	-2.213430e+001	4.407065e+001	-2.219183e+001	4.542144e+001	-1.068951e+001	-6.009447e+001
4390294.627	-8.615953e+000	-1.764931e+002	-2.208560e+001	4.372154e+001	-2.212623e+001	4.504393e+001	-1.064063e+001	-6.362237e+001
4414731.369	-8.641126e+000	1.797575e+002	-2.203555e+001	4.256512e+001	-2.207033e+001	4.396622e+001	-1.057740e+001	-6.702859e+001
4439168.111	-8.648012e+000	1.759363e+002	-2.208530e+001	4.121998e+001	-2.210471e+001	4.271097e+001	-1.049157e+001	-7.042943e+001
4463604.853	-8.653292e+000	1.718201e+002	-2.223017e+001	4.087613e+001	-2.222935e+001	4.234363e+001	-1.038015e+001	-7.405129e+001
4488041.594	-8.689753e+000	1.672906e+002	-2.231289e+001	4.225293e+001	-2.229434e+001	4.375845e+001	-1.027070e+001	-7.805012e+001
4512478.336	-8.815552e+000	1.624174e+002	-2.203566e+001	4.499688e+001	-2.201244e+001	4.641240e+001	-1.021041e+001	-8.241627e+001
4536915.078	-9.063042e+000	1.575886e+002	-2.128720e+001	4.677744e+001	-2.124864e+001	4.812413e+001	-1.023921e+001	-8.692789e+001
4561351.820	-9.396985e+000	1.533192e+002	-2.037334e+001	4.558594e+001	-2.032107e+001	4.685196e+001	-1.034325e+001	-9.111404e+001
4585788.562	-9.733021e+000	1.495810e+002	-1.961441e+001	4.243358e+001	-1.955653e+001	4.369742e+001	-1.045441e+001	-9.493014e+001
4610225.303	-1.005817e+001	1.459401e+002	-1.900731e+001	3.894804e+001	-1.894317e+001	4.012470e+001	-1.055040e+001	-9.862495e+001
4634662.045	-1.040869e+001	1.423237e+002	-1.844266e+001	3.529883e+001	-1.837295e+001	3.638264e+001	-1.065333e+001	-1.023399e+002
4659098.787	-1.079237e+001	1.388359e+002	-1.790735e+001	3.133337e+001	-1.783539e+001	3.236709e+001	-1.076686e+001	-1.060521e+002
4683535.529	-1.119535e+001	1.354640e+002	-1.742870e+001	2.715368e+001	-1.735923e+001	2.812243e+001	-1.088517e+001	-1.096988e+002
4707972.270	-1.162675e+001	1.320206e+002	-1.698863e+001	2.321696e+001	-1.691748e+001	2.401195e+001	-1.099908e+001	-1.134455e+002
4732409.012	-1.212945e+001	1.284488e+002	-1.651782e+001	1.941479e+001	-1.644579e+001	2.019701e+001	-1.113136e+001	-1.175131e+002
4756845.754	-1.276741e+001	1.250065e+002	-1.596325e+001	1.546515e+001	-1.588293e+001	1.615551e+001	-1.133379e+001	-1.217859e+002
4781282.496	-1.354312e+001	1.224310e+002	-1.534079e+001	1.065952e+001	-1.526729e+001	1.128504e+001	-1.162833e+001	-1.259905e+002
4805719.237	-1.437531e+001	1.210672e+002	-1.476949e+001	5.037904e+000	-1.469392e+001	5.549087e+000	-1.199379e+001	-1.297923e+002
4830155.979	-1.518513e+001	1.209207e+002	-1.427568e+001	-1.122805e+000	-1.420342e+001	-6.726036e-001	-1.238852e+001	-1.331549e+002
4854592.721	-1.592515e+001	1.217883e+002	-1.386029e+001	-7.485559e+000	-1.379115e+001	-7.066515e+000	-1.279420e+001	-1.361550e+002
4879029.463	-1.656446e+001	1.235344e+002	-1.349933e+001	-1.393483e+001	-1.343687e+001	-1.355483e+001	-1.321468e+001	-1.388550e+002
4903466.205	-1.706982e+001	1.259585e+002	-1.318545e+001	-2.044404e+001	-1.312786e+001	-2.010872e+001	-1.364468e+001	-1.411950e+002
4927902.946	-1.740358e+001	1.287465e+002	-1.291313e+001	-2.703455e+001	-1.286147e+001	-2.670823e+001	-1.407707e+001	-1.431992e+002
4952339.688	-1.757499e+001	1.314368e+002	-1.268442e+001	-3.365547e+001	-1.264065e+001	-3.339109e+001	-1.450173e+001	-1.447145e+002
4976776.430	-1.759195e+001	1.337128e+002	-1.249389e+001	-4.027696e+001	-1.245188e+001	-4.000485e+001	-1.490505e+001	-1.459600e+002
5001213.172	-1.751250e+001	1.352870e+002	-1.234113e+001	-4.686838e+001	-1.230293e+001	-4.661333e+001	-1.526968e+001	-1.468206e+002
5025649.913	-1.738608e+001	1.361201e+002	-1.222012e+001	-5.342111e+001	-1.218471e+001	-5.316271e+001	-1.558992e+001	-1.474302e+002
5050086.655	-1.725389e+001	1.362746e+002	-1.212552e+001	-5.991290e+001	-1.209103e+001	-5.963205e+001	-1.586591e+001	-1.478956e+002
5074523.397	-1.713820e+001	1.359114e+002	-1.205301e+001	-6.631361e+001	-1.201918e+001	-6.601448e+001	-1.608816e+001	-1.482296e+002
5098960.139	-1.705372e+001	1.351538e+002	-1.199702e+001	-7.263574e+001	-1.196602e+001	-7.231924e+001	-1.626218e+001	-1.485661e+002
5123396.880	-1.700692e+001	1.340711e+002	-1.195793e+001	-7.889675e+001	-1.192754e+001	-7.856473e+001	-1.638707e+001	-1.488487e+002
5147833.622	-1.699859e+001	1.327986e+002	-1.193094e+001	-8.511263e+001	-1.189877e+001	-8.476548e+001	-1.646889e+001	-1.492212e+002
5172270.364	-1.702590e+001	1.313479e+002	-1.191352e+001	-9.128301e+001	-1.187998e+001	-9.092095e+001	-1.650079e+001	-1.496589e+002
5196707.106	-1.708967e+001	1.297740e+002	-1.190768e+001	-9.742158e+001	-1.187127e+001	-9.705054e+001	-1.649695e+001	-1.502259e+002
5221143.847	-1.719249e+001	1.280673e+002	-1.191212e+001	-1.035138e+002	-1.186890e+001	-1.031050e+002	-1.646313e+001	-1.509750e+002
5245580.589	-1.734098e+001	1.262704e+002	-1.192705e+001	-1.096186e+002	-1.188381e+001	-1.092119e+002	-1.638287e+001	-1.519483e+002
5270017.331	-1.754547e+001	1.244159e+002	-1.195453e+001	-1.156967e+002	-1.190910e+001	-1.152726e+002	-1.627108e+001	-1.532497e+002
5294454.073	-1.780343e+001	1.225897e+002	-1.199193e+001	-1.217340e+002	-1.194769e+001	-1.213200e+002	-1.614932e+001	-1.548175e+002
5318890.815	-1.812089e+001	1.208552e+002	-1.203956e+001	-1.277304e+002	-1.199355e+001	-1.273174e+002	-1.601682e+001	-1.566819e+002
5343327.556	-1.848724e+001	1.192926e+002	-1.209038e+001	-1.336777e+002	-1.204587e+001	-1.332832e+002	-1.588813e+001	-1.587908e+002
5367764.298	-1.890336e+001	1.178328e+002	-1.214706e+001	-1.396405e+002	-1.210153e+001	-1.392476e+002	-1.575999e+001	-1.611055e+002
5392201.040	-1.937814e+001	1.165021e+002	-1.221144e+001	-1.456316e+002	-1.216463e+001	-1.452277e+002	-1.562655e+001	-1.636286e+002
5416637.782	-1.993056e+001	1.153310e+002	-1.228539e+001	-1.516154e+002	-1.223715e+001	-1.512245e+002	-1.548855e+001	-1.663947e+002
5441074.523	-2.057072e+001	1.144904e+002	-1.237008e+001	-1.576202e+002	-1.232342e+001	-1.572300e+002	-1.535396e+001	-1.694334e+002
