!Agilent Technologies,E5061B,MY49101568,A.02.00
!Date: Wed Mar 01 16:36:34 2023
!Data & Calibration Information:
!Freq	S11:SOLT2(OFF)	S21:SOLT2(OFF)	S12:SOLT2(OFF)	S22:SOLT2(OFF)
# Hz S dB R 50
1800000.000	-9.577799e+000	-2.428372e+001	-2.209059e+001	-1.217263e+002	-2.211092e+001	-1.217750e+002	-1.005988e+001	3.109433e+001
1824436.742	-9.709102e+000	-2.898344e+001	-2.157472e+001	-1.258865e+002	-2.159668e+001	-1.259289e+002	-1.020593e+001	2.678438e+001
1848873.484	-9.853086e+000	-3.382145e+001	-2.104051e+001	-1.301502e+002	-2.107582e+001	-1.302972e+002	-1.037931e+001	2.245025e+001
1873310.225	-1.001174e+001	-3.874442e+001	-2.050357e+001	-1.347039e+002	-2.054660e+001	-1.348428e+002	-1.055814e+001	1.814144e+001
1897746.967	-1.017654e+001	-4.379250e+001	-1.999979e+001	-1.393465e+002	-2.001829e+001	-1.395661e+002	-1.074879e+001	1.375816e+001
1922183.709	-1.036056e+001	-4.901123e+001	-1.946997e+001	-1.442580e+002	-1.949807e+001	-1.443597e+002	-1.095516e+001	9.306161e+000
1946620.451	-1.056129e+001	-5.440144e+001	-1.894223e+001	-1.492381e+002	-1.897290e+001	-1.493354e+002	-1.117574e+001	4.806577e+000
1971057.192	-1.078317e+001	-5.997941e+001	-1.840322e+001	-1.545312e+002	-1.844177e+001	-1.545280e+002	-1.141689e+001	2.011831e-001
1995493.934	-1.102622e+001	-6.571904e+001	-1.789464e+001	-1.596462e+002	-1.790152e+001	-1.598907e+002	-1.167643e+001	-4.367896e+000
2019930.676	-1.131281e+001	-7.165372e+001	-1.734535e+001	-1.652711e+002	-1.736331e+001	-1.654753e+002	-1.194733e+001	-9.067377e+000
2044367.418	-1.163700e+001	-7.776430e+001	-1.681923e+001	-1.711878e+002	-1.682912e+001	-1.713482e+002	-1.224059e+001	-1.394464e+001
2068804.159	-1.200556e+001	-8.399664e+001	-1.630957e+001	-1.773649e+002	-1.631987e+001	-1.774726e+002	-1.256585e+001	-1.879373e+001
2093240.901	-1.240836e+001	-9.036094e+001	-1.583029e+001	1.764304e+002	-1.584215e+001	1.763004e+002	-1.292065e+001	-2.364488e+001
2117677.643	-1.286767e+001	-9.689265e+001	-1.536003e+001	1.699895e+002	-1.537668e+001	1.698751e+002	-1.328274e+001	-2.834918e+001
2142114.385	-1.338005e+001	-1.036337e+002	-1.491641e+001	1.635105e+002	-1.492958e+001	1.633653e+002	-1.365854e+001	-3.302967e+001
2166551.127	-1.395312e+001	-1.105229e+002	-1.447859e+001	1.567446e+002	-1.448952e+001	1.566419e+002	-1.402054e+001	-3.778749e+001
2190987.868	-1.459837e+001	-1.175344e+002	-1.406840e+001	1.497884e+002	-1.407642e+001	1.496471e+002	-1.440975e+001	-4.269631e+001
2215424.610	-1.532148e+001	-1.245773e+002	-1.370209e+001	1.425826e+002	-1.371244e+001	1.425847e+002	-1.482146e+001	-4.759837e+001
2239861.352	-1.608931e+001	-1.316645e+002	-1.337573e+001	1.353708e+002	-1.338806e+001	1.353922e+002	-1.522399e+001	-5.249214e+001
2264298.094	-1.690790e+001	-1.389088e+002	-1.309043e+001	1.282051e+002	-1.309637e+001	1.281802e+002	-1.563024e+001	-5.734255e+001
2288734.835	-1.777539e+001	-1.464271e+002	-1.283343e+001	1.210411e+002	-1.283407e+001	1.210500e+002	-1.603026e+001	-6.228791e+001
2313171.577	-1.872618e+001	-1.541966e+002	-1.259786e+001	1.138874e+002	-1.260270e+001	1.139646e+002	-1.641534e+001	-6.724579e+001
2337608.319	-1.974306e+001	-1.621479e+002	-1.239384e+001	1.067463e+002	-1.239348e+001	1.068837e+002	-1.675284e+001	-7.234531e+001
2362045.061	-2.079346e+001	-1.702664e+002	-1.221214e+001	9.969949e+001	-1.221590e+001	1.000136e+002	-1.704115e+001	-7.764429e+001
2386481.802	-2.184775e+001	-1.785948e+002	-1.205296e+001	9.270381e+001	-1.205550e+001	9.304367e+001	-1.730363e+001	-8.294575e+001
2410918.544	-2.284127e+001	1.725679e+002	-1.190244e+001	8.581737e+001	-1.189957e+001	8.616657e+001	-1.747937e+001	-8.854395e+001
2435355.286	-2.380401e+001	1.627887e+002	-1.175556e+001	7.893888e+001	-1.174458e+001	7.929514e+001	-1.757991e+001	-9.472115e+001
2459792.028	-2.463946e+001	1.526473e+002	-1.161999e+001	7.194617e+001	-1.160581e+001	7.234114e+001	-1.763637e+001	-1.015427e+002
2484228.769	-2.528254e+001	1.418768e+002	-1.150815e+001	6.487842e+001	-1.149178e+001	6.541891e+001	-1.766152e+001	-1.090087e+002
2508665.511	-2.565079e+001	1.304878e+002	-1.142526e+001	5.790604e+001	-1.140215e+001	5.842666e+001	-1.768399e+001	-1.168523e+002
2533102.253	-2.576327e+001	1.188447e+002	-1.136274e+001	5.102688e+001	-1.133546e+001	5.155525e+001	-1.766709e+001	-1.249515e+002
2557538.995	-2.562186e+001	1.075365e+002	-1.130787e+001	4.419393e+001	-1.127853e+001	4.471399e+001	-1.760313e+001	-1.332824e+002
2581975.737	-2.521717e+001	9.692236e+001	-1.126467e+001	3.737797e+001	-1.123050e+001	3.785324e+001	-1.748960e+001	-1.420013e+002
2606412.478	-2.460934e+001	8.709836e+001	-1.124004e+001	3.055977e+001	-1.120071e+001	3.099464e+001	-1.734318e+001	-1.509864e+002
2630849.220	-2.387797e+001	7.809833e+001	-1.123324e+001	2.376651e+001	-1.119258e+001	2.417113e+001	-1.717676e+001	-1.601636e+002
2655285.962	-2.307784e+001	6.979315e+001	-1.124635e+001	1.699748e+001	-1.120353e+001	1.738714e+001	-1.698371e+001	-1.693586e+002
2679722.704	-2.225075e+001	6.207539e+001	-1.127901e+001	1.029779e+001	-1.123925e+001	1.064323e+001	-1.678065e+001	-1.785833e+002
2704159.445	-2.141959e+001	5.473126e+001	-1.133513e+001	3.659063e+000	-1.129271e+001	3.990700e+000	-1.655983e+001	1.723297e+002
2728596.187	-2.060029e+001	4.770930e+001	-1.141194e+001	-2.897062e+000	-1.137298e+001	-2.571172e+000	-1.634152e+001	1.633881e+002
2753032.929	-1.983609e+001	4.088407e+001	-1.150401e+001	-9.289393e+000	-1.146498e+001	-9.007773e+000	-1.611329e+001	1.546804e+002
2777469.671	-1.913094e+001	3.432798e+001	-1.161011e+001	-1.557673e+001	-1.157291e+001	-1.531134e+001	-1.589661e+001	1.462315e+002
2801906.412	-1.848166e+001	2.798116e+001	-1.172296e+001	-2.175346e+001	-1.169141e+001	-2.150879e+001	-1.569317e+001	1.379860e+002
2826343.154	-1.788818e+001	2.186074e+001	-1.184703e+001	-2.779786e+001	-1.182057e+001	-2.758320e+001	-1.550763e+001	1.300664e+002
2850779.896	-1.734035e+001	1.593398e+001	-1.198168e+001	-3.371875e+001	-1.195946e+001	-3.351296e+001	-1.533502e+001	1.224194e+002
2875216.638	-1.685516e+001	1.014545e+001	-1.211878e+001	-3.957594e+001	-1.210353e+001	-3.928184e+001	-1.517787e+001	1.150731e+002
2899653.380	-1.640624e+001	4.567449e+000	-1.225930e+001	-4.523310e+001	-1.224935e+001	-4.494479e+001	-1.504421e+001	1.080319e+002
2924090.121	-1.599410e+001	-8.698007e-001	-1.240080e+001	-5.074101e+001	-1.239944e+001	-5.047516e+001	-1.493468e+001	1.012650e+002
2948526.863	-1.562438e+001	-6.142329e+000	-1.254517e+001	-5.612424e+001	-1.254858e+001	-5.588162e+001	-1.484668e+001	9.478492e+001
2972963.605	-1.528291e+001	-1.125548e+001	-1.268568e+001	-6.140115e+001	-1.269532e+001	-6.116886e+001	-1.477497e+001	8.857396e+001
2997400.347	-1.497746e+001	-1.622475e+001	-1.282278e+001	-6.654185e+001	-1.283793e+001	-6.633229e+001	-1.472052e+001	8.262636e+001
3021837.088	-1.469743e+001	-2.106042e+001	-1.295599e+001	-7.157433e+001	-1.297724e+001	-7.137005e+001	-1.467641e+001	7.693911e+001
3046273.830	-1.443877e+001	-2.578332e+001	-1.308190e+001	-7.645382e+001	-1.310852e+001	-7.628322e+001	-1.464025e+001	7.144532e+001
3070710.572	-1.420477e+001	-3.040961e+001	-1.319690e+001	-8.125969e+001	-1.322836e+001	-8.108783e+001	-1.461485e+001	6.610804e+001
3095147.314	-1.399407e+001	-3.496293e+001	-1.329805e+001	-8.598734e+001	-1.333339e+001	-8.581636e+001	-1.460442e+001	6.091922e+001
3119584.055	-1.380795e+001	-3.944693e+001	-1.338458e+001	-9.066886e+001	-1.342378e+001	-9.049447e+001	-1.461384e+001	5.587384e+001
3144020.797	-1.364864e+001	-4.383282e+001	-1.345336e+001	-9.532347e+001	-1.349688e+001	-9.515981e+001	-1.464253e+001	5.096418e+001
3168457.539	-1.351047e+001	-4.815746e+001	-1.351395e+001	-9.995634e+001	-1.356132e+001	-9.978919e+001	-1.469262e+001	4.619335e+001
3192894.281	-1.339316e+001	-5.237062e+001	-1.356281e+001	-1.045990e+002	-1.361445e+001	-1.043959e+002	-1.475436e+001	4.157497e+001
3217331.023	-1.329422e+001	-5.651580e+001	-1.360549e+001	-1.092073e+002	-1.365772e+001	-1.090201e+002	-1.484100e+001	3.711019e+001
3241767.764	-1.321486e+001	-6.054378e+001	-1.364006e+001	-1.138528e+002	-1.369497e+001	-1.136513e+002	-1.494218e+001	3.281286e+001
3266204.506	-1.315033e+001	-6.448050e+001	-1.367192e+001	-1.184767e+002	-1.372882e+001	-1.182390e+002	-1.505148e+001	2.870466e+001
3290641.248	-1.308792e+001	-6.834193e+001	-1.369422e+001	-1.229628e+002	-1.375072e+001	-1.227532e+002	-1.516041e+001	2.466024e+001
3315077.990	-1.304520e+001	-7.225023e+001	-1.368652e+001	-1.274633e+002	-1.374459e+001	-1.272452e+002	-1.528376e+001	2.055943e+001
3339514.731	-1.303176e+001	-7.616679e+001	-1.365258e+001	-1.320675e+002	-1.371259e+001	-1.318311e+002	-1.544936e+001	1.647851e+001
3363951.473	-1.305302e+001	-8.000210e+001	-1.361008e+001	-1.368129e+002	-1.367347e+001	-1.365745e+002	-1.565871e+001	1.253677e+001
3388388.215	-1.310425e+001	-8.372821e+001	-1.356475e+001	-1.416842e+002	-1.362642e+001	-1.414314e+002	-1.590848e+001	8.781858e+000
3412824.957	-1.318692e+001	-8.732346e+001	-1.351559e+001	-1.466774e+002	-1.357815e+001	-1.463862e+002	-1.619646e+001	5.240532e+000
3437261.698	-1.329975e+001	-9.075814e+001	-1.346776e+001	-1.517813e+002	-1.353072e+001	-1.514741e+002	-1.652498e+001	1.992853e+000
3461698.440	-1.344494e+001	-9.400773e+001	-1.342557e+001	-1.570111e+002	-1.348995e+001	-1.566589e+002	-1.688877e+001	-9.081145e-001
3486135.182	-1.361084e+001	-9.703268e+001	-1.339086e+001	-1.622931e+002	-1.344871e+001	-1.619389e+002	-1.728846e+001	-3.477750e+000
3510571.924	-1.379802e+001	-9.980184e+001	-1.336549e+001	-1.676614e+002	-1.342496e+001	-1.672884e+002	-1.771065e+001	-5.516997e+000
3535008.666	-1.400196e+001	-1.022832e+002	-1.335524e+001	-1.730625e+002	-1.341055e+001	-1.726987e+002	-1.814655e+001	-7.011135e+000
3559445.407	-1.421993e+001	-1.044522e+002	-1.335268e+001	-1.785133e+002	-1.340572e+001	-1.781424e+002	-1.858616e+001	-7.967208e+000
3583882.149	-1.444572e+001	-1.062873e+002	-1.335572e+001	1.759975e+002	-1.340796e+001	1.763423e+002	-1.901810e+001	-8.317080e+000
3608318.891	-1.467925e+001	-1.077604e+002	-1.336940e+001	1.704585e+002	-1.341793e+001	1.707881e+002	-1.943403e+001	-8.038258e+000
3632755.633	-1.490219e+001	-1.089489e+002	-1.338104e+001	1.649172e+002	-1.343393e+001	1.652398e+002	-1.980245e+001	-7.215719e+000
3657192.374	-1.512240e+001	-1.096158e+002	-1.340305e+001	1.592525e+002	-1.344795e+001	1.596251e+002	-2.013408e+001	-5.733561e+000
3681629.116	-1.532899e+001	-1.097615e+002	-1.343186e+001	1.534495e+002	-1.347578e+001	1.538367e+002	-2.038944e+001	-3.309485e+000
3706065.858	-1.547352e+001	-1.092968e+002	-1.348734e+001	1.475225e+002	-1.352972e+001	1.479258e+002	-2.048048e+001	-7.307575e-002
3730502.600	-1.552158e+001	-1.083559e+002	-1.357175e+001	1.415214e+002	-1.361831e+001	1.419061e+002	-2.035177e+001	3.602446e+000
3754939.341	-1.544803e+001	-1.072454e+002	-1.369364e+001	1.355467e+002	-1.374121e+001	1.358953e+002	-1.999292e+001	6.951137e+000
3779376.083	-1.525480e+001	-1.061700e+002	-1.384249e+001	1.295907e+002	-1.389524e+001	1.299127e+002	-1.945649e+001	9.521636e+000
3803812.825	-1.496021e+001	-1.053936e+002	-1.401468e+001	1.236973e+002	-1.407188e+001	1.240073e+002	-1.881892e+001	1.106316e+001
3828249.567	-1.458358e+001	-1.050198e+002	-1.421063e+001	1.178350e+002	-1.427185e+001	1.181262e+002	-1.812325e+001	1.168164e+001
3852686.308	-1.415135e+001	-1.051993e+002	-1.443203e+001	1.120454e+002	-1.450024e+001	1.123379e+002	-1.740616e+001	1.132109e+001
3877123.050	-1.368608e+001	-1.058944e+002	-1.467894e+001	1.063398e+002	-1.474967e+001	1.066484e+002	-1.670877e+001	1.016214e+001
3901559.792	-1.320733e+001	-1.070985e+002	-1.494604e+001	1.007262e+002	-1.502426e+001	1.010619e+002	-1.604511e+001	8.331721e+000
3925996.534	-1.273282e+001	-1.087366e+002	-1.523845e+001	9.521066e+001	-1.532122e+001	9.557667e+001	-1.542238e+001	5.963060e+000
3950433.276	-1.226774e+001	-1.107722e+002	-1.555405e+001	8.978515e+001	-1.563754e+001	9.019137e+001	-1.485463e+001	3.221453e+000
3974870.017	-1.182076e+001	-1.131733e+002	-1.589343e+001	8.451812e+001	-1.597951e+001	8.493548e+001	-1.432892e+001	1.677928e-001
3999306.759	-1.139677e+001	-1.158500e+002	-1.625952e+001	7.937081e+001	-1.634807e+001	7.987603e+001	-1.385605e+001	-3.150486e+000
4023743.501	-1.099750e+001	-1.187937e+002	-1.664600e+001	7.440573e+001	-1.673177e+001	7.494656e+001	-1.342944e+001	-6.596388e+000
4048180.243	-1.062565e+001	-1.219573e+002	-1.705708e+001	6.959101e+001	-1.714402e+001	7.022015e+001	-1.303939e+001	-1.018332e+001
4072616.984	-1.028234e+001	-1.253186e+002	-1.749467e+001	6.504243e+001	-1.758004e+001	6.569348e+001	-1.268578e+001	-1.387335e+001
4097053.726	-9.968983e+000	-1.288354e+002	-1.795496e+001	6.073676e+001	-1.803845e+001	6.144095e+001	-1.237252e+001	-1.761863e+001
4121490.468	-9.683907e+000	-1.324820e+002	-1.843815e+001	5.669341e+001	-1.851872e+001	5.745053e+001	-1.208522e+001	-2.141358e+001
4145927.210	-9.427463e+000	-1.362333e+002	-1.893751e+001	5.296210e+001	-1.901828e+001	5.377323e+001	-1.182756e+001	-2.523477e+001
4170363.951	-9.197340e+000	-1.400996e+002	-1.947545e+001	4.965828e+001	-1.955052e+001	5.045383e+001	-1.159309e+001	-2.906118e+001
4194800.693	-8.998107e+000	-1.440744e+002	-2.002817e+001	4.679978e+001	-2.009248e+001	4.768693e+001	-1.138781e+001	-3.295502e+001
4219237.435	-8.834935e+000	-1.481436e+002	-2.057842e+001	4.466629e+001	-2.064269e+001	4.557493e+001	-1.120863e+001	-3.689481e+001
4243674.177	-8.709883e+000	-1.522645e+002	-2.110116e+001	4.327876e+001	-2.115012e+001	4.420871e+001	-1.106104e+001	-4.082133e+001
4268110.919	-8.620910e+000	-1.563571e+002	-2.153115e+001	4.247528e+001	-2.158666e+001	4.340457e+001	-1.093797e+001	-4.470237e+001
4292547.660	-8.556413e+000	-1.603964e+002	-2.188619e+001	4.196666e+001	-2.193319e+001	4.295748e+001	-1.083746e+001	-4.850049e+001
4316984.402	-8.516246e+000	-1.644425e+002	-2.216052e+001	4.190667e+001	-2.220254e+001	4.293479e+001	-1.075081e+001	-5.226806e+001
4341421.144	-8.503180e+000	-1.684803e+002	-2.233948e+001	4.212877e+001	-2.235350e+001	4.314656e+001	-1.068475e+001	-5.598673e+001
4365857.886	-8.521238e+000	-1.724271e+002	-2.235073e+001	4.231926e+001	-2.237156e+001	4.334258e+001	-1.063509e+001	-5.963646e+001
4390294.627	-8.553287e+000	-1.762422e+002	-2.228321e+001	4.185265e+001	-2.229148e+001	4.289147e+001	-1.059237e+001	-6.311163e+001
4414731.369	-8.581842e+000	-1.799718e+002	-2.221416e+001	4.070877e+001	-2.221930e+001	4.181087e+001	-1.054020e+001	-6.649277e+001
4439168.111	-8.596076e+000	1.762030e+002	-2.224612e+001	3.948235e+001	-2.224203e+001	4.061597e+001	-1.045871e+001	-6.991736e+001
4463604.853	-8.608712e+000	1.721256e+002	-2.235881e+001	3.908600e+001	-2.234517e+001	4.029481e+001	-1.036079e+001	-7.355574e+001
4488041.594	-8.659336e+000	1.676135e+002	-2.240192e+001	4.051606e+001	-2.238135e+001	4.168338e+001	-1.026559e+001	-7.754435e+001
4512478.336	-8.798035e+000	1.628091e+002	-2.209263e+001	4.318217e+001	-2.206400e+001	4.433021e+001	-1.022290e+001	-8.190788e+001
4536915.078	-9.060565e+000	1.581020e+002	-2.131165e+001	4.475698e+001	-2.127440e+001	4.587295e+001	-1.027110e+001	-8.635358e+001
4561351.820	-9.402715e+000	1.539965e+002	-2.036944e+001	4.331987e+001	-2.032075e+001	4.445413e+001	-1.039232e+001	-9.047545e+001
4585788.562	-9.742572e+000	1.504190e+002	-1.960423e+001	3.998530e+001	-1.954635e+001	4.108262e+001	-1.051823e+001	-9.418106e+001
4610225.303	-1.006919e+001	1.469445e+002	-1.898790e+001	3.631958e+001	-1.892841e+001	3.734826e+001	-1.062746e+001	-9.778611e+001
4634662.045	-1.042084e+001	1.435091e+002	-1.841669e+001	3.252508e+001	-1.834873e+001	3.349584e+001	-1.074496e+001	-1.014143e+002
4659098.787	-1.080126e+001	1.402403e+002	-1.787196e+001	2.836314e+001	-1.780690e+001	2.932814e+001	-1.087299e+001	-1.050116e+002
4683535.529	-1.119772e+001	1.370815e+002	-1.739516e+001	2.407635e+001	-1.731973e+001	2.498939e+001	-1.100323e+001	-1.085710e+002
4707972.270	-1.161981e+001	1.339186e+002	-1.695263e+001	1.994135e+001	-1.687296e+001	2.075828e+001	-1.113439e+001	-1.122109e+002
4732409.012	-1.212134e+001	1.306338e+002	-1.647145e+001	1.606295e+001	-1.639159e+001	1.678663e+001	-1.129042e+001	-1.161292e+002
4756845.754	-1.275535e+001	1.276796e+002	-1.589365e+001	1.188472e+001	-1.581733e+001	1.257967e+001	-1.152105e+001	-1.202504e+002
4781282.496	-1.350501e+001	1.257462e+002	-1.527027e+001	6.885972e+000	-1.519483e+001	7.503402e+000	-1.184988e+001	-1.241706e+002
4805719.237	-1.426118e+001	1.251614e+002	-1.469524e+001	9.697941e-001	-1.462539e+001	1.552937e+000	-1.224013e+001	-1.275529e+002
4830155.979	-1.493815e+001	1.257182e+002	-1.420602e+001	-5.429240e+000	-1.414120e+001	-4.861079e+000	-1.265073e+001	-1.304375e+002
4854592.721	-1.549782e+001	1.270641e+002	-1.380010e+001	-1.198869e+001	-1.373934e+001	-1.144306e+001	-1.306000e+001	-1.329091e+002
4879029.463	-1.591668e+001	1.288969e+002	-1.345529e+001	-1.865059e+001	-1.339770e+001	-1.810935e+001	-1.346547e+001	-1.349851e+002
4903466.205	-1.618608e+001	1.309582e+002	-1.315488e+001	-2.534051e+001	-1.310363e+001	-2.480538e+001	-1.386505e+001	-1.367057e+002
4927902.946	-1.630497e+001	1.328829e+002	-1.290379e+001	-3.208146e+001	-1.285457e+001	-3.154541e+001	-1.424354e+001	-1.380074e+002
4952339.688	-1.629129e+001	1.343426e+002	-1.269671e+001	-3.891143e+001	-1.264627e+001	-3.830229e+001	-1.459101e+001	-1.389651e+002
4976776.430	-1.620121e+001	1.351091e+002	-1.252817e+001	-4.566292e+001	-1.247555e+001	-4.503492e+001	-1.488804e+001	-1.396103e+002
5001213.172	-1.607480e+001	1.351744e+002	-1.239419e+001	-5.237542e+001	-1.234422e+001	-5.173548e+001	-1.512733e+001	-1.400251e+002
5025649.913	-1.595236e+001	1.345825e+002	-1.229576e+001	-5.900748e+001	-1.224215e+001	-5.836011e+001	-1.530651e+001	-1.403613e+002
5050086.655	-1.585243e+001	1.334813e+002	-1.221930e+001	-6.554845e+001	-1.216646e+001	-6.491476e+001	-1.542292e+001	-1.406790e+002
5074523.397	-1.579618e+001	1.319648e+002	-1.216800e+001	-7.202669e+001	-1.211191e+001	-7.137760e+001	-1.548930e+001	-1.411097e+002
5098960.139	-1.578312e+001	1.301826e+002	-1.213352e+001	-7.839987e+001	-1.207671e+001	-7.777906e+001	-1.550690e+001	-1.416376e+002
5123396.880	-1.581957e+001	1.282015e+002	-1.211112e+001	-8.470912e+001	-1.205444e+001	-8.411177e+001	-1.548437e+001	-1.423404e+002
5147833.622	-1.589672e+001	1.260661e+002	-1.210202e+001	-9.094212e+001	-1.204459e+001	-9.038126e+001	-1.543069e+001	-1.432462e+002
5172270.364	-1.601840e+001	1.238517e+002	-1.210305e+001	-9.712893e+001	-1.204484e+001	-9.660923e+001	-1.535186e+001	-1.443383e+002
5196707.106	-1.618222e+001	1.215552e+002	-1.211283e+001	-1.032973e+002	-1.205442e+001	-1.028061e+002	-1.524721e+001	-1.456723e+002
5221143.847	-1.639352e+001	1.192117e+002	-1.213273e+001	-1.093965e+002	-1.207623e+001	-1.089778e+002	-1.512148e+001	-1.472382e+002
5245580.589	-1.665526e+001	1.167224e+002	-1.216697e+001	-1.155242e+002	-1.211065e+001	-1.151321e+002	-1.498561e+001	-1.490806e+002
5270017.331	-1.697450e+001	1.142272e+002	-1.221184e+001	-1.216146e+002	-1.215798e+001	-1.212526e+002	-1.483718e+001	-1.512131e+002
5294454.073	-1.736236e+001	1.117392e+002	-1.227032e+001	-1.276737e+002	-1.221742e+001	-1.273321e+002	-1.469341e+001	-1.536345e+002
5318890.815	-1.781747e+001	1.093540e+002	-1.233513e+001	-1.336729e+002	-1.228290e+001	-1.333641e+002	-1.456117e+001	-1.562858e+002
5343327.556	-1.833824e+001	1.070914e+002	-1.240959e+001	-1.396494e+002	-1.235515e+001	-1.393666e+002	-1.443820e+001	-1.591425e+002
5367764.298	-1.893101e+001	1.049474e+002	-1.248345e+001	-1.456234e+002	-1.243301e+001	-1.453666e+002	-1.431789e+001	-1.621509e+002
5392201.040	-1.960945e+001	1.029109e+002	-1.256595e+001	-1.515943e+002	-1.251964e+001	-1.513927e+002	-1.420789e+001	-1.653657e+002
5416637.782	-2.039720e+001	1.010416e+002	-1.266065e+001	-1.575807e+002	-1.261984e+001	-1.574075e+002	-1.410134e+001	-1.687790e+002
5441074.523	-2.132113e+001	9.942758e+001	-1.276858e+001	-1.635548e+002	-1.273139e+001	-1.634244e+002	-1.400115e+001	-1.724278e+002
