!Agilent Technologies,E5061B,MY49101568,A.02.00
!Date: Wed Mar 01 16:37:36 2023
!Data & Calibration Information:
!Freq	S11:SOLT2(OFF)	S21:SOLT2(OFF)	S12:SOLT2(OFF)	S22:SOLT2(OFF)
# Hz S dB R 50
1800000.000	-9.144892e+000	-1.765841e+001	-2.920893e+001	-1.264452e+002	-2.920118e+001	-1.266918e+002	-9.539912e+000	3.417948e+001
1824436.742	-9.211228e+000	-2.186817e+001	-2.878578e+001	-1.297891e+002	-2.878059e+001	-1.299396e+002	-9.668882e+000	3.018634e+001
1848873.484	-9.278649e+000	-2.617151e+001	-2.835367e+001	-1.331451e+002	-2.835445e+001	-1.332174e+002	-9.815987e+000	2.627136e+001
1873310.225	-9.348678e+000	-3.052969e+001	-2.787877e+001	-1.366679e+002	-2.791872e+001	-1.367140e+002	-9.965794e+000	2.239975e+001
1897746.967	-9.417655e+000	-3.495646e+001	-2.740925e+001	-1.403975e+002	-2.750072e+001	-1.402578e+002	-1.013905e+001	1.853904e+001
1922183.709	-9.486871e+000	-3.952062e+001	-2.700489e+001	-1.438925e+002	-2.705709e+001	-1.438437e+002	-1.032016e+001	1.478153e+001
1946620.451	-9.557890e+000	-4.419432e+001	-2.656462e+001	-1.478079e+002	-2.660681e+001	-1.475971e+002	-1.050172e+001	1.119420e+001
1971057.192	-9.631249e+000	-4.899822e+001	-2.600595e+001	-1.512811e+002	-2.613553e+001	-1.513570e+002	-1.064149e+001	7.682245e+000
1995493.934	-9.711454e+000	-5.394650e+001	-2.560117e+001	-1.552792e+002	-2.563613e+001	-1.552764e+002	-1.076143e+001	4.045222e+000
2019930.676	-9.793527e+000	-5.900462e+001	-2.506930e+001	-1.598692e+002	-2.512826e+001	-1.593786e+002	-1.088138e+001	3.538052e-001
2044367.418	-9.879953e+000	-6.420262e+001	-2.453666e+001	-1.639870e+002	-2.461671e+001	-1.636801e+002	-1.099247e+001	-3.346976e+000
2068804.159	-9.974816e+000	-6.956151e+001	-2.400888e+001	-1.682745e+002	-2.409407e+001	-1.681505e+002	-1.105927e+001	-7.099611e+000
2093240.901	-1.007534e+001	-7.506263e+001	-2.346578e+001	-1.732019e+002	-2.356513e+001	-1.728024e+002	-1.110141e+001	-1.117364e+001
2117677.643	-1.018373e+001	-8.077348e+001	-2.292477e+001	-1.780348e+002	-2.303155e+001	-1.776893e+002	-1.112850e+001	-1.555271e+001
2142114.385	-1.030033e+001	-8.666659e+001	-2.240472e+001	1.769185e+002	-2.250652e+001	1.772644e+002	-1.118400e+001	-2.018666e+001
2166551.127	-1.043022e+001	-9.277305e+001	-2.187094e+001	1.716904e+002	-2.197970e+001	1.721093e+002	-1.124973e+001	-2.498551e+001
2190987.868	-1.057290e+001	-9.910163e+001	-2.133942e+001	1.661969e+002	-2.145348e+001	1.666703e+002	-1.132281e+001	-2.981859e+001
2215424.610	-1.073102e+001	-1.056383e+002	-2.082339e+001	1.604450e+002	-2.093618e+001	1.610838e+002	-1.138758e+001	-3.487303e+001
2239861.352	-1.090717e+001	-1.124067e+002	-2.032398e+001	1.546269e+002	-2.042782e+001	1.552462e+002	-1.145080e+001	-4.008420e+001
2264298.094	-1.109872e+001	-1.194297e+002	-1.982914e+001	1.485773e+002	-1.993574e+001	1.492352e+002	-1.151938e+001	-4.548165e+001
2288734.835	-1.131143e+001	-1.266846e+002	-1.934180e+001	1.423010e+002	-1.945392e+001	1.430379e+002	-1.159166e+001	-5.100637e+001
2313171.577	-1.154293e+001	-1.341851e+002	-1.889936e+001	1.357967e+002	-1.899120e+001	1.366441e+002	-1.166238e+001	-5.668100e+001
2337608.319	-1.179492e+001	-1.419323e+002	-1.845992e+001	1.291776e+002	-1.854431e+001	1.300535e+002	-1.173379e+001	-6.251422e+001
2362045.061	-1.206323e+001	-1.498957e+002	-1.804799e+001	1.224335e+002	-1.811150e+001	1.232177e+002	-1.180337e+001	-6.846389e+001
2386481.802	-1.234261e+001	-1.581013e+002	-1.765801e+001	1.154919e+002	-1.771596e+001	1.163037e+002	-1.185812e+001	-7.460051e+001
2410918.544	-1.263327e+001	-1.665300e+002	-1.730328e+001	1.084109e+002	-1.734882e+001	1.092515e+002	-1.190977e+001	-8.089580e+001
2435355.286	-1.292736e+001	-1.751619e+002	-1.697336e+001	1.011804e+002	-1.701552e+001	1.020590e+002	-1.194963e+001	-8.737512e+001
2459792.028	-1.321916e+001	1.759714e+002	-1.668799e+001	9.394940e+001	-1.670734e+001	9.479735e+001	-1.197378e+001	-9.404893e+001
2484228.769	-1.349389e+001	1.669569e+002	-1.643512e+001	8.658766e+001	-1.643007e+001	8.741825e+001	-1.199516e+001	-1.008964e+002
2508665.511	-1.375811e+001	1.578193e+002	-1.620781e+001	7.916241e+001	-1.618913e+001	7.995963e+001	-1.199821e+001	-1.079490e+002
2533102.253	-1.399333e+001	1.485780e+002	-1.601640e+001	7.174833e+001	-1.598874e+001	7.245530e+001	-1.199704e+001	-1.151437e+002
2557538.995	-1.419126e+001	1.392689e+002	-1.586839e+001	6.427906e+001	-1.582256e+001	6.496803e+001	-1.198749e+001	-1.225017e+002
2581975.737	-1.435739e+001	1.300004e+002	-1.575015e+001	5.683276e+001	-1.569106e+001	5.742363e+001	-1.196798e+001	-1.299992e+002
2606412.478	-1.447868e+001	1.207495e+002	-1.567153e+001	4.939778e+001	-1.559693e+001	4.993563e+001	-1.194242e+001	-1.376137e+002
2630849.220	-1.455212e+001	1.116228e+002	-1.561579e+001	4.198265e+001	-1.553714e+001	4.249308e+001	-1.190701e+001	-1.453343e+002
2655285.962	-1.458686e+001	1.026392e+002	-1.560254e+001	3.466084e+001	-1.551407e+001	3.510469e+001	-1.187004e+001	-1.531319e+002
2679722.704	-1.457682e+001	9.384584e+001	-1.562141e+001	2.743403e+001	-1.552388e+001	2.780169e+001	-1.183306e+001	-1.609540e+002
2704159.445	-1.453068e+001	8.527623e+001	-1.566836e+001	2.026954e+001	-1.556728e+001	2.059413e+001	-1.179676e+001	-1.687718e+002
2728596.187	-1.445057e+001	7.696892e+001	-1.574108e+001	1.326180e+001	-1.563970e+001	1.347659e+001	-1.176323e+001	-1.765682e+002
2753032.929	-1.434347e+001	6.892804e+001	-1.584308e+001	6.353854e+000	-1.573694e+001	6.509615e+000	-1.173244e+001	1.757223e+002
2777469.671	-1.421685e+001	6.117447e+001	-1.596269e+001	-3.803986e-001	-1.585841e+001	-3.022336e-001	-1.170513e+001	1.681229e+002
2801906.412	-1.407542e+001	5.369253e+001	-1.611023e+001	-6.982270e+000	-1.600578e+001	-6.968630e+000	-1.168449e+001	1.606503e+002
2826343.154	-1.392361e+001	4.650760e+001	-1.627314e+001	-1.340524e+001	-1.616969e+001	-1.346297e+001	-1.167213e+001	1.533530e+002
2850779.896	-1.376258e+001	3.960106e+001	-1.645096e+001	-1.967182e+001	-1.634956e+001	-1.978719e+001	-1.166367e+001	1.462370e+002
2875216.638	-1.360235e+001	3.297723e+001	-1.663804e+001	-2.579221e+001	-1.654864e+001	-2.589364e+001	-1.166084e+001	1.393337e+002
2899653.380	-1.343863e+001	2.660606e+001	-1.683889e+001	-3.168974e+001	-1.674982e+001	-3.186289e+001	-1.166168e+001	1.326572e+002
2924090.121	-1.327738e+001	2.049381e+001	-1.704310e+001	-3.741070e+001	-1.696391e+001	-3.763413e+001	-1.167067e+001	1.262190e+002
2948526.863	-1.311444e+001	1.460662e+001	-1.725776e+001	-4.296794e+001	-1.718254e+001	-4.323289e+001	-1.167945e+001	1.199970e+002
2972963.605	-1.295812e+001	8.948747e+000	-1.747057e+001	-4.835032e+001	-1.740611e+001	-4.865340e+001	-1.169025e+001	1.139950e+002
2997400.347	-1.280443e+001	3.495013e+000	-1.768611e+001	-5.355725e+001	-1.762800e+001	-5.388988e+001	-1.170065e+001	1.082007e+002
3021837.088	-1.265445e+001	-1.763547e+000	-1.789399e+001	-5.862435e+001	-1.784668e+001	-5.897588e+001	-1.171126e+001	1.025983e+002
3046273.830	-1.250910e+001	-6.853999e+000	-1.809935e+001	-6.357062e+001	-1.805938e+001	-6.391488e+001	-1.172463e+001	9.718921e+001
3070710.572	-1.236870e+001	-1.176810e+001	-1.829947e+001	-6.838098e+001	-1.826565e+001	-6.874378e+001	-1.173980e+001	9.196282e+001
3095147.314	-1.223340e+001	-1.652801e+001	-1.849554e+001	-7.306111e+001	-1.846789e+001	-7.343314e+001	-1.175240e+001	8.692037e+001
3119584.055	-1.210219e+001	-2.113944e+001	-1.868025e+001	-7.762220e+001	-1.866231e+001	-7.800230e+001	-1.176644e+001	8.203522e+001
3144020.797	-1.197531e+001	-2.562621e+001	-1.885761e+001	-8.206685e+001	-1.885065e+001	-8.242900e+001	-1.177726e+001	7.732408e+001
3168457.539	-1.185300e+001	-2.999269e+001	-1.902842e+001	-8.642427e+001	-1.903408e+001	-8.675029e+001	-1.178984e+001	7.274907e+001
3192894.281	-1.173487e+001	-3.422797e+001	-1.918802e+001	-9.070208e+001	-1.920439e+001	-9.101749e+001	-1.180040e+001	6.828406e+001
3217331.023	-1.162080e+001	-3.836213e+001	-1.934089e+001	-9.488339e+001	-1.936447e+001	-9.519683e+001	-1.181177e+001	6.395645e+001
3241767.764	-1.150986e+001	-4.239874e+001	-1.949173e+001	-9.899138e+001	-1.951770e+001	-9.926117e+001	-1.182137e+001	5.975737e+001
3266204.506	-1.140112e+001	-4.632723e+001	-1.962853e+001	-1.030019e+002	-1.966615e+001	-1.032575e+002	-1.182888e+001	5.567266e+001
3290641.248	-1.129240e+001	-5.017231e+001	-1.976349e+001	-1.068862e+002	-1.980725e+001	-1.071149e+002	-1.183150e+001	5.168088e+001
3315077.990	-1.118486e+001	-5.396859e+001	-1.987564e+001	-1.106423e+002	-1.992710e+001	-1.108398e+002	-1.183169e+001	4.774719e+001
3339514.731	-1.108195e+001	-5.771103e+001	-1.996303e+001	-1.143912e+002	-2.002137e+001	-1.145337e+002	-1.183567e+001	4.387476e+001
3363951.473	-1.098368e+001	-6.139821e+001	-2.003417e+001	-1.180989e+002	-2.010120e+001	-1.182061e+002	-1.184268e+001	4.007858e+001
3388388.215	-1.089182e+001	-6.502644e+001	-2.009092e+001	-1.218228e+002	-2.016575e+001	-1.218736e+002	-1.185391e+001	3.635578e+001
3412824.957	-1.080115e+001	-6.860512e+001	-2.013428e+001	-1.254959e+002	-2.021438e+001	-1.255299e+002	-1.186513e+001	3.271007e+001
3437261.698	-1.071501e+001	-7.212339e+001	-2.016760e+001	-1.291716e+002	-2.024952e+001	-1.291592e+002	-1.187871e+001	2.912510e+001
3461698.440	-1.063249e+001	-7.560463e+001	-2.019008e+001	-1.328410e+002	-2.027215e+001	-1.328161e+002	-1.189740e+001	2.561077e+001
3486135.182	-1.055483e+001	-7.904995e+001	-2.019371e+001	-1.365557e+002	-2.028430e+001	-1.364243e+002	-1.191257e+001	2.216337e+001
3510571.924	-1.048144e+001	-8.245084e+001	-2.019664e+001	-1.402252e+002	-2.028935e+001	-1.400897e+002	-1.193376e+001	1.880543e+001
3535008.666	-1.041112e+001	-8.581312e+001	-2.018732e+001	-1.438882e+002	-2.027910e+001	-1.437449e+002	-1.195570e+001	1.548851e+001
3559445.407	-1.034491e+001	-8.915068e+001	-2.016262e+001	-1.475585e+002	-2.026015e+001	-1.474023e+002	-1.197919e+001	1.223662e+001
3583882.149	-1.028503e+001	-9.246877e+001	-2.012664e+001	-1.512225e+002	-2.022404e+001	-1.510250e+002	-1.200149e+001	9.027170e+000
3608318.891	-1.023062e+001	-9.574872e+001	-2.007863e+001	-1.548976e+002	-2.017920e+001	-1.546377e+002	-1.202485e+001	5.871807e+000
3632755.633	-1.018376e+001	-9.903589e+001	-2.000915e+001	-1.586574e+002	-2.012026e+001	-1.582190e+002	-1.204883e+001	2.719470e+000
3657192.374	-1.014190e+001	-1.022802e+002	-1.992726e+001	-1.623404e+002	-2.003895e+001	-1.618733e+002	-1.208093e+001	-3.838296e-001
3681629.116	-1.011094e+001	-1.054975e+002	-1.982243e+001	-1.661530e+002	-1.993497e+001	-1.656028e+002	-1.211842e+001	-3.460414e+000
3706065.858	-1.008735e+001	-1.086772e+002	-1.970289e+001	-1.700562e+002	-1.981390e+001	-1.694504e+002	-1.216708e+001	-6.464013e+000
3730502.600	-1.007347e+001	-1.118102e+002	-1.957479e+001	-1.740801e+002	-1.968246e+001	-1.734184e+002	-1.222086e+001	-9.408073e+000
3754939.341	-1.007046e+001	-1.148883e+002	-1.943665e+001	-1.782221e+002	-1.954656e+001	-1.774846e+002	-1.228246e+001	-1.226452e+001
3779376.083	-1.007158e+001	-1.179178e+002	-1.928883e+001	1.775557e+002	-1.939774e+001	1.783508e+002	-1.234732e+001	-1.504245e+001
3803812.825	-1.007745e+001	-1.209012e+002	-1.913493e+001	1.732135e+002	-1.923895e+001	1.740315e+002	-1.241696e+001	-1.775516e+001
3828249.567	-1.009428e+001	-1.238431e+002	-1.897382e+001	1.687321e+002	-1.907894e+001	1.695726e+002	-1.249174e+001	-2.036608e+001
3852686.308	-1.011949e+001	-1.267306e+002	-1.880989e+001	1.640510e+002	-1.890910e+001	1.649125e+002	-1.257141e+001	-2.289052e+001
3877123.050	-1.015525e+001	-1.295404e+002	-1.864921e+001	1.592170e+002	-1.874646e+001	1.600934e+002	-1.265576e+001	-2.531522e+001
3901559.792	-1.019971e+001	-1.322728e+002	-1.849771e+001	1.542209e+002	-1.858569e+001	1.551220e+002	-1.274141e+001	-2.763218e+001
3925996.534	-1.025332e+001	-1.348991e+002	-1.834957e+001	1.490466e+002	-1.843803e+001	1.499599e+002	-1.282878e+001	-2.982716e+001
3950433.276	-1.031857e+001	-1.374197e+002	-1.821333e+001	1.436894e+002	-1.829736e+001	1.446403e+002	-1.292064e+001	-3.189435e+001
3974870.017	-1.038764e+001	-1.397758e+002	-1.809608e+001	1.381445e+002	-1.817426e+001	1.390936e+002	-1.301220e+001	-3.377445e+001
3999306.759	-1.046113e+001	-1.419490e+002	-1.799208e+001	1.323763e+002	-1.807279e+001	1.333630e+002	-1.309914e+001	-3.546114e+001
4023743.501	-1.052850e+001	-1.439224e+002	-1.792390e+001	1.264344e+002	-1.800039e+001	1.273906e+002	-1.317666e+001	-3.691168e+001
4048180.243	-1.058332e+001	-1.456663e+002	-1.788911e+001	1.202638e+002	-1.796490e+001	1.212103e+002	-1.323187e+001	-3.812405e+001
4072616.984	-1.061207e+001	-1.471938e+002	-1.790461e+001	1.138969e+002	-1.798111e+001	1.148456e+002	-1.325074e+001	-3.907146e+001
4097053.726	-1.060067e+001	-1.485420e+002	-1.798241e+001	1.073765e+002	-1.805995e+001	1.083200e+002	-1.321700e+001	-3.985660e+001
4121490.468	-1.053524e+001	-1.498062e+002	-1.813137e+001	1.008183e+002	-1.821646e+001	1.017246e+002	-1.311916e+001	-4.054454e+001
4145927.210	-1.041307e+001	-1.511012e+002	-1.836440e+001	9.425730e+001	-1.845024e+001	9.518935e+001	-1.295348e+001	-4.132402e+001
4170363.951	-1.022822e+001	-1.525426e+002	-1.869551e+001	8.785165e+001	-1.877982e+001	8.886133e+001	-1.272500e+001	-4.230804e+001
4194800.693	-9.992657e+000	-1.543571e+002	-1.913600e+001	8.186835e+001	-1.922883e+001	8.287290e+001	-1.243262e+001	-4.365803e+001
4219237.435	-9.726945e+000	-1.566509e+002	-1.967549e+001	7.657223e+001	-1.976722e+001	7.762629e+001	-1.211307e+001	-4.552343e+001
4243674.177	-9.467887e+000	-1.594461e+002	-2.026128e+001	7.230552e+001	-2.034768e+001	7.340186e+001	-1.179809e+001	-4.790618e+001
4268110.919	-9.245710e+000	-1.626351e+002	-2.082100e+001	6.901000e+001	-2.090601e+001	7.016831e+001	-1.151611e+001	-5.068663e+001
4292547.660	-9.064003e+000	-1.660302e+002	-2.131524e+001	6.637734e+001	-2.138767e+001	6.761986e+001	-1.127482e+001	-5.365431e+001
4316984.402	-8.914740e+000	-1.695845e+002	-2.175946e+001	6.432877e+001	-2.182256e+001	6.555532e+001	-1.105695e+001	-5.675366e+001
4341421.144	-8.798503e+000	-1.732706e+002	-2.212793e+001	6.279795e+001	-2.217882e+001	6.407403e+001	-1.086875e+001	-5.996488e+001
4365857.886	-8.722624e+000	-1.770105e+002	-2.236580e+001	6.154829e+001	-2.240777e+001	6.294317e+001	-1.071209e+001	-6.323976e+001
4390294.627	-8.678648e+000	1.792780e+002	-2.251340e+001	6.021045e+001	-2.254368e+001	6.156937e+001	-1.057743e+001	-6.647179e+001
4414731.369	-8.650668e+000	1.756285e+002	-2.261318e+001	5.837536e+001	-2.262607e+001	5.973234e+001	-1.045766e+001	-6.961137e+001
4439168.111	-8.617677e+000	1.720038e+002	-2.278482e+001	5.626381e+001	-2.278225e+001	5.757531e+001	-1.032443e+001	-7.269471e+001
4463604.853	-8.571584e+000	1.682262e+002	-2.304627e+001	5.474563e+001	-2.303786e+001	5.603657e+001	-1.016993e+001	-7.585099e+001
4488041.594	-8.529283e+000	1.640802e+002	-2.332675e+001	5.488761e+001	-2.329773e+001	5.616108e+001	-1.000106e+001	-7.929072e+001
4512478.336	-8.539734e+000	1.595101e+002	-2.334271e+001	5.673824e+001	-2.331004e+001	5.801395e+001	-9.853093e+000	-8.311413e+001
4536915.078	-8.643463e+000	1.547846e+002	-2.291904e+001	5.831976e+001	-2.286238e+001	5.958773e+001	-9.765301e+000	-8.716381e+001
4561351.820	-8.828698e+000	1.502782e+002	-2.224570e+001	5.772299e+001	-2.218765e+001	5.885520e+001	-9.741425e+000	-9.112286e+001
4585788.562	-9.041908e+000	1.461083e+002	-2.165099e+001	5.519854e+001	-2.159064e+001	5.629364e+001	-9.738599e+000	-9.483423e+001
4610225.303	-9.254183e+000	1.420550e+002	-2.118398e+001	5.210172e+001	-2.111619e+001	5.314724e+001	-9.730744e+000	-9.843609e+001
4634662.045	-9.482155e+000	1.379446e+002	-2.076075e+001	4.895226e+001	-2.067939e+001	4.996815e+001	-9.721621e+000	-1.020629e+002
4659098.787	-9.739667e+000	1.338215e+002	-2.033845e+001	4.557755e+001	-2.024853e+001	4.648386e+001	-9.720748e+000	-1.057218e+002
4683535.529	-1.002239e+001	1.297183e+002	-1.994470e+001	4.191698e+001	-1.985351e+001	4.274355e+001	-9.725979e+000	-1.093906e+002
4707972.270	-1.032402e+001	1.255737e+002	-1.958420e+001	3.827325e+001	-1.948789e+001	3.898636e+001	-9.731888e+000	-1.130745e+002
4732409.012	-1.065298e+001	1.212629e+002	-1.922475e+001	3.476969e+001	-1.912672e+001	3.539366e+001	-9.736792e+000	-1.168976e+002
4756845.754	-1.104403e+001	1.167702e+002	-1.880922e+001	3.127178e+001	-1.870600e+001	3.182789e+001	-9.757599e+000	-1.209180e+002
4781282.496	-1.151537e+001	1.122463e+002	-1.833500e+001	2.738386e+001	-1.822962e+001	2.787731e+001	-9.812091e+000	-1.250642e+002
4805719.237	-1.206580e+001	1.078961e+002	-1.785669e+001	2.287488e+001	-1.775034e+001	2.330441e+001	-9.901956e+000	-1.292137e+002
4830155.979	-1.267789e+001	1.037617e+002	-1.740747e+001	1.793715e+001	-1.730642e+001	1.827831e+001	-1.001719e+001	-1.333207e+002
4854592.721	-1.334645e+001	9.981603e+001	-1.700407e+001	1.273516e+001	-1.690318e+001	1.303754e+001	-1.015084e+001	-1.373927e+002
4879029.463	-1.407883e+001	9.605491e+001	-1.663017e+001	7.354302e+000	-1.653404e+001	7.570954e+000	-1.030406e+001	-1.414619e+002
4903466.205	-1.488257e+001	9.248676e+001	-1.628551e+001	1.838940e+000	-1.619252e+001	2.014958e+000	-1.047525e+001	-1.455266e+002
4927902.946	-1.576517e+001	8.920703e+001	-1.596412e+001	-3.821964e+000	-1.587816e+001	-3.689202e+000	-1.066485e+001	-1.495845e+002
4952339.688	-1.673447e+001	8.623104e+001	-1.567208e+001	-9.622551e+000	-1.559256e+001	-9.489430e+000	-1.087925e+001	-1.536424e+002
4976776.430	-1.779961e+001	8.369915e+001	-1.540683e+001	-1.549895e+001	-1.533441e+001	-1.536290e+001	-1.111163e+001	-1.576519e+002
5001213.172	-1.896598e+001	8.162762e+001	-1.517051e+001	-2.143557e+001	-1.510506e+001	-2.131962e+001	-1.136506e+001	-1.616107e+002
5025649.913	-2.024471e+001	8.017592e+001	-1.495963e+001	-2.740021e+001	-1.490166e+001	-2.731496e+001	-1.163752e+001	-1.655430e+002
5050086.655	-2.167067e+001	7.946683e+001	-1.477610e+001	-3.339719e+001	-1.472564e+001	-3.333217e+001	-1.192738e+001	-1.694108e+002
5074523.397	-2.326710e+001	7.981109e+001	-1.461351e+001	-3.937070e+001	-1.456942e+001	-3.932112e+001	-1.223115e+001	-1.732694e+002
5098960.139	-2.507339e+001	8.177426e+001	-1.447314e+001	-4.534095e+001	-1.443554e+001	-4.529433e+001	-1.255749e+001	-1.770619e+002
5123396.880	-2.711422e+001	8.625615e+001	-1.434932e+001	-5.130518e+001	-1.431789e+001	-5.123219e+001	-1.289928e+001	1.791498e+002
5147833.622	-2.937337e+001	9.528607e+001	-1.424180e+001	-5.723542e+001	-1.421587e+001	-5.716229e+001	-1.326055e+001	1.754260e+002
5172270.364	-3.147337e+001	1.115016e+002	-1.414458e+001	-6.316125e+001	-1.412736e+001	-6.306466e+001	-1.364376e+001	1.717578e+002
5196707.106	-3.237953e+001	1.352056e+002	-1.406062e+001	-6.906180e+001	-1.404644e+001	-6.896034e+001	-1.404482e+001	1.681163e+002
5221143.847	-3.144847e+001	1.575629e+002	-1.398939e+001	-7.494168e+001	-1.398019e+001	-7.487009e+001	-1.447755e+001	1.646310e+002
5245580.589	-2.962928e+001	1.721523e+002	-1.393154e+001	-8.083922e+001	-1.392586e+001	-8.074923e+001	-1.492273e+001	1.612268e+002
5270017.331	-2.778753e+001	-1.798064e+002	-1.388404e+001	-8.673066e+001	-1.388307e+001	-8.659381e+001	-1.538711e+001	1.579172e+002
5294454.073	-2.617540e+001	-1.754753e+002	-1.384942e+001	-9.260600e+001	-1.384918e+001	-9.239872e+001	-1.586668e+001	1.546792e+002
5318890.815	-2.479719e+001	-1.732025e+002	-1.382257e+001	-9.840580e+001	-1.382705e+001	-9.817675e+001	-1.635971e+001	1.515713e+002
5343327.556	-2.360748e+001	-1.721864e+002	-1.380320e+001	-1.041770e+002	-1.381024e+001	-1.039177e+002	-1.686913e+001	1.486224e+002
5367764.298	-2.257572e+001	-1.720611e+002	-1.378688e+001	-1.099117e+002	-1.379786e+001	-1.096610e+002	-1.739576e+001	1.457618e+002
5392201.040	-2.167551e+001	-1.725150e+002	-1.377648e+001	-1.156805e+002	-1.378856e+001	-1.153822e+002	-1.794201e+001	1.431218e+002
5416637.782	-2.089342e+001	-1.733841e+002	-1.377144e+001	-1.214509e+002	-1.378471e+001	-1.210961e+002	-1.849604e+001	1.406809e+002
5441074.523	-2.021099e+001	-1.745483e+002	-1.377346e+001	-1.272121e+002	-1.378588e+001	-1.268323e+002	-1.905405e+001	1.385107e+002
