!Agilent Technologies,E5061B,MY49101568,A.02.00
!Date: Wed Mar 01 16:28:13 2023
!Data & Calibration Information:
!Freq	S11:SOLT2(OFF)	S21:SOLT2(OFF)	S12:SOLT2(OFF)	S22:SOLT2(OFF)
# Hz S dB R 50
1800000.000	-1.597333e+001	-5.387895e+000	-1.359514e+001	-1.775960e+002	-1.358535e+001	-1.775815e+002	-1.413783e+001	5.566134e+001
1824436.742	-1.610822e+001	-4.764062e+000	-1.343283e+001	1.760594e+002	-1.343643e+001	1.761300e+002	-1.420145e+001	5.452843e+001
1848873.484	-1.612954e+001	-4.397719e+000	-1.331994e+001	1.697515e+002	-1.331970e+001	1.698404e+002	-1.421628e+001	5.337097e+001
1873310.225	-1.606791e+001	-4.340739e+000	-1.322804e+001	1.636255e+002	-1.321628e+001	1.637057e+002	-1.419188e+001	5.194254e+001
1897746.967	-1.592869e+001	-4.707731e+000	-1.315357e+001	1.575589e+002	-1.316469e+001	1.575703e+002	-1.411618e+001	5.029600e+001
1922183.709	-1.574258e+001	-6.026535e+000	-1.312797e+001	1.516936e+002	-1.312603e+001	1.517671e+002	-1.403293e+001	4.814349e+001
1946620.451	-1.557275e+001	-7.917144e+000	-1.311300e+001	1.460327e+002	-1.311470e+001	1.460585e+002	-1.394246e+001	4.565748e+001
1971057.192	-1.545032e+001	-1.026219e+001	-1.310371e+001	1.406530e+002	-1.311212e+001	1.408027e+002	-1.388466e+001	4.271673e+001
1995493.934	-1.540140e+001	-1.244094e+001	-1.304990e+001	1.355609e+002	-1.304740e+001	1.355970e+002	-1.387370e+001	3.982290e+001
2019930.676	-1.527986e+001	-1.443441e+001	-1.296324e+001	1.303134e+002	-1.296519e+001	1.304044e+002	-1.388157e+001	3.682401e+001
2044367.418	-1.508847e+001	-1.699656e+001	-1.289426e+001	1.248616e+002	-1.289912e+001	1.249069e+002	-1.387161e+001	3.383152e+001
2068804.159	-1.491915e+001	-2.039530e+001	-1.286795e+001	1.194585e+002	-1.288773e+001	1.195232e+002	-1.383647e+001	3.051870e+001
2093240.901	-1.483143e+001	-2.404294e+001	-1.284623e+001	1.144101e+002	-1.285645e+001	1.144281e+002	-1.383684e+001	2.699752e+001
2117677.643	-1.490751e+001	-2.797749e+001	-1.284364e+001	1.098289e+002	-1.285285e+001	1.099024e+002	-1.386377e+001	2.285156e+001
2142114.385	-1.496087e+001	-3.093152e+001	-1.274146e+001	1.052837e+002	-1.275197e+001	1.053845e+002	-1.396958e+001	1.879198e+001
2166551.127	-1.491961e+001	-3.370810e+001	-1.258522e+001	1.004308e+002	-1.260123e+001	1.006282e+002	-1.410387e+001	1.486020e+001
2190987.868	-1.484741e+001	-3.717538e+001	-1.245841e+001	9.537410e+001	-1.246370e+001	9.541578e+001	-1.422892e+001	1.109875e+001
2215424.610	-1.478213e+001	-4.116077e+001	-1.233665e+001	9.017733e+001	-1.234574e+001	9.031733e+001	-1.436032e+001	7.136856e+000
2239861.352	-1.476304e+001	-4.546578e+001	-1.222324e+001	8.498275e+001	-1.224660e+001	8.516846e+001	-1.449356e+001	2.901632e+000
2264298.094	-1.481129e+001	-5.015510e+001	-1.212703e+001	7.980995e+001	-1.215321e+001	8.001554e+001	-1.464235e+001	-1.426165e+000
2288734.835	-1.492787e+001	-5.494410e+001	-1.203755e+001	7.467624e+001	-1.205908e+001	7.492715e+001	-1.481850e+001	-5.961258e+000
2313171.577	-1.511395e+001	-5.966459e+001	-1.194172e+001	6.964408e+001	-1.196841e+001	6.989038e+001	-1.501316e+001	-1.071725e+001
2337608.319	-1.533589e+001	-6.440410e+001	-1.184261e+001	6.457834e+001	-1.186832e+001	6.486604e+001	-1.523423e+001	-1.570197e+001
2362045.061	-1.560743e+001	-6.903270e+001	-1.173996e+001	5.960309e+001	-1.177037e+001	5.981031e+001	-1.547936e+001	-2.076960e+001
2386481.802	-1.592097e+001	-7.364851e+001	-1.164033e+001	5.461599e+001	-1.166335e+001	5.485529e+001	-1.574286e+001	-2.632449e+001
2410918.544	-1.624653e+001	-7.809268e+001	-1.150820e+001	4.967022e+001	-1.153840e+001	4.995510e+001	-1.606109e+001	-3.234705e+001
2435355.286	-1.658910e+001	-8.266586e+001	-1.136439e+001	4.468941e+001	-1.138857e+001	4.496975e+001	-1.644564e+001	-3.880930e+001
2459792.028	-1.695627e+001	-8.750776e+001	-1.120084e+001	3.951162e+001	-1.122361e+001	3.981903e+001	-1.692160e+001	-4.565838e+001
2484228.769	-1.738142e+001	-9.270932e+001	-1.103143e+001	3.411208e+001	-1.105440e+001	3.447685e+001	-1.750523e+001	-5.267112e+001
2508665.511	-1.789000e+001	-9.827048e+001	-1.087814e+001	2.854905e+001	-1.089594e+001	2.891111e+001	-1.818958e+001	-5.960459e+001
2533102.253	-1.851386e+001	-1.040632e+002	-1.074070e+001	2.289580e+001	-1.076098e+001	2.324306e+001	-1.888645e+001	-6.674995e+001
2557538.995	-1.926612e+001	-1.101216e+002	-1.062658e+001	1.714872e+001	-1.063985e+001	1.750622e+001	-1.961298e+001	-7.439543e+001
2581975.737	-2.017827e+001	-1.163765e+002	-1.052417e+001	1.135276e+001	-1.053473e+001	1.170710e+001	-2.039068e+001	-8.290032e+001
2606412.478	-2.128946e+001	-1.229768e+002	-1.044203e+001	5.521170e+000	-1.044610e+001	5.859116e+000	-2.125876e+001	-9.253126e+001
2630849.220	-2.264450e+001	-1.298233e+002	-1.037164e+001	-3.902944e-001	-1.037378e+001	-1.393542e-002	-2.221575e+001	-1.034474e+002
2655285.962	-2.432811e+001	-1.370796e+002	-1.031764e+001	-6.343301e+000	-1.031955e+001	-5.976346e+000	-2.323211e+001	-1.152355e+002
2679722.704	-2.649511e+001	-1.452902e+002	-1.029448e+001	-1.231843e+001	-1.029179e+001	-1.195541e+001	-2.421288e+001	-1.288990e+002
2704159.445	-2.942400e+001	-1.555247e+002	-1.029653e+001	-1.828032e+001	-1.029520e+001	-1.792467e+001	-2.503099e+001	-1.446338e+002
2728596.187	-3.390100e+001	-1.721165e+002	-1.032458e+001	-2.406602e+001	-1.031594e+001	-2.376383e+001	-2.564644e+001	-1.625391e+002
2753032.929	-4.085217e+001	1.422448e+002	-1.035458e+001	-2.982671e+001	-1.034475e+001	-2.951208e+001	-2.598711e+001	1.784274e+002
2777469.671	-3.786363e+001	5.784365e+001	-1.039462e+001	-3.554709e+001	-1.038386e+001	-3.524042e+001	-2.595552e+001	1.599632e+002
2801906.412	-3.209269e+001	3.200798e+001	-1.044973e+001	-4.122151e+001	-1.043842e+001	-4.094363e+001	-2.559147e+001	1.430906e+002
2826343.154	-2.854599e+001	1.990626e+001	-1.052151e+001	-4.682291e+001	-1.050950e+001	-4.657400e+001	-2.499995e+001	1.283963e+002
2850779.896	-2.608501e+001	1.128923e+001	-1.060277e+001	-5.233187e+001	-1.059142e+001	-5.211161e+001	-2.433198e+001	1.154576e+002
2875216.638	-2.425970e+001	4.137148e+000	-1.069535e+001	-5.779188e+001	-1.068820e+001	-5.755540e+001	-2.366218e+001	1.044411e+002
2899653.380	-2.281809e+001	-2.164029e+000	-1.080270e+001	-6.310338e+001	-1.079169e+001	-6.289472e+001	-2.304769e+001	9.483792e+001
2924090.121	-2.165466e+001	-7.927393e+000	-1.091295e+001	-6.833829e+001	-1.090572e+001	-6.813701e+001	-2.248837e+001	8.637264e+001
2948526.863	-2.068420e+001	-1.336090e+001	-1.103167e+001	-7.344528e+001	-1.102650e+001	-7.325415e+001	-2.197825e+001	7.884782e+001
2972963.605	-1.985079e+001	-1.848857e+001	-1.115535e+001	-7.839128e+001	-1.115296e+001	-7.823341e+001	-2.152133e+001	7.207414e+001
2997400.347	-1.911627e+001	-2.352323e+001	-1.127512e+001	-8.317747e+001	-1.127740e+001	-8.303165e+001	-2.109140e+001	6.573426e+001
3021837.088	-1.847660e+001	-2.850652e+001	-1.138385e+001	-8.783066e+001	-1.138882e+001	-8.769857e+001	-2.070480e+001	5.961984e+001
3046273.830	-1.793520e+001	-3.345636e+001	-1.147373e+001	-9.242116e+001	-1.148268e+001	-9.227639e+001	-2.038329e+001	5.365872e+001
3070710.572	-1.747299e+001	-3.831145e+001	-1.155013e+001	-9.693299e+001	-1.156660e+001	-9.680979e+001	-2.012627e+001	4.793202e+001
3095147.314	-1.708302e+001	-4.305928e+001	-1.161614e+001	-1.014389e+002	-1.163326e+001	-1.012971e+002	-1.992404e+001	4.238496e+001
3119584.055	-1.675869e+001	-4.772836e+001	-1.166667e+001	-1.059446e+002	-1.168788e+001	-1.057873e+002	-1.979776e+001	3.694222e+001
3144020.797	-1.649781e+001	-5.226134e+001	-1.170874e+001	-1.104433e+002	-1.173035e+001	-1.103276e+002	-1.974152e+001	3.175856e+001
3168457.539	-1.628653e+001	-5.663032e+001	-1.174807e+001	-1.150104e+002	-1.176931e+001	-1.148881e+002	-1.974951e+001	2.685304e+001
3192894.281	-1.612169e+001	-6.082080e+001	-1.178141e+001	-1.195953e+002	-1.180835e+001	-1.194551e+002	-1.980952e+001	2.223998e+001
3217331.023	-1.599377e+001	-6.485640e+001	-1.181805e+001	-1.242047e+002	-1.184564e+001	-1.240523e+002	-1.992470e+001	1.795073e+001
3241767.764	-1.589864e+001	-6.871045e+001	-1.185513e+001	-1.288252e+002	-1.188415e+001	-1.286521e+002	-2.007031e+001	1.401691e+001
3266204.506	-1.582772e+001	-7.240261e+001	-1.189494e+001	-1.334210e+002	-1.192480e+001	-1.332398e+002	-2.024756e+001	1.047303e+001
3290641.248	-1.576935e+001	-7.601746e+001	-1.192812e+001	-1.379261e+002	-1.196085e+001	-1.377356e+002	-2.041600e+001	7.082853e+000
3315077.990	-1.574711e+001	-7.964015e+001	-1.194207e+001	-1.424473e+002	-1.197598e+001	-1.422374e+002	-2.063287e+001	3.601921e+000
3339514.731	-1.577560e+001	-8.315057e+001	-1.194651e+001	-1.471029e+002	-1.197984e+001	-1.468744e+002	-2.094118e+001	3.384606e-001
3363951.473	-1.584951e+001	-8.641853e+001	-1.195441e+001	-1.518439e+002	-1.198940e+001	-1.516137e+002	-2.132532e+001	-2.450008e+000
3388388.215	-1.595525e+001	-8.942042e+001	-1.197171e+001	-1.566612e+002	-1.200515e+001	-1.564199e+002	-2.176720e+001	-4.569713e+000
3412824.957	-1.608597e+001	-9.211611e+001	-1.199633e+001	-1.615415e+002	-1.203056e+001	-1.612876e+002	-2.224573e+001	-5.956360e+000
3437261.698	-1.624297e+001	-9.448016e+001	-1.203120e+001	-1.664590e+002	-1.206658e+001	-1.661997e+002	-2.274799e+001	-6.445492e+000
3461698.440	-1.640986e+001	-9.646643e+001	-1.207903e+001	-1.714138e+002	-1.211266e+001	-1.711426e+002	-2.323973e+001	-6.004977e+000
3486135.182	-1.657904e+001	-9.804550e+001	-1.214008e+001	-1.763880e+002	-1.217529e+001	-1.761313e+002	-2.367189e+001	-4.420720e+000
3510571.924	-1.673518e+001	-9.918113e+001	-1.221992e+001	1.786258e+002	-1.225649e+001	1.788999e+002	-2.398342e+001	-1.816605e+000
3535008.666	-1.685375e+001	-9.992245e+001	-1.232181e+001	1.736889e+002	-1.235719e+001	1.739609e+002	-2.410041e+001	1.535339e+000
3559445.407	-1.692279e+001	-1.003394e+002	-1.243850e+001	1.688197e+002	-1.247661e+001	1.691197e+002	-2.398076e+001	4.953010e+000
3583882.149	-1.692565e+001	-1.006627e+002	-1.256781e+001	1.641330e+002	-1.260400e+001	1.643976e+002	-2.368297e+001	7.712455e+000
3608318.891	-1.688739e+001	-1.009485e+002	-1.269832e+001	1.595202e+002	-1.273383e+001	1.597984e+002	-2.328282e+001	9.689551e+000
3632755.633	-1.681533e+001	-1.012631e+002	-1.282168e+001	1.549552e+002	-1.285814e+001	1.552719e+002	-2.285262e+001	1.096729e+001
3657192.374	-1.671815e+001	-1.014846e+002	-1.294213e+001	1.504183e+002	-1.297964e+001	1.507417e+002	-2.240345e+001	1.179662e+001
3681629.116	-1.657608e+001	-1.016428e+002	-1.306797e+001	1.458869e+002	-1.311009e+001	1.461906e+002	-2.192387e+001	1.239791e+001
3706065.858	-1.637430e+001	-1.017523e+002	-1.321175e+001	1.413540e+002	-1.325321e+001	1.416852e+002	-2.139741e+001	1.254274e+001
3730502.600	-1.611481e+001	-1.020471e+002	-1.336896e+001	1.369156e+002	-1.341138e+001	1.372338e+002	-2.085066e+001	1.221253e+001
3754939.341	-1.581187e+001	-1.025653e+002	-1.353334e+001	1.325553e+002	-1.358515e+001	1.329100e+002	-2.028880e+001	1.137654e+001
3779376.083	-1.547137e+001	-1.033785e+002	-1.371140e+001	1.283038e+002	-1.376296e+001	1.286380e+002	-1.973390e+001	1.019960e+001
3803812.825	-1.509621e+001	-1.044776e+002	-1.390924e+001	1.241339e+002	-1.395829e+001	1.244890e+002	-1.917157e+001	8.606743e+000
3828249.567	-1.470282e+001	-1.059675e+002	-1.412011e+001	1.201134e+002	-1.417707e+001	1.204906e+002	-1.860384e+001	6.526428e+000
3852686.308	-1.430640e+001	-1.078838e+002	-1.434611e+001	1.163399e+002	-1.440565e+001	1.167423e+002	-1.806707e+001	3.951225e+000
3877123.050	-1.391907e+001	-1.102377e+002	-1.458170e+001	1.128709e+002	-1.464238e+001	1.132880e+002	-1.756296e+001	8.748962e-001
3901559.792	-1.355453e+001	-1.129460e+002	-1.481893e+001	1.097041e+002	-1.487995e+001	1.101305e+002	-1.709991e+001	-2.557807e+000
3925996.534	-1.321747e+001	-1.160254e+002	-1.504731e+001	1.069753e+002	-1.510811e+001	1.075023e+002	-1.670434e+001	-6.538796e+000
3950433.276	-1.294444e+001	-1.194588e+002	-1.522126e+001	1.047100e+002	-1.528840e+001	1.052521e+002	-1.639241e+001	-1.071132e+001
3974870.017	-1.273425e+001	-1.231138e+002	-1.532958e+001	1.028242e+002	-1.539289e+001	1.033918e+002	-1.617601e+001	-1.507900e+001
3999306.759	-1.260285e+001	-1.268233e+002	-1.533794e+001	1.010654e+002	-1.540288e+001	1.016886e+002	-1.605455e+001	-1.937565e+001
4023743.501	-1.254168e+001	-1.305126e+002	-1.525475e+001	9.929154e+001	-1.531003e+001	9.995626e+001	-1.602968e+001	-2.354555e+001
4048180.243	-1.255830e+001	-1.339788e+002	-1.507480e+001	9.716768e+001	-1.512676e+001	9.786541e+001	-1.608362e+001	-2.730790e+001
4072616.984	-1.263628e+001	-1.371234e+002	-1.482779e+001	9.458986e+001	-1.488201e+001	9.526693e+001	-1.619884e+001	-3.053819e+001
4097053.726	-1.275076e+001	-1.397461e+002	-1.455553e+001	9.139628e+001	-1.460821e+001	9.207107e+001	-1.634404e+001	-3.312452e+001
4121490.468	-1.286946e+001	-1.418761e+002	-1.429428e+001	8.768938e+001	-1.433834e+001	8.838447e+001	-1.648518e+001	-3.510509e+001
4145927.210	-1.296636e+001	-1.435254e+002	-1.406064e+001	8.355643e+001	-1.410611e+001	8.426015e+001	-1.657581e+001	-3.656433e+001
4170363.951	-1.301931e+001	-1.448386e+002	-1.386685e+001	7.920132e+001	-1.391457e+001	7.988588e+001	-1.660023e+001	-3.770760e+001
4194800.693	-1.302075e+001	-1.460225e+002	-1.371345e+001	7.470485e+001	-1.375750e+001	7.538827e+001	-1.657387e+001	-3.873284e+001
4219237.435	-1.297134e+001	-1.471542e+002	-1.359822e+001	7.015371e+001	-1.363804e+001	7.082297e+001	-1.648211e+001	-3.979589e+001
4243674.177	-1.288467e+001	-1.483815e+002	-1.350558e+001	6.562625e+001	-1.354822e+001	6.634894e+001	-1.635030e+001	-4.109492e+001
4268110.919	-1.276826e+001	-1.497656e+002	-1.343320e+001	6.117956e+001	-1.347589e+001	6.191183e+001	-1.619462e+001	-4.256046e+001
4292547.660	-1.263758e+001	-1.512979e+002	-1.337017e+001	5.680018e+001	-1.340999e+001	5.752984e+001	-1.603296e+001	-4.419177e+001
4316984.402	-1.250468e+001	-1.529472e+002	-1.330650e+001	5.244620e+001	-1.335135e+001	5.318535e+001	-1.586677e+001	-4.594589e+001
4341421.144	-1.236502e+001	-1.547357e+002	-1.325063e+001	4.813538e+001	-1.329033e+001	4.890635e+001	-1.570675e+001	-4.785920e+001
4365857.886	-1.222296e+001	-1.565747e+002	-1.319314e+001	4.381408e+001	-1.322787e+001	4.459049e+001	-1.554737e+001	-4.979606e+001
4390294.627	-1.207831e+001	-1.585280e+002	-1.313827e+001	3.947975e+001	-1.317146e+001	4.028828e+001	-1.538327e+001	-5.182259e+001
4414731.369	-1.193495e+001	-1.605820e+002	-1.308736e+001	3.517864e+001	-1.312104e+001	3.600970e+001	-1.522105e+001	-5.401074e+001
4439168.111	-1.179254e+001	-1.627850e+002	-1.304326e+001	3.085053e+001	-1.306803e+001	3.174212e+001	-1.506543e+001	-5.626665e+001
4463604.853	-1.165989e+001	-1.650239e+002	-1.299205e+001	2.654133e+001	-1.301683e+001	2.742887e+001	-1.491181e+001	-5.855252e+001
4488041.594	-1.153388e+001	-1.673891e+002	-1.294476e+001	2.226385e+001	-1.296686e+001	2.317019e+001	-1.477113e+001	-6.096513e+001
4512478.336	-1.141796e+001	-1.698311e+002	-1.289593e+001	1.800075e+001	-1.291660e+001	1.893244e+001	-1.464245e+001	-6.344887e+001
4536915.078	-1.130913e+001	-1.723720e+002	-1.285075e+001	1.371846e+001	-1.286346e+001	1.464044e+001	-1.451799e+001	-6.593518e+001
4561351.820	-1.121654e+001	-1.749704e+002	-1.280179e+001	9.448373e+000	-1.281477e+001	1.040073e+001	-1.440783e+001	-6.854607e+001
4585788.562	-1.113992e+001	-1.776643e+002	-1.275235e+001	5.226779e+000	-1.275941e+001	6.173968e+000	-1.431109e+001	-7.115873e+001
4610225.303	-1.107805e+001	1.795938e+002	-1.269901e+001	9.949562e-001	-1.270259e+001	1.951862e+000	-1.422874e+001	-7.382056e+001
4634662.045	-1.103306e+001	1.768299e+002	-1.264091e+001	-3.273103e+000	-1.264009e+001	-2.283210e+000	-1.415801e+001	-7.647329e+001
4659098.787	-1.100929e+001	1.740329e+002	-1.257881e+001	-7.532814e+000	-1.257288e+001	-6.578887e+000	-1.409752e+001	-7.911427e+001
4683535.529	-1.099594e+001	1.712341e+002	-1.251314e+001	-1.185226e+001	-1.250237e+001	-1.087765e+001	-1.404864e+001	-8.174823e+001
4707972.270	-1.099947e+001	1.684207e+002	-1.244746e+001	-1.615169e+001	-1.243172e+001	-1.523290e+001	-1.400480e+001	-8.434093e+001
4732409.012	-1.101815e+001	1.655894e+002	-1.238139e+001	-2.052420e+001	-1.236189e+001	-1.961577e+001	-1.396997e+001	-8.698995e+001
4756845.754	-1.105169e+001	1.627255e+002	-1.231733e+001	-2.494404e+001	-1.229338e+001	-2.402417e+001	-1.394556e+001	-8.963552e+001
4781282.496	-1.110571e+001	1.598759e+002	-1.225245e+001	-2.938523e+001	-1.222332e+001	-2.848326e+001	-1.392387e+001	-9.228152e+001
4805719.237	-1.117604e+001	1.570268e+002	-1.218956e+001	-3.386289e+001	-1.215587e+001	-3.298115e+001	-1.391207e+001	-9.492040e+001
4830155.979	-1.126647e+001	1.541791e+002	-1.213030e+001	-3.837941e+001	-1.209173e+001	-3.749929e+001	-1.390570e+001	-9.757417e+001
4854592.721	-1.137333e+001	1.513334e+002	-1.207542e+001	-4.291592e+001	-1.203161e+001	-4.205884e+001	-1.390896e+001	-1.002120e+002
4879029.463	-1.150328e+001	1.484979e+002	-1.202269e+001	-4.747951e+001	-1.197736e+001	-4.665172e+001	-1.391818e+001	-1.028784e+002
4903466.205	-1.165369e+001	1.456964e+002	-1.197553e+001	-5.205701e+001	-1.192506e+001	-5.123976e+001	-1.393748e+001	-1.055523e+002
4927902.946	-1.182797e+001	1.429237e+002	-1.193127e+001	-5.665211e+001	-1.187688e+001	-5.587203e+001	-1.396549e+001	-1.082259e+002
4952339.688	-1.202564e+001	1.402082e+002	-1.189081e+001	-6.129239e+001	-1.183599e+001	-6.049154e+001	-1.400107e+001	-1.109074e+002
4976776.430	-1.224639e+001	1.375742e+002	-1.185563e+001	-6.590927e+001	-1.179577e+001	-6.514153e+001	-1.404929e+001	-1.135574e+002
5001213.172	-1.249392e+001	1.350232e+002	-1.182086e+001	-7.053747e+001	-1.176267e+001	-6.980015e+001	-1.410284e+001	-1.161839e+002
5025649.913	-1.276373e+001	1.325873e+002	-1.179376e+001	-7.516006e+001	-1.173233e+001	-7.445886e+001	-1.416487e+001	-1.188186e+002
5050086.655	-1.305921e+001	1.302654e+002	-1.177173e+001	-7.979480e+001	-1.170671e+001	-7.911550e+001	-1.423553e+001	-1.214322e+002
5074523.397	-1.337034e+001	1.281177e+002	-1.174946e+001	-8.443541e+001	-1.168693e+001	-8.377353e+001	-1.430993e+001	-1.240498e+002
5098960.139	-1.370396e+001	1.261022e+002	-1.173202e+001	-8.906347e+001	-1.166845e+001	-8.843707e+001	-1.439393e+001	-1.266417e+002
5123396.880	-1.405175e+001	1.242427e+002	-1.171719e+001	-9.369448e+001	-1.165252e+001	-9.310090e+001	-1.448458e+001	-1.292298e+002
5147833.622	-1.441856e+001	1.225094e+002	-1.170448e+001	-9.833213e+001	-1.164271e+001	-9.775256e+001	-1.458222e+001	-1.318067e+002
5172270.364	-1.480849e+001	1.209556e+002	-1.169571e+001	-1.029710e+002	-1.163400e+001	-1.024332e+002	-1.468691e+001	-1.343711e+002
5196707.106	-1.522047e+001	1.196192e+002	-1.168923e+001	-1.075942e+002	-1.162944e+001	-1.070738e+002	-1.480011e+001	-1.369504e+002
5221143.847	-1.565699e+001	1.185705e+002	-1.168654e+001	-1.121676e+002	-1.162627e+001	-1.117224e+002	-1.492426e+001	-1.394934e+002
5245580.589	-1.610597e+001	1.178206e+002	-1.168548e+001	-1.167814e+002	-1.162697e+001	-1.163598e+002	-1.505387e+001	-1.420358e+002
5270017.331	-1.655792e+001	1.173926e+002	-1.168318e+001	-1.213802e+002	-1.162803e+001	-1.209686e+002	-1.519794e+001	-1.445807e+002
5294454.073	-1.701211e+001	1.172814e+002	-1.168263e+001	-1.259951e+002	-1.163056e+001	-1.255984e+002	-1.534801e+001	-1.470842e+002
5318890.815	-1.746411e+001	1.175368e+002	-1.168497e+001	-1.305982e+002	-1.163374e+001	-1.302122e+002	-1.550753e+001	-1.495632e+002
5343327.556	-1.789995e+001	1.181238e+002	-1.168544e+001	-1.352100e+002	-1.163929e+001	-1.348491e+002	-1.567139e+001	-1.519820e+002
5367764.298	-1.831961e+001	1.190583e+002	-1.168937e+001	-1.398228e+002	-1.164469e+001	-1.394779e+002	-1.584379e+001	-1.543392e+002
5392201.040	-1.871201e+001	1.203118e+002	-1.169406e+001	-1.444584e+002	-1.165029e+001	-1.441066e+002	-1.602000e+001	-1.566670e+002
5416637.782	-1.906591e+001	1.218853e+002	-1.170050e+001	-1.490944e+002	-1.166020e+001	-1.487558e+002	-1.619264e+001	-1.589302e+002
5441074.523	-1.938754e+001	1.237596e+002	-1.171124e+001	-1.537496e+002	-1.167135e+001	-1.534046e+002	-1.636280e+001	-1.611853e+002
