!Agilent Technologies,E5061B,MY49101568,A.02.00
!Date: Wed Mar 01 16:37:06 2023
!Data & Calibration Information:
!Freq	S11:SOLT2(OFF)	S21:SOLT2(OFF)	S12:SOLT2(OFF)	S22:SOLT2(OFF)
# Hz S dB R 50
1800000.000	-9.508379e+000	-1.931490e+001	-2.601594e+001	-1.303293e+002	-2.602656e+001	-1.305863e+002	-9.874373e+000	3.337443e+001
1824436.742	-9.598971e+000	-2.362296e+001	-2.560101e+001	-1.338459e+002	-2.560505e+001	-1.341804e+002	-1.000813e+001	2.932237e+001
1848873.484	-9.690845e+000	-2.802675e+001	-2.516093e+001	-1.377973e+002	-2.517674e+001	-1.379146e+002	-1.016313e+001	2.532108e+001
1873310.225	-9.791315e+000	-3.249769e+001	-2.473725e+001	-1.415096e+002	-2.475047e+001	-1.417730e+002	-1.033552e+001	2.135619e+001
1897746.967	-9.892998e+000	-3.704794e+001	-2.426275e+001	-1.452412e+002	-2.430469e+001	-1.458089e+002	-1.050221e+001	1.726510e+001
1922183.709	-9.997939e+000	-4.173410e+001	-2.381244e+001	-1.495425e+002	-2.386624e+001	-1.499198e+002	-1.070342e+001	1.325378e+001
1946620.451	-1.010847e+001	-4.653746e+001	-2.338693e+001	-1.537623e+002	-2.342074e+001	-1.540773e+002	-1.090779e+001	9.368604e+000
1971057.192	-1.022644e+001	-5.148015e+001	-2.295969e+001	-1.581024e+002	-2.296854e+001	-1.582373e+002	-1.109360e+001	5.537122e+000
1995493.934	-1.035429e+001	-5.655821e+001	-2.244384e+001	-1.624564e+002	-2.249630e+001	-1.625803e+002	-1.128157e+001	1.648720e+000
2019930.676	-1.049206e+001	-6.176091e+001	-2.194749e+001	-1.670935e+002	-2.200995e+001	-1.671085e+002	-1.147286e+001	-2.276023e+000
2044367.418	-1.064420e+001	-6.710832e+001	-2.143915e+001	-1.716928e+002	-2.152665e+001	-1.718082e+002	-1.167948e+001	-6.178610e+000
2068804.159	-1.080794e+001	-7.260219e+001	-2.094973e+001	-1.767866e+002	-2.104194e+001	-1.766730e+002	-1.184484e+001	-9.854824e+000
2093240.901	-1.098312e+001	-7.823227e+001	-2.046257e+001	1.783372e+002	-2.053576e+001	1.783352e+002	-1.195579e+001	-1.371068e+001
2117677.643	-1.117630e+001	-8.406267e+001	-1.995162e+001	1.730136e+002	-2.004324e+001	1.731539e+002	-1.204619e+001	-1.793661e+001
2142114.385	-1.138722e+001	-9.006851e+001	-1.947572e+001	1.676164e+002	-1.954804e+001	1.677561e+002	-1.215476e+001	-2.254382e+001
2166551.127	-1.162121e+001	-9.626724e+001	-1.896821e+001	1.617429e+002	-1.906909e+001	1.621649e+002	-1.229001e+001	-2.725134e+001
2190987.868	-1.187358e+001	-1.026760e+002	-1.853251e+001	1.561255e+002	-1.859366e+001	1.564193e+002	-1.241785e+001	-3.200310e+001
2215424.610	-1.216174e+001	-1.092584e+002	-1.804116e+001	1.499951e+002	-1.812410e+001	1.504333e+002	-1.255071e+001	-3.702595e+001
2239861.352	-1.246474e+001	-1.160250e+002	-1.760105e+001	1.437845e+002	-1.768021e+001	1.442811e+002	-1.267574e+001	-4.215537e+001
2264298.094	-1.279363e+001	-1.230038e+002	-1.717531e+001	1.374466e+002	-1.724855e+001	1.380334e+002	-1.280145e+001	-4.742645e+001
2288734.835	-1.314471e+001	-1.302229e+002	-1.677230e+001	1.309706e+002	-1.684071e+001	1.316023e+002	-1.293492e+001	-5.293714e+001
2313171.577	-1.352492e+001	-1.376619e+002	-1.638280e+001	1.243617e+002	-1.644026e+001	1.250324e+002	-1.306026e+001	-5.854459e+001
2337608.319	-1.392747e+001	-1.453130e+002	-1.601722e+001	1.176269e+002	-1.607109e+001	1.183090e+002	-1.319110e+001	-6.434540e+001
2362045.061	-1.434475e+001	-1.531740e+002	-1.568202e+001	1.107621e+002	-1.572674e+001	1.114446e+002	-1.331373e+001	-7.026297e+001
2386481.802	-1.476685e+001	-1.612184e+002	-1.537619e+001	1.038171e+002	-1.541347e+001	1.045081e+002	-1.341963e+001	-7.635947e+001
2410918.544	-1.518617e+001	-1.695655e+002	-1.509472e+001	9.678148e+001	-1.512014e+001	9.751714e+001	-1.350308e+001	-8.265553e+001
2435355.286	-1.559969e+001	-1.782155e+002	-1.483634e+001	8.973501e+001	-1.485152e+001	9.045635e+001	-1.357331e+001	-8.923290e+001
2459792.028	-1.600016e+001	1.729360e+002	-1.460133e+001	8.259651e+001	-1.460843e+001	8.332942e+001	-1.363371e+001	-9.598411e+001
2484228.769	-1.636758e+001	1.638433e+002	-1.440121e+001	7.539341e+001	-1.439552e+001	7.612441e+001	-1.367452e+001	-1.030036e+002
2508665.511	-1.668672e+001	1.545785e+002	-1.422525e+001	6.816709e+001	-1.421204e+001	6.888984e+001	-1.369985e+001	-1.102198e+002
2533102.253	-1.695038e+001	1.450818e+002	-1.408434e+001	6.097853e+001	-1.405731e+001	6.163712e+001	-1.370937e+001	-1.176159e+002
2557538.995	-1.714287e+001	1.355366e+002	-1.396456e+001	5.375772e+001	-1.393682e+001	5.436568e+001	-1.370370e+001	-1.252534e+002
2581975.737	-1.726305e+001	1.259102e+002	-1.388047e+001	4.654530e+001	-1.384303e+001	4.713294e+001	-1.368448e+001	-1.330554e+002
2606412.478	-1.730895e+001	1.163263e+002	-1.381957e+001	3.937557e+001	-1.377498e+001	3.990709e+001	-1.364634e+001	-1.409966e+002
2630849.220	-1.727823e+001	1.068429e+002	-1.379183e+001	3.224432e+001	-1.373940e+001	3.272394e+001	-1.360368e+001	-1.490638e+002
2655285.962	-1.717898e+001	9.753946e+001	-1.379007e+001	2.516258e+001	-1.373124e+001	2.558113e+001	-1.355191e+001	-1.572088e+002
2679722.704	-1.702480e+001	8.848795e+001	-1.381440e+001	1.818379e+001	-1.375403e+001	1.852648e+001	-1.349548e+001	-1.653909e+002
2704159.445	-1.681960e+001	7.969215e+001	-1.386648e+001	1.126096e+001	-1.380267e+001	1.156166e+001	-1.343653e+001	-1.735269e+002
2728596.187	-1.657746e+001	7.123270e+001	-1.394207e+001	4.481226e+000	-1.387632e+001	4.707532e+000	-1.337026e+001	1.783893e+002
2753032.929	-1.630980e+001	6.307603e+001	-1.404133e+001	-2.184367e+000	-1.397389e+001	-2.018915e+000	-1.330603e+001	1.703859e+002
2777469.671	-1.603280e+001	5.524562e+001	-1.415880e+001	-8.704514e+000	-1.409264e+001	-8.596025e+000	-1.324595e+001	1.625480e+002
2801906.412	-1.574882e+001	4.775557e+001	-1.428954e+001	-1.507450e+001	-1.422640e+001	-1.503678e+001	-1.318819e+001	1.548522e+002
2826343.154	-1.546263e+001	4.056112e+001	-1.443804e+001	-2.131340e+001	-1.437845e+001	-2.132831e+001	-1.313812e+001	1.473546e+002
2850779.896	-1.518322e+001	3.369619e+001	-1.459730e+001	-2.740976e+001	-1.454431e+001	-2.744952e+001	-1.309472e+001	1.400874e+002
2875216.638	-1.491257e+001	2.708327e+001	-1.477052e+001	-3.333243e+001	-1.471846e+001	-3.340066e+001	-1.305754e+001	1.330341e+002
2899653.380	-1.465440e+001	2.077058e+001	-1.494676e+001	-3.911732e+001	-1.490035e+001	-3.920290e+001	-1.302703e+001	1.262493e+002
2924090.121	-1.440716e+001	1.472303e+001	-1.512899e+001	-4.473301e+001	-1.508954e+001	-4.484067e+001	-1.300336e+001	1.197000e+002
2948526.863	-1.417309e+001	8.893732e+000	-1.530985e+001	-5.016450e+001	-1.527979e+001	-5.033977e+001	-1.298447e+001	1.134187e+002
2972963.605	-1.395117e+001	3.292880e+000	-1.549662e+001	-5.548785e+001	-1.547213e+001	-5.565615e+001	-1.296969e+001	1.073644e+002
2997400.347	-1.374020e+001	-2.103739e+000	-1.567812e+001	-6.065700e+001	-1.566193e+001	-6.084641e+001	-1.295782e+001	1.015321e+002
3021837.088	-1.354148e+001	-7.292141e+000	-1.585791e+001	-6.568050e+001	-1.584744e+001	-6.588433e+001	-1.294636e+001	9.591236e+001
3046273.830	-1.335232e+001	-1.231298e+001	-1.603299e+001	-7.057907e+001	-1.603152e+001	-7.080232e+001	-1.294000e+001	9.049271e+001
3070710.572	-1.317401e+001	-1.716694e+001	-1.620159e+001	-7.534919e+001	-1.620313e+001	-7.557299e+001	-1.293350e+001	8.526745e+001
3095147.314	-1.300359e+001	-2.189666e+001	-1.635717e+001	-8.002088e+001	-1.636742e+001	-8.023070e+001	-1.293403e+001	8.019388e+001
3119584.055	-1.284454e+001	-2.649072e+001	-1.650508e+001	-8.458574e+001	-1.652231e+001	-8.479864e+001	-1.293627e+001	7.528889e+001
3144020.797	-1.269582e+001	-3.095721e+001	-1.664225e+001	-8.905691e+001	-1.666413e+001	-8.928336e+001	-1.294022e+001	7.054711e+001
3168457.539	-1.255845e+001	-3.530291e+001	-1.677204e+001	-9.348848e+001	-1.679713e+001	-9.370238e+001	-1.295176e+001	6.595596e+001
3192894.281	-1.242885e+001	-3.953624e+001	-1.688891e+001	-9.785756e+001	-1.692033e+001	-9.805808e+001	-1.296543e+001	6.149560e+001
3217331.023	-1.230811e+001	-4.366077e+001	-1.699895e+001	-1.021939e+002	-1.703807e+001	-1.023678e+002	-1.298297e+001	5.718635e+001
3241767.764	-1.219497e+001	-4.768709e+001	-1.710552e+001	-1.064643e+002	-1.714688e+001	-1.066171e+002	-1.300039e+001	5.301549e+001
3266204.506	-1.208597e+001	-5.160052e+001	-1.720540e+001	-1.106650e+002	-1.725229e+001	-1.108002e+002	-1.301734e+001	4.897950e+001
3290641.248	-1.197983e+001	-5.544888e+001	-1.729430e+001	-1.147465e+002	-1.734651e+001	-1.148583e+002	-1.302723e+001	4.503163e+001
3315077.990	-1.187895e+001	-5.925800e+001	-1.736165e+001	-1.187415e+002	-1.741635e+001	-1.188218e+002	-1.303989e+001	4.109804e+001
3339514.731	-1.178790e+001	-6.303392e+001	-1.740318e+001	-1.227529e+002	-1.746348e+001	-1.227927e+002	-1.306270e+001	3.721549e+001
3363951.473	-1.170706e+001	-6.674287e+001	-1.742907e+001	-1.267916e+002	-1.749583e+001	-1.268053e+002	-1.309524e+001	3.342335e+001
3388388.215	-1.163528e+001	-7.038774e+001	-1.744792e+001	-1.308580e+002	-1.751520e+001	-1.308499e+002	-1.313559e+001	2.972750e+001
3412824.957	-1.157432e+001	-7.397050e+001	-1.745319e+001	-1.349721e+002	-1.752692e+001	-1.349090e+002	-1.318114e+001	2.613139e+001
3437261.698	-1.151987e+001	-7.749565e+001	-1.745216e+001	-1.390942e+002	-1.752617e+001	-1.390013e+002	-1.323432e+001	2.261460e+001
3461698.440	-1.147510e+001	-8.095461e+001	-1.744093e+001	-1.432544e+002	-1.751638e+001	-1.431430e+002	-1.329442e+001	1.919631e+001
3486135.182	-1.143877e+001	-8.435291e+001	-1.742794e+001	-1.474805e+002	-1.750269e+001	-1.472800e+002	-1.335822e+001	1.586989e+001
3510571.924	-1.141132e+001	-8.769416e+001	-1.740679e+001	-1.517188e+002	-1.748519e+001	-1.514930e+002	-1.342968e+001	1.266282e+001
3535008.666	-1.139051e+001	-9.095919e+001	-1.738009e+001	-1.559744e+002	-1.746106e+001	-1.557129e+002	-1.350315e+001	9.541568e+000
3559445.407	-1.137554e+001	-9.418967e+001	-1.734999e+001	-1.602413e+002	-1.743055e+001	-1.599111e+002	-1.357772e+001	6.485417e+000
3583882.149	-1.137240e+001	-9.735459e+001	-1.731319e+001	-1.645380e+002	-1.739297e+001	-1.641693e+002	-1.365805e+001	3.526511e+000
3608318.891	-1.137618e+001	-1.004869e+002	-1.726587e+001	-1.688285e+002	-1.734754e+001	-1.684248e+002	-1.374229e+001	6.161079e-001
3632755.633	-1.139622e+001	-1.035535e+002	-1.720788e+001	-1.732487e+002	-1.728889e+001	-1.727199e+002	-1.383249e+001	-2.238545e+000
3657192.374	-1.142604e+001	-1.065615e+002	-1.713283e+001	-1.776411e+002	-1.721189e+001	-1.770690e+002	-1.393764e+001	-5.047555e+000
3681629.116	-1.147166e+001	-1.094750e+002	-1.704727e+001	1.778389e+002	-1.712504e+001	1.784463e+002	-1.405857e+001	-7.749085e+000
3706065.858	-1.153412e+001	-1.122494e+002	-1.696017e+001	1.731527e+002	-1.703465e+001	1.738212e+002	-1.419838e+001	-1.028424e+001
3730502.600	-1.160791e+001	-1.148643e+002	-1.687144e+001	1.683216e+002	-1.694570e+001	1.690191e+002	-1.435171e+001	-1.261227e+001
3754939.341	-1.168656e+001	-1.172977e+002	-1.679042e+001	1.633788e+002	-1.686259e+001	1.641102e+002	-1.451169e+001	-1.469414e+001
3779376.083	-1.176361e+001	-1.195576e+002	-1.671640e+001	1.583471e+002	-1.678262e+001	1.591203e+002	-1.466823e+001	-1.654973e+001
3803812.825	-1.183975e+001	-1.216548e+002	-1.664769e+001	1.532145e+002	-1.671179e+001	1.539972e+002	-1.482404e+001	-1.813342e+001
3828249.567	-1.191494e+001	-1.235652e+002	-1.658478e+001	1.479039e+002	-1.664369e+001	1.487360e+002	-1.496793e+001	-1.945119e+001
3852686.308	-1.197991e+001	-1.252758e+002	-1.653742e+001	1.424549e+002	-1.659351e+001	1.433155e+002	-1.508880e+001	-2.045601e+001
3877123.050	-1.202897e+001	-1.268026e+002	-1.650610e+001	1.369094e+002	-1.656321e+001	1.377985e+002	-1.517675e+001	-2.120414e+001
3901559.792	-1.205689e+001	-1.281398e+002	-1.650029e+001	1.312278e+002	-1.655121e+001	1.321384e+002	-1.522207e+001	-2.174690e+001
3925996.534	-1.205480e+001	-1.293193e+002	-1.651754e+001	1.254783e+002	-1.656548e+001	1.264031e+002	-1.521691e+001	-2.210578e+001
3950433.276	-1.202058e+001	-1.303729e+002	-1.655961e+001	1.195992e+002	-1.660290e+001	1.205539e+002	-1.515797e+001	-2.238457e+001
3974870.017	-1.194489e+001	-1.313252e+002	-1.663456e+001	1.136313e+002	-1.667419e+001	1.146187e+002	-1.504238e+001	-2.262942e+001
3999306.759	-1.181804e+001	-1.322693e+002	-1.675215e+001	1.076175e+002	-1.678431e+001	1.086074e+002	-1.486109e+001	-2.294013e+001
4023743.501	-1.164469e+001	-1.332859e+002	-1.690404e+001	1.015815e+002	-1.693680e+001	1.025742e+002	-1.462195e+001	-2.338491e+001
4048180.243	-1.142478e+001	-1.344541e+002	-1.710607e+001	9.550772e+001	-1.713493e+001	9.651131e+001	-1.432817e+001	-2.407958e+001
4072616.984	-1.116048e+001	-1.358458e+002	-1.736331e+001	8.950089e+001	-1.738981e+001	9.051574e+001	-1.398936e+001	-2.510924e+001
4097053.726	-1.086636e+001	-1.375559e+002	-1.767653e+001	8.359885e+001	-1.769968e+001	8.461865e+001	-1.362251e+001	-2.654326e+001
4121490.468	-1.055342e+001	-1.396173e+002	-1.804951e+001	7.791996e+001	-1.806748e+001	7.892990e+001	-1.324422e+001	-2.834445e+001
4145927.210	-1.023412e+001	-1.420257e+002	-1.848048e+001	7.245816e+001	-1.850023e+001	7.347450e+001	-1.286032e+001	-3.055426e+001
4170363.951	-9.919677e+000	-1.447939e+002	-1.897823e+001	6.742709e+001	-1.901065e+001	6.835833e+001	-1.248237e+001	-3.311677e+001
4194800.693	-9.621988e+000	-1.479394e+002	-1.954007e+001	6.291247e+001	-1.957129e+001	6.384584e+001	-1.213023e+001	-3.606605e+001
4219237.435	-9.354792e+000	-1.514111e+002	-2.014604e+001	5.913887e+001	-2.017403e+001	6.012578e+001	-1.181167e+001	-3.932671e+001
4243674.177	-9.131702e+000	-1.551324e+002	-2.074446e+001	5.634834e+001	-2.076987e+001	5.735961e+001	-1.153644e+001	-4.281733e+001
4268110.919	-8.958716e+000	-1.589703e+002	-2.128105e+001	5.428979e+001	-2.130185e+001	5.532941e+001	-1.131144e+001	-4.637961e+001
4292547.660	-8.821916e+000	-1.628422e+002	-2.175046e+001	5.273222e+001	-2.177125e+001	5.379865e+001	-1.111626e+001	-4.994262e+001
4316984.402	-8.715029e+000	-1.667683e+002	-2.216096e+001	5.171426e+001	-2.217359e+001	5.279825e+001	-1.094747e+001	-5.352371e+001
4341421.144	-8.642240e+000	-1.707471e+002	-2.247461e+001	5.121068e+001	-2.248666e+001	5.229308e+001	-1.080181e+001	-5.712831e+001
4365857.886	-8.606668e+000	-1.747029e+002	-2.264456e+001	5.091631e+001	-2.265595e+001	5.199689e+001	-1.068616e+001	-6.069793e+001
4390294.627	-8.597616e+000	-1.785550e+002	-2.270212e+001	5.021156e+001	-2.270966e+001	5.132615e+001	-1.059046e+001	-6.416137e+001
4414731.369	-8.595168e+000	1.777017e+002	-2.273292e+001	4.889343e+001	-2.273646e+001	5.003905e+001	-1.049326e+001	-6.749345e+001
4439168.111	-8.582078e+000	1.739491e+002	-2.283448e+001	4.728222e+001	-2.283460e+001	4.855541e+001	-1.038145e+001	-7.080626e+001
4463604.853	-8.558206e+000	1.699928e+002	-2.304845e+001	4.641097e+001	-2.303909e+001	4.766489e+001	-1.024433e+001	-7.421131e+001
4488041.594	-8.553401e+000	1.656499e+002	-2.323231e+001	4.718778e+001	-2.322104e+001	4.849148e+001	-1.010152e+001	-7.793155e+001
4512478.336	-8.615324e+000	1.609459e+002	-2.311544e+001	4.960969e+001	-2.308694e+001	5.086593e+001	-9.994148e+000	-8.201191e+001
4536915.078	-8.779131e+000	1.561707e+002	-2.253443e+001	5.146131e+001	-2.250144e+001	5.275088e+001	-9.953649e+000	-8.626193e+001
4561351.820	-9.022587e+000	1.517641e+002	-2.174588e+001	5.066612e+001	-2.169159e+001	5.186692e+001	-9.980241e+000	-9.030580e+001
4585788.562	-9.282397e+000	1.477721e+002	-2.106847e+001	4.787053e+001	-2.101068e+001	4.904837e+001	-1.002111e+001	-9.404429e+001
4610225.303	-9.536291e+000	1.438789e+002	-2.053725e+001	4.462075e+001	-2.047024e+001	4.576050e+001	-1.004924e+001	-9.768055e+001
4634662.045	-9.807282e+000	1.399657e+002	-2.005138e+001	4.126605e+001	-1.998029e+001	4.235014e+001	-1.007504e+001	-1.013309e+002
4659098.787	-1.010443e+001	1.360760e+002	-1.959183e+001	3.768284e+001	-1.951206e+001	3.872901e+001	-1.010867e+001	-1.050094e+002
4683535.529	-1.042254e+001	1.322163e+002	-1.917166e+001	3.391477e+001	-1.908314e+001	3.488928e+001	-1.014591e+001	-1.086888e+002
4707972.270	-1.075997e+001	1.283013e+002	-1.879391e+001	3.022952e+001	-1.870047e+001	3.110625e+001	-1.017868e+001	-1.124013e+002
4732409.012	-1.113838e+001	1.241482e+002	-1.839696e+001	2.684040e+001	-1.830029e+001	2.763379e+001	-1.021196e+001	-1.163369e+002
4756845.754	-1.160993e+001	1.198344e+002	-1.791540e+001	2.343274e+001	-1.781494e+001	2.416173e+001	-1.027652e+001	-1.205267e+002
4781282.496	-1.219393e+001	1.157205e+002	-1.735909e+001	1.944121e+001	-1.726102e+001	2.006511e+001	-1.039871e+001	-1.248000e+002
4805719.237	-1.286851e+001	1.120620e+002	-1.680733e+001	1.466062e+001	-1.670795e+001	1.522627e+001	-1.056727e+001	-1.290032e+002
4830155.979	-1.360555e+001	1.089322e+002	-1.630262e+001	9.367250e+000	-1.620488e+001	9.873896e+000	-1.076986e+001	-1.330763e+002
4854592.721	-1.439660e+001	1.063173e+002	-1.585321e+001	3.775378e+000	-1.575819e+001	4.205637e+000	-1.099523e+001	-1.370217e+002
4879029.463	-1.524037e+001	1.042360e+002	-1.544594e+001	-1.973584e+000	-1.535778e+001	-1.627356e+000	-1.124208e+001	-1.408826e+002
4903466.205	-1.613238e+001	1.028454e+002	-1.507610e+001	-7.886163e+000	-1.499218e+001	-7.587260e+000	-1.150900e+001	-1.446598e+002
4927902.946	-1.706061e+001	1.022695e+002	-1.473973e+001	-1.394396e+001	-1.466119e+001	-1.368624e+001	-1.180671e+001	-1.483564e+002
4952339.688	-1.800755e+001	1.026103e+002	-1.443510e+001	-2.011908e+001	-1.436652e+001	-1.986353e+001	-1.212400e+001	-1.519301e+002
4976776.430	-1.892253e+001	1.039602e+002	-1.417191e+001	-2.637885e+001	-1.410325e+001	-2.614586e+001	-1.246379e+001	-1.553392e+002
5001213.172	-1.977476e+001	1.063789e+002	-1.393820e+001	-3.268403e+001	-1.387753e+001	-3.248235e+001	-1.282152e+001	-1.585606e+002
5025649.913	-2.051862e+001	1.096213e+002	-1.373626e+001	-3.901138e+001	-1.368548e+001	-3.883476e+001	-1.319025e+001	-1.616220e+002
5050086.655	-2.112305e+001	1.134739e+002	-1.356991e+001	-4.533071e+001	-1.351961e+001	-4.515907e+001	-1.357156e+001	-1.645335e+002
5074523.397	-2.157697e+001	1.176856e+002	-1.342560e+001	-5.162526e+001	-1.337992e+001	-5.147141e+001	-1.395952e+001	-1.672653e+002
5098960.139	-2.188694e+001	1.218839e+002	-1.330411e+001	-5.788847e+001	-1.326396e+001	-5.774512e+001	-1.435774e+001	-1.698333e+002
5123396.880	-2.206582e+001	1.259584e+002	-1.320371e+001	-6.412239e+001	-1.316462e+001	-6.397140e+001	-1.476227e+001	-1.722298e+002
5147833.622	-2.213841e+001	1.296855e+002	-1.311505e+001	-7.031686e+001	-1.308380e+001	-7.016771e+001	-1.517222e+001	-1.744399e+002
5172270.364	-2.213402e+001	1.330177e+002	-1.304253e+001	-7.648305e+001	-1.301550e+001	-7.633809e+001	-1.558220e+001	-1.764544e+002
5196707.106	-2.206674e+001	1.358965e+002	-1.298412e+001	-8.263948e+001	-1.296071e+001	-8.248701e+001	-1.599112e+001	-1.782197e+002
5221143.847	-2.196606e+001	1.382872e+002	-1.293681e+001	-8.873408e+001	-1.291871e+001	-8.858015e+001	-1.639308e+001	-1.797873e+002
5245580.589	-2.185683e+001	1.402319e+002	-1.290463e+001	-9.485846e+001	-1.288982e+001	-9.469609e+001	-1.677255e+001	1.789047e+002
5270017.331	-2.175868e+001	1.418299e+002	-1.289096e+001	-1.009703e+002	-1.287546e+001	-1.007759e+002	-1.712517e+001	1.778074e+002
5294454.073	-2.167620e+001	1.432220e+002	-1.288648e+001	-1.070268e+002	-1.287409e+001	-1.068099e+002	-1.744230e+001	1.768538e+002
5318890.815	-2.161332e+001	1.445482e+002	-1.289441e+001	-1.130481e+002	-1.288057e+001	-1.128066e+002	-1.772763e+001	1.760085e+002
5343327.556	-2.155080e+001	1.458148e+002	-1.290707e+001	-1.190248e+002	-1.289474e+001	-1.187675e+002	-1.798055e+001	1.752069e+002
5367764.298	-2.148146e+001	1.469852e+002	-1.292642e+001	-1.249812e+002	-1.291119e+001	-1.247138e+002	-1.819140e+001	1.745519e+002
5392201.040	-2.141883e+001	1.480882e+002	-1.294806e+001	-1.309468e+002	-1.293509e+001	-1.306766e+002	-1.835366e+001	1.738870e+002
5416637.782	-2.137260e+001	1.490824e+002	-1.297956e+001	-1.369354e+002	-1.296773e+001	-1.366464e+002	-1.845448e+001	1.731786e+002
5441074.523	-2.134727e+001	1.500827e+002	-1.302068e+001	-1.429237e+002	-1.300902e+001	-1.426218e+002	-1.850582e+001	1.723058e+002
