!Agilent Technologies,E5061B,MY49101568,A.02.00
!Date: Wed Mar 01 16:29:36 2023
!Data & Calibration Information:
!Freq	S11:SOLT2(OFF)	S21:SOLT2(OFF)	S12:SOLT2(OFF)	S22:SOLT2(OFF)
# Hz S dB R 50
1800000.000	-9.645292e+000	-1.772419e+001	-2.537711e+001	-1.454132e+002	-2.539874e+001	-1.455638e+002	-9.858885e+000	3.514757e+001
1824436.742	-9.758303e+000	-2.189627e+001	-2.498012e+001	-1.490558e+002	-2.500249e+001	-1.492500e+002	-1.002634e+001	3.122564e+001
1848873.484	-9.875873e+000	-2.617090e+001	-2.460259e+001	-1.528866e+002	-2.461202e+001	-1.530552e+002	-1.020522e+001	2.733592e+001
1873310.225	-1.000166e+001	-3.047043e+001	-2.421923e+001	-1.568942e+002	-2.422075e+001	-1.569251e+002	-1.039317e+001	2.343603e+001
1897746.967	-1.013063e+001	-3.485112e+001	-2.378741e+001	-1.608478e+002	-2.384150e+001	-1.610318e+002	-1.059512e+001	1.968862e+001
1922183.709	-1.026375e+001	-3.933510e+001	-2.342975e+001	-1.650907e+002	-2.345750e+001	-1.652091e+002	-1.082118e+001	1.594679e+001
1946620.451	-1.040223e+001	-4.391013e+001	-2.306394e+001	-1.694997e+002	-2.310622e+001	-1.694416e+002	-1.103708e+001	1.242825e+001
1971057.192	-1.054852e+001	-4.864598e+001	-2.268524e+001	-1.731036e+002	-2.275261e+001	-1.735021e+002	-1.123403e+001	8.934095e+000
1995493.934	-1.070546e+001	-5.340810e+001	-2.236320e+001	-1.776962e+002	-2.237601e+001	-1.773594e+002	-1.140455e+001	5.311590e+000
2019930.676	-1.087620e+001	-5.834872e+001	-2.191107e+001	1.786254e+002	-2.195094e+001	1.787249e+002	-1.158377e+001	1.569457e+000
2044367.418	-1.105946e+001	-6.336457e+001	-2.141328e+001	1.742827e+002	-2.146982e+001	1.744260e+002	-1.179135e+001	-2.088510e+000
2068804.159	-1.125554e+001	-6.848020e+001	-2.093878e+001	1.695755e+002	-2.099941e+001	1.696683e+002	-1.194746e+001	-5.435465e+000
2093240.901	-1.145950e+001	-7.365924e+001	-2.052536e+001	1.647490e+002	-2.058635e+001	1.646560e+002	-1.202007e+001	-8.993269e+000
2117677.643	-1.167747e+001	-7.898652e+001	-2.009551e+001	1.596584e+002	-2.015969e+001	1.598854e+002	-1.210392e+001	-1.322889e+001
2142114.385	-1.190545e+001	-8.450625e+001	-1.965868e+001	1.547232e+002	-1.974121e+001	1.550567e+002	-1.218906e+001	-1.777416e+001
2166551.127	-1.213542e+001	-9.026565e+001	-1.920140e+001	1.500086e+002	-1.925672e+001	1.501588e+002	-1.234114e+001	-2.253755e+001
2190987.868	-1.241361e+001	-9.630040e+001	-1.868568e+001	1.445428e+002	-1.877520e+001	1.446182e+002	-1.250280e+001	-2.715873e+001
2215424.610	-1.272179e+001	-1.023574e+002	-1.822882e+001	1.385926e+002	-1.829727e+001	1.389502e+002	-1.267365e+001	-3.192808e+001
2239861.352	-1.304939e+001	-1.085974e+002	-1.780232e+001	1.325553e+002	-1.787373e+001	1.329477e+002	-1.282266e+001	-3.674549e+001
2264298.094	-1.339935e+001	-1.149714e+002	-1.740561e+001	1.263401e+002	-1.747257e+001	1.267854e+002	-1.296709e+001	-4.170106e+001
2288734.835	-1.376848e+001	-1.214967e+002	-1.704310e+001	1.200061e+002	-1.710258e+001	1.205711e+002	-1.310416e+001	-4.685609e+001
2313171.577	-1.415435e+001	-1.282334e+002	-1.669580e+001	1.136992e+002	-1.675109e+001	1.142646e+002	-1.323792e+001	-5.219533e+001
2337608.319	-1.455615e+001	-1.352425e+002	-1.636464e+001	1.072701e+002	-1.641667e+001	1.078540e+002	-1.336854e+001	-5.770150e+001
2362045.061	-1.496884e+001	-1.424310e+002	-1.605820e+001	1.007528e+002	-1.610424e+001	1.013637e+002	-1.349231e+001	-6.340735e+001
2386481.802	-1.538691e+001	-1.498768e+002	-1.577926e+001	9.408859e+001	-1.581886e+001	9.472301e+001	-1.360274e+001	-6.930156e+001
2410918.544	-1.579385e+001	-1.576112e+002	-1.552639e+001	8.738452e+001	-1.556254e+001	8.805009e+001	-1.368839e+001	-7.544167e+001
2435355.286	-1.617049e+001	-1.656598e+002	-1.532176e+001	8.061923e+001	-1.534549e+001	8.135525e+001	-1.375475e+001	-8.180017e+001
2459792.028	-1.651085e+001	-1.743136e+002	-1.513099e+001	7.405666e+001	-1.515114e+001	7.476165e+001	-1.379515e+001	-8.855773e+001
2484228.769	-1.682717e+001	1.764052e+002	-1.494579e+001	6.756590e+001	-1.494842e+001	6.827886e+001	-1.383300e+001	-9.580713e+001
2508665.511	-1.715985e+001	1.665936e+002	-1.474068e+001	6.096572e+001	-1.473340e+001	6.165612e+001	-1.389237e+001	-1.033425e+002
2533102.253	-1.747237e+001	1.567568e+002	-1.456146e+001	5.405263e+001	-1.454340e+001	5.474819e+001	-1.395344e+001	-1.109506e+002
2557538.995	-1.770147e+001	1.467380e+002	-1.441909e+001	4.706710e+001	-1.439265e+001	4.770687e+001	-1.399718e+001	-1.187052e+002
2581975.737	-1.784659e+001	1.366274e+002	-1.432094e+001	4.004028e+001	-1.428836e+001	4.065148e+001	-1.402340e+001	-1.265986e+002
2606412.478	-1.789753e+001	1.264366e+002	-1.426080e+001	3.300694e+001	-1.421874e+001	3.365614e+001	-1.402864e+001	-1.346559e+002
2630849.220	-1.785822e+001	1.160715e+002	-1.421980e+001	2.616391e+001	-1.417346e+001	2.671361e+001	-1.401480e+001	-1.428927e+002
2655285.962	-1.774796e+001	1.059226e+002	-1.421038e+001	1.927254e+001	-1.415490e+001	1.975614e+001	-1.399796e+001	-1.512593e+002
2679722.704	-1.757054e+001	9.613953e+001	-1.423508e+001	1.236348e+001	-1.417667e+001	1.280349e+001	-1.397656e+001	-1.595479e+002
2704159.445	-1.729556e+001	8.678479e+001	-1.431809e+001	5.608869e+000	-1.424232e+001	6.013847e+000	-1.391822e+001	-1.678074e+002
2728596.187	-1.701519e+001	7.750470e+001	-1.438914e+001	-9.579612e-001	-1.433165e+001	-5.937632e-001	-1.384813e+001	-1.760619e+002
2753032.929	-1.668311e+001	6.858007e+001	-1.449470e+001	-7.290699e+000	-1.442359e+001	-7.010338e+000	-1.377582e+001	1.756161e+002
2777469.671	-1.636884e+001	6.004368e+001	-1.459351e+001	-1.359412e+001	-1.452667e+001	-1.336111e+001	-1.371681e+001	1.674180e+002
2801906.412	-1.605675e+001	5.199491e+001	-1.471445e+001	-1.986710e+001	-1.464883e+001	-1.970704e+001	-1.366714e+001	1.594390e+002
2826343.154	-1.573653e+001	4.441224e+001	-1.486080e+001	-2.597236e+001	-1.479981e+001	-2.585479e+001	-1.361012e+001	1.517478e+002
2850779.896	-1.542580e+001	3.717869e+001	-1.502334e+001	-3.195549e+001	-1.496361e+001	-3.190081e+001	-1.355905e+001	1.442716e+002
2875216.638	-1.512833e+001	3.031049e+001	-1.520171e+001	-3.781882e+001	-1.514261e+001	-3.775768e+001	-1.350978e+001	1.370720e+002
2899653.380	-1.484043e+001	2.380138e+001	-1.539074e+001	-4.349368e+001	-1.533538e+001	-4.349251e+001	-1.346363e+001	1.301878e+002
2924090.121	-1.456656e+001	1.757380e+001	-1.559004e+001	-4.904262e+001	-1.553941e+001	-4.907403e+001	-1.341996e+001	1.235644e+002
2948526.863	-1.430532e+001	1.165183e+001	-1.579264e+001	-5.440609e+001	-1.575223e+001	-5.446645e+001	-1.337441e+001	1.172403e+002
2972963.605	-1.405322e+001	5.963294e+000	-1.600789e+001	-5.956506e+001	-1.597299e+001	-5.966573e+001	-1.332316e+001	1.111860e+002
2997400.347	-1.381047e+001	4.911096e-001	-1.622423e+001	-6.453147e+001	-1.619303e+001	-6.465612e+001	-1.326612e+001	1.053337e+002
3021837.088	-1.358126e+001	-4.807295e+000	-1.642680e+001	-6.930511e+001	-1.640499e+001	-6.946647e+001	-1.320928e+001	9.964608e+001
3046273.830	-1.336786e+001	-9.925988e+000	-1.661938e+001	-7.397811e+001	-1.660308e+001	-7.411570e+001	-1.315378e+001	9.412171e+001
3070710.572	-1.316838e+001	-1.488978e+001	-1.679759e+001	-7.849674e+001	-1.678866e+001	-7.867651e+001	-1.310536e+001	8.877035e+001
3095147.314	-1.298410e+001	-1.967152e+001	-1.697186e+001	-8.296227e+001	-1.696878e+001	-8.314066e+001	-1.306655e+001	8.359778e+001
3119584.055	-1.281127e+001	-2.431025e+001	-1.712871e+001	-8.733473e+001	-1.713575e+001	-8.752000e+001	-1.303430e+001	7.859161e+001
3144020.797	-1.265017e+001	-2.879411e+001	-1.728388e+001	-9.163159e+001	-1.729358e+001	-9.186243e+001	-1.300659e+001	7.378623e+001
3168457.539	-1.250066e+001	-3.315671e+001	-1.742910e+001	-9.589950e+001	-1.744753e+001	-9.610625e+001	-1.298700e+001	6.913155e+001
3192894.281	-1.235946e+001	-3.737581e+001	-1.756812e+001	-1.001096e+002	-1.759531e+001	-1.003019e+002	-1.296812e+001	6.464575e+001
3217331.023	-1.222675e+001	-4.148168e+001	-1.770554e+001	-1.042519e+002	-1.773623e+001	-1.044474e+002	-1.295394e+001	6.029205e+001
3241767.764	-1.209985e+001	-4.546624e+001	-1.783757e+001	-1.083695e+002	-1.787199e+001	-1.085280e+002	-1.294068e+001	5.609793e+001
3266204.506	-1.197803e+001	-4.935248e+001	-1.796509e+001	-1.123709e+002	-1.800940e+001	-1.125314e+002	-1.292585e+001	5.203818e+001
3290641.248	-1.185847e+001	-5.314728e+001	-1.808787e+001	-1.162672e+002	-1.813700e+001	-1.164092e+002	-1.290515e+001	4.809524e+001
3315077.990	-1.174378e+001	-5.689333e+001	-1.819460e+001	-1.200669e+002	-1.824502e+001	-1.201955e+002	-1.288967e+001	4.418265e+001
3339514.731	-1.163641e+001	-6.056940e+001	-1.828107e+001	-1.238721e+002	-1.833924e+001	-1.239520e+002	-1.287740e+001	4.035863e+001
3363951.473	-1.153635e+001	-6.418608e+001	-1.835559e+001	-1.276506e+002	-1.842111e+001	-1.277280e+002	-1.287066e+001	3.662059e+001
3388388.215	-1.144275e+001	-6.772660e+001	-1.842480e+001	-1.314366e+002	-1.849428e+001	-1.314760e+002	-1.286943e+001	3.300208e+001
3412824.957	-1.135437e+001	-7.121425e+001	-1.848540e+001	-1.352197e+002	-1.855522e+001	-1.352132e+002	-1.286987e+001	2.945236e+001
3437261.698	-1.127042e+001	-7.463083e+001	-1.853572e+001	-1.389929e+002	-1.861271e+001	-1.389554e+002	-1.287213e+001	2.599280e+001
3461698.440	-1.119261e+001	-7.798723e+001	-1.858201e+001	-1.427609e+002	-1.866086e+001	-1.426885e+002	-1.287983e+001	2.261939e+001
3486135.182	-1.111729e+001	-8.129324e+001	-1.862334e+001	-1.465281e+002	-1.870453e+001	-1.464282e+002	-1.288657e+001	1.932153e+001
3510571.924	-1.104774e+001	-8.455263e+001	-1.866064e+001	-1.502787e+002	-1.874511e+001	-1.501658e+002	-1.289772e+001	1.612297e+001
3535008.666	-1.098304e+001	-8.774911e+001	-1.869433e+001	-1.540551e+002	-1.878105e+001	-1.538726e+002	-1.290790e+001	1.299767e+001
3559445.407	-1.091816e+001	-9.090030e+001	-1.873041e+001	-1.577671e+002	-1.881580e+001	-1.575770e+002	-1.291615e+001	9.949295e+000
3583882.149	-1.085639e+001	-9.400926e+001	-1.875913e+001	-1.614361e+002	-1.884826e+001	-1.612153e+002	-1.291973e+001	6.967999e+000
3608318.891	-1.079651e+001	-9.709437e+001	-1.878084e+001	-1.650552e+002	-1.887032e+001	-1.647741e+002	-1.292268e+001	4.013575e+000
3632755.633	-1.073829e+001	-1.001667e+002	-1.879147e+001	-1.686154e+002	-1.888271e+001	-1.682935e+002	-1.292499e+001	1.063344e+000
3657192.374	-1.068925e+001	-1.032205e+002	-1.878108e+001	-1.721861e+002	-1.887003e+001	-1.717908e+002	-1.293154e+001	-1.845968e+000
3681629.116	-1.064648e+001	-1.062387e+002	-1.875629e+001	-1.757645e+002	-1.884674e+001	-1.753504e+002	-1.294732e+001	-4.717747e+000
3706065.858	-1.060997e+001	-1.092065e+002	-1.872002e+001	-1.794200e+002	-1.881192e+001	-1.789506e+002	-1.296610e+001	-7.518449e+000
3730502.600	-1.057744e+001	-1.121115e+002	-1.868000e+001	1.768964e+002	-1.877087e+001	1.773875e+002	-1.299029e+001	-1.024086e+001
3754939.341	-1.054951e+001	-1.149736e+002	-1.862866e+001	1.731698e+002	-1.872151e+001	1.736850e+002	-1.301609e+001	-1.287082e+001
3779376.083	-1.052307e+001	-1.177778e+002	-1.857560e+001	1.693522e+002	-1.866265e+001	1.699279e+002	-1.304138e+001	-1.545192e+001
3803812.825	-1.049943e+001	-1.205527e+002	-1.851473e+001	1.654742e+002	-1.859997e+001	1.660585e+002	-1.307048e+001	-1.790880e+001
3828249.567	-1.047890e+001	-1.232398e+002	-1.845564e+001	1.614438e+002	-1.854273e+001	1.620833e+002	-1.309356e+001	-2.028566e+001
3852686.308	-1.045383e+001	-1.258671e+002	-1.841270e+001	1.573600e+002	-1.849098e+001	1.580294e+002	-1.311498e+001	-2.256218e+001
3877123.050	-1.042731e+001	-1.284445e+002	-1.838125e+001	1.532049e+002	-1.845706e+001	1.539232e+002	-1.312117e+001	-2.473734e+001
3901559.792	-1.039412e+001	-1.309761e+002	-1.836298e+001	1.490430e+002	-1.843831e+001	1.497404e+002	-1.312031e+001	-2.682641e+001
3925996.534	-1.035246e+001	-1.334662e+002	-1.836954e+001	1.448606e+002	-1.844334e+001	1.456000e+002	-1.310162e+001	-2.885758e+001
3950433.276	-1.029451e+001	-1.359544e+002	-1.840783e+001	1.408019e+002	-1.847830e+001	1.415785e+002	-1.305799e+001	-3.084366e+001
3974870.017	-1.022235e+001	-1.384985e+002	-1.846478e+001	1.369437e+002	-1.852996e+001	1.377469e+002	-1.299283e+001	-3.285426e+001
3999306.759	-1.014154e+001	-1.411569e+002	-1.851670e+001	1.333844e+002	-1.858907e+001	1.341814e+002	-1.290109e+001	-3.493043e+001
4023743.501	-1.005371e+001	-1.439276e+002	-1.857135e+001	1.300754e+002	-1.863732e+001	1.308978e+002	-1.279655e+001	-3.715509e+001
4048180.243	-9.972209e+000	-1.468778e+002	-1.859351e+001	1.270838e+002	-1.865767e+001	1.279284e+002	-1.267885e+001	-3.955553e+001
4072616.984	-9.904393e+000	-1.499926e+002	-1.856040e+001	1.242925e+002	-1.862505e+001	1.251388e+002	-1.256693e+001	-4.214826e+001
4097053.726	-9.861932e+000	-1.532263e+002	-1.846532e+001	1.215212e+002	-1.852207e+001	1.224353e+002	-1.247343e+001	-4.493550e+001
4121490.468	-9.850712e+000	-1.565133e+002	-1.830982e+001	1.185912e+002	-1.836310e+001	1.195115e+002	-1.240355e+001	-4.779396e+001
4145927.210	-9.869318e+000	-1.597846e+002	-1.811652e+001	1.153683e+002	-1.816730e+001	1.163463e+002	-1.235720e+001	-5.066894e+001
4170363.951	-9.914592e+000	-1.629835e+002	-1.790356e+001	1.118892e+002	-1.795173e+001	1.128291e+002	-1.233451e+001	-5.347580e+001
4194800.693	-9.977610e+000	-1.660796e+002	-1.769684e+001	1.080498e+002	-1.773794e+001	1.090312e+002	-1.232572e+001	-5.623245e+001
4219237.435	-1.005644e+001	-1.690848e+002	-1.749957e+001	1.040243e+002	-1.753334e+001	1.050345e+002	-1.232569e+001	-5.890489e+001
4243674.177	-1.014086e+001	-1.719844e+002	-1.732121e+001	9.983667e+001	-1.734801e+001	1.008289e+002	-1.232943e+001	-6.147948e+001
4268110.919	-1.022842e+001	-1.747977e+002	-1.716257e+001	9.554776e+001	-1.718476e+001	9.654987e+001	-1.232777e+001	-6.398400e+001
4292547.660	-1.031743e+001	-1.775628e+002	-1.702204e+001	9.123017e+001	-1.704350e+001	9.225776e+001	-1.231654e+001	-6.643675e+001
4316984.402	-1.040252e+001	1.797093e+002	-1.690413e+001	8.692566e+001	-1.691384e+001	8.797883e+001	-1.229994e+001	-6.888986e+001
4341421.144	-1.049215e+001	1.769564e+002	-1.678874e+001	8.268185e+001	-1.679050e+001	8.374464e+001	-1.227702e+001	-7.136306e+001
4365857.886	-1.059297e+001	1.742067e+002	-1.666568e+001	7.843200e+001	-1.666539e+001	7.946264e+001	-1.225388e+001	-7.384840e+001
4390294.627	-1.069747e+001	1.714508e+002	-1.655287e+001	7.422806e+001	-1.654499e+001	7.525049e+001	-1.222375e+001	-7.638224e+001
4414731.369	-1.081580e+001	1.686756e+002	-1.642995e+001	7.005159e+001	-1.641890e+001	7.104775e+001	-1.219547e+001	-7.897495e+001
4439168.111	-1.093731e+001	1.659448e+002	-1.631757e+001	6.575793e+001	-1.628908e+001	6.684881e+001	-1.216763e+001	-8.163958e+001
4463604.853	-1.108039e+001	1.632122e+002	-1.618800e+001	6.152112e+001	-1.615980e+001	6.256544e+001	-1.214261e+001	-8.428588e+001
4488041.594	-1.123486e+001	1.605098e+002	-1.605577e+001	5.723083e+001	-1.602567e+001	5.825869e+001	-1.212191e+001	-8.699460e+001
4512478.336	-1.140062e+001	1.578145e+002	-1.592346e+001	5.294569e+001	-1.588916e+001	5.393737e+001	-1.210724e+001	-8.973369e+001
4536915.078	-1.157763e+001	1.552231e+002	-1.579528e+001	4.852482e+001	-1.575640e+001	4.952003e+001	-1.209583e+001	-9.249046e+001
4561351.820	-1.177053e+001	1.526429e+002	-1.565813e+001	4.408933e+001	-1.561466e+001	4.502428e+001	-1.209569e+001	-9.528238e+001
4585788.562	-1.196079e+001	1.501422e+002	-1.554226e+001	3.957150e+001	-1.549526e+001	4.046506e+001	-1.209178e+001	-9.805168e+001
4610225.303	-1.215681e+001	1.476403e+002	-1.543207e+001	3.505028e+001	-1.538291e+001	3.592279e+001	-1.208741e+001	-1.008678e+002
4634662.045	-1.236134e+001	1.451346e+002	-1.533272e+001	3.052608e+001	-1.526954e+001	3.142703e+001	-1.208626e+001	-1.037567e+002
4659098.787	-1.258300e+001	1.425432e+002	-1.523036e+001	2.607952e+001	-1.516574e+001	2.689862e+001	-1.208779e+001	-1.067044e+002
4683535.529	-1.283120e+001	1.399899e+002	-1.512020e+001	2.160759e+001	-1.506219e+001	2.238616e+001	-1.209327e+001	-1.096994e+002
4707972.270	-1.308849e+001	1.374606e+002	-1.502023e+001	1.713706e+001	-1.495662e+001	1.785953e+001	-1.210905e+001	-1.127471e+002
4732409.012	-1.337530e+001	1.348403e+002	-1.491804e+001	1.272040e+001	-1.485044e+001	1.335333e+001	-1.213028e+001	-1.158917e+002
4756845.754	-1.369002e+001	1.323290e+002	-1.480934e+001	8.236761e+000	-1.474146e+001	8.849050e+000	-1.216261e+001	-1.191223e+002
4781282.496	-1.404079e+001	1.298463e+002	-1.469507e+001	3.740968e+000	-1.462880e+001	4.364651e+000	-1.220548e+001	-1.224359e+002
4805719.237	-1.443217e+001	1.274501e+002	-1.457568e+001	-7.558085e-001	-1.450545e+001	-1.897084e-001	-1.227009e+001	-1.257956e+002
4830155.979	-1.485940e+001	1.252722e+002	-1.444670e+001	-5.365871e+000	-1.437896e+001	-4.825206e+000	-1.235143e+001	-1.291998e+002
4854592.721	-1.532333e+001	1.232474e+002	-1.431720e+001	-1.000557e+001	-1.425110e+001	-9.495344e+000	-1.244960e+001	-1.326497e+002
4879029.463	-1.580990e+001	1.214972e+002	-1.419179e+001	-1.478852e+001	-1.412494e+001	-1.432502e+001	-1.256970e+001	-1.360823e+002
4903466.205	-1.632076e+001	1.199878e+002	-1.407260e+001	-1.962580e+001	-1.400778e+001	-1.918909e+001	-1.269817e+001	-1.395228e+002
4927902.946	-1.685219e+001	1.187247e+002	-1.396296e+001	-2.455248e+001	-1.389898e+001	-2.414253e+001	-1.284375e+001	-1.429746e+002
4952339.688	-1.740777e+001	1.177077e+002	-1.386099e+001	-2.952924e+001	-1.379921e+001	-2.910931e+001	-1.300512e+001	-1.464514e+002
4976776.430	-1.798492e+001	1.169660e+002	-1.377069e+001	-3.454427e+001	-1.371094e+001	-3.413288e+001	-1.317900e+001	-1.499281e+002
5001213.172	-1.858730e+001	1.165429e+002	-1.368793e+001	-3.955386e+001	-1.363497e+001	-3.919071e+001	-1.336565e+001	-1.533862e+002
5025649.913	-1.921832e+001	1.164671e+002	-1.361691e+001	-4.459792e+001	-1.356643e+001	-4.425142e+001	-1.357175e+001	-1.568952e+002
5050086.655	-1.987639e+001	1.167457e+002	-1.355712e+001	-4.965157e+001	-1.350468e+001	-4.931456e+001	-1.379176e+001	-1.604048e+002
5074523.397	-2.055635e+001	1.176056e+002	-1.350442e+001	-5.469266e+001	-1.345867e+001	-5.441150e+001	-1.402440e+001	-1.639191e+002
5098960.139	-2.124963e+001	1.189719e+002	-1.346140e+001	-5.979466e+001	-1.342251e+001	-5.949203e+001	-1.427232e+001	-1.674315e+002
5123396.880	-2.196259e+001	1.209669e+002	-1.343193e+001	-6.485681e+001	-1.339642e+001	-6.456855e+001	-1.453760e+001	-1.709464e+002
5147833.622	-2.269078e+001	1.237362e+002	-1.341212e+001	-6.989140e+001	-1.337998e+001	-6.962734e+001	-1.481603e+001	-1.744723e+002
5172270.364	-2.339958e+001	1.275493e+002	-1.340070e+001	-7.492717e+001	-1.337180e+001	-7.463530e+001	-1.510974e+001	-1.780678e+002
5196707.106	-2.406723e+001	1.325937e+002	-1.339647e+001	-7.987811e+001	-1.337235e+001	-7.960890e+001	-1.542108e+001	1.783257e+002
5221143.847	-2.459132e+001	1.390169e+002	-1.339697e+001	-8.478405e+001	-1.337810e+001	-8.454151e+001	-1.575030e+001	1.747169e+002
5245580.589	-2.489488e+001	1.464812e+002	-1.340051e+001	-8.968691e+001	-1.338554e+001	-8.944517e+001	-1.609979e+001	1.710220e+002
5270017.331	-2.489660e+001	1.545337e+002	-1.340649e+001	-9.456356e+001	-1.339847e+001	-9.430134e+001	-1.647056e+001	1.673038e+002
5294454.073	-2.459570e+001	1.622440e+002	-1.341557e+001	-9.939653e+001	-1.341006e+001	-9.914123e+001	-1.686863e+001	1.635627e+002
5318890.815	-2.403499e+001	1.689817e+002	-1.342958e+001	-1.042293e+002	-1.342571e+001	-1.039640e+002	-1.729107e+001	1.598013e+002
5343327.556	-2.331177e+001	1.743978e+002	-1.344606e+001	-1.090430e+002	-1.344462e+001	-1.087604e+002	-1.773433e+001	1.560210e+002
5367764.298	-2.250341e+001	1.784339e+002	-1.346566e+001	-1.138216e+002	-1.346581e+001	-1.135325e+002	-1.820109e+001	1.522135e+002
5392201.040	-2.166746e+001	-1.787745e+002	-1.348529e+001	-1.185947e+002	-1.348908e+001	-1.182756e+002	-1.869420e+001	1.483392e+002
5416637.782	-2.085364e+001	-1.770068e+002	-1.350845e+001	-1.233443e+002	-1.351475e+001	-1.230098e+002	-1.921392e+001	1.444547e+002
5441074.523	-2.007408e+001	-1.760526e+002	-1.353265e+001	-1.280770e+002	-1.354303e+001	-1.276953e+002	-1.975218e+001	1.404828e+002
