!Agilent Technologies,E5061B,MY49101568,A.02.00
!Date: Wed Mar 01 13:26:28 2023
!Data & Calibration Information:
!Freq	S11:SOLT2(OFF)	S21:SOLT2(OFF)	S12:SOLT2(OFF)	S22:SOLT2(OFF)
# Hz S dB R 50
1800000.000	-9.683027e+000	-2.311705e+001	-2.095747e+001	-1.244134e+002	-2.095259e+001	-1.244821e+002	-1.017227e+001	1.230255e+001
1824436.742	-9.814749e+000	-2.781932e+001	-2.049566e+001	-1.287178e+002	-2.049954e+001	-1.288298e+002	-1.033048e+001	8.102801e+000
1848873.484	-9.960062e+000	-3.265545e+001	-2.002049e+001	-1.332773e+002	-2.003451e+001	-1.333054e+002	-1.050121e+001	3.794713e+000
1873310.225	-1.011865e+001	-3.758504e+001	-1.954580e+001	-1.379287e+002	-1.955961e+001	-1.379227e+002	-1.067409e+001	-5.661655e-001
1897746.967	-1.028669e+001	-4.263010e+001	-1.905154e+001	-1.426906e+002	-1.908115e+001	-1.426881e+002	-1.085207e+001	-5.004215e+000
1922183.709	-1.047170e+001	-4.784389e+001	-1.856231e+001	-1.476188e+002	-1.858922e+001	-1.475938e+002	-1.103899e+001	-9.614687e+000
1946620.451	-1.067156e+001	-5.321099e+001	-1.805589e+001	-1.527076e+002	-1.808989e+001	-1.526214e+002	-1.123292e+001	-1.434493e+001
1971057.192	-1.089481e+001	-5.878280e+001	-1.754909e+001	-1.580040e+002	-1.758626e+001	-1.578750e+002	-1.144162e+001	-1.919767e+001
1995493.934	-1.115249e+001	-6.452671e+001	-1.702632e+001	-1.635962e+002	-1.708236e+001	-1.633053e+002	-1.166386e+001	-2.416586e+001
2019930.676	-1.143700e+001	-7.042349e+001	-1.651973e+001	-1.693030e+002	-1.658490e+001	-1.689465e+002	-1.190266e+001	-2.916206e+001
2044367.418	-1.176060e+001	-7.646223e+001	-1.601512e+001	-1.752668e+002	-1.608512e+001	-1.748383e+002	-1.214897e+001	-3.436762e+001
2068804.159	-1.212197e+001	-8.262291e+001	-1.553240e+001	1.785800e+002	-1.560495e+001	1.790445e+002	-1.241619e+001	-3.955256e+001
2093240.901	-1.253568e+001	-8.891541e+001	-1.505422e+001	1.721761e+002	-1.514221e+001	1.727340e+002	-1.270505e+001	-4.474647e+001
2117677.643	-1.298547e+001	-9.532229e+001	-1.461778e+001	1.656619e+002	-1.470242e+001	1.662947e+002	-1.299777e+001	-4.995898e+001
2142114.385	-1.347884e+001	-1.018562e+002	-1.419955e+001	1.590366e+002	-1.428144e+001	1.597331e+002	-1.329477e+001	-5.520268e+001
2166551.127	-1.402816e+001	-1.085538e+002	-1.379517e+001	1.522830e+002	-1.387663e+001	1.530540e+002	-1.359744e+001	-6.053262e+001
2190987.868	-1.464282e+001	-1.153087e+002	-1.341590e+001	1.453058e+002	-1.349314e+001	1.461750e+002	-1.391207e+001	-6.579507e+001
2215424.610	-1.537670e+001	-1.219998e+002	-1.305459e+001	1.379295e+002	-1.314286e+001	1.391670e+002	-1.422764e+001	-7.101084e+001
2239861.352	-1.609960e+001	-1.287765e+002	-1.274653e+001	1.307891e+002	-1.282906e+001	1.320912e+002	-1.452227e+001	-7.613579e+001
2264298.094	-1.686124e+001	-1.356418e+002	-1.247321e+001	1.236453e+002	-1.254395e+001	1.249871e+002	-1.479694e+001	-8.125321e+001
2288734.835	-1.766808e+001	-1.426719e+002	-1.222147e+001	1.165064e+002	-1.228450e+001	1.178659e+002	-1.503685e+001	-8.636608e+001
2313171.577	-1.852462e+001	-1.497766e+002	-1.199391e+001	1.093310e+002	-1.204469e+001	1.106983e+002	-1.525073e+001	-9.151146e+001
2337608.319	-1.941045e+001	-1.569414e+002	-1.179454e+001	1.021310e+002	-1.183699e+001	1.035077e+002	-1.542709e+001	-9.665761e+001
2362045.061	-2.033272e+001	-1.640994e+002	-1.162247e+001	9.488316e+001	-1.165637e+001	9.626194e+001	-1.556787e+001	-1.018117e+002
2386481.802	-2.117810e+001	-1.716854e+002	-1.148060e+001	8.776633e+001	-1.150432e+001	8.912289e+001	-1.564019e+001	-1.071344e+002
2410918.544	-2.196396e+001	-1.798209e+002	-1.135821e+001	8.074433e+001	-1.137345e+001	8.205909e+001	-1.565034e+001	-1.127152e+002
2435355.286	-2.271861e+001	1.712441e+002	-1.124095e+001	7.372126e+001	-1.124949e+001	7.505926e+001	-1.563090e+001	-1.186235e+002
2459792.028	-2.337227e+001	1.616305e+002	-1.114141e+001	6.672811e+001	-1.114133e+001	6.801685e+001	-1.558005e+001	-1.247306e+002
2484228.769	-2.378871e+001	1.510423e+002	-1.106443e+001	5.986901e+001	-1.105417e+001	6.094938e+001	-1.551361e+001	-1.310613e+002
2508665.511	-2.406911e+001	1.401971e+002	-1.100548e+001	5.295938e+001	-1.098723e+001	5.395499e+001	-1.540392e+001	-1.376449e+002
2533102.253	-2.402533e+001	1.286406e+002	-1.096958e+001	4.627665e+001	-1.093804e+001	4.690961e+001	-1.529580e+001	-1.443769e+002
2557538.995	-2.386024e+001	1.173244e+002	-1.094600e+001	3.946099e+001	-1.090906e+001	3.997100e+001	-1.515566e+001	-1.513391e+002
2581975.737	-2.351493e+001	1.063176e+002	-1.094212e+001	3.267910e+001	-1.089891e+001	3.307651e+001	-1.500903e+001	-1.584924e+002
2606412.478	-2.301950e+001	9.576024e+001	-1.095848e+001	2.594377e+001	-1.090912e+001	2.624396e+001	-1.485561e+001	-1.657852e+002
2630849.220	-2.241829e+001	8.580897e+001	-1.099234e+001	1.926538e+001	-1.093985e+001	1.947206e+001	-1.470737e+001	-1.731480e+002
2655285.962	-2.176958e+001	7.647171e+001	-1.104586e+001	1.265072e+001	-1.098780e+001	1.274372e+001	-1.456570e+001	1.794365e+002
2679722.704	-2.108782e+001	6.769324e+001	-1.111592e+001	6.109876e+000	-1.105658e+001	6.102061e+000	-1.443864e+001	1.720384e+002
2704159.445	-2.040955e+001	5.946639e+001	-1.120495e+001	-3.375272e-001	-1.114164e+001	-4.354100e-001	-1.431925e+001	1.646791e+002
2728596.187	-1.974737e+001	5.168146e+001	-1.130862e+001	-6.666105e+000	-1.124517e+001	-6.838633e+000	-1.420854e+001	1.573394e+002
2753032.929	-1.911429e+001	4.423383e+001	-1.142473e+001	-1.288993e+001	-1.136030e+001	-1.310190e+001	-1.410916e+001	1.500810e+002
2777469.671	-1.851705e+001	3.713516e+001	-1.155036e+001	-1.897018e+001	-1.148471e+001	-1.925782e+001	-1.403501e+001	1.429477e+002
2801906.412	-1.796297e+001	3.034014e+001	-1.168671e+001	-2.493723e+001	-1.162135e+001	-2.527227e+001	-1.397333e+001	1.359318e+002
2826343.154	-1.745437e+001	2.384179e+001	-1.182898e+001	-3.078545e+001	-1.176389e+001	-3.118794e+001	-1.393465e+001	1.290868e+002
2850779.896	-1.698604e+001	1.760540e+001	-1.197507e+001	-3.649751e+001	-1.191335e+001	-3.695024e+001	-1.390982e+001	1.224106e+002
2875216.638	-1.654854e+001	1.161562e+001	-1.213037e+001	-4.205251e+001	-1.206208e+001	-4.262359e+001	-1.391394e+001	1.159019e+002
2899653.380	-1.616004e+001	5.796772e+000	-1.228068e+001	-4.750207e+001	-1.221492e+001	-4.812761e+001	-1.392444e+001	1.095776e+002
2924090.121	-1.580419e+001	2.019973e-001	-1.243004e+001	-5.283919e+001	-1.236672e+001	-5.352096e+001	-1.395059e+001	1.034566e+002
2948526.863	-1.548361e+001	-5.205985e+000	-1.257699e+001	-5.807745e+001	-1.251688e+001	-5.877135e+001	-1.398601e+001	9.750880e+001
2972963.605	-1.518947e+001	-1.043132e+001	-1.272001e+001	-6.319465e+001	-1.266506e+001	-6.390895e+001	-1.403343e+001	9.175511e+001
2997400.347	-1.491944e+001	-1.549643e+001	-1.285973e+001	-6.818848e+001	-1.280967e+001	-6.892458e+001	-1.408839e+001	8.617141e+001
3021837.088	-1.467150e+001	-2.041012e+001	-1.299256e+001	-7.308817e+001	-1.294890e+001	-7.381401e+001	-1.414572e+001	8.075265e+001
3046273.830	-1.444477e+001	-2.519960e+001	-1.311765e+001	-7.786556e+001	-1.307996e+001	-7.857125e+001	-1.420812e+001	7.546355e+001
3070710.572	-1.423450e+001	-2.989233e+001	-1.322851e+001	-8.255584e+001	-1.319957e+001	-8.321795e+001	-1.427268e+001	7.029360e+001
3095147.314	-1.404610e+001	-3.448017e+001	-1.332603e+001	-8.718232e+001	-1.330369e+001	-8.781090e+001	-1.435314e+001	6.521963e+001
3119584.055	-1.387729e+001	-3.898916e+001	-1.340920e+001	-9.175122e+001	-1.339419e+001	-9.236413e+001	-1.445107e+001	6.025750e+001
3144020.797	-1.372503e+001	-4.341030e+001	-1.348002e+001	-9.624448e+001	-1.347911e+001	-9.673109e+001	-1.452693e+001	5.543959e+001
3168457.539	-1.359427e+001	-4.774104e+001	-1.353621e+001	-1.007671e+002	-1.354461e+001	-1.011995e+002	-1.464530e+001	5.068961e+001
3192894.281	-1.348518e+001	-5.199528e+001	-1.358305e+001	-1.052924e+002	-1.359709e+001	-1.056612e+002	-1.478049e+001	4.604654e+001
3217331.023	-1.339367e+001	-5.615968e+001	-1.361799e+001	-1.098398e+002	-1.364010e+001	-1.101342e+002	-1.493028e+001	4.153512e+001
3241767.764	-1.331901e+001	-6.022107e+001	-1.364846e+001	-1.143683e+002	-1.367579e+001	-1.146067e+002	-1.509615e+001	3.715471e+001
3266204.506	-1.325711e+001	-6.417358e+001	-1.367523e+001	-1.188844e+002	-1.370848e+001	-1.190642e+002	-1.527060e+001	3.291866e+001
3290641.248	-1.320356e+001	-6.808665e+001	-1.368850e+001	-1.233338e+002	-1.372671e+001	-1.234669e+002	-1.544752e+001	2.873389e+001
3315077.990	-1.316283e+001	-7.200437e+001	-1.367676e+001	-1.277629e+002	-1.372161e+001	-1.278393e+002	-1.563887e+001	2.449856e+001
3339514.731	-1.314865e+001	-7.590932e+001	-1.364597e+001	-1.322901e+002	-1.369059e+001	-1.323048e+002	-1.587285e+001	2.024398e+001
3363951.473	-1.316336e+001	-7.976914e+001	-1.360061e+001	-1.369189e+002	-1.364766e+001	-1.368987e+002	-1.615135e+001	1.609997e+001
3388388.215	-1.320732e+001	-8.354591e+001	-1.354638e+001	-1.416541e+002	-1.359509e+001	-1.415945e+002	-1.647280e+001	1.208162e+001
3412824.957	-1.328243e+001	-8.722237e+001	-1.348574e+001	-1.465213e+002	-1.353637e+001	-1.464090e+002	-1.684165e+001	8.253730e+000
3437261.698	-1.339058e+001	-9.075351e+001	-1.342508e+001	-1.514997e+002	-1.347742e+001	-1.513669e+002	-1.726812e+001	4.675650e+000
3461698.440	-1.353483e+001	-9.410298e+001	-1.336812e+001	-1.566318e+002	-1.342107e+001	-1.564639e+002	-1.775323e+001	1.480777e+000
3486135.182	-1.370617e+001	-9.718936e+001	-1.332253e+001	-1.618545e+002	-1.337224e+001	-1.616645e+002	-1.829316e+001	-1.225346e+000
3510571.924	-1.390450e+001	-9.996655e+001	-1.329097e+001	-1.671898e+002	-1.334101e+001	-1.669641e+002	-1.887467e+001	-3.255238e+000
3535008.666	-1.411347e+001	-1.024014e+002	-1.327760e+001	-1.725571e+002	-1.332610e+001	-1.723003e+002	-1.947233e+001	-4.517799e+000
3559445.407	-1.432416e+001	-1.045419e+002	-1.327381e+001	-1.778725e+002	-1.332298e+001	-1.776060e+002	-2.005437e+001	-5.017205e+000
3583882.149	-1.453083e+001	-1.064067e+002	-1.327090e+001	1.768290e+002	-1.332058e+001	1.771164e+002	-2.061420e+001	-4.865603e+000
3608318.891	-1.474647e+001	-1.080280e+002	-1.325659e+001	1.715141e+002	-1.330552e+001	1.718271e+002	-2.117520e+001	-4.058692e+000
3632755.633	-1.497631e+001	-1.093482e+002	-1.323333e+001	1.660299e+002	-1.328563e+001	1.663573e+002	-2.174094e+001	-2.126209e+000
3657192.374	-1.520680e+001	-1.101351e+002	-1.321932e+001	1.603964e+002	-1.326367e+001	1.607254e+002	-2.223947e+001	1.205768e+000
3681629.116	-1.541710e+001	-1.103474e+002	-1.322148e+001	1.545868e+002	-1.326484e+001	1.548962e+002	-2.251777e+001	6.137154e+000
3706065.858	-1.556772e+001	-1.099757e+002	-1.325181e+001	1.486385e+002	-1.329916e+001	1.489423e+002	-2.244967e+001	1.192116e+001
3730502.600	-1.563101e+001	-1.091405e+002	-1.331645e+001	1.426052e+002	-1.336378e+001	1.429194e+002	-2.201358e+001	1.722200e+001
3754939.341	-1.558622e+001	-1.081276e+002	-1.340955e+001	1.365968e+002	-1.345987e+001	1.369161e+002	-2.130942e+001	2.113224e+001
3779376.083	-1.543811e+001	-1.071087e+002	-1.352391e+001	1.306221e+002	-1.357952e+001	1.309348e+002	-2.047298e+001	2.340731e+001
3803812.825	-1.519417e+001	-1.061785e+002	-1.366125e+001	1.245981e+002	-1.372294e+001	1.249416e+002	-1.959152e+001	2.428891e+001
3828249.567	-1.485762e+001	-1.055587e+002	-1.382598e+001	1.186082e+002	-1.388437e+001	1.189658e+002	-1.873456e+001	2.398246e+001
3852686.308	-1.444162e+001	-1.053496e+002	-1.402105e+001	1.126171e+002	-1.408740e+001	1.129992e+002	-1.789525e+001	2.265899e+001
3877123.050	-1.396767e+001	-1.056929e+002	-1.425034e+001	1.066993e+002	-1.431749e+001	1.071267e+002	-1.711774e+001	2.053950e+001
3901559.792	-1.346606e+001	-1.065969e+002	-1.450955e+001	1.008815e+002	-1.457654e+001	1.013356e+002	-1.640585e+001	1.786627e+001
3925996.534	-1.296125e+001	-1.080497e+002	-1.479667e+001	9.518828e+001	-1.486202e+001	9.566935e+001	-1.575713e+001	1.474299e+001
3950433.276	-1.246590e+001	-1.099723e+002	-1.510657e+001	8.963674e+001	-1.517376e+001	9.008944e+001	-1.516666e+001	1.132218e+001
3974870.017	-1.198952e+001	-1.122822e+002	-1.544242e+001	8.420448e+001	-1.551020e+001	8.464158e+001	-1.463220e+001	7.680661e+000
3999306.759	-1.153691e+001	-1.149567e+002	-1.580735e+001	7.895328e+001	-1.588039e+001	7.940655e+001	-1.414968e+001	3.797971e+000
4023743.501	-1.111697e+001	-1.178936e+002	-1.618833e+001	7.388079e+001	-1.626377e+001	7.431458e+001	-1.371736e+001	-1.605514e-001
4048180.243	-1.072598e+001	-1.210609e+002	-1.659349e+001	6.897548e+001	-1.667881e+001	6.943164e+001	-1.332710e+001	-4.214546e+000
4072616.984	-1.036552e+001	-1.244141e+002	-1.702079e+001	6.426414e+001	-1.711548e+001	6.473723e+001	-1.297338e+001	-8.352435e+000
4097053.726	-1.003616e+001	-1.279347e+002	-1.747575e+001	5.977228e+001	-1.757852e+001	6.032209e+001	-1.265567e+001	-1.253135e+001
4121490.468	-9.735964e+000	-1.316029e+002	-1.795580e+001	5.558064e+001	-1.806320e+001	5.619612e+001	-1.237044e+001	-1.673907e+001
4145927.210	-9.466177e+000	-1.353949e+002	-1.846047e+001	5.172198e+001	-1.857747e+001	5.241565e+001	-1.211570e+001	-2.098978e+001
4170363.951	-9.224867e+000	-1.392802e+002	-1.899359e+001	4.827500e+001	-1.910470e+001	4.908766e+001	-1.189179e+001	-2.522558e+001
4194800.693	-9.024126e+000	-1.432681e+002	-1.952763e+001	4.536430e+001	-1.963800e+001	4.626770e+001	-1.169843e+001	-2.950566e+001
4219237.435	-8.856203e+000	-1.472955e+002	-2.005116e+001	4.299646e+001	-2.015345e+001	4.401136e+001	-1.153391e+001	-3.374244e+001
4243674.177	-8.721230e+000	-1.513219e+002	-2.053796e+001	4.112170e+001	-2.063120e+001	4.221057e+001	-1.139529e+001	-3.791684e+001
4268110.919	-8.609579e+000	-1.553360e+002	-2.098817e+001	3.960063e+001	-2.107180e+001	4.078168e+001	-1.126995e+001	-4.203157e+001
4292547.660	-8.520309e+000	-1.593835e+002	-2.141557e+001	3.862726e+001	-2.148734e+001	3.982850e+001	-1.115820e+001	-4.613813e+001
4316984.402	-8.464358e+000	-1.634664e+002	-2.176739e+001	3.829355e+001	-2.183849e+001	3.952892e+001	-1.106789e+001	-5.025700e+001
4341421.144	-8.439894e+000	-1.675123e+002	-2.199345e+001	3.839505e+001	-2.204926e+001	3.969362e+001	-1.100549e+001	-5.431610e+001
4365857.886	-8.440258e+000	-1.714197e+002	-2.207491e+001	3.824402e+001	-2.211588e+001	3.955468e+001	-1.095905e+001	-5.820478e+001
4390294.627	-8.443434e+000	-1.751973e+002	-2.210818e+001	3.738228e+001	-2.214715e+001	3.869069e+001	-1.090156e+001	-6.190912e+001
4414731.369	-8.433011e+000	-1.790189e+002	-2.222063e+001	3.629304e+001	-2.226380e+001	3.756432e+001	-1.081516e+001	-6.561017e+001
4439168.111	-8.422488e+000	1.769179e+002	-2.242055e+001	3.586846e+001	-2.248304e+001	3.710065e+001	-1.070072e+001	-6.953670e+001
4463604.853	-8.431684e+000	1.725904e+002	-2.261862e+001	3.678619e+001	-2.270214e+001	3.823911e+001	-1.058588e+001	-7.379193e+001
4488041.594	-8.490373e+000	1.679308e+002	-2.264186e+001	3.950973e+001	-2.272477e+001	4.128613e+001	-1.049852e+001	-7.844123e+001
4512478.336	-8.634866e+000	1.630401e+002	-2.224850e+001	4.314338e+001	-2.227645e+001	4.528285e+001	-1.047611e+001	-8.344969e+001
4536915.078	-8.894692e+000	1.581858e+002	-2.135987e+001	4.556265e+001	-2.132516e+001	4.769036e+001	-1.055205e+001	-8.856920e+001
4561351.820	-9.253615e+000	1.537980e+002	-2.024454e+001	4.481146e+001	-2.016767e+001	4.687237e+001	-1.072109e+001	-9.344241e+001
4585788.562	-9.659811e+000	1.500200e+002	-1.922497e+001	4.154301e+001	-1.911233e+001	4.345135e+001	-1.094675e+001	-9.785485e+001
4610225.303	-1.007024e+001	1.468135e+002	-1.839481e+001	3.682082e+001	-1.824351e+001	3.853514e+001	-1.119055e+001	-1.018031e+002
4634662.045	-1.045184e+001	1.440061e+002	-1.776094e+001	3.146604e+001	-1.757667e+001	3.290680e+001	-1.142118e+001	-1.053156e+002
4659098.787	-1.079667e+001	1.413356e+002	-1.729219e+001	2.613611e+001	-1.708903e+001	2.727043e+001	-1.160797e+001	-1.086279e+002
4683535.529	-1.112887e+001	1.384952e+002	-1.691320e+001	2.128049e+001	-1.672307e+001	2.199929e+001	-1.174823e+001	-1.119713e+002
4707972.270	-1.146645e+001	1.352420e+002	-1.660358e+001	1.729618e+001	-1.640359e+001	1.745990e+001	-1.185673e+001	-1.156561e+002
4732409.012	-1.192399e+001	1.318614e+002	-1.616851e+001	1.361588e+001	-1.600314e+001	1.333924e+001	-1.201169e+001	-1.198131e+002
4756845.754	-1.253245e+001	1.289387e+002	-1.558846e+001	9.507851e+000	-1.550340e+001	8.987171e+000	-1.225421e+001	-1.241890e+002
4781282.496	-1.322193e+001	1.271323e+002	-1.497500e+001	4.322660e+000	-1.497233e+001	3.897566e+000	-1.258670e+001	-1.283411e+002
4805719.237	-1.388403e+001	1.264179e+002	-1.443736e+001	-1.628638e+000	-1.448954e+001	-1.778301e+000	-1.296759e+001	-1.321059e+002
4830155.979	-1.446915e+001	1.265119e+002	-1.399099e+001	-7.973940e+000	-1.405686e+001	-7.724491e+000	-1.337945e+001	-1.355773e+002
4854592.721	-1.497402e+001	1.270763e+002	-1.360925e+001	-1.436780e+001	-1.365948e+001	-1.387464e+001	-1.383014e+001	-1.387535e+002
4879029.463	-1.539306e+001	1.280726e+002	-1.327475e+001	-2.084416e+001	-1.328650e+001	-2.019426e+001	-1.432879e+001	-1.415793e+002
4903466.205	-1.571377e+001	1.293820e+002	-1.297314e+001	-2.738902e+001	-1.295700e+001	-2.675749e+001	-1.485325e+001	-1.438139e+002
4927902.946	-1.591276e+001	1.307883e+002	-1.270829e+001	-3.404554e+001	-1.267553e+001	-3.348866e+001	-1.537532e+001	-1.454085e+002
4952339.688	-1.599573e+001	1.318325e+002	-1.249645e+001	-4.077720e+001	-1.245702e+001	-4.041842e+001	-1.585031e+001	-1.462017e+002
4976776.430	-1.600158e+001	1.325367e+002	-1.231499e+001	-4.751188e+001	-1.227327e+001	-4.718260e+001	-1.627606e+001	-1.467000e+002
5001213.172	-1.595682e+001	1.326984e+002	-1.216910e+001	-5.423055e+001	-1.212952e+001	-5.396085e+001	-1.662626e+001	-1.467643e+002
5025649.913	-1.589946e+001	1.322918e+002	-1.205626e+001	-6.091666e+001	-1.202077e+001	-6.066537e+001	-1.689263e+001	-1.466333e+002
5050086.655	-1.584975e+001	1.314278e+002	-1.197303e+001	-6.755030e+001	-1.194127e+001	-6.732009e+001	-1.706881e+001	-1.464123e+002
5074523.397	-1.582714e+001	1.301624e+002	-1.191240e+001	-7.411838e+001	-1.188415e+001	-7.389425e+001	-1.716716e+001	-1.462506e+002
5098960.139	-1.583999e+001	1.285903e+002	-1.187272e+001	-8.061903e+001	-1.184639e+001	-8.039649e+001	-1.719450e+001	-1.462553e+002
5123396.880	-1.589563e+001	1.268101e+002	-1.185334e+001	-8.706750e+001	-1.182774e+001	-8.682224e+001	-1.715986e+001	-1.465333e+002
5147833.622	-1.599338e+001	1.248686e+002	-1.184850e+001	-9.344805e+001	-1.182284e+001	-9.320203e+001	-1.707614e+001	-1.470981e+002
5172270.364	-1.613556e+001	1.228425e+002	-1.185694e+001	-9.978165e+001	-1.182947e+001	-9.951970e+001	-1.696079e+001	-1.479907e+002
5196707.106	-1.632048e+001	1.207567e+002	-1.187834e+001	-1.060673e+002	-1.184879e+001	-1.057874e+002	-1.681761e+001	-1.492097e+002
5221143.847	-1.655285e+001	1.186265e+002	-1.191230e+001	-1.122824e+002	-1.187225e+001	-1.119561e+002	-1.667801e+001	-1.507411e+002
5245580.589	-1.682969e+001	1.165174e+002	-1.195698e+001	-1.184848e+002	-1.191618e+001	-1.181570e+002	-1.650117e+001	-1.526659e+002
5270017.331	-1.716154e+001	1.144230e+002	-1.201313e+001	-1.246423e+002	-1.196999e+001	-1.243147e+002	-1.632011e+001	-1.549200e+002
5294454.073	-1.754652e+001	1.124303e+002	-1.208029e+001	-1.307518e+002	-1.203423e+001	-1.304204e+002	-1.615295e+001	-1.575017e+002
5318890.815	-1.798141e+001	1.105841e+002	-1.215327e+001	-1.368014e+002	-1.210585e+001	-1.364591e+002	-1.599908e+001	-1.603544e+002
5343327.556	-1.846614e+001	1.088698e+002	-1.222984e+001	-1.428255e+002	-1.218151e+001	-1.424909e+002	-1.585485e+001	-1.634101e+002
5367764.298	-1.900172e+001	1.072341e+002	-1.230980e+001	-1.488734e+002	-1.226224e+001	-1.485230e+002	-1.571500e+001	-1.666726e+002
5392201.040	-1.960432e+001	1.057338e+002	-1.239938e+001	-1.549207e+002	-1.234986e+001	-1.545698e+002	-1.558014e+001	-1.701442e+002
5416637.782	-2.029444e+001	1.043566e+002	-1.249798e+001	-1.609792e+002	-1.244995e+001	-1.606353e+002	-1.544949e+001	-1.738628e+002
5441074.523	-2.109030e+001	1.032134e+002	-1.261095e+001	-1.670417e+002	-1.256276e+001	-1.667012e+002	-1.532987e+001	-1.778339e+002
