!Agilent Technologies,E5061B,MY49101568,A.02.00
!Date: Wed Mar 01 13:16:03 2023
!Data & Calibration Information:
!Freq	S11:SOLT2(OFF)	S21:SOLT2(OFF)	S12:SOLT2(OFF)	S22:SOLT2(OFF)
# Hz S dB R 50
1800000.000	-1.483118e+001	3.855800e+000	-1.272288e+001	1.739661e+002	-1.270989e+001	1.740610e+002	-1.622285e+001	4.917782e+001
1824436.742	-1.482154e+001	3.069584e+000	-1.267468e+001	1.679212e+002	-1.266374e+001	1.680139e+002	-1.604578e+001	4.886977e+001
1848873.484	-1.477597e+001	1.984373e+000	-1.263697e+001	1.619940e+002	-1.262807e+001	1.620898e+002	-1.584865e+001	4.800750e+001
1873310.225	-1.469209e+001	6.242884e-001	-1.261407e+001	1.562058e+002	-1.260886e+001	1.563086e+002	-1.563282e+001	4.659100e+001
1897746.967	-1.458092e+001	-1.127444e+000	-1.260145e+001	1.505588e+002	-1.259219e+001	1.506289e+002	-1.542699e+001	4.470587e+001
1922183.709	-1.446382e+001	-3.246945e+000	-1.259318e+001	1.450271e+002	-1.258415e+001	1.451163e+002	-1.524461e+001	4.231335e+001
1946620.451	-1.434781e+001	-5.774022e+000	-1.259705e+001	1.396651e+002	-1.258483e+001	1.397680e+002	-1.508523e+001	3.947064e+001
1971057.192	-1.425791e+001	-8.405304e+000	-1.257123e+001	1.343878e+002	-1.257087e+001	1.345423e+002	-1.496988e+001	3.643648e+001
1995493.934	-1.420779e+001	-1.143447e+001	-1.254668e+001	1.294149e+002	-1.254887e+001	1.294894e+002	-1.489182e+001	3.318513e+001
2019930.676	-1.413915e+001	-1.429365e+001	-1.249901e+001	1.242532e+002	-1.249197e+001	1.243330e+002	-1.481889e+001	3.002621e+001
2044367.418	-1.405703e+001	-1.734515e+001	-1.244785e+001	1.190711e+002	-1.244759e+001	1.191442e+002	-1.474490e+001	2.654085e+001
2068804.159	-1.397482e+001	-2.070346e+001	-1.241036e+001	1.139325e+002	-1.241318e+001	1.140230e+002	-1.468078e+001	2.279087e+001
2093240.901	-1.390869e+001	-2.441960e+001	-1.238480e+001	1.089675e+002	-1.238431e+001	1.090181e+002	-1.464612e+001	1.873677e+001
2117677.643	-1.388386e+001	-2.828269e+001	-1.234294e+001	1.040863e+002	-1.234528e+001	1.041643e+002	-1.464815e+001	1.449583e+001
2142114.385	-1.388214e+001	-3.219085e+001	-1.227736e+001	9.924442e+001	-1.228326e+001	9.934203e+001	-1.467326e+001	1.016539e+001
2166551.127	-1.389032e+001	-3.628709e+001	-1.221116e+001	9.437000e+001	-1.221513e+001	9.439769e+001	-1.469949e+001	5.700372e+000
2190987.868	-1.391886e+001	-4.060145e+001	-1.214143e+001	8.951817e+001	-1.215222e+001	8.955566e+001	-1.475200e+001	9.236843e-001
2215424.610	-1.398961e+001	-4.517325e+001	-1.207450e+001	8.474382e+001	-1.208813e+001	8.480643e+001	-1.483421e+001	-4.155505e+000
2239861.352	-1.411139e+001	-4.983580e+001	-1.198714e+001	8.006760e+001	-1.201075e+001	8.012298e+001	-1.495918e+001	-9.431689e+000
2264298.094	-1.427398e+001	-5.452458e+001	-1.187828e+001	7.539444e+001	-1.190520e+001	7.548793e+001	-1.512857e+001	-1.483384e+001
2288734.835	-1.446751e+001	-5.909690e+001	-1.173998e+001	7.066414e+001	-1.177682e+001	7.083721e+001	-1.532902e+001	-2.031914e+001
2313171.577	-1.468674e+001	-6.373749e+001	-1.159034e+001	6.579936e+001	-1.162455e+001	6.602238e+001	-1.555351e+001	-2.585028e+001
2337608.319	-1.492011e+001	-6.845604e+001	-1.143460e+001	6.080370e+001	-1.146815e+001	6.109194e+001	-1.579562e+001	-3.158962e+001
2362045.061	-1.520063e+001	-7.331568e+001	-1.127896e+001	5.579282e+001	-1.130920e+001	5.605929e+001	-1.605684e+001	-3.751020e+001
2386481.802	-1.551606e+001	-7.826321e+001	-1.111609e+001	5.061526e+001	-1.114426e+001	5.092878e+001	-1.634658e+001	-4.373138e+001
2410918.544	-1.587136e+001	-8.327561e+001	-1.095286e+001	4.532435e+001	-1.097937e+001	4.565517e+001	-1.665477e+001	-5.016096e+001
2435355.286	-1.627013e+001	-8.848504e+001	-1.079440e+001	3.989238e+001	-1.081749e+001	4.023690e+001	-1.698826e+001	-5.689926e+001
2459792.028	-1.673699e+001	-9.387142e+001	-1.064631e+001	3.438489e+001	-1.066263e+001	3.472937e+001	-1.734660e+001	-6.395607e+001
2484228.769	-1.726599e+001	-9.946135e+001	-1.050673e+001	2.874607e+001	-1.052097e+001	2.911683e+001	-1.773114e+001	-7.143202e+001
2508665.511	-1.788450e+001	-1.052303e+002	-1.038054e+001	2.303502e+001	-1.038826e+001	2.342654e+001	-1.815234e+001	-7.930414e+001
2533102.253	-1.859874e+001	-1.111876e+002	-1.026739e+001	1.726568e+001	-1.027490e+001	1.761631e+001	-1.859110e+001	-8.759485e+001
2557538.995	-1.943481e+001	-1.174692e+002	-1.017475e+001	1.139622e+001	-1.017990e+001	1.174727e+001	-1.904599e+001	-9.635306e+001
2581975.737	-2.043191e+001	-1.240629e+002	-1.010047e+001	5.497826e+000	-1.010253e+001	5.847831e+000	-1.951813e+001	-1.056717e+002
2606412.478	-2.163917e+001	-1.310393e+002	-1.004510e+001	-4.126263e-001	-1.004594e+001	-6.596064e-002	-1.999674e+001	-1.155699e+002
2630849.220	-2.311958e+001	-1.384421e+002	-1.000844e+001	-6.309328e+000	-1.000467e+001	-5.959467e+000	-2.048461e+001	-1.260936e+002
2655285.962	-2.496541e+001	-1.463594e+002	-9.986376e+000	-1.217300e+001	-9.978516e+000	-1.184819e+001	-2.096554e+001	-1.371466e+002
2679722.704	-2.731943e+001	-1.552802e+002	-9.978385e+000	-1.803169e+001	-9.965143e+000	-1.771957e+001	-2.142885e+001	-1.486057e+002
2704159.445	-3.043546e+001	-1.665875e+002	-9.981318e+000	-2.392165e+001	-9.970756e+000	-2.364335e+001	-2.183000e+001	-1.602302e+002
2728596.187	-3.489411e+001	1.736549e+002	-1.000916e+001	-2.977205e+001	-9.996651e+000	-2.947947e+001	-2.214859e+001	-1.721259e+002
2753032.929	-3.999896e+001	1.217601e+002	-1.005531e+001	-3.555330e+001	-1.004182e+001	-3.529174e+001	-2.237712e+001	1.760060e+002
2777469.671	-3.663537e+001	5.714355e+001	-1.011604e+001	-4.124853e+001	-1.009832e+001	-4.099282e+001	-2.252520e+001	1.641847e+002
2801906.412	-3.193252e+001	3.230817e+001	-1.018822e+001	-4.685921e+001	-1.017135e+001	-4.661938e+001	-2.259498e+001	1.527590e+002
2826343.154	-2.871724e+001	1.948742e+001	-1.026907e+001	-5.237014e+001	-1.025454e+001	-5.215243e+001	-2.258700e+001	1.416932e+002
2850779.896	-2.643285e+001	1.045485e+001	-1.035872e+001	-5.778095e+001	-1.034470e+001	-5.759203e+001	-2.254264e+001	1.312639e+002
2875216.638	-2.470421e+001	3.009734e+000	-1.045480e+001	-6.313230e+001	-1.044128e+001	-6.293109e+001	-2.247211e+001	1.214775e+002
2899653.380	-2.335029e+001	-3.543392e+000	-1.055452e+001	-6.836571e+001	-1.054024e+001	-6.815078e+001	-2.237221e+001	1.121611e+002
2924090.121	-2.224489e+001	-9.644936e+000	-1.065065e+001	-7.348901e+001	-1.063995e+001	-7.331768e+001	-2.229580e+001	1.035184e+002
2948526.863	-2.133834e+001	-1.519777e+001	-1.075166e+001	-7.857642e+001	-1.074282e+001	-7.842106e+001	-2.224083e+001	9.552739e+001
2972963.605	-2.057935e+001	-2.041418e+001	-1.085797e+001	-8.357388e+001	-1.085094e+001	-8.342541e+001	-2.217683e+001	8.816852e+001
2997400.347	-1.991770e+001	-2.539333e+001	-1.096184e+001	-8.845173e+001	-1.095836e+001	-8.830074e+001	-2.210238e+001	8.116327e+001
3021837.088	-1.934372e+001	-3.026752e+001	-1.105875e+001	-9.321799e+001	-1.105830e+001	-9.307716e+001	-2.204218e+001	7.445024e+001
3046273.830	-1.884809e+001	-3.496360e+001	-1.115230e+001	-9.789577e+001	-1.115234e+001	-9.776189e+001	-2.201085e+001	6.802225e+001
3070710.572	-1.842050e+001	-3.965178e+001	-1.122837e+001	-1.024779e+002	-1.123245e+001	-1.023676e+002	-2.200883e+001	6.165917e+001
3095147.314	-1.806792e+001	-4.426063e+001	-1.128769e+001	-1.070539e+002	-1.129562e+001	-1.069396e+002	-2.207997e+001	5.543996e+001
3119584.055	-1.778369e+001	-4.874533e+001	-1.133638e+001	-1.116558e+002	-1.134689e+001	-1.115415e+002	-2.222576e+001	4.946662e+001
3144020.797	-1.756101e+001	-5.308931e+001	-1.137662e+001	-1.162460e+002	-1.138978e+001	-1.161720e+002	-2.244366e+001	4.394095e+001
3168457.539	-1.738926e+001	-5.728502e+001	-1.141348e+001	-1.209021e+002	-1.142991e+001	-1.208124e+002	-2.273675e+001	3.870230e+001
3192894.281	-1.726761e+001	-6.125187e+001	-1.144440e+001	-1.256058e+002	-1.146213e+001	-1.255128e+002	-2.311087e+001	3.390868e+001
3217331.023	-1.719137e+001	-6.503446e+001	-1.147805e+001	-1.303396e+002	-1.149679e+001	-1.302417e+002	-2.355953e+001	2.963950e+001
3241767.764	-1.715126e+001	-6.857617e+001	-1.151471e+001	-1.351108e+002	-1.153724e+001	-1.349959e+002	-2.406704e+001	2.612867e+001
3266204.506	-1.712367e+001	-7.187955e+001	-1.155951e+001	-1.398503e+002	-1.158162e+001	-1.397183e+002	-2.459131e+001	2.334769e+001
3290641.248	-1.711716e+001	-7.509515e+001	-1.159683e+001	-1.445253e+002	-1.161974e+001	-1.443775e+002	-2.513591e+001	2.078379e+001
3315077.990	-1.715049e+001	-7.828296e+001	-1.161523e+001	-1.492272e+002	-1.163958e+001	-1.490800e+002	-2.581478e+001	1.847900e+001
3339514.731	-1.723808e+001	-8.121721e+001	-1.162980e+001	-1.540671e+002	-1.165498e+001	-1.539051e+002	-2.668781e+001	1.743534e+001
3363951.473	-1.736973e+001	-8.377039e+001	-1.165355e+001	-1.590283e+002	-1.167820e+001	-1.588584e+002	-2.768255e+001	1.858148e+001
3388388.215	-1.751988e+001	-8.590084e+001	-1.169073e+001	-1.640385e+002	-1.171589e+001	-1.638675e+002	-2.864863e+001	2.242833e+001
3412824.957	-1.768159e+001	-8.755723e+001	-1.174128e+001	-1.691090e+002	-1.176769e+001	-1.689339e+002	-2.937837e+001	2.946808e+001
3437261.698	-1.783975e+001	-8.875819e+001	-1.180698e+001	-1.742036e+002	-1.183280e+001	-1.740222e+002	-2.961297e+001	3.892325e+001
3461698.440	-1.797375e+001	-8.941737e+001	-1.189109e+001	-1.793267e+002	-1.191574e+001	-1.791389e+002	-2.917920e+001	4.874924e+001
3486135.182	-1.806792e+001	-8.968962e+001	-1.199202e+001	1.755865e+002	-1.201996e+001	1.757682e+002	-2.815350e+001	5.644658e+001
3510571.924	-1.809279e+001	-8.953563e+001	-1.211821e+001	1.705323e+002	-1.214486e+001	1.707050e+002	-2.684712e+001	6.102735e+001
3535008.666	-1.803616e+001	-8.916083e+001	-1.226454e+001	1.655657e+002	-1.229267e+001	1.657363e+002	-2.548760e+001	6.257829e+001
3559445.407	-1.788784e+001	-8.877270e+001	-1.242810e+001	1.607154e+002	-1.245636e+001	1.608902e+002	-2.424797e+001	6.211186e+001
3583882.149	-1.766195e+001	-8.862262e+001	-1.260085e+001	1.560666e+002	-1.263179e+001	1.562348e+002	-2.315468e+001	6.005074e+001
3608318.891	-1.739386e+001	-8.875194e+001	-1.276729e+001	1.515658e+002	-1.280148e+001	1.517504e+002	-2.224140e+001	5.731403e+001
3632755.633	-1.710567e+001	-8.911918e+001	-1.292613e+001	1.470988e+002	-1.295613e+001	1.473165e+002	-2.145255e+001	5.444566e+001
3657192.374	-1.679319e+001	-8.955164e+001	-1.308101e+001	1.426101e+002	-1.311555e+001	1.428431e+002	-2.070501e+001	5.148684e+001
3681629.116	-1.642600e+001	-9.009983e+001	-1.325498e+001	1.381196e+002	-1.329035e+001	1.383656e+002	-1.998109e+001	4.824473e+001
3706065.858	-1.600684e+001	-9.103568e+001	-1.345997e+001	1.337440e+002	-1.349595e+001	1.339998e+002	-1.929525e+001	4.443567e+001
3730502.600	-1.555381e+001	-9.243074e+001	-1.369279e+001	1.295443e+002	-1.373566e+001	1.297887e+002	-1.865855e+001	4.013122e+001
3754939.341	-1.508899e+001	-9.437135e+001	-1.395334e+001	1.256617e+002	-1.399166e+001	1.259021e+002	-1.810908e+001	3.544587e+001
3779376.083	-1.464524e+001	-9.701471e+001	-1.421856e+001	1.223319e+002	-1.426102e+001	1.225490e+002	-1.766731e+001	3.020868e+001
3803812.825	-1.426721e+001	-1.002052e+002	-1.445017e+001	1.195735e+002	-1.449273e+001	1.198272e+002	-1.737614e+001	2.478238e+001
3828249.567	-1.401087e+001	-1.037850e+002	-1.457177e+001	1.173527e+002	-1.462127e+001	1.175968e+002	-1.725572e+001	1.956821e+001
3852686.308	-1.388117e+001	-1.072786e+002	-1.455782e+001	1.151509e+002	-1.461190e+001	1.154285e+002	-1.729311e+001	1.506417e+001
3877123.050	-1.386415e+001	-1.101813e+002	-1.440903e+001	1.123722e+002	-1.447768e+001	1.126385e+002	-1.739617e+001	1.193852e+001
3901559.792	-1.385747e+001	-1.119923e+002	-1.423360e+001	1.084439e+002	-1.430633e+001	1.088378e+002	-1.742643e+001	1.027953e+001
3925996.534	-1.375984e+001	-1.132361e+002	-1.413979e+001	1.038683e+002	-1.420492e+001	1.042090e+002	-1.725457e+001	9.257166e+000
3950433.276	-1.353456e+001	-1.143821e+002	-1.415914e+001	9.899249e+001	-1.422791e+001	9.934303e+001	-1.689465e+001	7.688207e+000
3974870.017	-1.321935e+001	-1.160472e+002	-1.428322e+001	9.438707e+001	-1.435715e+001	9.470822e+001	-1.646260e+001	5.088270e+000
3999306.759	-1.287695e+001	-1.183200e+002	-1.447289e+001	9.021998e+001	-1.454728e+001	9.061608e+001	-1.606588e+001	1.605413e+000
4023743.501	-1.257855e+001	-1.212220e+002	-1.466422e+001	8.677478e+001	-1.474875e+001	8.721115e+001	-1.575545e+001	-2.533660e+000
4048180.243	-1.234290e+001	-1.244600e+002	-1.482035e+001	8.387635e+001	-1.490811e+001	8.441053e+001	-1.555374e+001	-6.889259e+000
4072616.984	-1.218168e+001	-1.278515e+002	-1.490682e+001	8.139966e+001	-1.498428e+001	8.204096e+001	-1.546065e+001	-1.120290e+001
4097053.726	-1.210157e+001	-1.311231e+002	-1.488423e+001	7.904313e+001	-1.496284e+001	7.970335e+001	-1.544597e+001	-1.514966e+001
4121490.468	-1.207181e+001	-1.340965e+002	-1.478116e+001	7.643645e+001	-1.485424e+001	7.714473e+001	-1.548594e+001	-1.860286e+001
4145927.210	-1.206562e+001	-1.367372e+002	-1.462877e+001	7.348312e+001	-1.469433e+001	7.421526e+001	-1.554116e+001	-2.156079e+001
4170363.951	-1.205198e+001	-1.390342e+002	-1.446515e+001	7.015108e+001	-1.451857e+001	7.083480e+001	-1.557555e+001	-2.405021e+001
4194800.693	-1.203458e+001	-1.411035e+002	-1.428891e+001	6.647543e+001	-1.434457e+001	6.716751e+001	-1.558408e+001	-2.629083e+001
4219237.435	-1.199185e+001	-1.430075e+002	-1.412706e+001	6.255692e+001	-1.418517e+001	6.323128e+001	-1.555415e+001	-2.836554e+001
4243674.177	-1.191991e+001	-1.448421e+002	-1.398458e+001	5.843972e+001	-1.403973e+001	5.913288e+001	-1.549420e+001	-3.035672e+001
4268110.919	-1.182363e+001	-1.466381e+002	-1.385773e+001	5.417962e+001	-1.391439e+001	5.489824e+001	-1.539577e+001	-3.235128e+001
4292547.660	-1.170412e+001	-1.484975e+002	-1.375299e+001	4.985201e+001	-1.380952e+001	5.058896e+001	-1.527359e+001	-3.439282e+001
4316984.402	-1.156830e+001	-1.504603e+002	-1.366630e+001	4.549872e+001	-1.372010e+001	4.625164e+001	-1.513164e+001	-3.656443e+001
4341421.144	-1.142094e+001	-1.525429e+002	-1.359404e+001	4.113048e+001	-1.364532e+001	4.191131e+001	-1.497990e+001	-3.885420e+001
4365857.886	-1.127298e+001	-1.547428e+002	-1.353107e+001	3.678086e+001	-1.358036e+001	3.757424e+001	-1.482301e+001	-4.124870e+001
4390294.627	-1.112406e+001	-1.570658e+002	-1.347671e+001	3.245220e+001	-1.352400e+001	3.327073e+001	-1.466536e+001	-4.379356e+001
4414731.369	-1.098164e+001	-1.595127e+002	-1.342728e+001	2.815899e+001	-1.347063e+001	2.900099e+001	-1.451674e+001	-4.644123e+001
4439168.111	-1.084694e+001	-1.620605e+002	-1.338228e+001	2.384591e+001	-1.342372e+001	2.476843e+001	-1.437561e+001	-4.922350e+001
4463604.853	-1.072418e+001	-1.646864e+002	-1.333599e+001	1.959503e+001	-1.337204e+001	2.054083e+001	-1.424300e+001	-5.202013e+001
4488041.594	-1.061440e+001	-1.673781e+002	-1.328692e+001	1.537105e+001	-1.332000e+001	1.632570e+001	-1.411993e+001	-5.487364e+001
4512478.336	-1.051424e+001	-1.701395e+002	-1.324076e+001	1.113355e+001	-1.326623e+001	1.210782e+001	-1.400671e+001	-5.776896e+001
4536915.078	-1.042716e+001	-1.729451e+002	-1.318857e+001	6.912209e+000	-1.321162e+001	7.894394e+000	-1.390426e+001	-6.071022e+001
4561351.820	-1.035245e+001	-1.758128e+002	-1.313797e+001	2.669745e+000	-1.315675e+001	3.668125e+000	-1.380824e+001	-6.368223e+001
4585788.562	-1.029343e+001	-1.787332e+002	-1.308769e+001	-1.560477e+000	-1.310072e+001	-5.510709e-001	-1.372432e+001	-6.670246e+001
4610225.303	-1.025033e+001	1.783106e+002	-1.303433e+001	-5.780643e+000	-1.304101e+001	-4.767271e+000	-1.365328e+001	-6.975429e+001
4634662.045	-1.022543e+001	1.753268e+002	-1.297682e+001	-1.000023e+001	-1.297690e+001	-8.981485e+000	-1.359616e+001	-7.283898e+001
4659098.787	-1.021674e+001	1.723252e+002	-1.291660e+001	-1.424140e+001	-1.291070e+001	-1.322233e+001	-1.355062e+001	-7.592064e+001
4683535.529	-1.022451e+001	1.693185e+002	-1.285075e+001	-1.848606e+001	-1.284033e+001	-1.747319e+001	-1.351738e+001	-7.901286e+001
4707972.270	-1.024873e+001	1.663273e+002	-1.278056e+001	-2.273419e+001	-1.276562e+001	-2.176198e+001	-1.349774e+001	-8.205964e+001
4732409.012	-1.028829e+001	1.633350e+002	-1.270568e+001	-2.704108e+001	-1.268498e+001	-2.609079e+001	-1.348799e+001	-8.511220e+001
4756845.754	-1.034228e+001	1.603466e+002	-1.262848e+001	-3.142082e+001	-1.260337e+001	-3.048139e+001	-1.348848e+001	-8.813797e+001
4781282.496	-1.041090e+001	1.573563e+002	-1.255347e+001	-3.583971e+001	-1.252217e+001	-3.491806e+001	-1.349464e+001	-9.114566e+001
4805719.237	-1.049451e+001	1.543689e+002	-1.247793e+001	-4.031841e+001	-1.244341e+001	-3.941011e+001	-1.350782e+001	-9.415213e+001
4830155.979	-1.059724e+001	1.513807e+002	-1.240506e+001	-4.483198e+001	-1.236556e+001	-4.394867e+001	-1.352817e+001	-9.715631e+001
4854592.721	-1.071702e+001	1.483969e+002	-1.233663e+001	-4.938647e+001	-1.229212e+001	-4.852382e+001	-1.355641e+001	-1.001437e+002
4879029.463	-1.085621e+001	1.454221e+002	-1.227177e+001	-5.397666e+001	-1.222319e+001	-5.313615e+001	-1.359142e+001	-1.031410e+002
4903466.205	-1.101657e+001	1.424741e+002	-1.220925e+001	-5.859471e+001	-1.215792e+001	-5.778512e+001	-1.363453e+001	-1.061219e+002
4927902.946	-1.119667e+001	1.395490e+002	-1.215140e+001	-6.324650e+001	-1.209682e+001	-6.246135e+001	-1.368570e+001	-1.091169e+002
4952339.688	-1.140097e+001	1.366623e+002	-1.209838e+001	-6.794725e+001	-1.204027e+001	-6.715089e+001	-1.374549e+001	-1.121240e+002
4976776.430	-1.162852e+001	1.338376e+002	-1.204867e+001	-7.263998e+001	-1.198725e+001	-7.186208e+001	-1.381733e+001	-1.150984e+002
5001213.172	-1.188019e+001	1.310749e+002	-1.200334e+001	-7.735089e+001	-1.193879e+001	-7.660304e+001	-1.389495e+001	-1.180612e+002
5025649.913	-1.215597e+001	1.283983e+002	-1.196275e+001	-8.207122e+001	-1.189603e+001	-8.136814e+001	-1.397930e+001	-1.210128e+002
5050086.655	-1.245593e+001	1.258234e+002	-1.192383e+001	-8.682258e+001	-1.185694e+001	-8.613996e+001	-1.407353e+001	-1.239434e+002
5074523.397	-1.277949e+001	1.233594e+002	-1.188970e+001	-9.157728e+001	-1.182197e+001	-9.093397e+001	-1.417263e+001	-1.268549e+002
5098960.139	-1.312510e+001	1.210217e+002	-1.185918e+001	-9.635628e+001	-1.179141e+001	-9.574871e+001	-1.428010e+001	-1.297237e+002
5123396.880	-1.349350e+001	1.188086e+002	-1.183556e+001	-1.011706e+002	-1.176804e+001	-1.006000e+002	-1.438643e+001	-1.325922e+002
5147833.622	-1.388383e+001	1.167276e+002	-1.181739e+001	-1.059987e+002	-1.175021e+001	-1.054580e+002	-1.449747e+001	-1.354667e+002
5172270.364	-1.430315e+001	1.148080e+002	-1.180710e+001	-1.108233e+002	-1.174352e+001	-1.103118e+002	-1.461336e+001	-1.383728e+002
5196707.106	-1.475088e+001	1.130769e+002	-1.180485e+001	-1.156326e+002	-1.174208e+001	-1.151506e+002	-1.473823e+001	-1.413082e+002
5221143.847	-1.522616e+001	1.116110e+002	-1.180616e+001	-1.203911e+002	-1.174571e+001	-1.199670e+002	-1.487569e+001	-1.442148e+002
5245580.589	-1.572468e+001	1.104440e+002	-1.180950e+001	-1.251490e+002	-1.175128e+001	-1.247568e+002	-1.502074e+001	-1.471371e+002
5270017.331	-1.623700e+001	1.095876e+002	-1.181191e+001	-1.299096e+002	-1.175853e+001	-1.295326e+002	-1.517732e+001	-1.500343e+002
5294454.073	-1.675772e+001	1.090842e+002	-1.181530e+001	-1.346664e+002	-1.176396e+001	-1.343075e+002	-1.533811e+001	-1.528681e+002
5318890.815	-1.728141e+001	1.089318e+002	-1.181942e+001	-1.394242e+002	-1.177049e+001	-1.390851e+002	-1.550277e+001	-1.556794e+002
5343327.556	-1.779777e+001	1.091266e+002	-1.182502e+001	-1.442149e+002	-1.177907e+001	-1.438855e+002	-1.566516e+001	-1.584696e+002
5367764.298	-1.830781e+001	1.096400e+002	-1.183146e+001	-1.490157e+002	-1.178881e+001	-1.486956e+002	-1.582364e+001	-1.612279e+002
5392201.040	-1.880429e+001	1.104763e+002	-1.184331e+001	-1.538461e+002	-1.180347e+001	-1.535304e+002	-1.598073e+001	-1.640435e+002
5416637.782	-1.928559e+001	1.116503e+002	-1.185909e+001	-1.586840e+002	-1.182201e+001	-1.583727e+002	-1.613140e+001	-1.668895e+002
5441074.523	-1.974617e+001	1.131618e+002	-1.187945e+001	-1.635321e+002	-1.184599e+001	-1.632249e+002	-1.628002e+001	-1.698048e+002
