!Agilent Technologies,E5061B,MY49101568,A.02.00
!Date: Wed Mar 01 13:16:17 2023
!Data & Calibration Information:
!Freq	S11:SOLT2(OFF)	S21:SOLT2(OFF)	S12:SOLT2(OFF)	S22:SOLT2(OFF)
# Hz S dB R 50
1800000.000	-9.895996e+000	-1.505618e+001	-2.264725e+001	-1.531243e+002	-2.257122e+001	-1.535823e+002	-1.037367e+001	2.171404e+001
1824436.742	-1.001799e+001	-1.910738e+001	-2.239181e+001	-1.572581e+002	-2.232768e+001	-1.577638e+002	-1.051894e+001	1.821905e+001
1848873.484	-1.014464e+001	-2.324028e+001	-2.213119e+001	-1.614045e+002	-2.207971e+001	-1.619132e+002	-1.066409e+001	1.465700e+001
1873310.225	-1.027853e+001	-2.741732e+001	-2.186019e+001	-1.656045e+002	-2.182135e+001	-1.660822e+002	-1.080618e+001	1.106625e+001
1897746.967	-1.040843e+001	-3.165822e+001	-2.158832e+001	-1.697213e+002	-2.154807e+001	-1.703165e+002	-1.094751e+001	7.419291e+000
1922183.709	-1.054631e+001	-3.600521e+001	-2.130041e+001	-1.740033e+002	-2.127340e+001	-1.745159e+002	-1.108635e+001	3.652477e+000
1946620.451	-1.068775e+001	-4.046101e+001	-2.099933e+001	-1.782719e+002	-2.098164e+001	-1.787753e+002	-1.122358e+001	-2.008844e-001
1971057.192	-1.083431e+001	-4.502581e+001	-2.069741e+001	1.773622e+002	-2.068130e+001	1.768769e+002	-1.136245e+001	-4.131309e+000
1995493.934	-1.099139e+001	-4.970573e+001	-2.037427e+001	1.729649e+002	-2.036784e+001	1.725342e+002	-1.150158e+001	-8.170828e+000
2019930.676	-1.115617e+001	-5.451449e+001	-2.005145e+001	1.685271e+002	-2.005747e+001	1.681307e+002	-1.163223e+001	-1.227185e+001
2044367.418	-1.132877e+001	-5.943939e+001	-1.971104e+001	1.640649e+002	-1.971783e+001	1.637102e+002	-1.176420e+001	-1.655677e+001
2068804.159	-1.151927e+001	-6.450629e+001	-1.934762e+001	1.594578e+002	-1.936191e+001	1.591152e+002	-1.189712e+001	-2.091408e+001
2093240.901	-1.172433e+001	-6.963683e+001	-1.897683e+001	1.546791e+002	-1.900497e+001	1.543685e+002	-1.203165e+001	-2.531850e+001
2117677.643	-1.194157e+001	-7.494067e+001	-1.860873e+001	1.497512e+002	-1.863670e+001	1.494704e+002	-1.216808e+001	-2.983310e+001
2142114.385	-1.217611e+001	-8.040076e+001	-1.823671e+001	1.446767e+002	-1.826167e+001	1.444544e+002	-1.229511e+001	-3.448139e+001
2166551.127	-1.243125e+001	-8.597674e+001	-1.785976e+001	1.394054e+002	-1.789199e+001	1.392745e+002	-1.242037e+001	-3.922519e+001
2190987.868	-1.270720e+001	-9.168573e+001	-1.748694e+001	1.339323e+002	-1.752663e+001	1.338693e+002	-1.254254e+001	-4.405807e+001
2215424.610	-1.299568e+001	-9.759492e+001	-1.712438e+001	1.283458e+002	-1.717119e+001	1.283443e+002	-1.265596e+001	-4.901855e+001
2239861.352	-1.330244e+001	-1.036612e+002	-1.678207e+001	1.225840e+002	-1.682798e+001	1.226332e+002	-1.275827e+001	-5.409450e+001
2264298.094	-1.362633e+001	-1.099081e+002	-1.644391e+001	1.167078e+002	-1.649227e+001	1.168066e+002	-1.285150e+001	-5.929237e+001
2288734.835	-1.396638e+001	-1.163355e+002	-1.612948e+001	1.106887e+002	-1.617067e+001	1.108905e+002	-1.293305e+001	-6.463597e+001
2313171.577	-1.431980e+001	-1.230119e+002	-1.582763e+001	1.045589e+002	-1.586412e+001	1.048881e+002	-1.299983e+001	-7.016130e+001
2337608.319	-1.469224e+001	-1.299537e+002	-1.553971e+001	9.833920e+001	-1.556815e+001	9.870506e+001	-1.305917e+001	-7.581430e+001
2362045.061	-1.506694e+001	-1.370974e+002	-1.527783e+001	9.199570e+001	-1.529683e+001	9.237839e+001	-1.309937e+001	-8.155203e+001
2386481.802	-1.542627e+001	-1.445269e+002	-1.505612e+001	8.551103e+001	-1.505697e+001	8.598639e+001	-1.311384e+001	-8.748732e+001
2410918.544	-1.576240e+001	-1.524432e+002	-1.486363e+001	7.910701e+001	-1.485446e+001	7.958505e+001	-1.309665e+001	-9.359567e+001
2435355.286	-1.608828e+001	-1.611548e+002	-1.468039e+001	7.295362e+001	-1.465757e+001	7.333864e+001	-1.305727e+001	-1.000518e+002
2459792.028	-1.646079e+001	-1.704675e+002	-1.446759e+001	6.671222e+001	-1.443989e+001	6.701792e+001	-1.302977e+001	-1.068137e+002
2484228.769	-1.685513e+001	1.799474e+002	-1.425023e+001	6.018220e+001	-1.423131e+001	6.054455e+001	-1.300280e+001	-1.137512e+002
2508665.511	-1.722321e+001	1.701950e+002	-1.406833e+001	5.343992e+001	-1.404087e+001	5.383291e+001	-1.298095e+001	-1.207567e+002
2533102.253	-1.754556e+001	1.602892e+002	-1.391888e+001	4.656513e+001	-1.388292e+001	4.696495e+001	-1.296022e+001	-1.278026e+002
2557538.995	-1.778025e+001	1.501177e+002	-1.381732e+001	3.963969e+001	-1.377317e+001	4.000701e+001	-1.292157e+001	-1.348713e+002
2581975.737	-1.792688e+001	1.398100e+002	-1.375339e+001	3.269760e+001	-1.370016e+001	3.305041e+001	-1.287083e+001	-1.420399e+002
2606412.478	-1.797413e+001	1.293858e+002	-1.373244e+001	2.580378e+001	-1.366701e+001	2.614413e+001	-1.280684e+001	-1.492261e+002
2630849.220	-1.791835e+001	1.188680e+002	-1.374024e+001	1.904596e+001	-1.367059e+001	1.934795e+001	-1.273186e+001	-1.565143e+002
2655285.962	-1.778614e+001	1.083277e+002	-1.377209e+001	1.243157e+001	-1.369268e+001	1.268368e+001	-1.265777e+001	-1.639111e+002
2679722.704	-1.761161e+001	9.801522e+001	-1.381367e+001	5.890653e+000	-1.372631e+001	6.050886e+000	-1.260248e+001	-1.713104e+002
2704159.445	-1.740113e+001	8.818388e+001	-1.387543e+001	-7.109954e-001	-1.379249e+001	-5.318287e-001	-1.254858e+001	-1.786209e+002
2728596.187	-1.712465e+001	7.872662e+001	-1.396802e+001	-7.127427e+000	-1.388265e+001	-7.057644e+000	-1.250537e+001	1.741727e+002
2753032.929	-1.683434e+001	6.978016e+001	-1.408535e+001	-1.346032e+001	-1.400028e+001	-1.343155e+001	-1.246331e+001	1.670529e+002
2777469.671	-1.652276e+001	6.125164e+001	-1.422305e+001	-1.965002e+001	-1.413805e+001	-1.966639e+001	-1.242772e+001	1.600493e+002
2801906.412	-1.620424e+001	5.312498e+001	-1.437762e+001	-2.567790e+001	-1.429155e+001	-2.575713e+001	-1.239931e+001	1.531816e+002
2826343.154	-1.589280e+001	4.541667e+001	-1.453968e+001	-3.158483e+001	-1.445886e+001	-3.168654e+001	-1.238014e+001	1.464812e+002
2850779.896	-1.558601e+001	3.810939e+001	-1.471728e+001	-3.732008e+001	-1.463897e+001	-3.747228e+001	-1.236846e+001	1.399375e+002
2875216.638	-1.529135e+001	3.118582e+001	-1.490667e+001	-4.294609e+001	-1.482791e+001	-4.308571e+001	-1.236336e+001	1.335599e+002
2899653.380	-1.500686e+001	2.455422e+001	-1.509532e+001	-4.836550e+001	-1.502352e+001	-4.856942e+001	-1.236601e+001	1.273938e+002
2924090.121	-1.474308e+001	1.826724e+001	-1.528977e+001	-5.367435e+001	-1.522286e+001	-5.389201e+001	-1.237672e+001	1.214093e+002
2948526.863	-1.449097e+001	1.226672e+001	-1.548856e+001	-5.885007e+001	-1.542648e+001	-5.909017e+001	-1.239342e+001	1.156348e+002
2972963.605	-1.424965e+001	6.545550e+000	-1.569345e+001	-6.386122e+001	-1.563636e+001	-6.414648e+001	-1.240987e+001	1.100406e+002
2997400.347	-1.401603e+001	1.055921e+000	-1.589627e+001	-6.870740e+001	-1.584632e+001	-6.901378e+001	-1.242853e+001	1.046053e+002
3021837.088	-1.379685e+001	-4.229486e+000	-1.609477e+001	-7.341810e+001	-1.604835e+001	-7.373458e+001	-1.244939e+001	9.932094e+001
3046273.830	-1.358984e+001	-9.331272e+000	-1.628530e+001	-7.798186e+001	-1.624413e+001	-7.830274e+001	-1.247152e+001	9.417105e+001
3070710.572	-1.339178e+001	-1.428461e+001	-1.646351e+001	-8.241572e+001	-1.642994e+001	-8.274664e+001	-1.249838e+001	8.916397e+001
3095147.314	-1.320986e+001	-1.907026e+001	-1.662883e+001	-8.676360e+001	-1.660056e+001	-8.710485e+001	-1.253487e+001	8.426924e+001
3119584.055	-1.304158e+001	-2.372580e+001	-1.678299e+001	-9.106507e+001	-1.676062e+001	-9.141904e+001	-1.257585e+001	7.954090e+001
3144020.797	-1.288364e+001	-2.821208e+001	-1.693342e+001	-9.527933e+001	-1.691300e+001	-9.567312e+001	-1.262191e+001	7.497706e+001
3168457.539	-1.273669e+001	-3.256887e+001	-1.707226e+001	-9.945485e+001	-1.705755e+001	-9.985113e+001	-1.266996e+001	7.053796e+001
3192894.281	-1.259916e+001	-3.680307e+001	-1.720775e+001	-1.036065e+002	-1.719839e+001	-1.039927e+002	-1.272070e+001	6.623585e+001
3217331.023	-1.246952e+001	-4.091375e+001	-1.733368e+001	-1.077194e+002	-1.732969e+001	-1.081026e+002	-1.277237e+001	6.206630e+001
3241767.764	-1.234701e+001	-4.490542e+001	-1.745923e+001	-1.117589e+002	-1.745667e+001	-1.121556e+002	-1.282340e+001	5.803226e+001
3266204.506	-1.222767e+001	-4.879744e+001	-1.758121e+001	-1.157491e+002	-1.758652e+001	-1.161265e+002	-1.286936e+001	5.411948e+001
3290641.248	-1.211076e+001	-5.260454e+001	-1.769599e+001	-1.196108e+002	-1.770421e+001	-1.199703e+002	-1.291197e+001	5.027704e+001
3315077.990	-1.200149e+001	-5.637156e+001	-1.778632e+001	-1.234446e+002	-1.779989e+001	-1.237865e+002	-1.295823e+001	4.648021e+001
3339514.731	-1.190337e+001	-6.006069e+001	-1.786658e+001	-1.272774e+002	-1.788479e+001	-1.276180e+002	-1.301002e+001	4.276714e+001
3363951.473	-1.180997e+001	-6.367528e+001	-1.793946e+001	-1.311313e+002	-1.796288e+001	-1.314561e+002	-1.306655e+001	3.919433e+001
3388388.215	-1.172615e+001	-6.720134e+001	-1.801071e+001	-1.349629e+002	-1.803764e+001	-1.352969e+002	-1.312355e+001	3.572511e+001
3412824.957	-1.164681e+001	-7.065478e+001	-1.807843e+001	-1.387962e+002	-1.810870e+001	-1.391047e+002	-1.317784e+001	3.233652e+001
3437261.698	-1.157156e+001	-7.403907e+001	-1.814113e+001	-1.426070e+002	-1.817390e+001	-1.429070e+002	-1.323145e+001	2.905746e+001
3461698.440	-1.150408e+001	-7.734186e+001	-1.819954e+001	-1.464173e+002	-1.823869e+001	-1.466932e+002	-1.328445e+001	2.587884e+001
3486135.182	-1.143960e+001	-8.058518e+001	-1.825040e+001	-1.501796e+002	-1.829766e+001	-1.504456e+002	-1.333348e+001	2.278133e+001
3510571.924	-1.137777e+001	-8.374764e+001	-1.830486e+001	-1.539181e+002	-1.835149e+001	-1.541861e+002	-1.338064e+001	1.979630e+001
3535008.666	-1.131864e+001	-8.684531e+001	-1.835023e+001	-1.576489e+002	-1.840558e+001	-1.578763e+002	-1.342058e+001	1.690038e+001
3559445.407	-1.125950e+001	-8.986803e+001	-1.839634e+001	-1.613323e+002	-1.845211e+001	-1.615086e+002	-1.344950e+001	1.406369e+001
3583882.149	-1.119763e+001	-9.283774e+001	-1.843478e+001	-1.649081e+002	-1.849601e+001	-1.650989e+002	-1.346952e+001	1.128785e+001
3608318.891	-1.113618e+001	-9.577120e+001	-1.845700e+001	-1.684900e+002	-1.852327e+001	-1.686245e+002	-1.348006e+001	8.548305e+000
3632755.633	-1.107377e+001	-9.868897e+001	-1.846375e+001	-1.720861e+002	-1.852812e+001	-1.721370e+002	-1.348966e+001	5.755178e+000
3657192.374	-1.101602e+001	-1.015884e+002	-1.845157e+001	-1.756717e+002	-1.852401e+001	-1.756922e+002	-1.349734e+001	3.028734e+000
3681629.116	-1.096059e+001	-1.044260e+002	-1.843707e+001	-1.793888e+002	-1.850846e+001	-1.793910e+002	-1.351025e+001	3.672352e-001
3706065.858	-1.090470e+001	-1.072244e+002	-1.842022e+001	1.768203e+002	-1.849753e+001	1.768242e+002	-1.351711e+001	-2.218305e+000
3730502.600	-1.085178e+001	-1.099502e+002	-1.841682e+001	1.729304e+002	-1.850303e+001	1.730123e+002	-1.351081e+001	-4.723986e+000
3754939.341	-1.078846e+001	-1.126133e+002	-1.844109e+001	1.690878e+002	-1.852553e+001	1.691915e+002	-1.348883e+001	-7.158560e+000
3779376.083	-1.071574e+001	-1.152268e+002	-1.848863e+001	1.653110e+002	-1.856680e+001	1.654843e+002	-1.344756e+001	-9.599843e+000
3803812.825	-1.062600e+001	-1.178955e+002	-1.853901e+001	1.618424e+002	-1.863797e+001	1.620246e+002	-1.337393e+001	-1.208121e+001
3828249.567	-1.051962e+001	-1.206379e+002	-1.859938e+001	1.587172e+002	-1.868306e+001	1.590151e+002	-1.328613e+001	-1.480651e+001
3852686.308	-1.041369e+001	-1.236132e+002	-1.858017e+001	1.559943e+002	-1.866437e+001	1.563058e+002	-1.320689e+001	-1.780601e+001
3877123.050	-1.033174e+001	-1.267730e+002	-1.847591e+001	1.532469e+002	-1.856066e+001	1.536295e+002	-1.315950e+001	-2.099310e+001
3901559.792	-1.028821e+001	-1.299855e+002	-1.829732e+001	1.500922e+002	-1.838076e+001	1.505265e+002	-1.316241e+001	-2.416754e+001
3925996.534	-1.027546e+001	-1.331002e+002	-1.810979e+001	1.464506e+002	-1.818434e+001	1.468823e+002	-1.320184e+001	-2.716680e+001
3950433.276	-1.028560e+001	-1.360671e+002	-1.793528e+001	1.423806e+002	-1.800952e+001	1.428035e+002	-1.325474e+001	-2.990602e+001
3974870.017	-1.030207e+001	-1.388492e+002	-1.780538e+001	1.380434e+002	-1.787135e+001	1.385230e+002	-1.330141e+001	-3.243026e+001
3999306.759	-1.031249e+001	-1.414933e+002	-1.771737e+001	1.336399e+002	-1.778807e+001	1.340986e+002	-1.332969e+001	-3.473411e+001
4023743.501	-1.031053e+001	-1.440346e+002	-1.767332e+001	1.292484e+002	-1.773921e+001	1.297908e+002	-1.333090e+001	-3.699465e+001
4048180.243	-1.029095e+001	-1.465399e+002	-1.766642e+001	1.250089e+002	-1.772899e+001	1.255922e+002	-1.329988e+001	-3.919509e+001
4072616.984	-1.025072e+001	-1.490927e+002	-1.768488e+001	1.210507e+002	-1.773647e+001	1.216815e+002	-1.324181e+001	-4.149486e+001
4097053.726	-1.020410e+001	-1.517613e+002	-1.769479e+001	1.173588e+002	-1.775050e+001	1.180122e+002	-1.316365e+001	-4.391424e+001
4121490.468	-1.015770e+001	-1.545590e+002	-1.768432e+001	1.139127e+002	-1.773432e+001	1.145938e+002	-1.308313e+001	-4.652499e+001
4145927.210	-1.011972e+001	-1.574938e+002	-1.764069e+001	1.106472e+002	-1.768400e+001	1.113404e+002	-1.300641e+001	-4.930931e+001
4170363.951	-1.010039e+001	-1.605080e+002	-1.755514e+001	1.074606e+002	-1.759975e+001	1.080752e+002	-1.294502e+001	-5.214734e+001
4194800.693	-1.010198e+001	-1.635800e+002	-1.743483e+001	1.041694e+002	-1.747302e+001	1.048257e+002	-1.289706e+001	-5.512500e+001
4219237.435	-1.012320e+001	-1.666917e+002	-1.728333e+001	1.008037e+002	-1.731941e+001	1.014909e+002	-1.286489e+001	-5.814652e+001
4243674.177	-1.016583e+001	-1.697763e+002	-1.711499e+001	9.725665e+001	-1.714268e+001	9.798462e+001	-1.284985e+001	-6.117044e+001
4268110.919	-1.022760e+001	-1.728505e+002	-1.692660e+001	9.358563e+001	-1.695076e+001	9.432163e+001	-1.284869e+001	-6.418130e+001
4292547.660	-1.030946e+001	-1.758578e+002	-1.673414e+001	8.972496e+001	-1.675100e+001	9.049408e+001	-1.285928e+001	-6.717308e+001
4316984.402	-1.040828e+001	-1.788222e+002	-1.653298e+001	8.572350e+001	-1.654647e+001	8.649771e+001	-1.288117e+001	-7.010796e+001
4341421.144	-1.051968e+001	1.783099e+002	-1.633979e+001	8.155035e+001	-1.634634e+001	8.232389e+001	-1.290972e+001	-7.299179e+001
4365857.886	-1.064249e+001	1.755199e+002	-1.615123e+001	7.725957e+001	-1.615209e+001	7.803033e+001	-1.294370e+001	-7.582696e+001
4390294.627	-1.077521e+001	1.728068e+002	-1.596990e+001	7.287044e+001	-1.596588e+001	7.362371e+001	-1.297863e+001	-7.862289e+001
4414731.369	-1.091296e+001	1.701727e+002	-1.580248e+001	6.838760e+001	-1.578894e+001	6.913936e+001	-1.301349e+001	-8.137124e+001
4439168.111	-1.105334e+001	1.675883e+002	-1.564377e+001	6.382574e+001	-1.562415e+001	6.459676e+001	-1.304623e+001	-8.412970e+001
4463604.853	-1.120205e+001	1.650755e+002	-1.549082e+001	5.924867e+001	-1.546999e+001	6.000679e+001	-1.307434e+001	-8.685546e+001
4488041.594	-1.135512e+001	1.626054e+002	-1.534584e+001	5.462518e+001	-1.532217e+001	5.537651e+001	-1.310232e+001	-8.958591e+001
4512478.336	-1.151312e+001	1.601904e+002	-1.520824e+001	4.997671e+001	-1.517967e+001	5.069722e+001	-1.313156e+001	-9.232920e+001
4536915.078	-1.167288e+001	1.578246e+002	-1.507961e+001	4.526684e+001	-1.504606e+001	4.600818e+001	-1.315793e+001	-9.508900e+001
4561351.820	-1.183726e+001	1.555063e+002	-1.495625e+001	4.052668e+001	-1.492033e+001	4.124270e+001	-1.318425e+001	-9.784141e+001
4585788.562	-1.200196e+001	1.532203e+002	-1.484567e+001	3.574690e+001	-1.480673e+001	3.644298e+001	-1.320906e+001	-1.006088e+002
4610225.303	-1.216683e+001	1.509290e+002	-1.474515e+001	3.096700e+001	-1.470116e+001	3.165178e+001	-1.323006e+001	-1.034220e+002
4634662.045	-1.233279e+001	1.486356e+002	-1.465569e+001	2.617274e+001	-1.460840e+001	2.685053e+001	-1.324561e+001	-1.062690e+002
4659098.787	-1.250225e+001	1.462942e+002	-1.457877e+001	2.141921e+001	-1.452573e+001	2.206143e+001	-1.325810e+001	-1.091952e+002
4683535.529	-1.268149e+001	1.439010e+002	-1.450627e+001	1.670308e+001	-1.445363e+001	1.730989e+001	-1.326827e+001	-1.122026e+002
4707972.270	-1.287429e+001	1.414422e+002	-1.444137e+001	1.207863e+001	-1.438392e+001	1.261517e+001	-1.328061e+001	-1.153198e+002
4732409.012	-1.308822e+001	1.388930e+002	-1.437727e+001	7.478220e+000	-1.431504e+001	7.978754e+000	-1.329799e+001	-1.185898e+002
4756845.754	-1.333365e+001	1.363321e+002	-1.430331e+001	2.908111e+000	-1.424284e+001	3.385000e+000	-1.332733e+001	-1.220086e+002
4781282.496	-1.361148e+001	1.337512e+002	-1.422525e+001	-1.624091e+000	-1.416161e+001	-1.196325e+000	-1.337337e+001	-1.255326e+002
4805719.237	-1.392505e+001	1.312230e+002	-1.413651e+001	-6.182371e+000	-1.407340e+001	-5.785874e+000	-1.344010e+001	-1.291622e+002
4830155.979	-1.427543e+001	1.287785e+002	-1.404421e+001	-1.075466e+001	-1.397874e+001	-1.040793e+001	-1.352931e+001	-1.328781e+002
4854592.721	-1.466187e+001	1.264881e+002	-1.394319e+001	-1.541646e+001	-1.387923e+001	-1.509618e+001	-1.364275e+001	-1.366430e+002
4879029.463	-1.507942e+001	1.243509e+002	-1.383980e+001	-2.014613e+001	-1.377751e+001	-1.983843e+001	-1.378064e+001	-1.404376e+002
4903466.205	-1.552678e+001	1.224101e+002	-1.373714e+001	-2.496105e+001	-1.367742e+001	-2.470278e+001	-1.394132e+001	-1.442253e+002
4927902.946	-1.600122e+001	1.206638e+002	-1.364146e+001	-2.985620e+001	-1.358346e+001	-2.962473e+001	-1.412048e+001	-1.480153e+002
4952339.688	-1.650180e+001	1.191057e+002	-1.355421e+001	-3.485741e+001	-1.349765e+001	-3.460222e+001	-1.431792e+001	-1.518180e+002
4976776.430	-1.703036e+001	1.177621e+002	-1.347637e+001	-3.986854e+001	-1.342379e+001	-3.965439e+001	-1.453112e+001	-1.555841e+002
5001213.172	-1.759296e+001	1.166359e+002	-1.341109e+001	-4.492898e+001	-1.335939e+001	-4.472866e+001	-1.475931e+001	-1.593556e+002
5025649.913	-1.819076e+001	1.157679e+002	-1.335449e+001	-5.000143e+001	-1.330820e+001	-4.982650e+001	-1.500098e+001	-1.631261e+002
5050086.655	-1.882786e+001	1.152426e+002	-1.331079e+001	-5.509958e+001	-1.326710e+001	-5.493122e+001	-1.525991e+001	-1.669222e+002
5074523.397	-1.951242e+001	1.150920e+002	-1.327590e+001	-6.020440e+001	-1.323537e+001	-6.004461e+001	-1.553144e+001	-1.707178e+002
5098960.139	-2.023693e+001	1.154215e+002	-1.325346e+001	-6.531733e+001	-1.321654e+001	-6.517547e+001	-1.581701e+001	-1.745124e+002
5123396.880	-2.101007e+001	1.163666e+002	-1.324412e+001	-7.042192e+001	-1.321039e+001	-7.029264e+001	-1.611125e+001	-1.783058e+002
5147833.622	-2.182838e+001	1.180423e+002	-1.324817e+001	-7.549162e+001	-1.321744e+001	-7.536800e+001	-1.641152e+001	1.778300e+002
5172270.364	-2.269385e+001	1.207421e+002	-1.326183e+001	-8.049787e+001	-1.323524e+001	-8.038085e+001	-1.672262e+001	1.738475e+002
5196707.106	-2.357078e+001	1.249065e+002	-1.327938e+001	-8.544181e+001	-1.325839e+001	-8.532913e+001	-1.705067e+001	1.697652e+002
5221143.847	-2.437640e+001	1.308194e+002	-1.330090e+001	-9.031626e+001	-1.328401e+001	-9.022423e+001	-1.739919e+001	1.655829e+002
5245580.589	-2.498126e+001	1.386270e+002	-1.332068e+001	-9.517237e+001	-1.330847e+001	-9.507622e+001	-1.777679e+001	1.612738e+002
5270017.331	-2.524946e+001	1.477265e+002	-1.334305e+001	-1.000051e+002	-1.333315e+001	-9.991945e+001	-1.818027e+001	1.569031e+002
5294454.073	-2.510100e+001	1.570002e+002	-1.336735e+001	-1.048364e+002	-1.335940e+001	-1.047288e+002	-1.861241e+001	1.524651e+002
5318890.815	-2.457273e+001	1.653057e+002	-1.339028e+001	-1.096648e+002	-1.338994e+001	-1.095584e+002	-1.906140e+001	1.480086e+002
5343327.556	-2.380792e+001	1.719217e+002	-1.341987e+001	-1.144796e+002	-1.342170e+001	-1.143561e+002	-1.953260e+001	1.434617e+002
5367764.298	-2.292742e+001	1.767797e+002	-1.345431e+001	-1.192830e+002	-1.345753e+001	-1.191376e+002	-2.002159e+001	1.388370e+002
5392201.040	-2.201552e+001	-1.798878e+002	-1.348963e+001	-1.240628e+002	-1.349793e+001	-1.239012e+002	-2.052564e+001	1.341147e+002
5416637.782	-2.112950e+001	-1.778129e+002	-1.353245e+001	-1.288341e+002	-1.354126e+001	-1.286463e+002	-2.104200e+001	1.292824e+002
5441074.523	-2.028452e+001	-1.767092e+002	-1.357472e+001	-1.335635e+002	-1.358800e+001	-1.333604e+002	-2.156920e+001	1.242557e+002
