!Agilent Technologies,E5061B,MY49101568,A.02.00
!Date: Wed Mar 01 13:15:05 2023
!Data & Calibration Information:
!Freq	S11:SOLT2(OFF)	S21:SOLT2(OFF)	S12:SOLT2(OFF)	S22:SOLT2(OFF)
# Hz S dB R 50
1800000.000	-1.124401e+001	3.311729e+001	-1.082837e+001	1.407718e+002	-1.078847e+001	1.409027e+002	-1.097441e+001	7.865413e+001
1824436.742	-1.109080e+001	2.846267e+001	-1.105538e+001	1.357972e+002	-1.102086e+001	1.358635e+002	-1.090365e+001	7.360480e+001
1848873.484	-1.098334e+001	2.386104e+001	-1.126891e+001	1.310266e+002	-1.123246e+001	1.311195e+002	-1.088319e+001	6.875301e+001
1873310.225	-1.091044e+001	1.936167e+001	-1.145620e+001	1.265046e+002	-1.142187e+001	1.265482e+002	-1.088622e+001	6.407010e+001
1897746.967	-1.085894e+001	1.492510e+001	-1.162056e+001	1.221443e+002	-1.159239e+001	1.221220e+002	-1.091561e+001	5.948022e+001
1922183.709	-1.082788e+001	1.051610e+001	-1.176278e+001	1.178712e+002	-1.173588e+001	1.178590e+002	-1.096826e+001	5.498602e+001
1946620.451	-1.082770e+001	6.147927e+000	-1.187964e+001	1.138058e+002	-1.186718e+001	1.137309e+002	-1.104344e+001	5.050526e+001
1971057.192	-1.085695e+001	1.780105e+000	-1.197936e+001	1.099249e+002	-1.194642e+001	1.098573e+002	-1.115326e+001	4.627615e+001
1995493.934	-1.087521e+001	-2.290590e+000	-1.200866e+001	1.058873e+002	-1.198574e+001	1.058654e+002	-1.124855e+001	4.219628e+001
2019930.676	-1.089527e+001	-6.394262e+000	-1.202949e+001	1.018615e+002	-1.201716e+001	1.018275e+002	-1.134327e+001	3.804032e+001
2044367.418	-1.090367e+001	-1.059934e+001	-1.204203e+001	9.771575e+001	-1.203352e+001	9.770550e+001	-1.143354e+001	3.383797e+001
2068804.159	-1.092805e+001	-1.491442e+001	-1.205582e+001	9.363936e+001	-1.205275e+001	9.359315e+001	-1.153157e+001	2.949575e+001
2093240.901	-1.096733e+001	-1.928681e+001	-1.205682e+001	8.966563e+001	-1.205832e+001	8.961583e+001	-1.165702e+001	2.515784e+001
2117677.643	-1.103383e+001	-2.371508e+001	-1.204005e+001	8.576597e+001	-1.204149e+001	8.572545e+001	-1.180038e+001	2.079797e+001
2142114.385	-1.110654e+001	-2.806513e+001	-1.198916e+001	8.180396e+001	-1.199416e+001	8.176326e+001	-1.194350e+001	1.644147e+001
2166551.127	-1.117620e+001	-3.252375e+001	-1.193079e+001	7.774314e+001	-1.194138e+001	7.774740e+001	-1.209302e+001	1.195450e+001
2190987.868	-1.127116e+001	-3.712829e+001	-1.186707e+001	7.372389e+001	-1.188446e+001	7.369872e+001	-1.225629e+001	7.312034e+000
2215424.610	-1.140488e+001	-4.182581e+001	-1.179516e+001	6.976807e+001	-1.181747e+001	6.972085e+001	-1.244632e+001	2.539747e+000
2239861.352	-1.155632e+001	-4.657369e+001	-1.170727e+001	6.579966e+001	-1.173071e+001	6.577305e+001	-1.266493e+001	-2.311022e+000
2264298.094	-1.175348e+001	-5.124738e+001	-1.158430e+001	6.188855e+001	-1.162171e+001	6.188581e+001	-1.292239e+001	-7.248725e+000
2288734.835	-1.196431e+001	-5.584617e+001	-1.143220e+001	5.789271e+001	-1.147429e+001	5.794639e+001	-1.320976e+001	-1.214527e+001
2313171.577	-1.218026e+001	-6.038941e+001	-1.125296e+001	5.368382e+001	-1.130490e+001	5.382666e+001	-1.350821e+001	-1.705302e+001
2337608.319	-1.241282e+001	-6.507670e+001	-1.107668e+001	4.932091e+001	-1.112586e+001	4.958059e+001	-1.383060e+001	-2.209270e+001
2362045.061	-1.267960e+001	-6.973586e+001	-1.088615e+001	4.492659e+001	-1.093204e+001	4.521645e+001	-1.418694e+001	-2.715907e+001
2386481.802	-1.296800e+001	-7.439777e+001	-1.068100e+001	4.031868e+001	-1.071930e+001	4.068961e+001	-1.457512e+001	-3.227545e+001
2410918.544	-1.326541e+001	-7.905170e+001	-1.046773e+001	3.549706e+001	-1.049612e+001	3.586844e+001	-1.497169e+001	-3.739291e+001
2435355.286	-1.359167e+001	-8.388869e+001	-1.026675e+001	3.049969e+001	-1.028556e+001	3.081079e+001	-1.538261e+001	-4.268657e+001
2459792.028	-1.395221e+001	-8.886553e+001	-1.007631e+001	2.532488e+001	-1.009240e+001	2.561549e+001	-1.582271e+001	-4.823772e+001
2484228.769	-1.435827e+001	-9.398961e+001	-9.898520e+000	1.999614e+001	-9.916126e+000	2.031128e+001	-1.631241e+001	-5.406248e+001
2508665.511	-1.483072e+001	-9.929766e+001	-9.741251e+000	1.459753e+001	-9.759046e+000	1.488834e+001	-1.684974e+001	-6.014590e+001
2533102.253	-1.537575e+001	-1.046617e+002	-9.596723e+000	9.130689e+000	-9.619354e+000	9.428089e+000	-1.746385e+001	-6.649637e+001
2557538.995	-1.601770e+001	-1.101194e+002	-9.473463e+000	3.596989e+000	-9.492968e+000	3.904546e+000	-1.815204e+001	-7.312076e+001
2581975.737	-1.676492e+001	-1.155064e+002	-9.364947e+000	-1.988575e+000	-9.383125e+000	-1.652132e+000	-1.893364e+001	-8.001247e+001
2606412.478	-1.763724e+001	-1.207834e+002	-9.272478e+000	-7.587099e+000	-9.288584e+000	-7.251431e+000	-1.982203e+001	-8.713496e+001
2630849.220	-1.864953e+001	-1.257992e+002	-9.194506e+000	-1.321272e+001	-9.207282e+000	-1.287691e+001	-2.083863e+001	-9.461207e+001
2655285.962	-1.981547e+001	-1.304660e+002	-9.129754e+000	-1.885648e+001	-9.139718e+000	-1.851270e+001	-2.200141e+001	-1.023188e+002
2679722.704	-2.115640e+001	-1.346469e+002	-9.081194e+000	-2.452047e+001	-9.090962e+000	-2.418696e+001	-2.331758e+001	-1.103635e+002
2704159.445	-2.271744e+001	-1.382328e+002	-9.052982e+000	-3.022171e+001	-9.057355e+000	-2.987164e+001	-2.479330e+001	-1.189057e+002
2728596.187	-2.460645e+001	-1.406742e+002	-9.042742e+000	-3.586392e+001	-9.046150e+000	-3.553633e+001	-2.648696e+001	-1.283232e+002
2753032.929	-2.690848e+001	-1.410961e+002	-9.050304e+000	-4.147264e+001	-9.052162e+000	-4.114540e+001	-2.845450e+001	-1.392219e+002
2777469.671	-2.976836e+001	-1.373857e+002	-9.072013e+000	-4.701636e+001	-9.071617e+000	-4.670094e+001	-3.073840e+001	-1.525623e+002
2801906.412	-3.314673e+001	-1.237678e+002	-9.106108e+000	-5.247750e+001	-9.106484e+000	-5.218162e+001	-3.328574e+001	-1.704055e+002
2826343.154	-3.528829e+001	-9.252797e+001	-9.148321e+000	-5.785619e+001	-9.148090e+000	-5.756589e+001	-3.585645e+001	1.631465e+002
2850779.896	-3.361676e+001	-6.150297e+001	-9.198084e+000	-6.316618e+001	-9.198278e+000	-6.288581e+001	-3.709290e+001	1.280985e+002
2875216.638	-3.074718e+001	-4.749747e+001	-9.256459e+000	-6.842795e+001	-9.252484e+000	-6.810671e+001	-3.614595e+001	9.454761e+001
2899653.380	-2.827635e+001	-4.308639e+001	-9.313717e+000	-7.353560e+001	-9.311998e+000	-7.325870e+001	-3.436254e+001	7.107430e+001
2924090.121	-2.643099e+001	-4.285778e+001	-9.371958e+000	-7.862079e+001	-9.369557e+000	-7.835343e+001	-3.266996e+001	5.404689e+001
2948526.863	-2.499608e+001	-4.446910e+001	-9.432446e+000	-8.366062e+001	-9.431830e+000	-8.338416e+001	-3.133221e+001	4.141718e+001
2972963.605	-2.383822e+001	-4.689145e+001	-9.496589e+000	-8.860852e+001	-9.498365e+000	-8.834775e+001	-3.030019e+001	3.147326e+001
2997400.347	-2.288280e+001	-4.987598e+001	-9.560497e+000	-9.346384e+001	-9.562221e+000	-9.320945e+001	-2.940883e+001	2.270901e+001
3021837.088	-2.208561e+001	-5.323778e+001	-9.617788e+000	-9.823296e+001	-9.622048e+000	-9.797602e+001	-2.868252e+001	1.467711e+001
3046273.830	-2.141924e+001	-5.696565e+001	-9.666927e+000	-1.029352e+002	-9.670580e+000	-1.026791e+002	-2.807719e+001	6.830794e+000
3070710.572	-2.086346e+001	-6.096182e+001	-9.700103e+000	-1.075672e+002	-9.707139e+000	-1.073104e+002	-2.753976e+001	-1.162943e+000
3095147.314	-2.042953e+001	-6.518162e+001	-9.716898e+000	-1.122160e+002	-9.724590e+000	-1.119553e+002	-2.712093e+001	-9.775626e+000
3119584.055	-2.010370e+001	-6.951159e+001	-9.721108e+000	-1.168960e+002	-9.728977e+000	-1.166476e+002	-2.682706e+001	-1.892146e+001
3144020.797	-1.989336e+001	-7.386686e+001	-9.717559e+000	-1.216505e+002	-9.728148e+000	-1.214157e+002	-2.668912e+001	-2.842643e+001
3168457.539	-1.977601e+001	-7.813773e+001	-9.711833e+000	-1.264827e+002	-9.721711e+000	-1.262411e+002	-2.665928e+001	-3.860099e+001
3192894.281	-1.975222e+001	-8.227174e+001	-9.703422e+000	-1.313936e+002	-9.712358e+000	-1.311414e+002	-2.670264e+001	-4.946213e+001
3217331.023	-1.982349e+001	-8.618799e+001	-9.699657e+000	-1.363831e+002	-9.709941e+000	-1.361326e+002	-2.684923e+001	-6.093717e+001
3241767.764	-1.997368e+001	-8.973061e+001	-9.706899e+000	-1.414254e+002	-9.717102e+000	-1.411724e+002	-2.708672e+001	-7.307098e+001
3266204.506	-2.017297e+001	-9.291474e+001	-9.724106e+000	-1.464646e+002	-9.734331e+000	-1.461883e+002	-2.733344e+001	-8.546152e+001
3290641.248	-2.041189e+001	-9.594126e+001	-9.738318e+000	-1.514388e+002	-9.745414e+000	-1.511713e+002	-2.741760e+001	-9.816006e+001
3315077.990	-2.076250e+001	-9.897927e+001	-9.734500e+000	-1.565066e+002	-9.741438e+000	-1.562359e+002	-2.723080e+001	-1.120668e+002
3339514.731	-2.126562e+001	-1.014644e+002	-9.736418e+000	-1.617771e+002	-9.738911e+000	-1.614944e+002	-2.686612e+001	-1.273979e+002
3363951.473	-2.190206e+001	-1.029414e+002	-9.754951e+000	-1.671703e+002	-9.757225e+000	-1.669101e+002	-2.635211e+001	-1.434235e+002
3388388.215	-2.263393e+001	-1.029678e+002	-9.800293e+000	-1.726577e+002	-9.799010e+000	-1.723977e+002	-2.570552e+001	-1.591221e+002
3412824.957	-2.340048e+001	-1.011914e+002	-9.867427e+000	-1.781756e+002	-9.866399e+000	-1.779332e+002	-2.494816e+001	-1.742466e+002
3437261.698	-2.409729e+001	-9.711917e+001	-9.963274e+000	1.762812e+002	-9.961603e+000	1.764883e+002	-2.409544e+001	1.714772e+002
3461698.440	-2.454372e+001	-9.078817e+001	-1.008526e+001	1.707574e+002	-1.008400e+001	1.709452e+002	-2.323569e+001	1.584010e+002
3486135.182	-2.455845e+001	-8.310582e+001	-1.023691e+001	1.652734e+002	-1.023586e+001	1.654379e+002	-2.238428e+001	1.461387e+002
3510571.924	-2.404925e+001	-7.565546e+001	-1.042276e+001	1.598834e+002	-1.042297e+001	1.600304e+002	-2.158671e+001	1.346659e+002
3535008.666	-2.317197e+001	-7.002229e+001	-1.063421e+001	1.546352e+002	-1.063631e+001	1.547698e+002	-2.085774e+001	1.240482e+002
3559445.407	-2.212669e+001	-6.684845e+001	-1.086795e+001	1.496247e+002	-1.087369e+001	1.497353e+002	-2.022060e+001	1.141387e+002
3583882.149	-2.108053e+001	-6.572466e+001	-1.110996e+001	1.448456e+002	-1.112091e+001	1.449277e+002	-1.966678e+001	1.050496e+002
3608318.891	-2.012587e+001	-6.597289e+001	-1.134547e+001	1.402724e+002	-1.136049e+001	1.403731e+002	-1.918536e+001	9.682027e+001
3632755.633	-1.927449e+001	-6.694458e+001	-1.156671e+001	1.357658e+002	-1.158737e+001	1.358935e+002	-1.871751e+001	8.935074e+001
3657192.374	-1.845286e+001	-6.828580e+001	-1.179301e+001	1.312675e+002	-1.181260e+001	1.314186e+002	-1.824645e+001	8.237789e+001
3681629.116	-1.766305e+001	-7.023692e+001	-1.203906e+001	1.268425e+002	-1.206148e+001	1.269647e+002	-1.777467e+001	7.544697e+001
3706065.858	-1.689878e+001	-7.284010e+001	-1.231664e+001	1.225565e+002	-1.234661e+001	1.226574e+002	-1.734686e+001	6.846250e+001
3730502.600	-1.619224e+001	-7.606221e+001	-1.262685e+001	1.185621e+002	-1.265262e+001	1.186551e+002	-1.698879e+001	6.149493e+001
3754939.341	-1.557504e+001	-7.982551e+001	-1.294304e+001	1.149798e+002	-1.297816e+001	1.151158e+002	-1.672606e+001	5.450314e+001
3779376.083	-1.506027e+001	-8.410606e+001	-1.325992e+001	1.120258e+002	-1.330097e+001	1.121772e+002	-1.657369e+001	4.756591e+001
3803812.825	-1.468220e+001	-8.866737e+001	-1.351863e+001	1.097159e+002	-1.356460e+001	1.098335e+002	-1.654572e+001	4.108444e+001
3828249.567	-1.446014e+001	-9.308381e+001	-1.365099e+001	1.078560e+002	-1.369998e+001	1.080081e+002	-1.666607e+001	3.542360e+001
3852686.308	-1.438565e+001	-9.691886e+001	-1.362122e+001	1.059341e+002	-1.367485e+001	1.061064e+002	-1.687216e+001	3.110652e+001
3877123.050	-1.437954e+001	-9.953521e+001	-1.345918e+001	1.031528e+002	-1.351652e+001	1.033275e+002	-1.701127e+001	2.859516e+001
3901559.792	-1.429639e+001	-1.009966e+002	-1.329504e+001	9.921616e+001	-1.335913e+001	9.944649e+001	-1.692832e+001	2.701265e+001
3925996.534	-1.405703e+001	-1.020212e+002	-1.321720e+001	9.449467e+001	-1.328860e+001	9.476278e+001	-1.660291e+001	2.525996e+001
3950433.276	-1.365596e+001	-1.035971e+002	-1.329216e+001	8.959173e+001	-1.336553e+001	8.989528e+001	-1.614669e+001	2.222592e+001
3974870.017	-1.321308e+001	-1.060203e+002	-1.347289e+001	8.503185e+001	-1.355543e+001	8.538257e+001	-1.571394e+001	1.804123e+001
3999306.759	-1.281032e+001	-1.092944e+002	-1.371661e+001	8.117808e+001	-1.378870e+001	8.153589e+001	-1.538968e+001	1.325175e+001
4023743.501	-1.249043e+001	-1.130248e+002	-1.395580e+001	7.804120e+001	-1.403891e+001	7.848967e+001	-1.518702e+001	8.044321e+000
4048180.243	-1.227216e+001	-1.169482e+002	-1.414221e+001	7.557743e+001	-1.422622e+001	7.604590e+001	-1.509913e+001	2.972571e+000
4072616.984	-1.214189e+001	-1.207699e+002	-1.423588e+001	7.347127e+001	-1.432117e+001	7.402101e+001	-1.511154e+001	-1.737906e+000
4097053.726	-1.208758e+001	-1.242943e+002	-1.422679e+001	7.143549e+001	-1.430345e+001	7.206651e+001	-1.519696e+001	-5.899745e+000
4121490.468	-1.207830e+001	-1.274066e+002	-1.412240e+001	6.919609e+001	-1.419614e+001	6.983350e+001	-1.530209e+001	-9.434900e+000
4145927.210	-1.208419e+001	-1.300521e+002	-1.395724e+001	6.653670e+001	-1.402916e+001	6.717699e+001	-1.540611e+001	-1.237836e+001
4170363.951	-1.206933e+001	-1.323009e+002	-1.377712e+001	6.339140e+001	-1.384312e+001	6.404587e+001	-1.547026e+001	-1.482114e+001
4194800.693	-1.202963e+001	-1.343279e+002	-1.359397e+001	5.991762e+001	-1.365525e+001	6.051859e+001	-1.548359e+001	-1.698229e+001
4219237.435	-1.195552e+001	-1.361686e+002	-1.342115e+001	5.610454e+001	-1.348405e+001	5.672063e+001	-1.544861e+001	-1.902399e+001
4243674.177	-1.184297e+001	-1.379822e+002	-1.327256e+001	5.208549e+001	-1.333365e+001	5.272559e+001	-1.536775e+001	-2.104804e+001
4268110.919	-1.169760e+001	-1.398383e+002	-1.314607e+001	4.790129e+001	-1.320679e+001	4.857294e+001	-1.524519e+001	-2.313732e+001
4292547.660	-1.153186e+001	-1.418119e+002	-1.304021e+001	4.366698e+001	-1.310272e+001	4.434759e+001	-1.509676e+001	-2.535183e+001
4316984.402	-1.134961e+001	-1.439480e+002	-1.295916e+001	3.938597e+001	-1.301946e+001	4.011010e+001	-1.493306e+001	-2.776523e+001
4341421.144	-1.116215e+001	-1.462413e+002	-1.289498e+001	3.510610e+001	-1.295188e+001	3.587378e+001	-1.476335e+001	-3.032136e+001
4365857.886	-1.097953e+001	-1.486760e+002	-1.283841e+001	3.086385e+001	-1.289945e+001	3.164872e+001	-1.459128e+001	-3.303233e+001
4390294.627	-1.080371e+001	-1.512655e+002	-1.279604e+001	2.666707e+001	-1.285196e+001	2.746807e+001	-1.442818e+001	-3.585578e+001
4414731.369	-1.063717e+001	-1.539666e+002	-1.275948e+001	2.248869e+001	-1.281056e+001	2.333171e+001	-1.427638e+001	-3.878436e+001
4439168.111	-1.048598e+001	-1.567552e+002	-1.272152e+001	1.832262e+001	-1.277014e+001	1.923234e+001	-1.413532e+001	-4.180390e+001
4463604.853	-1.034819e+001	-1.596283e+002	-1.268636e+001	1.422629e+001	-1.273039e+001	1.516479e+001	-1.401013e+001	-4.488172e+001
4488041.594	-1.022730e+001	-1.625472e+002	-1.264726e+001	1.015375e+001	-1.268621e+001	1.111858e+001	-1.389695e+001	-4.796852e+001
4512478.336	-1.012270e+001	-1.655284e+002	-1.260738e+001	6.098509e+000	-1.263959e+001	7.086676e+000	-1.379553e+001	-5.107949e+001
4536915.078	-1.003109e+001	-1.685230e+002	-1.256374e+001	2.043694e+000	-1.259400e+001	3.047248e+000	-1.370510e+001	-5.422324e+001
4561351.820	-9.956147e+000	-1.715717e+002	-1.251903e+001	-2.001128e+000	-1.254484e+001	-9.904478e-001	-1.362375e+001	-5.739067e+001
4585788.562	-9.898076e+000	-1.746542e+002	-1.247356e+001	-6.041357e+000	-1.249346e+001	-5.009888e+000	-1.355820e+001	-6.057391e+001
4610225.303	-9.858718e+000	-1.777622e+002	-1.242359e+001	-1.005252e+001	-1.243753e+001	-9.014175e+000	-1.350738e+001	-6.378680e+001
4634662.045	-9.838821e+000	1.791359e+002	-1.236949e+001	-1.405327e+001	-1.237626e+001	-1.301380e+001	-1.347087e+001	-6.700187e+001
4659098.787	-9.837023e+000	1.760368e+002	-1.230797e+001	-1.806115e+001	-1.230885e+001	-1.701185e+001	-1.345076e+001	-7.018486e+001
4683535.529	-9.855402e+000	1.729700e+002	-1.223852e+001	-2.205872e+001	-1.223138e+001	-2.102295e+001	-1.344849e+001	-7.335244e+001
4707972.270	-9.886857e+000	1.699635e+002	-1.215590e+001	-2.607462e+001	-1.214625e+001	-2.506156e+001	-1.346204e+001	-7.644642e+001
4732409.012	-9.931691e+000	1.669921e+002	-1.206550e+001	-3.016936e+001	-1.205169e+001	-2.918104e+001	-1.348339e+001	-7.947066e+001
4756845.754	-9.987290e+000	1.640530e+002	-1.197154e+001	-3.434040e+001	-1.195135e+001	-3.336055e+001	-1.351289e+001	-8.243298e+001
4781282.496	-1.005167e+001	1.611307e+002	-1.187460e+001	-3.860845e+001	-1.184904e+001	-3.762863e+001	-1.354644e+001	-8.532664e+001
4805719.237	-1.012762e+001	1.582152e+002	-1.178071e+001	-4.294247e+001	-1.174898e+001	-4.197381e+001	-1.358174e+001	-8.818043e+001
4830155.979	-1.021700e+001	1.553077e+002	-1.168750e+001	-4.733023e+001	-1.165215e+001	-4.639370e+001	-1.361791e+001	-9.100405e+001
4854592.721	-1.031962e+001	1.524092e+002	-1.159916e+001	-5.177803e+001	-1.155770e+001	-5.086311e+001	-1.366034e+001	-9.379601e+001
4879029.463	-1.043711e+001	1.495145e+002	-1.151422e+001	-5.629779e+001	-1.146895e+001	-5.539511e+001	-1.370521e+001	-9.657227e+001
4903466.205	-1.057303e+001	1.466408e+002	-1.143543e+001	-6.083229e+001	-1.138608e+001	-5.996655e+001	-1.375118e+001	-9.934095e+001
4927902.946	-1.072657e+001	1.437919e+002	-1.136251e+001	-6.541709e+001	-1.130973e+001	-6.456771e+001	-1.380346e+001	-1.020919e+002
4952339.688	-1.089924e+001	1.409761e+002	-1.129346e+001	-7.006179e+001	-1.123797e+001	-6.920340e+001	-1.386057e+001	-1.048697e+002
4976776.430	-1.109169e+001	1.382002e+002	-1.123155e+001	-7.470148e+001	-1.117189e+001	-7.386708e+001	-1.392108e+001	-1.075876e+002
5001213.172	-1.130391e+001	1.354894e+002	-1.117362e+001	-7.936679e+001	-1.111095e+001	-7.855496e+001	-1.398782e+001	-1.102915e+002
5025649.913	-1.153782e+001	1.328541e+002	-1.112041e+001	-8.403460e+001	-1.105559e+001	-8.327399e+001	-1.405906e+001	-1.129834e+002
5050086.655	-1.179163e+001	1.303046e+002	-1.107148e+001	-8.873805e+001	-1.100567e+001	-8.800219e+001	-1.413362e+001	-1.156437e+002
5074523.397	-1.206424e+001	1.278525e+002	-1.102860e+001	-9.345155e+001	-1.096147e+001	-9.275148e+001	-1.421081e+001	-1.182958e+002
5098960.139	-1.235550e+001	1.254992e+002	-1.099064e+001	-9.820158e+001	-1.092256e+001	-9.752561e+001	-1.429042e+001	-1.209306e+002
5123396.880	-1.266748e+001	1.232607e+002	-1.095980e+001	-1.029526e+002	-1.089203e+001	-1.023168e+002	-1.437031e+001	-1.235839e+002
5147833.622	-1.300099e+001	1.211536e+002	-1.093633e+001	-1.077060e+002	-1.086832e+001	-1.070983e+002	-1.445388e+001	-1.262393e+002
5172270.364	-1.335484e+001	1.192025e+002	-1.091748e+001	-1.124559e+002	-1.085058e+001	-1.118706e+002	-1.454677e+001	-1.288964e+002
5196707.106	-1.372711e+001	1.174347e+002	-1.090324e+001	-1.171844e+002	-1.083688e+001	-1.166310e+002	-1.464541e+001	-1.315498e+002
5221143.847	-1.411346e+001	1.159004e+002	-1.089075e+001	-1.218671e+002	-1.082541e+001	-1.213871e+002	-1.474721e+001	-1.341607e+002
5245580.589	-1.451050e+001	1.145615e+002	-1.088122e+001	-1.265903e+002	-1.081565e+001	-1.261365e+002	-1.485265e+001	-1.367579e+002
5270017.331	-1.491305e+001	1.134654e+002	-1.087123e+001	-1.313185e+002	-1.080914e+001	-1.308869e+002	-1.495796e+001	-1.393396e+002
5294454.073	-1.531676e+001	1.125696e+002	-1.086448e+001	-1.360512e+002	-1.080407e+001	-1.356460e+002	-1.506159e+001	-1.419050e+002
5318890.815	-1.571922e+001	1.118966e+002	-1.086057e+001	-1.408040e+002	-1.080139e+001	-1.404170e+002	-1.516007e+001	-1.444901e+002
5343327.556	-1.611879e+001	1.114241e+002	-1.085901e+001	-1.455600e+002	-1.080327e+001	-1.451914e+002	-1.526037e+001	-1.470864e+002
5367764.298	-1.651125e+001	1.111365e+002	-1.086064e+001	-1.503329e+002	-1.080693e+001	-1.499785e+002	-1.535542e+001	-1.497194e+002
5392201.040	-1.689969e+001	1.110205e+002	-1.086719e+001	-1.551131e+002	-1.081498e+001	-1.547730e+002	-1.544811e+001	-1.523841e+002
5416637.782	-1.728101e+001	1.110889e+002	-1.087759e+001	-1.599073e+002	-1.082767e+001	-1.595752e+002	-1.553932e+001	-1.551352e+002
5441074.523	-1.765492e+001	1.113147e+002	-1.089061e+001	-1.647035e+002	-1.084426e+001	-1.643913e+002	-1.562994e+001	-1.579427e+002
