!Agilent Technologies,E5061B,MY49101568,A.02.00
!Date: Wed Mar 01 13:25:20 2023
!Data & Calibration Information:
!Freq	S11:SOLT2(OFF)	S21:SOLT2(OFF)	S12:SOLT2(OFF)	S22:SOLT2(OFF)
# Hz S dB R 50
1800000.000	-9.780289e+000	-2.294258e+001	-2.114572e+001	-1.234086e+002	-2.106042e+001	-1.237003e+002	-1.037996e+001	1.246252e+001
1824436.742	-9.903589e+000	-2.766025e+001	-2.067923e+001	-1.277101e+002	-2.060718e+001	-1.279732e+002	-1.053312e+001	8.228342e+000
1848873.484	-1.004136e+001	-3.250855e+001	-2.021443e+001	-1.321164e+002	-2.013651e+001	-1.324117e+002	-1.069756e+001	3.884822e+000
1873310.225	-1.018767e+001	-3.745856e+001	-1.973915e+001	-1.366885e+002	-1.965996e+001	-1.370039e+002	-1.086769e+001	-5.207296e-001
1897746.967	-1.034548e+001	-4.251812e+001	-1.925135e+001	-1.413714e+002	-1.917004e+001	-1.418029e+002	-1.104210e+001	-5.030552e+000
1922183.709	-1.051409e+001	-4.778172e+001	-1.875835e+001	-1.462197e+002	-1.867380e+001	-1.466819e+002	-1.122282e+001	-9.712051e+000
1946620.451	-1.069863e+001	-5.318447e+001	-1.825391e+001	-1.512016e+002	-1.816451e+001	-1.518058e+002	-1.141689e+001	-1.450278e+001
1971057.192	-1.090560e+001	-5.879877e+001	-1.774716e+001	-1.564199e+002	-1.766047e+001	-1.570153e+002	-1.161681e+001	-1.942763e+001
1995493.934	-1.113904e+001	-6.458738e+001	-1.723030e+001	-1.618791e+002	-1.720154e+001	-1.620682e+002	-1.179331e+001	-2.439887e+001
2019930.676	-1.139540e+001	-7.054730e+001	-1.672604e+001	-1.674570e+002	-1.670215e+001	-1.676128e+002	-1.201311e+001	-2.948426e+001
2044367.418	-1.168919e+001	-7.667071e+001	-1.621725e+001	-1.733140e+002	-1.619991e+001	-1.734494e+002	-1.224292e+001	-3.477967e+001
2068804.159	-1.201449e+001	-8.294572e+001	-1.573171e+001	-1.793011e+002	-1.571295e+001	-1.795294e+002	-1.249550e+001	-4.004637e+001
2093240.901	-1.238123e+001	-8.933162e+001	-1.526215e+001	1.744273e+002	-1.526646e+001	1.743408e+002	-1.274002e+001	-4.531395e+001
2117677.643	-1.278507e+001	-9.591940e+001	-1.481473e+001	1.680171e+002	-1.482455e+001	1.679855e+002	-1.300718e+001	-5.067819e+001
2142114.385	-1.323287e+001	-1.026481e+002	-1.438592e+001	1.614947e+002	-1.439686e+001	1.614983e+002	-1.327399e+001	-5.607057e+001
2166551.127	-1.372942e+001	-1.095737e+002	-1.396876e+001	1.548080e+002	-1.398052e+001	1.548356e+002	-1.355243e+001	-6.152640e+001
2190987.868	-1.428691e+001	-1.166405e+002	-1.357814e+001	1.479148e+002	-1.358906e+001	1.480206e+002	-1.383493e+001	-6.699076e+001
2215424.610	-1.490686e+001	-1.237890e+002	-1.320952e+001	1.407879e+002	-1.324390e+001	1.412362e+002	-1.408982e+001	-7.236755e+001
2239861.352	-1.556910e+001	-1.309781e+002	-1.288884e+001	1.336691e+002	-1.292100e+001	1.342018e+002	-1.435317e+001	-7.771457e+001
2264298.094	-1.626528e+001	-1.382879e+002	-1.259866e+001	1.265139e+002	-1.262725e+001	1.271027e+002	-1.459537e+001	-8.299159e+001
2288734.835	-1.699906e+001	-1.458059e+002	-1.233311e+001	1.193405e+002	-1.235689e+001	1.200084e+002	-1.481346e+001	-8.831125e+001
2313171.577	-1.778073e+001	-1.534635e+002	-1.209291e+001	1.121282e+002	-1.211272e+001	1.128267e+002	-1.500590e+001	-9.360981e+001
2337608.319	-1.858765e+001	-1.611811e+002	-1.188150e+001	1.048510e+002	-1.189640e+001	1.055785e+002	-1.516066e+001	-9.888865e+001
2362045.061	-1.949702e+001	-1.687112e+002	-1.169346e+001	9.734863e+001	-1.171360e+001	9.838207e+001	-1.527241e+001	-1.041848e+002
2386481.802	-2.026717e+001	-1.766923e+002	-1.154319e+001	9.015575e+001	-1.155699e+001	9.120674e+001	-1.532687e+001	-1.095451e+002
2410918.544	-2.094398e+001	1.746921e+002	-1.141651e+001	8.311176e+001	-1.142355e+001	8.410926e+001	-1.532521e+001	-1.151453e+002
2435355.286	-2.155079e+001	1.654185e+002	-1.129723e+001	7.613538e+001	-1.129481e+001	7.705259e+001	-1.528757e+001	-1.210305e+002
2459792.028	-2.208926e+001	1.558147e+002	-1.119836e+001	6.911453e+001	-1.118929e+001	6.996467e+001	-1.522739e+001	-1.270592e+002
2484228.769	-2.243705e+001	1.457183e+002	-1.112040e+001	6.215997e+001	-1.110623e+001	6.300157e+001	-1.510943e+001	-1.333711e+002
2508665.511	-2.266839e+001	1.354980e+002	-1.106260e+001	5.518424e+001	-1.104150e+001	5.598859e+001	-1.498543e+001	-1.398097e+002
2533102.253	-2.279523e+001	1.252920e+002	-1.102080e+001	4.815820e+001	-1.099773e+001	4.898103e+001	-1.484522e+001	-1.464213e+002
2557538.995	-2.267600e+001	1.149079e+002	-1.100065e+001	4.126367e+001	-1.097358e+001	4.203241e+001	-1.469121e+001	-1.532156e+002
2581975.737	-2.237598e+001	1.046863e+002	-1.100114e+001	3.444668e+001	-1.096805e+001	3.512716e+001	-1.452766e+001	-1.601388e+002
2606412.478	-2.198003e+001	9.491006e+001	-1.102174e+001	2.766364e+001	-1.098449e+001	2.825663e+001	-1.436770e+001	-1.672106e+002
2630849.220	-2.149540e+001	8.559555e+001	-1.106057e+001	2.092735e+001	-1.101993e+001	2.147505e+001	-1.420744e+001	-1.743548e+002
2655285.962	-2.093122e+001	7.667551e+001	-1.111774e+001	1.429338e+001	-1.107588e+001	1.477604e+001	-1.405292e+001	1.784427e+002
2679722.704	-2.034642e+001	6.826833e+001	-1.119550e+001	7.731778e+000	-1.115431e+001	8.163147e+000	-1.391316e+001	1.712507e+002
2704159.445	-1.975592e+001	6.024686e+001	-1.128747e+001	1.265346e+000	-1.124787e+001	1.641106e+000	-1.378645e+001	1.641043e+002
2728596.187	-1.917612e+001	5.259555e+001	-1.139802e+001	-5.088758e+000	-1.135761e+001	-4.744802e+000	-1.367506e+001	1.569969e+002
2753032.929	-1.861239e+001	4.526991e+001	-1.151966e+001	-1.134017e+001	-1.148299e+001	-1.102822e+001	-1.357599e+001	1.499763e+002
2777469.671	-1.808732e+001	3.825023e+001	-1.165080e+001	-1.746945e+001	-1.161713e+001	-1.716712e+001	-1.350479e+001	1.430383e+002
2801906.412	-1.758242e+001	3.150256e+001	-1.179168e+001	-2.343559e+001	-1.176258e+001	-2.317514e+001	-1.344648e+001	1.362117e+002
2826343.154	-1.711354e+001	2.500840e+001	-1.193998e+001	-2.927095e+001	-1.191377e+001	-2.907601e+001	-1.341073e+001	1.295591e+002
2850779.896	-1.668304e+001	1.877256e+001	-1.209377e+001	-3.498263e+001	-1.207175e+001	-3.483389e+001	-1.339749e+001	1.230565e+002
2875216.638	-1.627554e+001	1.276768e+001	-1.225218e+001	-4.052939e+001	-1.222027e+001	-4.058168e+001	-1.342654e+001	1.166958e+002
2899653.380	-1.590845e+001	6.970740e+000	-1.241191e+001	-4.595846e+001	-1.238446e+001	-4.600217e+001	-1.342955e+001	1.105174e+002
2924090.121	-1.556663e+001	1.361105e+000	-1.256819e+001	-5.123173e+001	-1.254848e+001	-5.131271e+001	-1.344806e+001	1.045168e+002
2948526.863	-1.525605e+001	-4.061442e+000	-1.272190e+001	-5.639687e+001	-1.271067e+001	-5.647991e+001	-1.347766e+001	9.870288e+001
2972963.605	-1.497260e+001	-9.297739e+000	-1.287479e+001	-6.147132e+001	-1.286984e+001	-6.153357e+001	-1.352026e+001	9.305541e+001
2997400.347	-1.471424e+001	-1.436354e+001	-1.302168e+001	-6.643531e+001	-1.302395e+001	-6.647741e+001	-1.356892e+001	8.756358e+001
3021837.088	-1.447239e+001	-1.927738e+001	-1.316271e+001	-7.126420e+001	-1.317362e+001	-7.129200e+001	-1.362547e+001	8.223289e+001
3046273.830	-1.425394e+001	-2.407816e+001	-1.329365e+001	-7.601030e+001	-1.331172e+001	-7.600270e+001	-1.369000e+001	7.703136e+001
3070710.572	-1.405133e+001	-2.877633e+001	-1.341204e+001	-8.068121e+001	-1.343842e+001	-8.060085e+001	-1.375511e+001	7.193592e+001
3095147.314	-1.386280e+001	-3.337511e+001	-1.351728e+001	-8.522937e+001	-1.355163e+001	-8.512057e+001	-1.383108e+001	6.693431e+001
3119584.055	-1.368910e+001	-3.788134e+001	-1.361025e+001	-8.970423e+001	-1.364813e+001	-8.959933e+001	-1.392021e+001	6.202336e+001
3144020.797	-1.350691e+001	-4.223675e+001	-1.370414e+001	-9.389537e+001	-1.372519e+001	-9.414145e+001	-1.404335e+001	5.722031e+001
3168457.539	-1.336987e+001	-4.657316e+001	-1.377149e+001	-9.832091e+001	-1.379495e+001	-9.853997e+001	-1.415467e+001	5.250050e+001
3192894.281	-1.325409e+001	-5.083046e+001	-1.382501e+001	-1.027529e+002	-1.385596e+001	-1.028759e+002	-1.426954e+001	4.789200e+001
3217331.023	-1.315141e+001	-5.499596e+001	-1.386717e+001	-1.071785e+002	-1.390477e+001	-1.072563e+002	-1.440438e+001	4.338350e+001
3241767.764	-1.305867e+001	-5.906876e+001	-1.390620e+001	-1.115474e+002	-1.394611e+001	-1.116544e+002	-1.455444e+001	3.901875e+001
3266204.506	-1.297931e+001	-6.304113e+001	-1.393993e+001	-1.158988e+002	-1.398118e+001	-1.159849e+002	-1.470335e+001	3.477657e+001
3290641.248	-1.290446e+001	-6.696639e+001	-1.395994e+001	-1.201721e+002	-1.400361e+001	-1.202478e+002	-1.485058e+001	3.056048e+001
3315077.990	-1.283909e+001	-7.089034e+001	-1.395692e+001	-1.244152e+002	-1.400238e+001	-1.245062e+002	-1.501233e+001	2.628966e+001
3339514.731	-1.280097e+001	-7.483802e+001	-1.392987e+001	-1.287653e+002	-1.397580e+001	-1.288398e+002	-1.520706e+001	2.202082e+001
3363951.473	-1.278734e+001	-7.875558e+001	-1.388602e+001	-1.332161e+002	-1.393094e+001	-1.332804e+002	-1.543902e+001	1.777747e+001
3388388.215	-1.279668e+001	-8.261617e+001	-1.383211e+001	-1.377534e+002	-1.387464e+001	-1.378643e+002	-1.571256e+001	1.367154e+001
3412824.957	-1.283671e+001	-8.640102e+001	-1.376814e+001	-1.424122e+002	-1.381367e+001	-1.425105e+002	-1.601710e+001	9.657820e+000
3437261.698	-1.290386e+001	-9.009536e+001	-1.370157e+001	-1.471779e+002	-1.374795e+001	-1.472635e+002	-1.636081e+001	5.806024e+000
3461698.440	-1.299870e+001	-9.364656e+001	-1.363499e+001	-1.520432e+002	-1.368229e+001	-1.521405e+002	-1.675156e+001	2.195419e+000
3486135.182	-1.312331e+001	-9.705240e+001	-1.357052e+001	-1.570258e+002	-1.362127e+001	-1.571437e+002	-1.718874e+001	-1.094260e+000
3510571.924	-1.327060e+001	-1.002023e+002	-1.352382e+001	-1.620942e+002	-1.357101e+001	-1.622553e+002	-1.767321e+001	-3.923137e+000
3535008.666	-1.343833e+001	-1.031142e+002	-1.348405e+001	-1.671989e+002	-1.353195e+001	-1.673686e+002	-1.817068e+001	-6.297494e+000
3559445.407	-1.361376e+001	-1.057626e+002	-1.345788e+001	-1.723166e+002	-1.350544e+001	-1.724525e+002	-1.867008e+001	-8.156296e+000
3583882.149	-1.379916e+001	-1.082076e+002	-1.342889e+001	-1.774176e+002	-1.347513e+001	-1.775390e+002	-1.918293e+001	-9.634573e+000
3608318.891	-1.399315e+001	-1.105433e+002	-1.338184e+001	1.774790e+002	-1.343228e+001	1.773344e+002	-1.972506e+001	-1.069928e+001
3632755.633	-1.421758e+001	-1.126221e+002	-1.332695e+001	1.721800e+002	-1.337605e+001	1.719805e+002	-2.035770e+001	-1.101451e+001
3657192.374	-1.446952e+001	-1.143153e+002	-1.327171e+001	1.666815e+002	-1.332432e+001	1.664600e+002	-2.101045e+001	-1.021445e+001
3681629.116	-1.473678e+001	-1.155178e+002	-1.322739e+001	1.609976e+002	-1.328766e+001	1.606887e+002	-2.164387e+001	-7.712353e+000
3706065.858	-1.499645e+001	-1.161287e+002	-1.320586e+001	1.551199e+002	-1.327672e+001	1.547822e+002	-2.211794e+001	-3.594402e+000
3730502.600	-1.520714e+001	-1.161351e+002	-1.321935e+001	1.491492e+002	-1.329200e+001	1.488618e+002	-2.230317e+001	1.538612e+000
3754939.341	-1.535149e+001	-1.156872e+002	-1.325677e+001	1.431606e+002	-1.332948e+001	1.429867e+002	-2.215907e+001	6.684541e+000
3779376.083	-1.541227e+001	-1.148518e+002	-1.332373e+001	1.371353e+002	-1.339363e+001	1.370562e+002	-2.172386e+001	1.123522e+001
3803812.825	-1.538359e+001	-1.137495e+002	-1.340703e+001	1.310419e+002	-1.347839e+001	1.310528e+002	-2.107228e+001	1.480023e+001
3828249.567	-1.523242e+001	-1.125154e+002	-1.352640e+001	1.248813e+002	-1.359744e+001	1.249623e+002	-2.026800e+001	1.708277e+001
3852686.308	-1.496845e+001	-1.114403e+002	-1.367363e+001	1.187252e+002	-1.374555e+001	1.188663e+002	-1.940697e+001	1.797541e+001
3877123.050	-1.459997e+001	-1.107688e+002	-1.385541e+001	1.126141e+002	-1.393414e+001	1.128107e+002	-1.853684e+001	1.758057e+001
3901559.792	-1.415248e+001	-1.106486e+002	-1.407421e+001	1.065753e+002	-1.415606e+001	1.068237e+002	-1.770509e+001	1.616581e+001
3925996.534	-1.366102e+001	-1.110892e+002	-1.432200e+001	1.006095e+002	-1.440597e+001	1.008590e+002	-1.692571e+001	1.405053e+001
3950433.276	-1.314722e+001	-1.121527e+002	-1.460440e+001	9.474696e+001	-1.469561e+001	9.500440e+001	-1.620659e+001	1.130258e+001
3974870.017	-1.262545e+001	-1.137658e+002	-1.492411e+001	8.900227e+001	-1.501211e+001	8.932122e+001	-1.556002e+001	8.092187e+000
3999306.759	-1.212222e+001	-1.158798e+002	-1.527288e+001	8.342925e+001	-1.535674e+001	8.375889e+001	-1.497459e+001	4.582786e+000
4023743.501	-1.163778e+001	-1.183909e+002	-1.565322e+001	7.797319e+001	-1.573747e+001	7.838320e+001	-1.444385e+001	7.831800e-001
4048180.243	-1.118721e+001	-1.212666e+002	-1.606455e+001	7.274593e+001	-1.614897e+001	7.320329e+001	-1.396502e+001	-3.183810e+000
4072616.984	-1.076940e+001	-1.244342e+002	-1.650628e+001	6.773969e+001	-1.659324e+001	6.824551e+001	-1.353565e+001	-7.304724e+000
4097053.726	-1.038679e+001	-1.278476e+002	-1.697764e+001	6.300345e+001	-1.706707e+001	6.353609e+001	-1.314755e+001	-1.151186e+001
4121490.468	-1.004112e+001	-1.314574e+002	-1.747854e+001	5.855349e+001	-1.756819e+001	5.913592e+001	-1.280222e+001	-1.578169e+001
4145927.210	-9.731616e+000	-1.352346e+002	-1.800872e+001	5.449116e+001	-1.809896e+001	5.510367e+001	-1.249580e+001	-2.012312e+001
4170363.951	-9.457520e+000	-1.391425e+002	-1.856702e+001	5.090064e+001	-1.865208e+001	5.153248e+001	-1.222775e+001	-2.447117e+001
4194800.693	-9.226547e+000	-1.431733e+002	-1.913243e+001	4.785366e+001	-1.921848e+001	4.858417e+001	-1.199811e+001	-2.890016e+001
4219237.435	-9.037080e+000	-1.472585e+002	-1.968147e+001	4.541167e+001	-1.976805e+001	4.624578e+001	-1.180467e+001	-3.328575e+001
4243674.177	-8.882418e+000	-1.513326e+002	-2.019169e+001	4.344294e+001	-2.027831e+001	4.436309e+001	-1.163938e+001	-3.760612e+001
4268110.919	-8.753746e+000	-1.554019e+002	-2.067082e+001	4.187773e+001	-2.074993e+001	4.289440e+001	-1.149483e+001	-4.183046e+001
4292547.660	-8.649989e+000	-1.595010e+002	-2.112419e+001	4.080894e+001	-2.119086e+001	4.189970e+001	-1.136402e+001	-4.603742e+001
4316984.402	-8.578328e+000	-1.636467e+002	-2.151174e+001	4.045259e+001	-2.157380e+001	4.162459e+001	-1.125591e+001	-5.027866e+001
4341421.144	-8.544332e+000	-1.677376e+002	-2.175866e+001	4.051958e+001	-2.181138e+001	4.178945e+001	-1.117731e+001	-5.443996e+001
4365857.886	-8.539804e+000	-1.716898e+002	-2.184802e+001	4.037980e+001	-2.190145e+001	4.171357e+001	-1.111989e+001	-5.842039e+001
4390294.627	-8.533205e+000	-1.755090e+002	-2.190957e+001	3.949800e+001	-2.194084e+001	4.091102e+001	-1.105554e+001	-6.219962e+001
4414731.369	-8.510486e+000	-1.793481e+002	-2.205529e+001	3.830665e+001	-2.205754e+001	3.975214e+001	-1.095913e+001	-6.593154e+001
4439168.111	-8.480938e+000	1.765740e+002	-2.231364e+001	3.774680e+001	-2.230217e+001	3.916679e+001	-1.083147e+001	-6.986876e+001
4463604.853	-8.474044e+000	1.721617e+002	-2.257241e+001	3.883447e+001	-2.255087e+001	4.018317e+001	-1.069719e+001	-7.413497e+001
4488041.594	-8.518588e+000	1.673961e+002	-2.264135e+001	4.185658e+001	-2.259728e+001	4.311611e+001	-1.058978e+001	-7.880658e+001
4512478.336	-8.649117e+000	1.623707e+002	-2.225997e+001	4.591299e+001	-2.222468e+001	4.707608e+001	-1.053729e+001	-8.384746e+001
4536915.078	-8.894619e+000	1.573657e+002	-2.136954e+001	4.857410e+001	-2.134920e+001	4.974520e+001	-1.057518e+001	-8.904632e+001
4561351.820	-9.244680e+000	1.527634e+002	-2.025086e+001	4.808198e+001	-2.023608e+001	4.933266e+001	-1.070782e+001	-9.407215e+001
4585788.562	-9.655561e+000	1.487556e+002	-1.920589e+001	4.494433e+001	-1.918492e+001	4.629734e+001	-1.090344e+001	-9.869747e+001
4610225.303	-1.007691e+001	1.453256e+002	-1.835758e+001	4.029337e+001	-1.831137e+001	4.165895e+001	-1.112522e+001	-1.028774e+002
4634662.045	-1.047924e+001	1.423378e+002	-1.770681e+001	3.496743e+001	-1.763531e+001	3.626253e+001	-1.133874e+001	-1.066560e+002
4659098.787	-1.084513e+001	1.395699e+002	-1.722898e+001	2.951406e+001	-1.713644e+001	3.074788e+001	-1.151762e+001	-1.101805e+002
4683535.529	-1.117975e+001	1.366880e+002	-1.687186e+001	2.453870e+001	-1.676888e+001	2.562641e+001	-1.164563e+001	-1.137192e+002
4707972.270	-1.152688e+001	1.334572e+002	-1.655487e+001	2.029645e+001	-1.644977e+001	2.119120e+001	-1.173881e+001	-1.175462e+002
4732409.012	-1.197396e+001	1.299874e+002	-1.614937e+001	1.648529e+001	-1.604780e+001	1.726781e+001	-1.186567e+001	-1.219465e+002
4756845.754	-1.255872e+001	1.267796e+002	-1.562463e+001	1.237214e+001	-1.552770e+001	1.310736e+001	-1.208396e+001	-1.266505e+002
4781282.496	-1.323129e+001	1.243536e+002	-1.507534e+001	7.503124e+000	-1.498181e+001	8.033255e+000	-1.240063e+001	-1.311276e+002
4805719.237	-1.392825e+001	1.229007e+002	-1.456265e+001	1.889322e+000	-1.448936e+001	2.390880e+000	-1.276641e+001	-1.352726e+002
4830155.979	-1.460673e+001	1.221291e+002	-1.412508e+001	-3.969432e+000	-1.405915e+001	-3.521393e+000	-1.316005e+001	-1.391572e+002
4854592.721	-1.526669e+001	1.220223e+002	-1.373346e+001	-9.955653e+000	-1.367259e+001	-9.529973e+000	-1.358396e+001	-1.428670e+002
4879029.463	-1.589800e+001	1.227721e+002	-1.336001e+001	-1.611661e+001	-1.331198e+001	-1.568154e+001	-1.405529e+001	-1.463558e+002
4903466.205	-1.643581e+001	1.243526e+002	-1.302444e+001	-2.251904e+001	-1.297898e+001	-2.200099e+001	-1.457632e+001	-1.495257e+002
4927902.946	-1.683426e+001	1.265010e+002	-1.272737e+001	-2.907401e+001	-1.268561e+001	-2.853987e+001	-1.513764e+001	-1.521284e+002
4952339.688	-1.704914e+001	1.287253e+002	-1.248536e+001	-3.584975e+001	-1.244158e+001	-3.532473e+001	-1.570811e+001	-1.539664e+002
4976776.430	-1.715750e+001	1.306229e+002	-1.228326e+001	-4.250736e+001	-1.223767e+001	-4.199811e+001	-1.626640e+001	-1.553931e+002
5001213.172	-1.717417e+001	1.320091e+002	-1.212051e+001	-4.914809e+001	-1.207619e+001	-4.869131e+001	-1.678651e+001	-1.562337e+002
5025649.913	-1.713248e+001	1.328013e+002	-1.199093e+001	-5.576163e+001	-1.194936e+001	-5.533316e+001	-1.725368e+001	-1.566124e+002
5050086.655	-1.707231e+001	1.330267e+002	-1.189164e+001	-6.232988e+001	-1.185021e+001	-6.189093e+001	-1.766315e+001	-1.566789e+002
5074523.397	-1.702387e+001	1.328023e+002	-1.181426e+001	-6.881813e+001	-1.177595e+001	-6.839553e+001	-1.799467e+001	-1.564577e+002
5098960.139	-1.699573e+001	1.321785e+002	-1.176003e+001	-7.525729e+001	-1.172122e+001	-7.482989e+001	-1.825012e+001	-1.560757e+002
5123396.880	-1.699607e+001	1.312764e+002	-1.172488e+001	-8.164066e+001	-1.168538e+001	-8.120321e+001	-1.842555e+001	-1.556640e+002
5147833.622	-1.703282e+001	1.301640e+002	-1.170439e+001	-8.796456e+001	-1.166575e+001	-8.751329e+001	-1.852493e+001	-1.553243e+002
5172270.364	-1.710719e+001	1.289330e+002	-1.169863e+001	-9.423195e+001	-1.165759e+001	-9.376839e+001	-1.855506e+001	-1.551484e+002
5196707.106	-1.721459e+001	1.275899e+002	-1.170505e+001	-1.004740e+002	-1.166407e+001	-9.999537e+001	-1.851342e+001	-1.551989e+002
5221143.847	-1.736948e+001	1.263358e+002	-1.171893e+001	-1.065764e+002	-1.168110e+001	-1.061787e+002	-1.842514e+001	-1.555528e+002
5245580.589	-1.755496e+001	1.250023e+002	-1.174626e+001	-1.126996e+002	-1.171120e+001	-1.123370e+002	-1.828476e+001	-1.562877e+002
5270017.331	-1.778038e+001	1.237025e+002	-1.178403e+001	-1.188000e+002	-1.174991e+001	-1.184549e+002	-1.812075e+001	-1.574353e+002
5294454.073	-1.804560e+001	1.224626e+002	-1.183484e+001	-1.248521e+002	-1.180337e+001	-1.245376e+002	-1.793597e+001	-1.590229e+002
5318890.815	-1.834719e+001	1.213780e+002	-1.189068e+001	-1.308619e+002	-1.185678e+001	-1.305335e+002	-1.776980e+001	-1.609223e+002
5343327.556	-1.867671e+001	1.204053e+002	-1.195020e+001	-1.368554e+002	-1.191316e+001	-1.364948e+002	-1.760559e+001	-1.630896e+002
5367764.298	-1.903884e+001	1.195593e+002	-1.201437e+001	-1.428360e+002	-1.197579e+001	-1.424743e+002	-1.743270e+001	-1.655283e+002
5392201.040	-1.942838e+001	1.188591e+002	-1.208060e+001	-1.488231e+002	-1.204496e+001	-1.484902e+002	-1.724953e+001	-1.682596e+002
5416637.782	-1.987048e+001	1.182476e+002	-1.215787e+001	-1.548291e+002	-1.212180e+001	-1.544965e+002	-1.706997e+001	-1.712732e+002
5441074.523	-2.036880e+001	1.178398e+002	-1.224265e+001	-1.608294e+002	-1.220971e+001	-1.605223e+002	-1.689742e+001	-1.746048e+002
