!Agilent Technologies,E5061B,MY49101568,A.02.00
!Date: Wed Mar 01 13:22:49 2023
!Data & Calibration Information:
!Freq	S11:SOLT2(OFF)	S21:SOLT2(OFF)	S12:SOLT2(OFF)	S22:SOLT2(OFF)
# Hz S dB R 50
1800000.000	-9.100391e+000	-1.541862e+001	-2.733969e+001	-1.276843e+002	-2.727012e+001	-1.279810e+002	-9.429723e+000	2.123745e+001
1824436.742	-9.177655e+000	-1.964988e+001	-2.697093e+001	-1.312947e+002	-2.690127e+001	-1.316441e+002	-9.537040e+000	1.755291e+001
1848873.484	-9.256518e+000	-2.396859e+001	-2.659293e+001	-1.351086e+002	-2.651801e+001	-1.354619e+002	-9.643967e+000	1.379690e+001
1873310.225	-9.338969e+000	-2.833811e+001	-2.620186e+001	-1.389041e+002	-2.613226e+001	-1.392862e+002	-9.748344e+000	9.999385e+000
1897746.967	-9.418731e+000	-3.278478e+001	-2.579851e+001	-1.428172e+002	-2.574558e+001	-1.431185e+002	-9.842771e+000	6.153031e+000
1922183.709	-9.500405e+000	-3.736791e+001	-2.538188e+001	-1.467789e+002	-2.534035e+001	-1.470859e+002	-9.939399e+000	2.189679e+000
1946620.451	-9.582001e+000	-4.206217e+001	-2.495123e+001	-1.508838e+002	-2.492745e+001	-1.511393e+002	-1.002976e+001	-1.863052e+000
1971057.192	-9.664384e+000	-4.690093e+001	-2.451527e+001	-1.550385e+002	-2.449532e+001	-1.552782e+002	-1.011999e+001	-6.014514e+000
1995493.934	-9.753144e+000	-5.183682e+001	-2.406532e+001	-1.593464e+002	-2.407918e+001	-1.594336e+002	-1.020288e+001	-1.025594e+001
2019930.676	-9.844594e+000	-5.693382e+001	-2.359889e+001	-1.637684e+002	-2.362642e+001	-1.637851e+002	-1.028613e+001	-1.455879e+001
2044367.418	-9.942399e+000	-6.215694e+001	-2.312141e+001	-1.683251e+002	-2.315607e+001	-1.683448e+002	-1.036523e+001	-1.903620e+001
2068804.159	-1.004478e+001	-6.755719e+001	-2.264606e+001	-1.731079e+002	-2.268208e+001	-1.730114e+002	-1.044146e+001	-2.358686e+001
2093240.901	-1.015560e+001	-7.308911e+001	-2.214898e+001	-1.779640e+002	-2.220177e+001	-1.778731e+002	-1.051620e+001	-2.820813e+001
2117677.643	-1.027404e+001	-7.883294e+001	-2.166785e+001	1.769625e+002	-2.171723e+001	1.771168e+002	-1.058589e+001	-3.294340e+001
2142114.385	-1.040222e+001	-8.475530e+001	-2.117902e+001	1.717384e+002	-2.123922e+001	1.719317e+002	-1.064807e+001	-3.781166e+001
2166551.127	-1.054110e+001	-9.087741e+001	-2.069262e+001	1.663150e+002	-2.075315e+001	1.665831e+002	-1.070502e+001	-4.281125e+001
2190987.868	-1.069190e+001	-9.721337e+001	-2.020647e+001	1.606819e+002	-2.027132e+001	1.610210e+002	-1.076168e+001	-4.791695e+001
2215424.610	-1.086307e+001	-1.037669e+002	-1.972768e+001	1.547664e+002	-1.979909e+001	1.552887e+002	-1.081011e+001	-5.313769e+001
2239861.352	-1.104478e+001	-1.105347e+002	-1.926363e+001	1.487724e+002	-1.933748e+001	1.493400e+002	-1.085092e+001	-5.849428e+001
2264298.094	-1.124351e+001	-1.175684e+002	-1.880902e+001	1.425652e+002	-1.888634e+001	1.432129e+002	-1.088950e+001	-6.397182e+001
2288734.835	-1.145701e+001	-1.248056e+002	-1.836852e+001	1.361658e+002	-1.844623e+001	1.369242e+002	-1.092321e+001	-6.956159e+001
2313171.577	-1.169064e+001	-1.322998e+002	-1.795189e+001	1.296067e+002	-1.802804e+001	1.304228e+002	-1.094764e+001	-7.528036e+001
2337608.319	-1.193821e+001	-1.400297e+002	-1.755414e+001	1.228779e+002	-1.762570e+001	1.237471e+002	-1.096636e+001	-8.109593e+001
2362045.061	-1.220240e+001	-1.479788e+002	-1.717879e+001	1.159858e+002	-1.724815e+001	1.169402e+002	-1.097622e+001	-8.698024e+001
2386481.802	-1.247024e+001	-1.561600e+002	-1.684023e+001	1.090035e+002	-1.689986e+001	1.099703e+002	-1.097803e+001	-9.301284e+001
2410918.544	-1.274474e+001	-1.645755e+002	-1.652927e+001	1.018429e+002	-1.658043e+001	1.028627e+002	-1.096789e+001	-9.914015e+001
2435355.286	-1.301657e+001	-1.732129e+002	-1.624801e+001	9.462921e+001	-1.629135e+001	9.566278e+001	-1.094610e+001	-1.053824e+002
2459792.028	-1.328441e+001	1.779470e+002	-1.600061e+001	8.733517e+001	-1.602860e+001	8.837429e+001	-1.091694e+001	-1.117186e+002
2484228.769	-1.355122e+001	1.689411e+002	-1.577847e+001	7.986423e+001	-1.580076e+001	8.098372e+001	-1.088194e+001	-1.181988e+002
2508665.511	-1.378771e+001	1.597777e+002	-1.559935e+001	7.247385e+001	-1.560803e+001	7.354818e+001	-1.083901e+001	-1.247565e+002
2533102.253	-1.400177e+001	1.505161e+002	-1.545232e+001	6.505123e+001	-1.545188e+001	6.608535e+001	-1.078894e+001	-1.313809e+002
2557538.995	-1.417396e+001	1.411853e+002	-1.534497e+001	5.764894e+001	-1.532999e+001	5.863944e+001	-1.073406e+001	-1.381046e+002
2581975.737	-1.431250e+001	1.318679e+002	-1.527060e+001	5.025746e+001	-1.524666e+001	5.118460e+001	-1.067882e+001	-1.449075e+002
2606412.478	-1.441198e+001	1.225854e+002	-1.523037e+001	4.290507e+001	-1.519771e+001	4.377718e+001	-1.062475e+001	-1.517747e+002
2630849.220	-1.446621e+001	1.133982e+002	-1.522308e+001	3.564793e+001	-1.518084e+001	3.641311e+001	-1.057349e+001	-1.586661e+002
2655285.962	-1.447970e+001	1.043463e+002	-1.525085e+001	2.845366e+001	-1.519744e+001	2.914931e+001	-1.052687e+001	-1.655612e+002
2679722.704	-1.445902e+001	9.550965e+001	-1.530687e+001	2.136788e+001	-1.524416e+001	2.197525e+001	-1.049002e+001	-1.724669e+002
2704159.445	-1.440900e+001	8.688909e+001	-1.538566e+001	1.441705e+001	-1.532314e+001	1.490820e+001	-1.046033e+001	-1.793339e+002
2728596.187	-1.432662e+001	7.852709e+001	-1.549318e+001	7.574840e+000	-1.542637e+001	7.988682e+000	-1.043992e+001	1.738304e+002
2753032.929	-1.422709e+001	7.044078e+001	-1.562184e+001	8.923219e-001	-1.555314e+001	1.215823e+000	-1.042927e+001	1.670903e+002
2777469.671	-1.410920e+001	6.264747e+001	-1.577035e+001	-5.666913e+000	-1.570338e+001	-5.413921e+000	-1.042873e+001	1.604370e+002
2801906.412	-1.397913e+001	5.514582e+001	-1.593442e+001	-1.206489e+001	-1.586889e+001	-1.188163e+001	-1.043930e+001	1.539065e+002
2826343.154	-1.383904e+001	4.792716e+001	-1.611479e+001	-1.827990e+001	-1.605390e+001	-1.816004e+001	-1.045921e+001	1.475066e+002
2850779.896	-1.369237e+001	4.101031e+001	-1.630784e+001	-2.431995e+001	-1.624998e+001	-2.428929e+001	-1.048958e+001	1.412451e+002
2875216.638	-1.354836e+001	3.436380e+001	-1.650950e+001	-3.025985e+001	-1.645725e+001	-3.019217e+001	-1.052310e+001	1.351282e+002
2899653.380	-1.340000e+001	2.799309e+001	-1.671646e+001	-3.593567e+001	-1.667383e+001	-3.594877e+001	-1.056726e+001	1.291949e+002
2924090.121	-1.324836e+001	2.186976e+001	-1.693491e+001	-4.144646e+001	-1.689246e+001	-4.149524e+001	-1.061681e+001	1.234165e+002
2948526.863	-1.310271e+001	1.599288e+001	-1.715300e+001	-4.682546e+001	-1.711825e+001	-4.690238e+001	-1.067095e+001	1.178120e+002
2972963.605	-1.295361e+001	1.033377e+001	-1.737369e+001	-5.196537e+001	-1.734418e+001	-5.211373e+001	-1.072717e+001	1.123604e+002
2997400.347	-1.280770e+001	4.888362e+000	-1.759134e+001	-5.696927e+001	-1.756780e+001	-5.716890e+001	-1.078787e+001	1.070547e+002
3021837.088	-1.266628e+001	-3.739983e-001	-1.780677e+001	-6.183914e+001	-1.778768e+001	-6.205828e+001	-1.084823e+001	1.019097e+002
3046273.830	-1.252792e+001	-5.471516e+000	-1.801136e+001	-6.656218e+001	-1.799724e+001	-6.681108e+001	-1.091354e+001	9.689693e+001
3070710.572	-1.239434e+001	-1.039030e+001	-1.821150e+001	-7.114577e+001	-1.819703e+001	-7.145988e+001	-1.098108e+001	9.200894e+001
3095147.314	-1.226399e+001	-1.516604e+001	-1.839993e+001	-7.562871e+001	-1.839051e+001	-7.599960e+001	-1.105096e+001	8.726517e+001
3119584.055	-1.213787e+001	-1.978880e+001	-1.858346e+001	-7.999953e+001	-1.857742e+001	-8.038692e+001	-1.111601e+001	8.265352e+001
3144020.797	-1.200957e+001	-2.427407e+001	-1.876560e+001	-8.415809e+001	-1.875226e+001	-8.469361e+001	-1.118316e+001	7.817872e+001
3168457.539	-1.189246e+001	-2.866162e+001	-1.892771e+001	-8.832981e+001	-1.892043e+001	-8.887594e+001	-1.124754e+001	7.380294e+001
3192894.281	-1.177879e+001	-3.293197e+001	-1.907700e+001	-9.244580e+001	-1.907455e+001	-9.297301e+001	-1.131248e+001	6.952767e+001
3217331.023	-1.166881e+001	-3.710607e+001	-1.921657e+001	-9.648953e+001	-1.921932e+001	-9.699233e+001	-1.137685e+001	6.535695e+001
3241767.764	-1.156152e+001	-4.117847e+001	-1.934532e+001	-1.004376e+002	-1.935703e+001	-1.009412e+002	-1.143940e+001	6.129159e+001
3266204.506	-1.145778e+001	-4.515481e+001	-1.946877e+001	-1.043310e+002	-1.948534e+001	-1.047997e+002	-1.149754e+001	5.732855e+001
3290641.248	-1.135495e+001	-4.905348e+001	-1.957857e+001	-1.081167e+002	-1.960361e+001	-1.085608e+002	-1.155328e+001	5.343308e+001
3315077.990	-1.125674e+001	-5.290839e+001	-1.966679e+001	-1.118577e+002	-1.969876e+001	-1.122539e+002	-1.160889e+001	4.958765e+001
3339514.731	-1.116101e+001	-5.670744e+001	-1.973785e+001	-1.155218e+002	-1.977613e+001	-1.159004e+002	-1.166566e+001	4.580163e+001
3363951.473	-1.107158e+001	-6.043492e+001	-1.979158e+001	-1.191807e+002	-1.983592e+001	-1.195331e+002	-1.172249e+001	4.208091e+001
3388388.215	-1.098465e+001	-6.410388e+001	-1.983664e+001	-1.228259e+002	-1.987994e+001	-1.231746e+002	-1.178258e+001	3.843609e+001
3412824.957	-1.090433e+001	-6.772299e+001	-1.986648e+001	-1.264562e+002	-1.990984e+001	-1.268088e+002	-1.184501e+001	3.485319e+001
3437261.698	-1.083043e+001	-7.128616e+001	-1.987829e+001	-1.300882e+002	-1.992836e+001	-1.304330e+002	-1.190814e+001	3.133841e+001
3461698.440	-1.076152e+001	-7.479641e+001	-1.988345e+001	-1.337294e+002	-1.993203e+001	-1.340519e+002	-1.197092e+001	2.788039e+001
3486135.182	-1.069766e+001	-7.825046e+001	-1.987181e+001	-1.373991e+002	-1.992352e+001	-1.376876e+002	-1.203668e+001	2.449910e+001
3510571.924	-1.063853e+001	-8.164417e+001	-1.985055e+001	-1.410586e+002	-1.990675e+001	-1.413050e+002	-1.210093e+001	2.119314e+001
3535008.666	-1.058245e+001	-8.497777e+001	-1.982044e+001	-1.447426e+002	-1.987890e+001	-1.449379e+002	-1.216378e+001	1.796383e+001
3559445.407	-1.052998e+001	-8.825046e+001	-1.977554e+001	-1.483863e+002	-1.983688e+001	-1.485773e+002	-1.222385e+001	1.478237e+001
3583882.149	-1.047807e+001	-9.148550e+001	-1.971501e+001	-1.520184e+002	-1.977618e+001	-1.522419e+002	-1.228378e+001	1.164987e+001
3608318.891	-1.042658e+001	-9.468841e+001	-1.963498e+001	-1.556672e+002	-1.969054e+001	-1.559541e+002	-1.234343e+001	8.536347e+000
3632755.633	-1.038234e+001	-9.788241e+001	-1.952785e+001	-1.595190e+002	-1.960010e+001	-1.595245e+002	-1.239340e+001	5.419639e+000
3657192.374	-1.034127e+001	-1.010536e+002	-1.940720e+001	-1.634074e+002	-1.948134e+001	-1.633558e+002	-1.245673e+001	2.361620e+000
3681629.116	-1.030608e+001	-1.041853e+002	-1.927704e+001	-1.674302e+002	-1.935720e+001	-1.673021e+002	-1.252247e+001	-6.431598e-001
3706065.858	-1.027478e+001	-1.072938e+002	-1.914542e+001	-1.715892e+002	-1.922251e+001	-1.713877e+002	-1.259217e+001	-3.591232e+000
3730502.600	-1.024805e+001	-1.103782e+002	-1.901248e+001	-1.757967e+002	-1.909290e+001	-1.755559e+002	-1.266444e+001	-6.477402e+000
3754939.341	-1.022945e+001	-1.134362e+002	-1.887592e+001	1.798734e+002	-1.895914e+001	-1.798060e+002	-1.273446e+001	-9.303435e+000
3779376.083	-1.021742e+001	-1.164750e+002	-1.873512e+001	1.754879e+002	-1.882096e+001	1.758647e+002	-1.280849e+001	-1.209476e+001
3803812.825	-1.021686e+001	-1.194963e+002	-1.858914e+001	1.709757e+002	-1.866933e+001	1.714806e+002	-1.288558e+001	-1.486560e+001
3828249.567	-1.022680e+001	-1.224912e+002	-1.843132e+001	1.664024e+002	-1.851029e+001	1.668591e+002	-1.297791e+001	-1.756982e+001
3852686.308	-1.025366e+001	-1.254154e+002	-1.827072e+001	1.615717e+002	-1.835227e+001	1.621306e+002	-1.307518e+001	-2.019210e+001
3877123.050	-1.029426e+001	-1.282574e+002	-1.811212e+001	1.566168e+002	-1.819904e+001	1.572003e+002	-1.318502e+001	-2.268878e+001
3901559.792	-1.034724e+001	-1.309857e+002	-1.796104e+001	1.514623e+002	-1.804441e+001	1.521091e+002	-1.330115e+001	-2.506584e+001
3925996.534	-1.041079e+001	-1.335818e+002	-1.782127e+001	1.460914e+002	-1.789751e+001	1.468214e+002	-1.342626e+001	-2.727203e+001
3950433.276	-1.048354e+001	-1.360173e+002	-1.769449e+001	1.405867e+002	-1.776668e+001	1.413267e+002	-1.355253e+001	-2.926078e+001
3974870.017	-1.056151e+001	-1.382514e+002	-1.759022e+001	1.348044e+002	-1.765809e+001	1.356332e+002	-1.367369e+001	-3.100478e+001
3999306.759	-1.063417e+001	-1.402679e+002	-1.751343e+001	1.288680e+002	-1.757553e+001	1.297161e+002	-1.378369e+001	-3.248085e+001
4023743.501	-1.069346e+001	-1.420449e+002	-1.747142e+001	1.227313e+002	-1.752695e+001	1.235834e+002	-1.386760e+001	-3.365795e+001
4048180.243	-1.073015e+001	-1.435943e+002	-1.747248e+001	1.164252e+002	-1.752780e+001	1.172552e+002	-1.391050e+001	-3.456119e+001
4072616.984	-1.072625e+001	-1.449471e+002	-1.753237e+001	1.099769e+002	-1.758433e+001	1.107850e+002	-1.389208e+001	-3.527308e+001
4097053.726	-1.067188e+001	-1.461955e+002	-1.765585e+001	1.034645e+002	-1.770477e+001	1.042725e+002	-1.380573e+001	-3.590729e+001
4121490.468	-1.056083e+001	-1.474611e+002	-1.785301e+001	9.697662e+001	-1.790368e+001	9.778360e+001	-1.363934e+001	-3.662857e+001
4145927.210	-1.038977e+001	-1.488595e+002	-1.813422e+001	9.061130e+001	-1.818532e+001	9.141341e+001	-1.340455e+001	-3.758162e+001
4170363.951	-1.016978e+001	-1.505365e+002	-1.849660e+001	8.457480e+001	-1.856634e+001	8.536073e+001	-1.310659e+001	-3.891551e+001
4194800.693	-9.914577e+000	-1.526338e+002	-1.895892e+001	7.903675e+001	-1.902981e+001	7.983313e+001	-1.277479e+001	-4.078293e+001
4219237.435	-9.658667e+000	-1.551774e+002	-1.945990e+001	7.421393e+001	-1.953382e+001	7.510869e+001	-1.244855e+001	-4.318666e+001
4243674.177	-9.425459e+000	-1.580892e+002	-1.996294e+001	7.013513e+001	-2.003789e+001	7.108585e+001	-1.214753e+001	-4.597914e+001
4268110.919	-9.219400e+000	-1.612253e+002	-2.044341e+001	6.656955e+001	-2.051845e+001	6.765069e+001	-1.188004e+001	-4.901034e+001
4292547.660	-9.034678e+000	-1.645519e+002	-2.092233e+001	6.351999e+001	-2.098896e+001	6.467062e+001	-1.163326e+001	-5.218947e+001
4316984.402	-8.876152e+000	-1.680957e+002	-2.138355e+001	6.121317e+001	-2.143672e+001	6.242002e+001	-1.141022e+001	-5.557645e+001
4341421.144	-8.756783e+000	-1.717928e+002	-2.176211e+001	5.961077e+001	-2.180145e+001	6.090515e+001	-1.122006e+001	-5.912812e+001
4365857.886	-8.680317e+000	-1.755101e+002	-2.198935e+001	5.817163e+001	-2.202156e+001	5.946419e+001	-1.107078e+001	-6.265749e+001
4390294.627	-8.626254e+000	-1.791232e+002	-2.214841e+001	5.628002e+001	-2.217692e+001	5.759654e+001	-1.094069e+001	-6.606086e+001
4414731.369	-8.568211e+000	1.772944e+002	-2.236133e+001	5.399787e+001	-2.238134e+001	5.537566e+001	-1.079881e+001	-6.937321e+001
4439168.111	-8.496958e+000	1.735851e+002	-2.269058e+001	5.211735e+001	-2.270268e+001	5.356041e+001	-1.062983e+001	-7.278209e+001
4463604.853	-8.427517e+000	1.695591e+002	-2.307995e+001	5.165883e+001	-2.307933e+001	5.310222e+001	-1.044236e+001	-7.643343e+001
4488041.594	-8.387488e+000	1.651677e+002	-2.335961e+001	5.314948e+001	-2.334628e+001	5.457359e+001	-1.026108e+001	-8.046606e+001
4512478.336	-8.410674e+000	1.604264e+002	-2.327337e+001	5.615394e+001	-2.324532e+001	5.749901e+001	-1.011787e+001	-8.488078e+001
4536915.078	-8.526393e+000	1.555589e+002	-2.268331e+001	5.853443e+001	-2.267902e+001	5.983793e+001	-1.004232e+001	-8.952705e+001
4561351.820	-8.727124e+000	1.508672e+002	-2.184201e+001	5.836830e+001	-2.182834e+001	5.979584e+001	-1.003865e+001	-9.414712e+001
4585788.562	-8.982086e+000	1.464930e+002	-2.101230e+001	5.591856e+001	-2.098623e+001	5.746508e+001	-1.008570e+001	-9.856241e+001
4610225.303	-9.264728e+000	1.424107e+002	-2.030298e+001	5.206404e+001	-2.024835e+001	5.359429e+001	-1.015978e+001	-1.027366e+002
4634662.045	-9.557486e+000	1.385893e+002	-1.973600e+001	4.746221e+001	-1.965559e+001	4.897029e+001	-1.023905e+001	-1.066986e+002
4659098.787	-9.848225e+000	1.348978e+002	-1.929401e+001	4.266662e+001	-1.919821e+001	4.404220e+001	-1.031130e+001	-1.104963e+002
4683535.529	-1.013167e+001	1.312260e+002	-1.895831e+001	3.797509e+001	-1.885149e+001	3.916359e+001	-1.036338e+001	-1.142202e+002
4707972.270	-1.041846e+001	1.274092e+002	-1.866996e+001	3.372973e+001	-1.855631e+001	3.476021e+001	-1.039227e+001	-1.180425e+002
4732409.012	-1.074318e+001	1.233339e+002	-1.835007e+001	2.988417e+001	-1.823681e+001	3.080586e+001	-1.041667e+001	-1.221626e+002
4756845.754	-1.113381e+001	1.191047e+002	-1.795616e+001	2.604769e+001	-1.784429e+001	2.683571e+001	-1.046920e+001	-1.265334e+002
4781282.496	-1.160364e+001	1.149658e+002	-1.751142e+001	2.174793e+001	-1.741201e+001	2.233659e+001	-1.056670e+001	-1.309730e+002
4805719.237	-1.213039e+001	1.110621e+002	-1.708780e+001	1.692095e+001	-1.699744e+001	1.741581e+001	-1.069524e+001	-1.353938e+002
4830155.979	-1.270155e+001	1.073676e+002	-1.669695e+001	1.177939e+001	-1.662085e+001	1.227507e+001	-1.084017e+001	-1.397975e+002
4854592.721	-1.332926e+001	1.037969e+002	-1.632727e+001	6.506774e+000	-1.626238e+001	7.010566e+000	-1.100731e+001	-1.442462e+002
4879029.463	-1.401775e+001	1.004080e+002	-1.597303e+001	1.066952e+000	-1.591018e+001	1.600667e+000	-1.120326e+001	-1.487615e+002
4903466.205	-1.477766e+001	9.729462e+001	-1.563525e+001	-4.563131e+000	-1.557078e+001	-4.051568e+000	-1.143382e+001	-1.532693e+002
4927902.946	-1.560657e+001	9.456160e+001	-1.532298e+001	-1.038658e+001	-1.525737e+001	-9.914988e+000	-1.169934e+001	-1.577289e+002
4952339.688	-1.649616e+001	9.229057e+001	-1.504115e+001	-1.641923e+001	-1.497036e+001	-1.591225e+001	-1.199296e+001	-1.621578e+002
4976776.430	-1.744714e+001	9.047977e+001	-1.479149e+001	-2.249362e+001	-1.472145e+001	-2.206812e+001	-1.231396e+001	-1.664291e+002
5001213.172	-1.845736e+001	8.927224e+001	-1.457537e+001	-2.867894e+001	-1.450918e+001	-2.827192e+001	-1.265278e+001	-1.706019e+002
5025649.913	-1.952551e+001	8.870610e+001	-1.438893e+001	-3.489875e+001	-1.432815e+001	-3.450474e+001	-1.301119e+001	-1.746838e+002
5050086.655	-2.066265e+001	8.881765e+001	-1.422798e+001	-4.108597e+001	-1.417668e+001	-4.074565e+001	-1.338541e+001	-1.786664e+002
5074523.397	-2.186661e+001	8.981733e+001	-1.409218e+001	-4.726587e+001	-1.405028e+001	-4.695389e+001	-1.377331e+001	1.774467e+002
5098960.139	-2.313077e+001	9.196753e+001	-1.398331e+001	-5.343086e+001	-1.394511e+001	-5.312097e+001	-1.417764e+001	1.736141e+002
5123396.880	-2.446698e+001	9.559225e+001	-1.388876e+001	-5.952338e+001	-1.385864e+001	-5.925157e+001	-1.459410e+001	1.698678e+002
5147833.622	-2.581470e+001	1.011784e+002	-1.381484e+001	-6.560725e+001	-1.379087e+001	-6.535571e+001	-1.502615e+001	1.662012e+002
5172270.364	-2.705980e+001	1.093115e+002	-1.375486e+001	-7.165111e+001	-1.373555e+001	-7.141667e+001	-1.547157e+001	1.626194e+002
5196707.106	-2.802965e+001	1.202280e+002	-1.370848e+001	-7.768354e+001	-1.369401e+001	-7.744874e+001	-1.593541e+001	1.591535e+002
5221143.847	-2.856222e+001	1.334125e+002	-1.367237e+001	-8.354922e+001	-1.366520e+001	-8.347868e+001	-1.641070e+001	1.558489e+002
5245580.589	-2.835941e+001	1.464047e+002	-1.364810e+001	-8.950545e+001	-1.364853e+001	-8.945071e+001	-1.689582e+001	1.526090e+002
5270017.331	-2.765155e+001	1.573877e+002	-1.363613e+001	-9.542042e+001	-1.363919e+001	-9.537222e+001	-1.739045e+001	1.494646e+002
5294454.073	-2.666430e+001	1.656400e+002	-1.363263e+001	-1.013189e+002	-1.363903e+001	-1.012446e+002	-1.789144e+001	1.464012e+002
5318890.815	-2.560000e+001	1.714127e+002	-1.363675e+001	-1.071765e+002	-1.364571e+001	-1.070491e+002	-1.840165e+001	1.434383e+002
5343327.556	-2.454986e+001	1.752310e+002	-1.364431e+001	-1.130089e+002	-1.365606e+001	-1.128470e+002	-1.891554e+001	1.406027e+002
5367764.298	-2.356841e+001	1.775509e+002	-1.365647e+001	-1.188153e+002	-1.366994e+001	-1.186431e+002	-1.944038e+001	1.379473e+002
5392201.040	-2.267896e+001	1.787423e+002	-1.367221e+001	-1.246281e+002	-1.368783e+001	-1.244053e+002	-1.996860e+001	1.354599e+002
5416637.782	-2.189095e+001	1.791264e+002	-1.369569e+001	-1.304629e+002	-1.371002e+001	-1.301922e+002	-2.048602e+001	1.332184e+002
5441074.523	-2.119705e+001	1.789900e+002	-1.372498e+001	-1.362960e+002	-1.373954e+001	-1.359754e+002	-2.098254e+001	1.311956e+002
