!Agilent Technologies,E5061B,MY49101568,A.02.00
!Date: Wed Mar 01 13:15:27 2023
!Data & Calibration Information:
!Freq	S11:SOLT2(OFF)	S21:SOLT2(OFF)	S12:SOLT2(OFF)	S22:SOLT2(OFF)
# Hz S dB R 50
1800000.000	-1.527946e+001	-1.384644e+000	-1.262259e+001	1.788611e+002	-1.259938e+001	1.789995e+002	-1.702707e+001	4.281570e+001
1824436.742	-1.539775e+001	-1.679020e+000	-1.253508e+001	1.727263e+002	-1.251822e+001	1.728489e+002	-1.696011e+001	4.354431e+001
1848873.484	-1.543397e+001	-2.193577e+000	-1.247356e+001	1.666767e+002	-1.245400e+001	1.667996e+002	-1.682290e+001	4.368659e+001
1873310.225	-1.542145e+001	-2.941752e+000	-1.242451e+001	1.607692e+002	-1.240337e+001	1.608585e+002	-1.663754e+001	4.329334e+001
1897746.967	-1.536407e+001	-3.986950e+000	-1.238329e+001	1.550049e+002	-1.237885e+001	1.550769e+002	-1.641914e+001	4.210155e+001
1922183.709	-1.526136e+001	-5.539623e+000	-1.236695e+001	1.493356e+002	-1.235175e+001	1.493800e+002	-1.621416e+001	4.042512e+001
1946620.451	-1.517577e+001	-7.503959e+000	-1.234376e+001	1.438915e+002	-1.233482e+001	1.439174e+002	-1.603431e+001	3.809790e+001
1971057.192	-1.508566e+001	-9.657391e+000	-1.231068e+001	1.384978e+002	-1.230474e+001	1.385692e+002	-1.589738e+001	3.553027e+001
1995493.934	-1.502208e+001	-1.193661e+001	-1.225166e+001	1.332139e+002	-1.224744e+001	1.333020e+002	-1.579276e+001	3.289230e+001
2019930.676	-1.493049e+001	-1.438025e+001	-1.220224e+001	1.278588e+002	-1.220114e+001	1.279724e+002	-1.567452e+001	2.994172e+001
2044367.418	-1.481943e+001	-1.714720e+001	-1.215860e+001	1.225129e+002	-1.215968e+001	1.226386e+002	-1.556187e+001	2.667738e+001
2068804.159	-1.470788e+001	-2.025781e+001	-1.212701e+001	1.172427e+002	-1.212940e+001	1.173685e+002	-1.545586e+001	2.303039e+001
2093240.901	-1.461872e+001	-2.368813e+001	-1.209850e+001	1.121369e+002	-1.210165e+001	1.122012e+002	-1.538436e+001	1.910403e+001
2117677.643	-1.457966e+001	-2.737137e+001	-1.205840e+001	1.071676e+002	-1.206950e+001	1.072228e+002	-1.535659e+001	1.487977e+001
2142114.385	-1.456194e+001	-3.111630e+001	-1.199814e+001	1.022074e+002	-1.201759e+001	1.022699e+002	-1.535501e+001	1.051851e+001
2166551.127	-1.454751e+001	-3.506370e+001	-1.193812e+001	9.721276e+001	-1.195869e+001	9.733557e+001	-1.537904e+001	5.959856e+000
2190987.868	-1.455494e+001	-3.927247e+001	-1.187744e+001	9.224409e+001	-1.189922e+001	9.242937e+001	-1.542366e+001	1.129789e+000
2215424.610	-1.460645e+001	-4.373581e+001	-1.181649e+001	8.732059e+001	-1.183095e+001	8.760398e+001	-1.550572e+001	-3.950463e+000
2239861.352	-1.471467e+001	-4.836021e+001	-1.174359e+001	8.254310e+001	-1.175913e+001	8.281145e+001	-1.561954e+001	-9.285094e+000
2264298.094	-1.487334e+001	-5.308031e+001	-1.165551e+001	7.779296e+001	-1.166102e+001	7.812409e+001	-1.578677e+001	-1.485466e+001
2288734.835	-1.509114e+001	-5.772266e+001	-1.153292e+001	7.305863e+001	-1.153294e+001	7.338579e+001	-1.599988e+001	-2.042646e+001
2313171.577	-1.532954e+001	-6.231033e+001	-1.139637e+001	6.820141e+001	-1.139143e+001	6.844487e+001	-1.621586e+001	-2.609663e+001
2337608.319	-1.559341e+001	-6.691248e+001	-1.124873e+001	6.321651e+001	-1.124940e+001	6.341721e+001	-1.645019e+001	-3.200395e+001
2362045.061	-1.589754e+001	-7.166370e+001	-1.109816e+001	5.818608e+001	-1.111066e+001	5.837085e+001	-1.671847e+001	-3.828397e+001
2386481.802	-1.624957e+001	-7.647405e+001	-1.094469e+001	5.302557e+001	-1.095744e+001	5.319015e+001	-1.701642e+001	-4.476753e+001
2410918.544	-1.663567e+001	-8.133804e+001	-1.078639e+001	4.770526e+001	-1.080084e+001	4.790820e+001	-1.734094e+001	-5.152629e+001
2435355.286	-1.706798e+001	-8.633611e+001	-1.063530e+001	4.226205e+001	-1.065289e+001	4.247569e+001	-1.768138e+001	-5.867167e+001
2459792.028	-1.756236e+001	-9.154445e+001	-1.049448e+001	3.671106e+001	-1.051391e+001	3.696893e+001	-1.804987e+001	-6.624702e+001
2484228.769	-1.814067e+001	-9.694690e+001	-1.036503e+001	3.103859e+001	-1.038145e+001	3.136083e+001	-1.844029e+001	-7.425767e+001
2508665.511	-1.881355e+001	-1.025706e+002	-1.024920e+001	2.531598e+001	-1.026254e+001	2.564844e+001	-1.885933e+001	-8.273732e+001
2533102.253	-1.960687e+001	-1.084331e+002	-1.014967e+001	1.954212e+001	-1.015815e+001	1.983696e+001	-1.928653e+001	-9.167230e+001
2557538.995	-2.054289e+001	-1.145804e+002	-1.006773e+001	1.366701e+001	-1.007397e+001	1.398820e+001	-1.971856e+001	-1.012495e+002
2581975.737	-2.168185e+001	-1.210416e+002	-1.000683e+001	7.777259e+000	-1.000780e+001	8.095259e+000	-2.014586e+001	-1.114420e+002
2606412.478	-2.308691e+001	-1.279633e+002	-9.965699e+000	1.867823e+000	-9.962142e+000	2.200684e+000	-2.054770e+001	-1.222492e+002
2630849.220	-2.486573e+001	-1.352449e+002	-9.942217e+000	-3.999401e+000	-9.933222e+000	-3.681302e+000	-2.092215e+001	-1.337018e+002
2655285.962	-2.719879e+001	-1.432643e+002	-9.931567e+000	-9.856921e+000	-9.920064e+000	-9.543382e+000	-2.124598e+001	-1.456063e+002
2679722.704	-3.037149e+001	-1.524794e+002	-9.930467e+000	-1.569355e+001	-9.919545e+000	-1.541002e+001	-2.152057e+001	-1.578472e+002
2704159.445	-3.526418e+001	-1.679535e+002	-9.954731e+000	-2.151385e+001	-9.942010e+000	-2.127641e+001	-2.168874e+001	-1.700442e+002
2728596.187	-4.317659e+001	1.413678e+002	-9.992797e+000	-2.734376e+001	-9.978642e+000	-2.708361e+001	-2.177614e+001	1.777888e+002
2753032.929	-3.818816e+001	5.358999e+001	-1.005191e+001	-3.305160e+001	-1.003535e+001	-3.283540e+001	-2.176735e+001	1.658998e+002
2777469.671	-3.227569e+001	3.191905e+001	-1.012264e+001	-3.868813e+001	-1.010890e+001	-3.849482e+001	-2.167230e+001	1.544855e+002
2801906.412	-2.874646e+001	2.112037e+001	-1.020404e+001	-4.423432e+001	-1.019213e+001	-4.405188e+001	-2.153898e+001	1.435444e+002
2826343.154	-2.630141e+001	1.323366e+001	-1.030047e+001	-4.968728e+001	-1.028544e+001	-4.951943e+001	-2.136635e+001	1.332771e+002
2850779.896	-2.447235e+001	6.362910e+000	-1.039931e+001	-5.504007e+001	-1.038810e+001	-5.490223e+001	-2.117788e+001	1.236000e+002
2875216.638	-2.305272e+001	2.512769e-001	-1.050722e+001	-6.033434e+001	-1.049421e+001	-6.015369e+001	-2.098191e+001	1.145474e+002
2899653.380	-2.187478e+001	-5.674641e+000	-1.061341e+001	-6.545417e+001	-1.060687e+001	-6.531868e+001	-2.079511e+001	1.060983e+002
2924090.121	-2.092091e+001	-1.113806e+001	-1.072311e+001	-7.052232e+001	-1.071649e+001	-7.038373e+001	-2.063080e+001	9.805725e+001
2948526.863	-2.011410e+001	-1.634052e+001	-1.083566e+001	-7.550639e+001	-1.083166e+001	-7.539630e+001	-2.049928e+001	9.069060e+001
2972963.605	-1.942678e+001	-2.130510e+001	-1.095169e+001	-8.039610e+001	-1.094863e+001	-8.029208e+001	-2.037185e+001	8.376974e+001
2997400.347	-1.882201e+001	-2.607969e+001	-1.106583e+001	-8.516530e+001	-1.106721e+001	-8.506791e+001	-2.024491e+001	7.724444e+001
3021837.088	-1.829752e+001	-3.078378e+001	-1.117326e+001	-8.983069e+001	-1.117780e+001	-8.972975e+001	-2.013601e+001	7.094637e+001
3046273.830	-1.783324e+001	-3.537918e+001	-1.127360e+001	-9.438079e+001	-1.128244e+001	-9.429104e+001	-2.004368e+001	6.487579e+001
3070710.572	-1.742920e+001	-3.994063e+001	-1.135948e+001	-9.885672e+001	-1.137166e+001	-9.876716e+001	-1.998537e+001	5.891731e+001
3095147.314	-1.708336e+001	-4.444620e+001	-1.143045e+001	-1.033020e+002	-1.144413e+001	-1.032107e+002	-1.996992e+001	5.298413e+001
3119584.055	-1.679641e+001	-4.891850e+001	-1.148486e+001	-1.077471e+002	-1.150399e+001	-1.076414e+002	-2.000976e+001	4.724460e+001
3144020.797	-1.656034e+001	-5.323966e+001	-1.153287e+001	-1.121693e+002	-1.155165e+001	-1.121073e+002	-2.011107e+001	4.176872e+001
3168457.539	-1.637595e+001	-5.745210e+001	-1.157357e+001	-1.166525e+002	-1.159422e+001	-1.165837e+002	-2.026098e+001	3.649358e+001
3192894.281	-1.622896e+001	-6.153311e+001	-1.160747e+001	-1.211701e+002	-1.163122e+001	-1.210904e+002	-2.046048e+001	3.146613e+001
3217331.023	-1.612290e+001	-6.545460e+001	-1.164232e+001	-1.257345e+002	-1.166589e+001	-1.256284e+002	-2.072035e+001	2.682882e+001
3241767.764	-1.604367e+001	-6.919361e+001	-1.167843e+001	-1.302903e+002	-1.170339e+001	-1.301981e+002	-2.101803e+001	2.257493e+001
3266204.506	-1.598953e+001	-7.276518e+001	-1.171616e+001	-1.348362e+002	-1.174354e+001	-1.347124e+002	-2.132727e+001	1.868362e+001
3290641.248	-1.594348e+001	-7.628557e+001	-1.174821e+001	-1.392995e+002	-1.177767e+001	-1.391693e+002	-2.163882e+001	1.488086e+001
3315077.990	-1.593517e+001	-7.980790e+001	-1.175967e+001	-1.437878e+002	-1.178902e+001	-1.436553e+002	-2.203526e+001	1.097046e+001
3339514.731	-1.597772e+001	-8.323372e+001	-1.176186e+001	-1.484155e+002	-1.179272e+001	-1.482706e+002	-2.255525e+001	7.396483e+000
3363951.473	-1.606398e+001	-8.639050e+001	-1.176957e+001	-1.531588e+002	-1.180121e+001	-1.529997e+002	-2.318187e+001	4.582970e+000
3388388.215	-1.617877e+001	-8.924881e+001	-1.178657e+001	-1.579684e+002	-1.181739e+001	-1.578015e+002	-2.390154e+001	2.694617e+000
3412824.957	-1.632108e+001	-9.182459e+001	-1.181251e+001	-1.628338e+002	-1.184405e+001	-1.626586e+002	-2.468351e+001	1.901431e+000
3437261.698	-1.648115e+001	-9.404614e+001	-1.184977e+001	-1.677504e+002	-1.188278e+001	-1.675831e+002	-2.551852e+001	2.793270e+000
3461698.440	-1.665686e+001	-9.584970e+001	-1.189994e+001	-1.727079e+002	-1.193414e+001	-1.725205e+002	-2.631371e+001	5.533286e+000
3486135.182	-1.682219e+001	-9.726482e+001	-1.196672e+001	-1.776694e+002	-1.200376e+001	-1.775023e+002	-2.695695e+001	1.054243e+001
3510571.924	-1.696941e+001	-9.819817e+001	-1.205535e+001	1.773591e+002	-1.209094e+001	1.775410e+002	-2.725052e+001	1.732421e+001
3535008.666	-1.707254e+001	-9.873108e+001	-1.216515e+001	1.724493e+002	-1.220163e+001	1.726218e+002	-2.705509e+001	2.466849e+001
3559445.407	-1.711798e+001	-9.896351e+001	-1.229202e+001	1.676383e+002	-1.232852e+001	1.678205e+002	-2.642549e+001	3.061782e+001
3583882.149	-1.709269e+001	-9.911534e+001	-1.243089e+001	1.629863e+002	-1.247060e+001	1.631642e+002	-2.553959e+001	3.435596e+001
3608318.891	-1.700979e+001	-9.931056e+001	-1.256769e+001	1.584780e+002	-1.260781e+001	1.586548e+002	-2.465476e+001	3.609170e+001
3632755.633	-1.690035e+001	-9.961066e+001	-1.269152e+001	1.540096e+002	-1.273550e+001	1.542052e+002	-2.382012e+001	3.668711e+001
3657192.374	-1.676293e+001	-9.977114e+001	-1.281372e+001	1.494846e+002	-1.285978e+001	1.496995e+002	-2.300868e+001	3.671112e+001
3681629.116	-1.656072e+001	-9.983148e+001	-1.295676e+001	1.449200e+002	-1.300918e+001	1.451489e+002	-2.214790e+001	3.600152e+001
3706065.858	-1.628197e+001	-1.000161e+002	-1.312749e+001	1.404221e+002	-1.318493e+001	1.406285e+002	-2.128646e+001	3.438587e+001
3730502.600	-1.592078e+001	-1.005001e+002	-1.333976e+001	1.360500e+002	-1.339972e+001	1.362807e+002	-2.045211e+001	3.173853e+001
3754939.341	-1.551083e+001	-1.015805e+002	-1.357747e+001	1.320003e+002	-1.364085e+001	1.322508e+002	-1.970706e+001	2.813557e+001
3779376.083	-1.506933e+001	-1.033951e+002	-1.383936e+001	1.284354e+002	-1.390418e+001	1.287065e+002	-1.905869e+001	2.360275e+001
3803812.825	-1.467146e+001	-1.059775e+002	-1.407101e+001	1.254831e+002	-1.414144e+001	1.259040e+002	-1.859914e+001	1.827979e+001
3828249.567	-1.435727e+001	-1.092862e+002	-1.422436e+001	1.231996e+002	-1.429238e+001	1.236093e+002	-1.833313e+001	1.285336e+001
3852686.308	-1.420090e+001	-1.127457e+002	-1.421986e+001	1.210011e+002	-1.429308e+001	1.214455e+002	-1.829870e+001	7.991147e+000
3877123.050	-1.417656e+001	-1.158094e+002	-1.408870e+001	1.182863e+002	-1.415368e+001	1.187456e+002	-1.842433e+001	4.463009e+000
3901559.792	-1.421831e+001	-1.179661e+002	-1.391276e+001	1.146378e+002	-1.397428e+001	1.151087e+002	-1.853774e+001	2.601946e+000
3925996.534	-1.421521e+001	-1.191266e+002	-1.378503e+001	1.101025e+002	-1.385022e+001	1.106422e+002	-1.847398e+001	1.935383e+000
3950433.276	-1.408432e+001	-1.199301e+002	-1.376762e+001	1.052619e+002	-1.382688e+001	1.058011e+002	-1.818464e+001	1.333499e+000
3974870.017	-1.382460e+001	-1.209654e+002	-1.385921e+001	1.005134e+002	-1.391978e+001	1.010677e+002	-1.773143e+001	-2.275888e-001
3999306.759	-1.350089e+001	-1.226249e+002	-1.402616e+001	9.619240e+001	-1.407717e+001	9.682918e+001	-1.726932e+001	-2.919376e+000
4023743.501	-1.318306e+001	-1.249897e+002	-1.420747e+001	9.249555e+001	-1.425972e+001	9.311155e+001	-1.685882e+001	-6.449175e+000
4048180.243	-1.290942e+001	-1.278968e+002	-1.437513e+001	8.939008e+001	-1.442773e+001	9.003415e+001	-1.654571e+001	-1.058463e+001
4072616.984	-1.271922e+001	-1.311785e+002	-1.447399e+001	8.683261e+001	-1.452248e+001	8.739901e+001	-1.635952e+001	-1.484659e+001
4097053.726	-1.261149e+001	-1.344484e+002	-1.447894e+001	8.440274e+001	-1.453228e+001	8.499258e+001	-1.627759e+001	-1.901681e+001
4121490.468	-1.257447e+001	-1.375415e+002	-1.439817e+001	8.187434e+001	-1.445554e+001	8.246194e+001	-1.627509e+001	-2.278870e+001
4145927.210	-1.257996e+001	-1.402912e+002	-1.425863e+001	7.900513e+001	-1.431468e+001	7.959663e+001	-1.632322e+001	-2.605342e+001
4170363.951	-1.261268e+001	-1.427048e+002	-1.408289e+001	7.584615e+001	-1.414582e+001	7.641490e+001	-1.638104e+001	-2.884862e+001
4194800.693	-1.263709e+001	-1.447333e+002	-1.390121e+001	7.222221e+001	-1.396192e+001	7.286676e+001	-1.643550e+001	-3.123197e+001
4219237.435	-1.264272e+001	-1.465427e+002	-1.373027e+001	6.835345e+001	-1.378613e+001	6.903683e+001	-1.646136e+001	-3.331597e+001
4243674.177	-1.262407e+001	-1.481785e+002	-1.357085e+001	6.427256e+001	-1.362474e+001	6.496284e+001	-1.644903e+001	-3.514549e+001
4268110.919	-1.257314e+001	-1.497039e+002	-1.343319e+001	6.002885e+001	-1.348343e+001	6.072970e+001	-1.639446e+001	-3.689541e+001
4292547.660	-1.249183e+001	-1.512302e+002	-1.331231e+001	5.568984e+001	-1.335998e+001	5.640737e+001	-1.630810e+001	-3.863486e+001
4316984.402	-1.238263e+001	-1.528091e+002	-1.321384e+001	5.128793e+001	-1.325751e+001	5.202374e+001	-1.618677e+001	-4.046206e+001
4341421.144	-1.225608e+001	-1.544934e+002	-1.312820e+001	4.686443e+001	-1.316993e+001	4.762381e+001	-1.604428e+001	-4.239838e+001
4365857.886	-1.211572e+001	-1.563093e+002	-1.305613e+001	4.246315e+001	-1.309701e+001	4.321928e+001	-1.588831e+001	-4.447468e+001
4390294.627	-1.196982e+001	-1.582834e+002	-1.299663e+001	3.807694e+001	-1.303357e+001	3.884856e+001	-1.572690e+001	-4.671873e+001
4414731.369	-1.182102e+001	-1.603812e+002	-1.294342e+001	3.369144e+001	-1.297970e+001	3.449293e+001	-1.556478e+001	-4.911533e+001
4439168.111	-1.167908e+001	-1.626264e+002	-1.289568e+001	2.932244e+001	-1.292673e+001	3.017471e+001	-1.540942e+001	-5.164055e+001
4463604.853	-1.154590e+001	-1.649705e+002	-1.284822e+001	2.502362e+001	-1.287568e+001	2.588532e+001	-1.526086e+001	-5.427597e+001
4488041.594	-1.142346e+001	-1.674048e+002	-1.279983e+001	2.072307e+001	-1.282693e+001	2.161119e+001	-1.512531e+001	-5.698292e+001
4512478.336	-1.131210e+001	-1.699203e+002	-1.275209e+001	1.644438e+001	-1.277582e+001	1.733842e+001	-1.499890e+001	-5.976308e+001
4536915.078	-1.121178e+001	-1.725205e+002	-1.270553e+001	1.216099e+001	-1.272449e+001	1.307431e+001	-1.488478e+001	-6.259107e+001
4561351.820	-1.112505e+001	-1.751812e+002	-1.265893e+001	7.877018e+000	-1.267488e+001	8.811788e+000	-1.477917e+001	-6.548719e+001
4585788.562	-1.105232e+001	-1.779285e+002	-1.261396e+001	3.610350e+000	-1.262231e+001	4.545030e+000	-1.468520e+001	-6.842890e+001
4610225.303	-1.099840e+001	1.792815e+002	-1.256547e+001	-6.459183e-001	-1.257046e+001	3.039627e-001	-1.460596e+001	-7.145232e+001
4634662.045	-1.096335e+001	1.764464e+002	-1.251451e+001	-4.880882e+000	-1.251530e+001	-3.928824e+000	-1.454505e+001	-7.450813e+001
4659098.787	-1.094527e+001	1.735895e+002	-1.246112e+001	-9.133633e+000	-1.245571e+001	-8.189201e+000	-1.449877e+001	-7.758777e+001
4683535.529	-1.094918e+001	1.707411e+002	-1.240056e+001	-1.337565e+001	-1.239149e+001	-1.243754e+001	-1.446701e+001	-8.067367e+001
4707972.270	-1.096688e+001	1.679020e+002	-1.233576e+001	-1.763105e+001	-1.232184e+001	-1.673329e+001	-1.445642e+001	-8.372428e+001
4732409.012	-1.100412e+001	1.650702e+002	-1.226543e+001	-2.193725e+001	-1.224838e+001	-2.105594e+001	-1.445704e+001	-8.676412e+001
4756845.754	-1.105442e+001	1.622415e+002	-1.219566e+001	-2.630302e+001	-1.217238e+001	-2.542613e+001	-1.447196e+001	-8.979150e+001
4781282.496	-1.111951e+001	1.594262e+002	-1.212302e+001	-3.072229e+001	-1.209724e+001	-2.984822e+001	-1.449382e+001	-9.279055e+001
4805719.237	-1.120044e+001	1.566185e+002	-1.205256e+001	-3.518731e+001	-1.202245e+001	-3.433067e+001	-1.452777e+001	-9.575854e+001
4830155.979	-1.130017e+001	1.538094e+002	-1.198572e+001	-3.967937e+001	-1.195034e+001	-3.884938e+001	-1.456799e+001	-9.872569e+001
4854592.721	-1.141653e+001	1.510224e+002	-1.192192e+001	-4.421547e+001	-1.188301e+001	-4.341035e+001	-1.461767e+001	-1.016695e+002
4879029.463	-1.155231e+001	1.482458e+002	-1.186133e+001	-4.880163e+001	-1.181968e+001	-4.800298e+001	-1.467715e+001	-1.046260e+002
4903466.205	-1.171084e+001	1.454973e+002	-1.180420e+001	-5.340001e+001	-1.175907e+001	-5.262742e+001	-1.474768e+001	-1.075481e+002
4927902.946	-1.189050e+001	1.427889e+002	-1.175332e+001	-5.802341e+001	-1.170509e+001	-5.727391e+001	-1.482580e+001	-1.104725e+002
4952339.688	-1.209312e+001	1.401255e+002	-1.170506e+001	-6.269770e+001	-1.165505e+001	-6.193595e+001	-1.491572e+001	-1.134101e+002
4976776.430	-1.231964e+001	1.375481e+002	-1.166115e+001	-6.736355e+001	-1.160991e+001	-6.662488e+001	-1.501561e+001	-1.163017e+002
5001213.172	-1.257102e+001	1.350409e+002	-1.162375e+001	-7.204160e+001	-1.156852e+001	-7.132693e+001	-1.512776e+001	-1.191848e+002
5025649.913	-1.284563e+001	1.326463e+002	-1.158686e+001	-7.672480e+001	-1.153275e+001	-7.603964e+001	-1.525005e+001	-1.220367e+002
5050086.655	-1.314730e+001	1.303864e+002	-1.155696e+001	-8.141842e+001	-1.150122e+001	-8.077267e+001	-1.538485e+001	-1.248533e+002
5074523.397	-1.346974e+001	1.282825e+002	-1.152835e+001	-8.612585e+001	-1.147178e+001	-8.551168e+001	-1.552844e+001	-1.276158e+002
5098960.139	-1.381247e+001	1.263315e+002	-1.150346e+001	-9.086256e+001	-1.144844e+001	-9.026303e+001	-1.567935e+001	-1.303292e+002
5123396.880	-1.417588e+001	1.245483e+002	-1.148451e+001	-9.560768e+001	-1.142962e+001	-9.503606e+001	-1.583714e+001	-1.330137e+002
5147833.622	-1.456080e+001	1.229566e+002	-1.147390e+001	-1.003701e+002	-1.141937e+001	-9.982118e+001	-1.599628e+001	-1.356719e+002
5172270.364	-1.496688e+001	1.215721e+002	-1.146999e+001	-1.051247e+002	-1.141663e+001	-1.045993e+002	-1.616295e+001	-1.383379e+002
5196707.106	-1.539792e+001	1.204618e+002	-1.147197e+001	-1.098577e+002	-1.141968e+001	-1.093555e+002	-1.634070e+001	-1.410201e+002
5221143.847	-1.584668e+001	1.196745e+002	-1.147782e+001	-1.145243e+002	-1.142768e+001	-1.140873e+002	-1.652990e+001	-1.436671e+002
5245580.589	-1.630350e+001	1.192535e+002	-1.148539e+001	-1.192043e+002	-1.143756e+001	-1.187891e+002	-1.673320e+001	-1.462888e+002
5270017.331	-1.676012e+001	1.192277e+002	-1.149413e+001	-1.238615e+002	-1.144742e+001	-1.234560e+002	-1.695308e+001	-1.488415e+002
5294454.073	-1.720248e+001	1.196306e+002	-1.150089e+001	-1.285163e+002	-1.145714e+001	-1.281227e+002	-1.717969e+001	-1.513272e+002
5318890.815	-1.761667e+001	1.203999e+002	-1.150798e+001	-1.331773e+002	-1.146611e+001	-1.327879e+002	-1.740909e+001	-1.536942e+002
5343327.556	-1.799601e+001	1.215353e+002	-1.151482e+001	-1.378369e+002	-1.147540e+001	-1.374572e+002	-1.764152e+001	-1.559932e+002
5367764.298	-1.832685e+001	1.229435e+002	-1.152243e+001	-1.425175e+002	-1.148622e+001	-1.421520e+002	-1.786460e+001	-1.582243e+002
5392201.040	-1.860968e+001	1.245654e+002	-1.153375e+001	-1.472138e+002	-1.149893e+001	-1.468555e+002	-1.808400e+001	-1.604239e+002
5416637.782	-1.884049e+001	1.263420e+002	-1.154740e+001	-1.519148e+002	-1.151461e+001	-1.515660e+002	-1.829800e+001	-1.626230e+002
5441074.523	-1.901662e+001	1.282069e+002	-1.156493e+001	-1.566398e+002	-1.153389e+001	-1.562835e+002	-1.850120e+001	-1.648243e+002
