!Agilent Technologies,E5061B,MY49101568,A.02.00
!Date: Wed Mar 01 13:17:10 2023
!Data & Calibration Information:
!Freq	S11:SOLT2(OFF)	S21:SOLT2(OFF)	S12:SOLT2(OFF)	S22:SOLT2(OFF)
# Hz S dB R 50
1800000.000	-9.876910e+000	-1.622388e+001	-2.232376e+001	-1.481078e+002	-2.232716e+001	-1.481309e+002	-1.033336e+001	2.025654e+001
1824436.742	-1.001274e+001	-2.042159e+001	-2.199508e+001	-1.521322e+002	-2.200056e+001	-1.521916e+002	-1.049505e+001	1.659041e+001
1848873.484	-1.015768e+001	-2.469275e+001	-2.165581e+001	-1.562760e+002	-2.166559e+001	-1.563223e+002	-1.066094e+001	1.288554e+001
1873310.225	-1.031180e+001	-2.900261e+001	-2.130677e+001	-1.605197e+002	-2.132513e+001	-1.605513e+002	-1.082826e+001	9.148632e+000
1897746.967	-1.046646e+001	-3.336696e+001	-2.095785e+001	-1.648235e+002	-2.097583e+001	-1.648573e+002	-1.099249e+001	5.366651e+000
1922183.709	-1.063329e+001	-3.783523e+001	-2.059763e+001	-1.692790e+002	-2.062277e+001	-1.692889e+002	-1.115957e+001	1.489814e+000
1946620.451	-1.080248e+001	-4.240161e+001	-2.023805e+001	-1.737679e+002	-2.026462e+001	-1.737925e+002	-1.132730e+001	-2.453751e+000
1971057.192	-1.098363e+001	-4.703797e+001	-1.987874e+001	-1.784558e+002	-1.991143e+001	-1.784233e+002	-1.149390e+001	-6.459631e+000
1995493.934	-1.117187e+001	-5.178974e+001	-1.951768e+001	1.768484e+002	-1.955371e+001	1.769743e+002	-1.166164e+001	-1.056226e+001
2019930.676	-1.137212e+001	-5.666440e+001	-1.916063e+001	1.720720e+002	-1.919577e+001	1.722568e+002	-1.182632e+001	-1.472626e+001
2044367.418	-1.158278e+001	-6.166384e+001	-1.878988e+001	1.672957e+002	-1.881928e+001	1.674537e+002	-1.198980e+001	-1.905133e+001
2068804.159	-1.181300e+001	-6.677934e+001	-1.840279e+001	1.623322e+002	-1.844000e+001	1.625513e+002	-1.215462e+001	-2.345896e+001
2093240.901	-1.206582e+001	-7.196180e+001	-1.801155e+001	1.572051e+002	-1.805632e+001	1.573761e+002	-1.232550e+001	-2.786548e+001
2117677.643	-1.232755e+001	-7.727810e+001	-1.764256e+001	1.519255e+002	-1.768064e+001	1.521109e+002	-1.249052e+001	-3.236666e+001
2142114.385	-1.261028e+001	-8.274883e+001	-1.726652e+001	1.465629e+002	-1.730950e+001	1.467609e+002	-1.264768e+001	-3.700044e+001
2166551.127	-1.291751e+001	-8.834235e+001	-1.689201e+001	1.409922e+002	-1.693641e+001	1.412396e+002	-1.280333e+001	-4.172740e+001
2190987.868	-1.324489e+001	-9.401886e+001	-1.652724e+001	1.352436e+002	-1.657307e+001	1.355518e+002	-1.295549e+001	-4.655304e+001
2215424.610	-1.359133e+001	-9.980606e+001	-1.618330e+001	1.292897e+002	-1.622800e+001	1.297034e+002	-1.309785e+001	-5.143900e+001
2239861.352	-1.394974e+001	-1.057542e+002	-1.586278e+001	1.232990e+002	-1.590864e+001	1.236883e+002	-1.322319e+001	-5.641117e+001
2264298.094	-1.431983e+001	-1.118828e+002	-1.555523e+001	1.171658e+002	-1.559775e+001	1.176040e+002	-1.333622e+001	-6.151515e+001
2288734.835	-1.470371e+001	-1.182255e+002	-1.527072e+001	1.109965e+002	-1.530915e+001	1.114793e+002	-1.342520e+001	-6.677157e+001
2313171.577	-1.509984e+001	-1.247821e+002	-1.500172e+001	1.047044e+002	-1.503634e+001	1.052458e+002	-1.349891e+001	-7.219424e+001
2337608.319	-1.550945e+001	-1.316487e+002	-1.474957e+001	9.838031e+001	-1.477869e+001	9.893718e+001	-1.355369e+001	-7.776627e+001
2362045.061	-1.592063e+001	-1.386790e+002	-1.452087e+001	9.194620e+001	-1.454581e+001	9.249723e+001	-1.359256e+001	-8.342523e+001
2386481.802	-1.630221e+001	-1.460767e+002	-1.433168e+001	8.543838e+001	-1.435315e+001	8.602274e+001	-1.359158e+001	-8.925763e+001
2410918.544	-1.663098e+001	-1.541249e+002	-1.418176e+001	7.911545e+001	-1.419346e+001	7.967827e+001	-1.354279e+001	-9.536412e+001
2435355.286	-1.697138e+001	-1.630889e+002	-1.401581e+001	7.300240e+001	-1.402760e+001	7.358914e+001	-1.347258e+001	-1.019620e+002
2459792.028	-1.735680e+001	-1.727633e+002	-1.382280e+001	6.684341e+001	-1.382220e+001	6.744026e+001	-1.342531e+001	-1.089443e+002
2484228.769	-1.777111e+001	1.773489e+002	-1.362579e+001	6.032707e+001	-1.361299e+001	6.098068e+001	-1.339977e+001	-1.160305e+002
2508665.511	-1.815596e+001	1.672369e+002	-1.345320e+001	5.362561e+001	-1.343387e+001	5.425041e+001	-1.337388e+001	-1.231202e+002
2533102.253	-1.845477e+001	1.570722e+002	-1.333324e+001	4.677986e+001	-1.329899e+001	4.734776e+001	-1.333764e+001	-1.301761e+002
2557538.995	-1.866564e+001	1.466266e+002	-1.324229e+001	3.986624e+001	-1.320500e+001	4.039684e+001	-1.328533e+001	-1.373010e+002
2581975.737	-1.875652e+001	1.360991e+002	-1.319904e+001	3.297198e+001	-1.315256e+001	3.348094e+001	-1.321332e+001	-1.444741e+002
2606412.478	-1.873195e+001	1.255260e+002	-1.319394e+001	2.612868e+001	-1.314379e+001	2.658552e+001	-1.312951e+001	-1.516561e+002
2630849.220	-1.858071e+001	1.148910e+002	-1.322290e+001	1.946303e+001	-1.316541e+001	1.989094e+001	-1.302455e+001	-1.590014e+002
2655285.962	-1.835504e+001	1.042688e+002	-1.326625e+001	1.294435e+001	-1.319793e+001	1.333280e+001	-1.292511e+001	-1.664614e+002
2679722.704	-1.808787e+001	9.393441e+001	-1.331646e+001	6.490204e+000	-1.325315e+001	6.774845e+000	-1.284064e+001	-1.738772e+002
2704159.445	-1.779143e+001	8.411477e+001	-1.338981e+001	1.291971e-002	-1.332047e+001	2.657455e-001	-1.276625e+001	1.787280e+002
2728596.187	-1.745261e+001	7.482411e+001	-1.349228e+001	-6.342771e+000	-1.343212e+001	-6.154451e+000	-1.269314e+001	1.715338e+002
2753032.929	-1.709004e+001	6.604249e+001	-1.362200e+001	-1.258510e+001	-1.355698e+001	-1.242632e+001	-1.262771e+001	1.643835e+002
2777469.671	-1.672363e+001	5.774149e+001	-1.376607e+001	-1.870353e+001	-1.370528e+001	-1.858537e+001	-1.257025e+001	1.573873e+002
2801906.412	-1.635164e+001	4.982301e+001	-1.393069e+001	-2.464597e+001	-1.387102e+001	-2.456296e+001	-1.251722e+001	1.505155e+002
2826343.154	-1.599921e+001	4.229737e+001	-1.410317e+001	-3.045031e+001	-1.404385e+001	-3.040425e+001	-1.247674e+001	1.437946e+002
2850779.896	-1.565023e+001	3.517967e+001	-1.428876e+001	-3.607555e+001	-1.423141e+001	-3.608373e+001	-1.244153e+001	1.372597e+002
2875216.638	-1.532741e+001	2.842912e+001	-1.448022e+001	-4.161033e+001	-1.443003e+001	-4.159300e+001	-1.241719e+001	1.309020e+002
2899653.380	-1.501527e+001	2.197509e+001	-1.467947e+001	-4.691363e+001	-1.463032e+001	-4.696902e+001	-1.240348e+001	1.247444e+002
2924090.121	-1.472558e+001	1.581750e+001	-1.487836e+001	-5.210131e+001	-1.483468e+001	-5.219651e+001	-1.239494e+001	1.187630e+002
2948526.863	-1.445633e+001	9.951234e+000	-1.507900e+001	-5.718140e+001	-1.504409e+001	-5.728901e+001	-1.239592e+001	1.129967e+002
2972963.605	-1.419825e+001	4.362735e+000	-1.528817e+001	-6.209026e+001	-1.526195e+001	-6.222082e+001	-1.239611e+001	1.074253e+002
2997400.347	-1.394894e+001	-1.027702e+000	-1.549792e+001	-6.680735e+001	-1.547443e+001	-6.696774e+001	-1.239680e+001	1.019964e+002
3021837.088	-1.371820e+001	-6.204972e+000	-1.569948e+001	-7.140407e+001	-1.568197e+001	-7.157639e+001	-1.240304e+001	9.672546e+001
3046273.830	-1.349658e+001	-1.123687e+001	-1.589405e+001	-7.583480e+001	-1.588333e+001	-7.600259e+001	-1.240974e+001	9.160031e+001
3070710.572	-1.328951e+001	-1.611906e+001	-1.607148e+001	-8.013320e+001	-1.607062e+001	-8.032933e+001	-1.242330e+001	8.659693e+001
3095147.314	-1.309809e+001	-2.084530e+001	-1.623752e+001	-8.436582e+001	-1.624154e+001	-8.454608e+001	-1.244135e+001	8.169151e+001
3119584.055	-1.291801e+001	-2.543454e+001	-1.639488e+001	-8.850936e+001	-1.640489e+001	-8.870511e+001	-1.246897e+001	7.695400e+001
3144020.797	-1.275157e+001	-2.990000e+001	-1.654161e+001	-9.256627e+001	-1.655436e+001	-9.281925e+001	-1.250069e+001	7.236987e+001
3168457.539	-1.259445e+001	-3.422894e+001	-1.667799e+001	-9.662257e+001	-1.670077e+001	-9.684063e+001	-1.253522e+001	6.789416e+001
3192894.281	-1.244945e+001	-3.845663e+001	-1.680844e+001	-1.005980e+002	-1.683041e+001	-1.008308e+002	-1.257224e+001	6.356081e+001
3217331.023	-1.231200e+001	-4.256093e+001	-1.693014e+001	-1.045411e+002	-1.696069e+001	-1.047545e+002	-1.261329e+001	5.933664e+001
3241767.764	-1.218193e+001	-4.655497e+001	-1.704396e+001	-1.084384e+002	-1.708362e+001	-1.086424e+002	-1.265503e+001	5.524642e+001
3266204.506	-1.205754e+001	-5.044870e+001	-1.715884e+001	-1.122580e+002	-1.720255e+001	-1.124414e+002	-1.269183e+001	5.127242e+001
3290641.248	-1.193447e+001	-5.427084e+001	-1.725819e+001	-1.159719e+002	-1.730879e+001	-1.161336e+002	-1.272502e+001	4.735350e+001
3315077.990	-1.181817e+001	-5.807020e+001	-1.733999e+001	-1.196230e+002	-1.739509e+001	-1.197574e+002	-1.276075e+001	4.347283e+001
3339514.731	-1.171269e+001	-6.180817e+001	-1.740329e+001	-1.232821e+002	-1.746194e+001	-1.233964e+002	-1.280411e+001	3.966560e+001
3363951.473	-1.161719e+001	-6.547741e+001	-1.745507e+001	-1.269843e+002	-1.751880e+001	-1.270515e+002	-1.285391e+001	3.596860e+001
3388388.215	-1.152865e+001	-6.907962e+001	-1.750252e+001	-1.306618e+002	-1.757020e+001	-1.307195e+002	-1.290768e+001	3.234906e+001
3412824.957	-1.144814e+001	-7.261294e+001	-1.754061e+001	-1.343627e+002	-1.761171e+001	-1.343811e+002	-1.296194e+001	2.882374e+001
3437261.698	-1.137373e+001	-7.608949e+001	-1.757416e+001	-1.380417e+002	-1.764700e+001	-1.380578e+002	-1.302009e+001	2.539440e+001
3461698.440	-1.130733e+001	-7.949404e+001	-1.759541e+001	-1.417354e+002	-1.767406e+001	-1.417042e+002	-1.307979e+001	2.205643e+001
3486135.182	-1.124791e+001	-8.283478e+001	-1.761785e+001	-1.454426e+002	-1.769623e+001	-1.453765e+002	-1.314092e+001	1.880262e+001
3510571.924	-1.119474e+001	-8.611113e+001	-1.762707e+001	-1.491636e+002	-1.771269e+001	-1.490595e+002	-1.320383e+001	1.566252e+001
3535008.666	-1.114588e+001	-8.930460e+001	-1.763902e+001	-1.528581e+002	-1.772476e+001	-1.527511e+002	-1.326422e+001	1.262595e+001
3559445.407	-1.110031e+001	-9.242629e+001	-1.764827e+001	-1.565914e+002	-1.773418e+001	-1.564119e+002	-1.331688e+001	9.675746e+000
3583882.149	-1.105478e+001	-9.547654e+001	-1.765130e+001	-1.602668e+002	-1.773681e+001	-1.600622e+002	-1.336266e+001	6.818137e+000
3608318.891	-1.100709e+001	-9.848271e+001	-1.764611e+001	-1.638880e+002	-1.773102e+001	-1.636682e+002	-1.339977e+001	3.982408e+000
3632755.633	-1.096194e+001	-1.014849e+002	-1.762336e+001	-1.675848e+002	-1.771025e+001	-1.672443e+002	-1.343280e+001	1.159693e+000
3657192.374	-1.092249e+001	-1.044611e+002	-1.757988e+001	-1.713108e+002	-1.766785e+001	-1.709267e+002	-1.347151e+001	-1.644146e+000
3681629.116	-1.088850e+001	-1.073739e+002	-1.753746e+001	-1.751638e+002	-1.762273e+001	-1.747740e+002	-1.351559e+001	-4.360949e+000
3706065.858	-1.086160e+001	-1.102030e+002	-1.750011e+001	-1.791668e+002	-1.758866e+001	-1.787401e+002	-1.355573e+001	-6.943684e+000
3730502.600	-1.083319e+001	-1.129537e+002	-1.747806e+001	1.767598e+002	-1.756718e+001	1.772015e+002	-1.359315e+001	-9.403178e+000
3754939.341	-1.080009e+001	-1.155809e+002	-1.749223e+001	1.726496e+002	-1.757969e+001	1.731154e+002	-1.360796e+001	-1.170940e+001
3779376.083	-1.075139e+001	-1.181069e+002	-1.754647e+001	1.686423e+002	-1.762552e+001	1.691443e+002	-1.359528e+001	-1.394899e+001
3803812.825	-1.067991e+001	-1.206066e+002	-1.763229e+001	1.649034e+002	-1.770511e+001	1.654640e+002	-1.353834e+001	-1.619245e+001
3828249.567	-1.057272e+001	-1.232695e+002	-1.770494e+001	1.618064e+002	-1.778307e+001	1.623081e+002	-1.344232e+001	-1.868067e+001
3852686.308	-1.046123e+001	-1.261748e+002	-1.771368e+001	1.591054e+002	-1.779444e+001	1.596473e+002	-1.333878e+001	-2.157016e+001
3877123.050	-1.036686e+001	-1.294030e+002	-1.761062e+001	1.565786e+002	-1.768724e+001	1.571347e+002	-1.327150e+001	-2.484777e+001
3901559.792	-1.032476e+001	-1.327590e+002	-1.740540e+001	1.535634e+002	-1.750250e+001	1.541602e+002	-1.326457e+001	-2.815875e+001
3925996.534	-1.033278e+001	-1.360341e+002	-1.718047e+001	1.498746e+002	-1.727854e+001	1.504961e+002	-1.331925e+001	-3.132086e+001
3950433.276	-1.037654e+001	-1.391256e+002	-1.696753e+001	1.456587e+002	-1.707079e+001	1.463637e+002	-1.340194e+001	-3.423260e+001
3974870.017	-1.043501e+001	-1.419645e+002	-1.680796e+001	1.410531e+002	-1.690374e+001	1.418987e+002	-1.349495e+001	-3.682102e+001
3999306.759	-1.049097e+001	-1.444996e+002	-1.671876e+001	1.362323e+002	-1.680131e+001	1.372036e+002	-1.357439e+001	-3.908600e+001
4023743.501	-1.052004e+001	-1.468808e+002	-1.669215e+001	1.315563e+002	-1.675959e+001	1.325357e+002	-1.361824e+001	-4.109552e+001
4048180.243	-1.052023e+001	-1.491712e+002	-1.671974e+001	1.270514e+002	-1.677062e+001	1.280613e+002	-1.361148e+001	-4.300732e+001
4072616.984	-1.048654e+001	-1.515339e+002	-1.677553e+001	1.229554e+002	-1.681872e+001	1.238892e+002	-1.355840e+001	-4.496057e+001
4097053.726	-1.043342e+001	-1.540388e+002	-1.683502e+001	1.192168e+002	-1.686581e+001	1.200917e+002	-1.347353e+001	-4.713369e+001
4121490.468	-1.037678e+001	-1.567582e+002	-1.686258e+001	1.158411e+002	-1.689576e+001	1.167174e+002	-1.336416e+001	-4.958843e+001
4145927.210	-1.032876e+001	-1.596740e+002	-1.684888e+001	1.127351e+002	-1.688473e+001	1.135739e+002	-1.325947e+001	-5.229334e+001
4170363.951	-1.030425e+001	-1.627403e+002	-1.677601e+001	1.097004e+002	-1.682044e+001	1.105354e+002	-1.317017e+001	-5.518166e+001
4194800.693	-1.030653e+001	-1.658721e+002	-1.666311e+001	1.065374e+002	-1.670373e+001	1.074648e+002	-1.310703e+001	-5.823715e+001
4219237.435	-1.033080e+001	-1.690704e+002	-1.651420e+001	1.033294e+002	-1.654686e+001	1.042382e+002	-1.306655e+001	-6.136378e+001
4243674.177	-1.038575e+001	-1.722754e+002	-1.633659e+001	9.990133e+001	-1.636426e+001	1.008500e+002	-1.304929e+001	-6.451598e+001
4268110.919	-1.046655e+001	-1.754635e+002	-1.613406e+001	9.631468e+001	-1.615813e+001	9.725864e+001	-1.305314e+001	-6.766480e+001
4292547.660	-1.057281e+001	-1.785703e+002	-1.592550e+001	9.249391e+001	-1.594332e+001	9.346109e+001	-1.307499e+001	-7.078627e+001
4316984.402	-1.070093e+001	1.784052e+002	-1.571548e+001	8.847142e+001	-1.572353e+001	8.943162e+001	-1.311538e+001	-7.383766e+001
4341421.144	-1.084644e+001	1.754934e+002	-1.551005e+001	8.425648e+001	-1.551124e+001	8.526334e+001	-1.316263e+001	-7.682785e+001
4365857.886	-1.100772e+001	1.726878e+002	-1.531269e+001	7.993152e+001	-1.530982e+001	8.088111e+001	-1.321950e+001	-7.972050e+001
4390294.627	-1.117833e+001	1.699903e+002	-1.512863e+001	7.547252e+001	-1.511819e+001	7.641669e+001	-1.327849e+001	-8.255286e+001
4414731.369	-1.135723e+001	1.674232e+002	-1.495699e+001	7.091651e+001	-1.494103e+001	7.185335e+001	-1.333781e+001	-8.531695e+001
4439168.111	-1.153842e+001	1.649339e+002	-1.479810e+001	6.629270e+001	-1.477607e+001	6.721934e+001	-1.339530e+001	-8.806231e+001
4463604.853	-1.172396e+001	1.625501e+002	-1.465214e+001	6.163353e+001	-1.462282e+001	6.254559e+001	-1.344778e+001	-9.076312e+001
4488041.594	-1.191377e+001	1.602240e+002	-1.451102e+001	5.696681e+001	-1.448256e+001	5.786068e+001	-1.349582e+001	-9.346237e+001
4512478.336	-1.210542e+001	1.579840e+002	-1.438229e+001	5.225089e+001	-1.434859e+001	5.312731e+001	-1.354455e+001	-9.615715e+001
4536915.078	-1.230122e+001	1.558064e+002	-1.426153e+001	4.750758e+001	-1.422151e+001	4.834030e+001	-1.359195e+001	-9.885440e+001
4561351.820	-1.249578e+001	1.537230e+002	-1.414818e+001	4.270040e+001	-1.410742e+001	4.353454e+001	-1.363515e+001	-1.015394e+002
4585788.562	-1.268694e+001	1.516742e+002	-1.404738e+001	3.788658e+001	-1.400587e+001	3.866941e+001	-1.367471e+001	-1.042195e+002
4610225.303	-1.287142e+001	1.496537e+002	-1.396124e+001	3.306334e+001	-1.391810e+001	3.380012e+001	-1.370627e+001	-1.069123e+002
4634662.045	-1.305450e+001	1.476082e+002	-1.388831e+001	2.825907e+001	-1.384629e+001	2.898654e+001	-1.372368e+001	-1.096833e+002
4659098.787	-1.323665e+001	1.455170e+002	-1.382688e+001	2.349796e+001	-1.378338e+001	2.421622e+001	-1.373638e+001	-1.125439e+002
4683535.529	-1.342229e+001	1.433416e+002	-1.377126e+001	1.877939e+001	-1.372837e+001	1.948748e+001	-1.374485e+001	-1.155164e+002
4707972.270	-1.362490e+001	1.410378e+002	-1.372525e+001	1.420596e+001	-1.367455e+001	1.484881e+001	-1.375348e+001	-1.186453e+002
4732409.012	-1.384867e+001	1.386470e+002	-1.367801e+001	9.662342e+000	-1.362286e+001	1.030127e+001	-1.376209e+001	-1.219671e+002
4756845.754	-1.411332e+001	1.362002e+002	-1.361801e+001	5.193847e+000	-1.356459e+001	5.794523e+000	-1.378521e+001	-1.254457e+002
4781282.496	-1.441789e+001	1.337354e+002	-1.355056e+001	7.469698e-001	-1.349463e+001	1.325100e+000	-1.382867e+001	-1.290970e+002
4805719.237	-1.476669e+001	1.313510e+002	-1.347096e+001	-3.704147e+000	-1.341380e+001	-3.164164e+000	-1.389519e+001	-1.328806e+002
4830155.979	-1.516355e+001	1.291165e+002	-1.337691e+001	-8.196340e+000	-1.332242e+001	-7.687830e+000	-1.399005e+001	-1.367764e+002
4854592.721	-1.559998e+001	1.270626e+002	-1.327796e+001	-1.275343e+001	-1.322371e+001	-1.228879e+001	-1.411475e+001	-1.407320e+002
4879029.463	-1.607235e+001	1.252662e+002	-1.317644e+001	-1.740900e+001	-1.312176e+001	-1.697389e+001	-1.426775e+001	-1.447374e+002
4903466.205	-1.658110e+001	1.237804e+002	-1.307183e+001	-2.216534e+001	-1.302029e+001	-2.175545e+001	-1.444947e+001	-1.487475e+002
4927902.946	-1.711079e+001	1.225834e+002	-1.297437e+001	-2.702409e+001	-1.292610e+001	-2.663173e+001	-1.465382e+001	-1.527517e+002
4952339.688	-1.766574e+001	1.216671e+002	-1.288811e+001	-3.197200e+001	-1.284120e+001	-3.158210e+001	-1.488043e+001	-1.567647e+002
4976776.430	-1.824120e+001	1.210978e+002	-1.281070e+001	-3.696546e+001	-1.276793e+001	-3.658610e+001	-1.512460e+001	-1.607224e+002
5001213.172	-1.884276e+001	1.208395e+002	-1.274748e+001	-4.198673e+001	-1.270596e+001	-4.162408e+001	-1.538556e+001	-1.647102e+002
5025649.913	-1.947009e+001	1.209843e+002	-1.269379e+001	-4.703601e+001	-1.265703e+001	-4.668543e+001	-1.566161e+001	-1.686979e+002
5050086.655	-2.012479e+001	1.215916e+002	-1.265220e+001	-5.209603e+001	-1.261844e+001	-5.176459e+001	-1.595895e+001	-1.727039e+002
5074523.397	-2.080108e+001	1.227496e+002	-1.262345e+001	-5.716833e+001	-1.259277e+001	-5.684339e+001	-1.626807e+001	-1.767256e+002
5098960.139	-2.149580e+001	1.245750e+002	-1.260552e+001	-6.223772e+001	-1.257884e+001	-6.193018e+001	-1.659153e+001	1.792507e+002
5123396.880	-2.219413e+001	1.271830e+002	-1.260113e+001	-6.729766e+001	-1.257983e+001	-6.699912e+001	-1.692562e+001	1.752004e+002
5147833.622	-2.288114e+001	1.306768e+002	-1.261321e+001	-7.232905e+001	-1.259385e+001	-7.201667e+001	-1.726068e+001	1.710662e+002
5172270.364	-2.353775e+001	1.353744e+002	-1.263246e+001	-7.726905e+001	-1.261915e+001	-7.696332e+001	-1.760678e+001	1.667912e+002
5196707.106	-2.408867e+001	1.414341e+002	-1.265905e+001	-8.214060e+001	-1.264844e+001	-8.183438e+001	-1.796726e+001	1.623065e+002
5221143.847	-2.441873e+001	1.488548e+002	-1.268283e+001	-8.692443e+001	-1.267814e+001	-8.664042e+001	-1.835009e+001	1.576773e+002
5245580.589	-2.443830e+001	1.569422e+002	-1.270774e+001	-9.169036e+001	-1.270569e+001	-9.140250e+001	-1.876487e+001	1.528376e+002
5270017.331	-2.411909e+001	1.647684e+002	-1.273248e+001	-9.644283e+001	-1.273339e+001	-9.614281e+001	-1.921378e+001	1.478366e+002
5294454.073	-2.352040e+001	1.715219e+002	-1.275789e+001	-1.011846e+002	-1.276203e+001	-1.008726e+002	-1.968940e+001	1.427348e+002
5318890.815	-2.274826e+001	1.767684e+002	-1.278304e+001	-1.059187e+002	-1.279095e+001	-1.055894e+002	-2.019477e+001	1.374591e+002
5343327.556	-2.190483e+001	-1.794426e+002	-1.281224e+001	-1.106446e+002	-1.282342e+001	-1.102905e+002	-2.071610e+001	1.320572e+002
5367764.298	-2.105268e+001	-1.769708e+002	-1.284694e+001	-1.153520e+002	-1.285925e+001	-1.149842e+002	-2.125918e+001	1.264872e+002
5392201.040	-2.022260e+001	-1.755118e+002	-1.288415e+001	-1.200526e+002	-1.289970e+001	-1.196498e+002	-2.181012e+001	1.206942e+002
5416637.782	-1.943613e+001	-1.748395e+002	-1.292458e+001	-1.247191e+002	-1.294117e+001	-1.242884e+002	-2.236695e+001	1.146119e+002
5441074.523	-1.870040e+001	-1.747853e+002	-1.296795e+001	-1.293431e+002	-1.298553e+001	-1.289101e+002	-2.292544e+001	1.082885e+002
