!Agilent Technologies,E5061B,MY49101568,A.02.00
!Date: Wed Mar 01 13:15:46 2023
!Data & Calibration Information:
!Freq	S11:SOLT2(OFF)	S21:SOLT2(OFF)	S12:SOLT2(OFF)	S22:SOLT2(OFF)
# Hz S dB R 50
1800000.000	-1.096936e+001	2.904857e+001	-1.150726e+001	1.388679e+002	-1.145856e+001	1.388542e+002	-1.077074e+001	7.389746e+001
1824436.742	-1.086517e+001	2.463415e+001	-1.171352e+001	1.341292e+002	-1.167161e+001	1.340563e+002	-1.073586e+001	6.918023e+001
1848873.484	-1.079211e+001	2.024672e+001	-1.189836e+001	1.295582e+002	-1.186228e+001	1.294796e+002	-1.073654e+001	6.462910e+001
1873310.225	-1.073770e+001	1.592743e+001	-1.206672e+001	1.251188e+002	-1.202993e+001	1.250876e+002	-1.076047e+001	6.020455e+001
1897746.967	-1.071025e+001	1.166983e+001	-1.220653e+001	1.209112e+002	-1.217945e+001	1.207617e+002	-1.079568e+001	5.584520e+001
1922183.709	-1.070081e+001	7.384182e+000	-1.233082e+001	1.167750e+002	-1.230119e+001	1.166663e+002	-1.086492e+001	5.156185e+001
1946620.451	-1.071216e+001	3.154957e+000	-1.242367e+001	1.127912e+002	-1.240618e+001	1.125975e+002	-1.093949e+001	4.728536e+001
1971057.192	-1.074645e+001	-1.013048e+000	-1.248477e+001	1.089521e+002	-1.246093e+001	1.087501e+002	-1.104498e+001	4.321106e+001
1995493.934	-1.075992e+001	-5.028106e+000	-1.249896e+001	1.048724e+002	-1.249329e+001	1.048103e+002	-1.114283e+001	3.918165e+001
2019930.676	-1.078413e+001	-9.070180e+000	-1.250324e+001	1.008593e+002	-1.250047e+001	1.008052e+002	-1.123327e+001	3.516921e+001
2044367.418	-1.079900e+001	-1.324444e+001	-1.250173e+001	9.673373e+001	-1.250153e+001	9.669956e+001	-1.131963e+001	3.106000e+001
2068804.159	-1.082365e+001	-1.755605e+001	-1.250681e+001	9.266450e+001	-1.250474e+001	9.264734e+001	-1.142055e+001	2.682824e+001
2093240.901	-1.086838e+001	-2.188540e+001	-1.249892e+001	8.873320e+001	-1.249803e+001	8.867471e+001	-1.153718e+001	2.254018e+001
2117677.643	-1.093332e+001	-2.627584e+001	-1.246488e+001	8.483045e+001	-1.245998e+001	8.478942e+001	-1.167243e+001	1.829525e+001
2142114.385	-1.101583e+001	-3.066289e+001	-1.241088e+001	8.094595e+001	-1.239342e+001	8.085110e+001	-1.180863e+001	1.403575e+001
2166551.127	-1.109680e+001	-3.509630e+001	-1.233795e+001	7.697429e+001	-1.232895e+001	7.681482e+001	-1.194642e+001	9.593422e+000
2190987.868	-1.119536e+001	-3.958443e+001	-1.224539e+001	7.299287e+001	-1.225769e+001	7.278552e+001	-1.210212e+001	5.021025e+000
2215424.610	-1.131446e+001	-4.421344e+001	-1.215017e+001	6.896563e+001	-1.217213e+001	6.879297e+001	-1.227878e+001	3.458777e-001
2239861.352	-1.146080e+001	-4.888890e+001	-1.203809e+001	6.495772e+001	-1.207261e+001	6.483774e+001	-1.248163e+001	-4.463969e+000
2264298.094	-1.164294e+001	-5.355613e+001	-1.189715e+001	6.100303e+001	-1.194680e+001	6.092636e+001	-1.271910e+001	-9.311093e+000
2288734.835	-1.183105e+001	-5.812375e+001	-1.172342e+001	5.689978e+001	-1.178597e+001	5.691471e+001	-1.297986e+001	-1.411130e+001
2313171.577	-1.202956e+001	-6.275717e+001	-1.153854e+001	5.260794e+001	-1.160256e+001	5.277054e+001	-1.325459e+001	-1.897178e+001
2337608.319	-1.224868e+001	-6.748543e+001	-1.134912e+001	4.819625e+001	-1.140308e+001	4.841823e+001	-1.354613e+001	-2.390457e+001
2362045.061	-1.249764e+001	-7.226208e+001	-1.115250e+001	4.372481e+001	-1.119969e+001	4.395256e+001	-1.385925e+001	-2.890238e+001
2386481.802	-1.277373e+001	-7.701066e+001	-1.093741e+001	3.908775e+001	-1.097835e+001	3.935372e+001	-1.420539e+001	-3.397307e+001
2410918.544	-1.306122e+001	-8.183108e+001	-1.071844e+001	3.422668e+001	-1.075190e+001	3.446690e+001	-1.455601e+001	-3.907169e+001
2435355.286	-1.337022e+001	-8.681023e+001	-1.051084e+001	2.916659e+001	-1.053855e+001	2.938380e+001	-1.492332e+001	-4.438280e+001
2459792.028	-1.371139e+001	-9.193345e+001	-1.031175e+001	2.393374e+001	-1.034129e+001	2.417909e+001	-1.532559e+001	-4.990470e+001
2484228.769	-1.410661e+001	-9.717268e+001	-1.012321e+001	1.858397e+001	-1.015949e+001	1.887176e+001	-1.576589e+001	-5.568525e+001
2508665.511	-1.454920e+001	-1.026116e+002	-9.955523e+000	1.312341e+001	-9.989499e+000	1.344745e+001	-1.625722e+001	-6.163138e+001
2533102.253	-1.507037e+001	-1.081980e+002	-9.804872e+000	7.606911e+000	-9.838308e+000	7.917022e+000	-1.680002e+001	-6.776343e+001
2557538.995	-1.567649e+001	-1.138944e+002	-9.672826e+000	2.005694e+000	-9.698793e+000	2.339188e+000	-1.740859e+001	-7.409475e+001
2581975.737	-1.638130e+001	-1.195649e+002	-9.554732e+000	-3.629164e+000	-9.576116e+000	-3.285735e+000	-1.809428e+001	-8.062594e+001
2606412.478	-1.719771e+001	-1.251984e+002	-9.452795e+000	-9.301569e+000	-9.471439e+000	-8.952548e+000	-1.886042e+001	-8.730468e+001
2630849.220	-1.813389e+001	-1.307169e+002	-9.366211e+000	-1.500395e+001	-9.380500e+000	-1.463366e+001	-1.972727e+001	-9.416705e+001
2655285.962	-1.920936e+001	-1.360027e+002	-9.294532e+000	-2.072512e+001	-9.306271e+000	-2.035719e+001	-2.069786e+001	-1.010825e+002
2679722.704	-2.043708e+001	-1.410420e+002	-9.238167e+000	-2.648090e+001	-9.244268e+000	-2.610807e+001	-2.179734e+001	-1.080148e+002
2704159.445	-2.186245e+001	-1.459422e+002	-9.203392e+000	-3.224309e+001	-9.204031e+000	-3.187991e+001	-2.297809e+001	-1.150468e+002
2728596.187	-2.356421e+001	-1.502242e+002	-9.185844e+000	-3.796726e+001	-9.185586e+000	-3.760887e+001	-2.430852e+001	-1.223545e+002
2753032.929	-2.562202e+001	-1.537181e+002	-9.186378e+000	-4.365957e+001	-9.183432e+000	-4.331544e+001	-2.579985e+001	-1.297778e+002
2777469.671	-2.823263e+001	-1.554530e+002	-9.199251e+000	-4.925856e+001	-9.195363e+000	-4.894948e+001	-2.750509e+001	-1.376075e+002
2801906.412	-3.165011e+001	-1.533537e+002	-9.224623e+000	-5.481023e+001	-9.220751e+000	-5.450429e+001	-2.948131e+001	-1.462215e+002
2826343.154	-3.633185e+001	-1.402383e+002	-9.261393e+000	-6.030536e+001	-9.254393e+000	-6.000464e+001	-3.187176e+001	-1.551495e+002
2850779.896	-3.984586e+001	-9.356170e+001	-9.302370e+000	-6.571387e+001	-9.296219e+000	-6.541913e+001	-3.476708e+001	-1.658982e+002
2875216.638	-3.612046e+001	-5.345097e+001	-9.350079e+000	-7.109067e+001	-9.343655e+000	-7.075455e+001	-3.848174e+001	1.794867e+002
2899653.380	-3.220704e+001	-4.258145e+001	-9.402729e+000	-7.633169e+001	-9.392724e+000	-7.602102e+001	-4.379395e+001	1.539019e+002
2924090.121	-2.950914e+001	-4.119200e+001	-9.450498e+000	-8.153608e+001	-9.445706e+000	-8.124300e+001	-4.829169e+001	9.107402e+001
2948526.863	-2.760579e+001	-4.227148e+001	-9.504664e+000	-8.670615e+001	-9.500325e+000	-8.641607e+001	-4.445236e+001	3.524486e+001
2972963.605	-2.614917e+001	-4.461600e+001	-9.564018e+000	-9.178949e+001	-9.560328e+000	-9.151823e+001	-4.068911e+001	1.271408e+001
2997400.347	-2.498957e+001	-4.763678e+001	-9.623162e+000	-9.678267e+001	-9.621158e+000	-9.652090e+001	-3.818125e+001	2.683569e-001
3021837.088	-2.406353e+001	-5.119916e+001	-9.674382e+000	-1.017141e+002	-9.675696e+000	-1.014406e+002	-3.634069e+001	-1.006074e+001
3046273.830	-2.330834e+001	-5.495403e+001	-9.718692e+000	-1.065522e+002	-9.721131e+000	-1.062945e+002	-3.490734e+001	-1.964914e+001
3070710.572	-2.270750e+001	-5.899794e+001	-9.751097e+000	-1.113688e+002	-9.754773e+000	-1.111068e+002	-3.370687e+001	-2.977602e+001
3095147.314	-2.226945e+001	-6.330920e+001	-9.763581e+000	-1.162007e+002	-9.771734e+000	-1.159318e+002	-3.266664e+001	-4.093649e+001
3119584.055	-2.197481e+001	-6.760132e+001	-9.768245e+000	-1.211073e+002	-9.776383e+000	-1.208159e+002	-3.180398e+001	-5.316367e+001
3144020.797	-2.181830e+001	-7.178455e+001	-9.767510e+000	-1.260472e+002	-9.776412e+000	-1.257920e+002	-3.107030e+001	-6.618480e+001
3168457.539	-2.178160e+001	-7.568721e+001	-9.769461e+000	-1.311146e+002	-9.775964e+000	-1.308348e+002	-3.038575e+001	-7.978455e+001
3192894.281	-2.185920e+001	-7.934570e+001	-9.772753e+000	-1.362408e+002	-9.779807e+000	-1.359576e+002	-2.971208e+001	-9.408194e+001
3217331.023	-2.205113e+001	-8.241393e+001	-9.785599e+000	-1.414571e+002	-9.790097e+000	-1.411689e+002	-2.902094e+001	-1.086422e+002
3241767.764	-2.232966e+001	-8.487900e+001	-9.810103e+000	-1.467272e+002	-9.813880e+000	-1.464337e+002	-2.830841e+001	-1.230355e+002
3266204.506	-2.264354e+001	-8.657493e+001	-9.850768e+000	-1.519443e+002	-9.851200e+000	-1.516629e+002	-2.761605e+001	-1.365623e+002
3290641.248	-2.300270e+001	-8.789487e+001	-9.888064e+000	-1.571354e+002	-9.886036e+000	-1.568532e+002	-2.681380e+001	-1.487360e+002
3315077.990	-2.348544e+001	-8.872396e+001	-9.911357e+000	-1.623995e+002	-9.907048e+000	-1.621287e+002	-2.583151e+001	-1.601064e+002
3339514.731	-2.409835e+001	-8.803932e+001	-9.944675e+000	-1.678564e+002	-9.941403e+000	-1.675900e+002	-2.476289e+001	-1.715653e+002
3363951.473	-2.471479e+001	-8.520477e+001	-1.000480e+001	-1.734126e+002	-9.998346e+000	-1.731612e+002	-2.371190e+001	1.771501e+002
3388388.215	-2.516664e+001	-8.006500e+001	-1.009152e+001	-1.790185e+002	-1.008254e+001	-1.787807e+002	-2.273442e+001	1.662685e+002
3412824.957	-2.527380e+001	-7.319432e+001	-1.020504e+001	1.753841e+002	-1.019484e+001	1.755921e+002	-2.182006e+001	1.558575e+002
3437261.698	-2.493053e+001	-6.583544e+001	-1.034648e+001	1.698031e+002	-1.033574e+001	1.699754e+002	-2.097337e+001	1.458765e+002
3461698.440	-2.415985e+001	-5.956005e+001	-1.051476e+001	1.642807e+002	-1.050529e+001	1.644234e+002	-2.020211e+001	1.363788e+002
3486135.182	-2.312522e+001	-5.530122e+001	-1.071008e+001	1.588457e+002	-1.070438e+001	1.589701e+002	-1.950582e+001	1.272348e+002
3510571.924	-2.198480e+001	-5.319923e+001	-1.093452e+001	1.535453e+002	-1.093262e+001	1.536316e+002	-1.887700e+001	1.184583e+002
3535008.666	-2.086907e+001	-5.291034e+001	-1.118154e+001	1.484308e+002	-1.118475e+001	1.484924e+002	-1.833228e+001	1.100674e+002
3559445.407	-1.983923e+001	-5.406586e+001	-1.144651e+001	1.435544e+002	-1.145330e+001	1.435991e+002	-1.786730e+001	1.020583e+002
3583882.149	-1.892184e+001	-5.605417e+001	-1.171241e+001	1.389096e+002	-1.172853e+001	1.389529e+002	-1.747110e+001	9.454793e+001
3608318.891	-1.812444e+001	-5.860489e+001	-1.197188e+001	1.344968e+002	-1.198882e+001	1.345314e+002	-1.712787e+001	8.760549e+001
3632755.633	-1.741174e+001	-6.128976e+001	-1.221444e+001	1.301388e+002	-1.223792e+001	1.302114e+002	-1.680301e+001	8.112522e+001
3657192.374	-1.674794e+001	-6.409856e+001	-1.245584e+001	1.258286e+002	-1.248607e+001	1.259001e+002	-1.646960e+001	7.494842e+001
3681629.116	-1.610345e+001	-6.711919e+001	-1.271739e+001	1.215373e+002	-1.274966e+001	1.216447e+002	-1.614678e+001	6.884229e+001
3706065.858	-1.549481e+001	-7.056934e+001	-1.300806e+001	1.174742e+002	-1.304165e+001	1.175508e+002	-1.584927e+001	6.265669e+001
3730502.600	-1.495011e+001	-7.431026e+001	-1.330852e+001	1.136951e+002	-1.335465e+001	1.137941e+002	-1.561573e+001	5.643942e+001
3754939.341	-1.446490e+001	-7.841118e+001	-1.362605e+001	1.103117e+002	-1.367309e+001	1.104309e+002	-1.544283e+001	5.029014e+001
3779376.083	-1.407167e+001	-8.270851e+001	-1.391763e+001	1.074713e+002	-1.397713e+001	1.076032e+002	-1.535354e+001	4.424691e+001
3803812.825	-1.377212e+001	-8.722616e+001	-1.417032e+001	1.052803e+002	-1.421707e+001	1.053681e+002	-1.536773e+001	3.857009e+001
3828249.567	-1.360339e+001	-9.137573e+001	-1.427954e+001	1.033683e+002	-1.433811e+001	1.035837e+002	-1.548912e+001	3.355310e+001
3852686.308	-1.353327e+001	-9.497301e+001	-1.424156e+001	1.013425e+002	-1.429836e+001	1.015699e+002	-1.565152e+001	2.975695e+001
3877123.050	-1.349293e+001	-9.748270e+001	-1.407991e+001	9.838539e+001	-1.413940e+001	9.873085e+001	-1.574623e+001	2.727502e+001
3901559.792	-1.335822e+001	-9.929721e+001	-1.394709e+001	9.443298e+001	-1.399409e+001	9.472083e+001	-1.563467e+001	2.541659e+001
3925996.534	-1.310476e+001	-1.010010e+002	-1.390172e+001	8.986931e+001	-1.395952e+001	9.008687e+001	-1.534928e+001	2.308033e+001
3950433.276	-1.275151e+001	-1.032489e+002	-1.399845e+001	8.525822e+001	-1.405830e+001	8.533775e+001	-1.498303e+001	1.978520e+001
3974870.017	-1.239603e+001	-1.060480e+002	-1.416014e+001	8.097417e+001	-1.425950e+001	8.099794e+001	-1.465146e+001	1.561838e+001
3999306.759	-1.206425e+001	-1.094473e+002	-1.439049e+001	7.727577e+001	-1.448249e+001	7.745524e+001	-1.443343e+001	1.105157e+001
4023743.501	-1.181504e+001	-1.130830e+002	-1.458689e+001	7.423183e+001	-1.471824e+001	7.454209e+001	-1.429223e+001	6.220932e+000
4048180.243	-1.162980e+001	-1.168264e+002	-1.474917e+001	7.167346e+001	-1.487716e+001	7.223502e+001	-1.425568e+001	1.600590e+000
4072616.984	-1.152060e+001	-1.204883e+002	-1.482396e+001	6.952146e+001	-1.494227e+001	7.022097e+001	-1.428507e+001	-2.665032e+000
4097053.726	-1.146277e+001	-1.238551e+002	-1.480131e+001	6.736240e+001	-1.490245e+001	6.818719e+001	-1.436135e+001	-6.433557e+000
4121490.468	-1.143417e+001	-1.268689e+002	-1.469996e+001	6.498500e+001	-1.477467e+001	6.583989e+001	-1.445203e+001	-9.640770e+000
4145927.210	-1.141366e+001	-1.295279e+002	-1.454331e+001	6.222679e+001	-1.460100e+001	6.304862e+001	-1.452220e+001	-1.237317e+001
4170363.951	-1.138334e+001	-1.318895e+002	-1.436191e+001	5.912662e+001	-1.441694e+001	5.977998e+001	-1.454795e+001	-1.476272e+001
4194800.693	-1.132043e+001	-1.340300e+002	-1.418266e+001	5.555727e+001	-1.423922e+001	5.619045e+001	-1.452922e+001	-1.701610e+001
4219237.435	-1.122678e+001	-1.360946e+002	-1.401809e+001	5.171634e+001	-1.407872e+001	5.236337e+001	-1.447239e+001	-1.921363e+001
4243674.177	-1.110343e+001	-1.381511e+002	-1.387521e+001	4.766162e+001	-1.393979e+001	4.833944e+001	-1.437777e+001	-2.143598e+001
4268110.919	-1.095688e+001	-1.402917e+002	-1.375673e+001	4.350081e+001	-1.382269e+001	4.418546e+001	-1.425335e+001	-2.372617e+001
4292547.660	-1.079462e+001	-1.425445e+002	-1.366276e+001	3.926414e+001	-1.372927e+001	3.999539e+001	-1.411378e+001	-2.617029e+001
4316984.402	-1.062395e+001	-1.449415e+002	-1.358787e+001	3.500388e+001	-1.365314e+001	3.578059e+001	-1.396263e+001	-2.876346e+001
4341421.144	-1.045523e+001	-1.474749e+002	-1.352590e+001	3.079009e+001	-1.358859e+001	3.157371e+001	-1.381114e+001	-3.144201e+001
4365857.886	-1.029131e+001	-1.501251e+002	-1.347399e+001	2.658269e+001	-1.353841e+001	2.742359e+001	-1.366358e+001	-3.426902e+001
4390294.627	-1.013466e+001	-1.528875e+002	-1.343333e+001	2.241235e+001	-1.349064e+001	2.330067e+001	-1.352365e+001	-3.716448e+001
4414731.369	-9.992849e+000	-1.557347e+002	-1.339317e+001	1.830158e+001	-1.344746e+001	1.920287e+001	-1.339181e+001	-4.013925e+001
4439168.111	-9.861758e+000	-1.586707e+002	-1.335469e+001	1.417103e+001	-1.340359e+001	1.514109e+001	-1.326943e+001	-4.319396e+001
4463604.853	-9.747495e+000	-1.616425e+002	-1.331237e+001	1.011918e+001	-1.335888e+001	1.111637e+001	-1.315938e+001	-4.626335e+001
4488041.594	-9.645989e+000	-1.646547e+002	-1.326796e+001	6.087381e+000	-1.330863e+001	7.109205e+000	-1.306305e+001	-4.934320e+001
4512478.336	-9.558024e+000	-1.677036e+002	-1.322107e+001	2.054718e+000	-1.325715e+001	3.082920e+000	-1.297271e+001	-5.243866e+001
4536915.078	-9.483442e+000	-1.707860e+002	-1.317221e+001	-1.986567e+000	-1.320140e+001	-9.167112e-001	-1.289351e+001	-5.555537e+001
4561351.820	-9.421553e+000	-1.739040e+002	-1.311939e+001	-6.028257e+000	-1.314369e+001	-4.941142e+000	-1.282190e+001	-5.869128e+001
4585788.562	-9.377674e+000	-1.770483e+002	-1.306558e+001	-1.005821e+001	-1.308325e+001	-8.965586e+000	-1.275933e+001	-6.184156e+001
4610225.303	-9.349513e+000	1.797959e+002	-1.300763e+001	-1.408220e+001	-1.301833e+001	-1.297656e+001	-1.271069e+001	-6.500762e+001
4634662.045	-9.337307e+000	1.766318e+002	-1.294259e+001	-1.810037e+001	-1.294816e+001	-1.699407e+001	-1.267444e+001	-6.816368e+001
4659098.787	-9.342750e+000	1.734715e+002	-1.287269e+001	-2.212828e+001	-1.287103e+001	-2.102285e+001	-1.264902e+001	-7.131170e+001
4683535.529	-9.362213e+000	1.703437e+002	-1.279291e+001	-2.619427e+001	-1.278385e+001	-2.508310e+001	-1.263561e+001	-7.442436e+001
4707972.270	-9.397829e+000	1.672414e+002	-1.270611e+001	-3.023865e+001	-1.269082e+001	-2.918976e+001	-1.263448e+001	-7.746154e+001
4732409.012	-9.444494e+000	1.641626e+002	-1.261017e+001	-3.439575e+001	-1.258902e+001	-3.335809e+001	-1.263882e+001	-8.048290e+001
4756845.754	-9.501179e+000	1.610918e+002	-1.251131e+001	-3.863124e+001	-1.248425e+001	-3.760954e+001	-1.264719e+001	-8.344670e+001
4781282.496	-9.568731e+000	1.580386e+002	-1.241237e+001	-4.293807e+001	-1.237881e+001	-4.193808e+001	-1.265892e+001	-8.638558e+001
4805719.237	-9.647588e+000	1.549761e+002	-1.231521e+001	-4.732633e+001	-1.227642e+001	-4.633166e+001	-1.267307e+001	-8.930764e+001
4830155.979	-9.741421e+000	1.519130e+002	-1.222033e+001	-5.177013e+001	-1.217648e+001	-5.079886e+001	-1.268940e+001	-9.220060e+001
4854592.721	-9.851018e+000	1.488512e+002	-1.212873e+001	-5.626313e+001	-1.208064e+001	-5.532134e+001	-1.270852e+001	-9.509548e+001
4879029.463	-9.975958e+000	1.457957e+002	-1.204303e+001	-6.081688e+001	-1.198938e+001	-5.989737e+001	-1.272999e+001	-9.798063e+001
4903466.205	-1.011673e+001	1.427339e+002	-1.196208e+001	-6.541497e+001	-1.190372e+001	-6.452241e+001	-1.275420e+001	-1.008668e+002
4927902.946	-1.027874e+001	1.396980e+002	-1.188556e+001	-7.005073e+001	-1.182275e+001	-6.917855e+001	-1.278348e+001	-1.037584e+002
4952339.688	-1.045881e+001	1.366773e+002	-1.181485e+001	-7.474130e+001	-1.174824e+001	-7.386750e+001	-1.281648e+001	-1.066669e+002
4976776.430	-1.066102e+001	1.337007e+002	-1.174958e+001	-7.942107e+001	-1.167961e+001	-7.858601e+001	-1.285462e+001	-1.095616e+002
5001213.172	-1.088290e+001	1.307729e+002	-1.168728e+001	-8.413841e+001	-1.161497e+001	-8.334028e+001	-1.289685e+001	-1.124469e+002
5025649.913	-1.112550e+001	1.278940e+002	-1.163193e+001	-8.888333e+001	-1.155651e+001	-8.811141e+001	-1.294352e+001	-1.153302e+002
5050086.655	-1.138940e+001	1.250865e+002	-1.157910e+001	-9.363449e+001	-1.150275e+001	-9.292694e+001	-1.299168e+001	-1.182105e+002
5074523.397	-1.167384e+001	1.223511e+002	-1.153283e+001	-9.842698e+001	-1.145533e+001	-9.774693e+001	-1.304561e+001	-1.210856e+002
5098960.139	-1.197924e+001	1.196811e+002	-1.149310e+001	-1.032507e+002	-1.141408e+001	-1.025927e+002	-1.310036e+001	-1.239800e+002
5123396.880	-1.230626e+001	1.171069e+002	-1.145974e+001	-1.080737e+002	-1.138025e+001	-1.074725e+002	-1.315709e+001	-1.268851e+002
5147833.622	-1.265878e+001	1.146072e+002	-1.143433e+001	-1.129169e+002	-1.135443e+001	-1.123532e+002	-1.321567e+001	-1.298273e+002
5172270.364	-1.303587e+001	1.122439e+002	-1.141430e+001	-1.177474e+002	-1.133512e+001	-1.172196e+002	-1.328338e+001	-1.327891e+002
5196707.106	-1.343631e+001	1.100187e+002	-1.139854e+001	-1.225716e+002	-1.132197e+001	-1.220790e+002	-1.335782e+001	-1.357744e+002
5221143.847	-1.385959e+001	1.079657e+002	-1.138699e+001	-1.273581e+002	-1.131057e+001	-1.269371e+002	-1.343759e+001	-1.387236e+002
5245580.589	-1.430274e+001	1.060803e+002	-1.137633e+001	-1.321829e+002	-1.130229e+001	-1.317925e+002	-1.351949e+001	-1.417107e+002
5270017.331	-1.476337e+001	1.043667e+002	-1.136852e+001	-1.370168e+002	-1.129889e+001	-1.366560e+002	-1.360446e+001	-1.446924e+002
5294454.073	-1.523990e+001	1.028482e+002	-1.136399e+001	-1.418572e+002	-1.129586e+001	-1.415199e+002	-1.369281e+001	-1.476981e+002
5318890.815	-1.573247e+001	1.015009e+002	-1.136279e+001	-1.467195e+002	-1.129741e+001	-1.464156e+002	-1.377735e+001	-1.507254e+002
5343327.556	-1.624136e+001	1.003270e+002	-1.136577e+001	-1.515934e+002	-1.130280e+001	-1.513063e+002	-1.386405e+001	-1.537802e+002
5367764.298	-1.676802e+001	9.935287e+001	-1.137311e+001	-1.564768e+002	-1.131265e+001	-1.562175e+002	-1.395149e+001	-1.568957e+002
5392201.040	-1.731488e+001	9.856146e+001	-1.138374e+001	-1.613846e+002	-1.132869e+001	-1.611364e+002	-1.403979e+001	-1.600739e+002
5416637.782	-1.788336e+001	9.798450e+001	-1.140209e+001	-1.662936e+002	-1.134923e+001	-1.660612e+002	-1.412735e+001	-1.633201e+002
5441074.523	-1.847723e+001	9.762077e+001	-1.142461e+001	-1.712129e+002	-1.137507e+001	-1.710018e+002	-1.422001e+001	-1.666266e+002
