!Agilent Technologies,E5061B,MY49101568,A.02.00
!Date: Wed Mar 01 13:20:58 2023
!Data & Calibration Information:
!Freq	S11:SOLT2(OFF)	S21:SOLT2(OFF)	S12:SOLT2(OFF)	S22:SOLT2(OFF)
# Hz S dB R 50
1800000.000	-9.498883e+000	-1.771403e+001	-2.453096e+001	-1.329408e+002	-2.454685e+001	-1.329383e+002	-9.952589e+000	1.891350e+001
1824436.742	-9.595543e+000	-2.202004e+001	-2.416076e+001	-1.368578e+002	-2.417523e+001	-1.368584e+002	-1.007582e+001	1.512249e+001
1848873.484	-9.696826e+000	-2.641567e+001	-2.377860e+001	-1.408040e+002	-2.379489e+001	-1.408744e+002	-1.020456e+001	1.125291e+001
1873310.225	-9.804633e+000	-3.088607e+001	-2.337854e+001	-1.448732e+002	-2.339877e+001	-1.448731e+002	-1.033135e+001	7.349327e+000
1897746.967	-9.913560e+000	-3.542561e+001	-2.297910e+001	-1.490377e+002	-2.300109e+001	-1.490640e+002	-1.045366e+001	3.380553e+000
1922183.709	-1.002627e+001	-4.010503e+001	-2.255543e+001	-1.532722e+002	-2.258247e+001	-1.533078e+002	-1.057540e+001	-7.027474e-001
1946620.451	-1.014425e+001	-4.489444e+001	-2.213039e+001	-1.576431e+002	-2.216097e+001	-1.576430e+002	-1.069838e+001	-4.871278e+000
1971057.192	-1.026670e+001	-4.981250e+001	-2.169172e+001	-1.621113e+002	-2.172518e+001	-1.621006e+002	-1.081963e+001	-9.149812e+000
1995493.934	-1.040024e+001	-5.486279e+001	-2.124277e+001	-1.667632e+002	-2.128979e+001	-1.666896e+002	-1.094421e+001	-1.350866e+001
2019930.676	-1.054307e+001	-6.005898e+001	-2.079600e+001	-1.715200e+002	-2.084460e+001	-1.713871e+002	-1.106586e+001	-1.794699e+001
2044367.418	-1.069841e+001	-6.537126e+001	-2.033255e+001	-1.764317e+002	-2.038221e+001	-1.762924e+002	-1.118718e+001	-2.253142e+001
2068804.159	-1.086575e+001	-7.083019e+001	-1.987619e+001	1.784796e+002	-1.992127e+001	1.786567e+002	-1.130643e+001	-2.716948e+001
2093240.901	-1.104393e+001	-7.643557e+001	-1.941083e+001	1.732639e+002	-1.946816e+001	1.734376e+002	-1.142621e+001	-3.187914e+001
2117677.643	-1.123994e+001	-8.220873e+001	-1.895944e+001	1.678594e+002	-1.901727e+001	1.680716e+002	-1.154464e+001	-3.668571e+001
2142114.385	-1.145204e+001	-8.816667e+001	-1.851051e+001	1.622996e+002	-1.856753e+001	1.625736e+002	-1.165742e+001	-4.161568e+001
2166551.127	-1.168206e+001	-9.428747e+001	-1.805796e+001	1.566021e+002	-1.811450e+001	1.568888e+002	-1.176761e+001	-4.665683e+001
2190987.868	-1.193379e+001	-1.006073e+002	-1.762291e+001	1.506695e+002	-1.767748e+001	1.509907e+002	-1.187760e+001	-5.178990e+001
2215424.610	-1.220870e+001	-1.070848e+002	-1.720303e+001	1.445115e+002	-1.725717e+001	1.449463e+002	-1.197908e+001	-5.700708e+001
2239861.352	-1.249960e+001	-1.137582e+002	-1.679843e+001	1.382922e+002	-1.685244e+001	1.387518e+002	-1.207449e+001	-6.234013e+001
2264298.094	-1.281067e+001	-1.206852e+002	-1.640888e+001	1.319280e+002	-1.646024e+001	1.324350e+002	-1.216071e+001	-6.777544e+001
2288734.835	-1.314641e+001	-1.278035e+002	-1.603763e+001	1.254032e+002	-1.608305e+001	1.259765e+002	-1.224098e+001	-7.330383e+001
2313171.577	-1.350087e+001	-1.351440e+002	-1.568636e+001	1.187650e+002	-1.572420e+001	1.193576e+002	-1.230797e+001	-7.892051e+001
2337608.319	-1.387400e+001	-1.426897e+002	-1.535867e+001	1.119901e+002	-1.539160e+001	1.125977e+002	-1.236254e+001	-8.463912e+001
2362045.061	-1.425674e+001	-1.504641e+002	-1.505601e+001	1.051291e+002	-1.508277e+001	1.057536e+002	-1.240797e+001	-9.041762e+001
2386481.802	-1.464375e+001	-1.584690e+002	-1.478382e+001	9.816804e+001	-1.480077e+001	9.878910e+001	-1.243043e+001	-9.634095e+001
2410918.544	-1.502799e+001	-1.667425e+002	-1.453614e+001	9.113674e+001	-1.454887e+001	9.177877e+001	-1.243610e+001	-1.023716e+002
2435355.286	-1.539988e+001	-1.752882e+002	-1.431524e+001	8.405080e+001	-1.431910e+001	8.471827e+001	-1.242379e+001	-1.085269e+002
2459792.028	-1.575138e+001	1.758940e+002	-1.412091e+001	7.693141e+001	-1.411475e+001	7.758422e+001	-1.239614e+001	-1.148225e+002
2484228.769	-1.607118e+001	1.668237e+002	-1.395526e+001	6.974215e+001	-1.393797e+001	7.042936e+001	-1.235719e+001	-1.212774e+002
2508665.511	-1.635144e+001	1.575210e+002	-1.381744e+001	6.256315e+001	-1.379248e+001	6.323670e+001	-1.230719e+001	-1.278428e+002
2533102.253	-1.658142e+001	1.480340e+002	-1.370911e+001	5.541038e+001	-1.367728e+001	5.602518e+001	-1.224806e+001	-1.344915e+002
2557538.995	-1.675234e+001	1.383947e+002	-1.363119e+001	4.824826e+001	-1.358856e+001	4.881592e+001	-1.217795e+001	-1.412650e+002
2581975.737	-1.685729e+001	1.287120e+002	-1.358218e+001	4.109350e+001	-1.353094e+001	4.164478e+001	-1.210913e+001	-1.481414e+002
2606412.478	-1.689679e+001	1.190340e+002	-1.356026e+001	3.400331e+001	-1.350255e+001	3.450646e+001	-1.203631e+001	-1.550867e+002
2630849.220	-1.687163e+001	1.094415e+002	-1.356830e+001	2.696734e+001	-1.350201e+001	2.742327e+001	-1.196696e+001	-1.620792e+002
2655285.962	-1.678411e+001	1.000123e+002	-1.360249e+001	2.001179e+001	-1.353239e+001	2.040969e+001	-1.190296e+001	-1.691076e+002
2679722.704	-1.665055e+001	9.082690e+001	-1.366224e+001	1.317292e+001	-1.358996e+001	1.350834e+001	-1.184746e+001	-1.761349e+002
2704159.445	-1.646895e+001	8.189037e+001	-1.374331e+001	6.424000e+000	-1.367009e+001	6.702902e+000	-1.179658e+001	1.768779e+002
2728596.187	-1.626029e+001	7.328562e+001	-1.384621e+001	-2.076433e-001	-1.377084e+001	2.697984e-002	-1.175630e+001	1.699386e+002
2753032.929	-1.602973e+001	6.499330e+001	-1.396770e+001	-6.699471e+000	-1.389466e+001	-6.527287e+000	-1.172875e+001	1.630795e+002
2777469.671	-1.578385e+001	5.702727e+001	-1.411049e+001	-1.304642e+001	-1.403576e+001	-1.292395e+001	-1.171255e+001	1.563189e+002
2801906.412	-1.553792e+001	4.943544e+001	-1.426649e+001	-1.924710e+001	-1.419403e+001	-1.917506e+001	-1.170712e+001	1.496784e+002
2826343.154	-1.528761e+001	4.216302e+001	-1.443127e+001	-2.528890e+001	-1.436466e+001	-2.527455e+001	-1.171289e+001	1.431822e+002
2850779.896	-1.504089e+001	3.519692e+001	-1.461103e+001	-3.119089e+001	-1.454650e+001	-3.121962e+001	-1.172691e+001	1.368431e+002
2875216.638	-1.480002e+001	2.855110e+001	-1.479281e+001	-3.695886e+001	-1.473481e+001	-3.698908e+001	-1.175454e+001	1.306463e+002
2899653.380	-1.456844e+001	2.217466e+001	-1.498226e+001	-4.254323e+001	-1.493044e+001	-4.260677e+001	-1.178868e+001	1.246383e+002
2924090.121	-1.434661e+001	1.608791e+001	-1.517545e+001	-4.797225e+001	-1.512996e+001	-4.806247e+001	-1.182947e+001	1.188106e+002
2948526.863	-1.413285e+001	1.022230e+001	-1.536749e+001	-5.324944e+001	-1.532950e+001	-5.339353e+001	-1.187886e+001	1.131343e+002
2972963.605	-1.392786e+001	4.602405e+000	-1.556214e+001	-5.839502e+001	-1.553161e+001	-5.854365e+001	-1.192902e+001	1.076379e+002
2997400.347	-1.372955e+001	-7.990158e-001	-1.575444e+001	-6.337653e+001	-1.572981e+001	-6.353822e+001	-1.198333e+001	1.022808e+002
3021837.088	-1.354278e+001	-6.033906e+000	-1.593515e+001	-6.821718e+001	-1.592106e+001	-6.840131e+001	-1.203977e+001	9.708288e+001
3046273.830	-1.336490e+001	-1.108409e+001	-1.611346e+001	-7.293914e+001	-1.610470e+001	-7.313010e+001	-1.210031e+001	9.200658e+001
3070710.572	-1.319702e+001	-1.598576e+001	-1.627834e+001	-7.756375e+001	-1.627705e+001	-7.776172e+001	-1.216761e+001	8.707639e+001
3095147.314	-1.304013e+001	-2.072661e+001	-1.643562e+001	-8.210367e+001	-1.644413e+001	-8.229761e+001	-1.223594e+001	8.228337e+001
3119584.055	-1.289058e+001	-2.531863e+001	-1.658619e+001	-8.655708e+001	-1.659913e+001	-8.672267e+001	-1.230456e+001	7.762425e+001
3144020.797	-1.274605e+001	-2.977856e+001	-1.672718e+001	-9.086131e+001	-1.674529e+001	-9.107948e+001	-1.237437e+001	7.311664e+001
3168457.539	-1.261176e+001	-3.414151e+001	-1.685558e+001	-9.515484e+001	-1.688051e+001	-9.535666e+001	-1.244804e+001	6.868904e+001
3192894.281	-1.248404e+001	-3.838893e+001	-1.697294e+001	-9.937814e+001	-1.700401e+001	-9.955689e+001	-1.252129e+001	6.436886e+001
3217331.023	-1.236575e+001	-4.253394e+001	-1.707950e+001	-1.035499e+002	-1.711735e+001	-1.037267e+002	-1.259855e+001	6.016479e+001
3241767.764	-1.225355e+001	-4.656523e+001	-1.718067e+001	-1.076851e+002	-1.722251e+001	-1.078402e+002	-1.267425e+001	5.607207e+001
3266204.506	-1.214346e+001	-5.051813e+001	-1.727532e+001	-1.117433e+002	-1.732044e+001	-1.118845e+002	-1.274721e+001	5.207706e+001
3290641.248	-1.203718e+001	-5.439363e+001	-1.735585e+001	-1.156988e+002	-1.740730e+001	-1.158218e+002	-1.281625e+001	4.815953e+001
3315077.990	-1.193652e+001	-5.822735e+001	-1.741193e+001	-1.195921e+002	-1.747089e+001	-1.196970e+002	-1.288670e+001	4.425265e+001
3339514.731	-1.184798e+001	-6.201011e+001	-1.745329e+001	-1.235014e+002	-1.751267e+001	-1.235792e+002	-1.296609e+001	4.040885e+001
3363951.473	-1.176790e+001	-6.574371e+001	-1.747505e+001	-1.274572e+002	-1.754329e+001	-1.274849e+002	-1.305350e+001	3.664840e+001
3388388.215	-1.169791e+001	-6.941570e+001	-1.748863e+001	-1.314143e+002	-1.755981e+001	-1.314258e+002	-1.314363e+001	3.295674e+001
3412824.957	-1.163572e+001	-7.302398e+001	-1.749232e+001	-1.353880e+002	-1.756327e+001	-1.353668e+002	-1.323890e+001	2.935384e+001
3437261.698	-1.158411e+001	-7.656230e+001	-1.748348e+001	-1.393983e+002	-1.755544e+001	-1.393453e+002	-1.334273e+001	2.583235e+001
3461698.440	-1.154227e+001	-8.002382e+001	-1.746625e+001	-1.434507e+002	-1.754189e+001	-1.433715e+002	-1.345211e+001	2.242123e+001
3486135.182	-1.151180e+001	-8.343857e+001	-1.743934e+001	-1.475537e+002	-1.751660e+001	-1.474305e+002	-1.356749e+001	1.909933e+001
3510571.924	-1.148677e+001	-8.675470e+001	-1.740838e+001	-1.516604e+002	-1.748749e+001	-1.515364e+002	-1.368606e+001	1.590343e+001
3535008.666	-1.146961e+001	-8.998113e+001	-1.737700e+001	-1.558050e+002	-1.745618e+001	-1.556475e+002	-1.380388e+001	1.282690e+001
3559445.407	-1.145630e+001	-9.312737e+001	-1.733814e+001	-1.599238e+002	-1.741938e+001	-1.597608e+002	-1.391744e+001	9.836292e+000
3583882.149	-1.144559e+001	-9.622166e+001	-1.728389e+001	-1.640392e+002	-1.736811e+001	-1.638336e+002	-1.402917e+001	6.895733e+000
3608318.891	-1.143919e+001	-9.927541e+001	-1.721104e+001	-1.681849e+002	-1.729667e+001	-1.679319e+002	-1.414591e+001	3.989321e+000
3632755.633	-1.144342e+001	-1.022935e+002	-1.712024e+001	-1.724513e+002	-1.720071e+001	-1.721423e+002	-1.427833e+001	1.111174e+000
3657192.374	-1.145709e+001	-1.052512e+002	-1.701441e+001	-1.768292e+002	-1.709735e+001	-1.765022e+002	-1.441898e+001	-1.612792e+000
3681629.116	-1.148313e+001	-1.081120e+002	-1.690299e+001	1.786131e+002	-1.698462e+001	1.789528e+002	-1.457581e+001	-4.193298e+000
3706065.858	-1.151733e+001	-1.108693e+002	-1.679722e+001	1.739193e+002	-1.687889e+001	1.742605e+002	-1.473847e+001	-6.562997e+000
3730502.600	-1.155853e+001	-1.135261e+002	-1.669620e+001	1.690919e+002	-1.677769e+001	1.694559e+002	-1.489603e+001	-8.738698e+000
3754939.341	-1.160593e+001	-1.160699e+002	-1.660467e+001	1.641661e+002	-1.668334e+001	1.645638e+002	-1.505087e+001	-1.073835e+001
3779376.083	-1.165904e+001	-1.185234e+002	-1.651214e+001	1.591709e+002	-1.659412e+001	1.595854e+002	-1.519691e+001	-1.257166e+001
3803812.825	-1.171970e+001	-1.208460e+002	-1.642441e+001	1.540614e+002	-1.650194e+001	1.544866e+002	-1.534077e+001	-1.423398e+001
3828249.567	-1.179094e+001	-1.230054e+002	-1.633644e+001	1.487928e+002	-1.641430e+001	1.492167e+002	-1.548412e+001	-1.566889e+001
3852686.308	-1.186513e+001	-1.249539e+002	-1.626283e+001	1.433278e+002	-1.634017e+001	1.437839e+002	-1.561116e+001	-1.681752e+001
3877123.050	-1.193274e+001	-1.266702e+002	-1.620753e+001	1.377255e+002	-1.628604e+001	1.381935e+002	-1.571232e+001	-1.767483e+001
3901559.792	-1.198449e+001	-1.281487e+002	-1.617588e+001	1.319909e+002	-1.625514e+001	1.324583e+002	-1.577351e+001	-1.827030e+001
3925996.534	-1.200898e+001	-1.293953e+002	-1.617416e+001	1.261068e+002	-1.624951e+001	1.266027e+002	-1.578374e+001	-1.862939e+001
3950433.276	-1.200102e+001	-1.304618e+002	-1.620007e+001	1.201164e+002	-1.627741e+001	1.206263e+002	-1.572898e+001	-1.883674e+001
3974870.017	-1.194757e+001	-1.313775e+002	-1.626478e+001	1.140374e+002	-1.634226e+001	1.145457e+002	-1.560064e+001	-1.899154e+001
3999306.759	-1.184004e+001	-1.322386e+002	-1.637113e+001	1.079083e+002	-1.645120e+001	1.084137e+002	-1.539774e+001	-1.923924e+001
4023743.501	-1.167769e+001	-1.331498e+002	-1.652110e+001	1.017326e+002	-1.660555e+001	1.022492e+002	-1.512545e+001	-1.970338e+001
4048180.243	-1.146065e+001	-1.342003e+002	-1.672361e+001	9.559016e+001	-1.681016e+001	9.611433e+001	-1.479460e+001	-2.050203e+001
4072616.984	-1.119745e+001	-1.354933e+002	-1.698035e+001	8.947286e+001	-1.706851e+001	9.002212e+001	-1.442138e+001	-2.169228e+001
4097053.726	-1.089760e+001	-1.371135e+002	-1.729942e+001	8.351750e+001	-1.739049e+001	8.410127e+001	-1.401886e+001	-2.334993e+001
4121490.468	-1.057646e+001	-1.391140e+002	-1.767571e+001	7.777709e+001	-1.777562e+001	7.841593e+001	-1.360803e+001	-2.550622e+001
4145927.210	-1.024669e+001	-1.415112e+002	-1.811750e+001	7.232148e+001	-1.821952e+001	7.303245e+001	-1.320321e+001	-2.807598e+001
4170363.951	-9.927372e+000	-1.442674e+002	-1.861556e+001	6.732155e+001	-1.872255e+001	6.812230e+001	-1.282085e+001	-3.102432e+001
4194800.693	-9.630288e+000	-1.474364e+002	-1.916610e+001	6.300591e+001	-1.926557e+001	6.384869e+001	-1.247101e+001	-3.435447e+001
4219237.435	-9.371225e+000	-1.508925e+002	-1.972743e+001	5.939713e+001	-1.981509e+001	6.034671e+001	-1.216852e+001	-3.794971e+001
4243674.177	-9.157469e+000	-1.545173e+002	-2.025543e+001	5.649996e+001	-2.033497e+001	5.745414e+001	-1.191151e+001	-4.164407e+001
4268110.919	-8.979114e+000	-1.582116e+002	-2.074416e+001	5.399527e+001	-2.081642e+001	5.498867e+001	-1.168703e+001	-4.535896e+001
4292547.660	-8.826759e+000	-1.619825e+002	-2.121162e+001	5.192270e+001	-2.128326e+001	5.298544e+001	-1.148445e+001	-4.912127e+001
4316984.402	-8.705001e+000	-1.658680e+002	-2.164741e+001	5.061114e+001	-2.170913e+001	5.166798e+001	-1.130552e+001	-5.296888e+001
4341421.144	-8.622729e+000	-1.698013e+002	-2.196970e+001	4.981461e+001	-2.202144e+001	5.094035e+001	-1.116254e+001	-5.684289e+001
4365857.886	-8.575084e+000	-1.736841e+002	-2.215948e+001	4.908872e+001	-2.219013e+001	5.019043e+001	-1.105185e+001	-6.061322e+001
4390294.627	-8.543870e+000	-1.774246e+002	-2.226711e+001	4.778762e+001	-2.230325e+001	4.880289e+001	-1.094653e+001	-6.420393e+001
4414731.369	-8.502892e+000	1.788671e+002	-2.244595e+001	4.603827e+001	-2.247812e+001	4.712087e+001	-1.082174e+001	-6.772566e+001
4439168.111	-8.455964e+000	1.749337e+002	-2.272522e+001	4.499053e+001	-2.276208e+001	4.586941e+001	-1.067008e+001	-7.136123e+001
4463604.853	-8.417124e+000	1.707774e+002	-2.303239e+001	4.504187e+001	-2.309673e+001	4.609342e+001	-1.050421e+001	-7.527812e+001
4488041.594	-8.410218e+000	1.662650e+002	-2.323362e+001	4.699869e+001	-2.328421e+001	4.828940e+001	-1.035246e+001	-7.957293e+001
4512478.336	-8.470575e+000	1.614430e+002	-2.306159e+001	5.037883e+001	-2.309311e+001	5.178630e+001	-1.024347e+001	-8.421763e+001
4536915.078	-8.630034e+000	1.565506e+002	-2.238784e+001	5.293076e+001	-2.238211e+001	5.442173e+001	-1.021338e+001	-8.906393e+001
4561351.820	-8.879116e+000	1.518895e+002	-2.144671e+001	5.284420e+001	-2.142372e+001	5.433410e+001	-1.025878e+001	-9.380589e+001
4585788.562	-9.178301e+000	1.476266e+002	-2.054549e+001	5.033863e+001	-2.048832e+001	5.176591e+001	-1.035674e+001	-9.827128e+001
4610225.303	-9.503419e+000	1.437337e+002	-1.977932e+001	4.634445e+001	-1.970150e+001	4.766740e+001	-1.047649e+001	-1.024139e+002
4634662.045	-9.828049e+000	1.401523e+002	-1.918067e+001	4.157385e+001	-1.907799e+001	4.276243e+001	-1.059735e+001	-1.062944e+002
4659098.787	-1.014619e+001	1.366833e+002	-1.870538e+001	3.671559e+001	-1.860534e+001	3.771289e+001	-1.069838e+001	-1.100018e+002
4683535.529	-1.044505e+001	1.332203e+002	-1.836178e+001	3.202255e+001	-1.824824e+001	3.286981e+001	-1.076832e+001	-1.136703e+002
4707972.270	-1.074683e+001	1.295611e+002	-1.807329e+001	2.784257e+001	-1.795690e+001	2.853894e+001	-1.080965e+001	-1.174895e+002
4732409.012	-1.110542e+001	1.255858e+002	-1.771971e+001	2.416557e+001	-1.761347e+001	2.476939e+001	-1.085239e+001	-1.216980e+002
4756845.754	-1.155693e+001	1.215224e+002	-1.727121e+001	2.043491e+001	-1.717440e+001	2.091134e+001	-1.094299e+001	-1.262146e+002
4781282.496	-1.210400e+001	1.177678e+002	-1.676409e+001	1.599628e+001	-1.668107e+001	1.643334e+001	-1.109580e+001	-1.307770e+002
4805719.237	-1.270746e+001	1.144518e+002	-1.628989e+001	1.093655e+001	-1.621506e+001	1.138633e+001	-1.128956e+001	-1.352314e+002
4830155.979	-1.334718e+001	1.114809e+002	-1.586351e+001	5.590949e+000	-1.579516e+001	6.048889e+000	-1.150733e+001	-1.396087e+002
4854592.721	-1.403096e+001	1.088121e+002	-1.547559e+001	9.211901e-002	-1.540355e+001	5.490827e-001	-1.175049e+001	-1.439674e+002
4879029.463	-1.477580e+001	1.064878e+002	-1.510333e+001	-5.507139e+000	-1.503071e+001	-5.085195e+000	-1.202693e+001	-1.483384e+002
4903466.205	-1.557966e+001	1.047192e+002	-1.474947e+001	-1.128853e+001	-1.467815e+001	-1.090728e+001	-1.234441e+001	-1.526536e+002
4927902.946	-1.642558e+001	1.036629e+002	-1.442266e+001	-1.730008e+001	-1.435100e+001	-1.695749e+001	-1.270148e+001	-1.568566e+002
4952339.688	-1.728603e+001	1.034152e+002	-1.412689e+001	-2.351803e+001	-1.406404e+001	-2.321521e+001	-1.309470e+001	-1.608358e+002
4976776.430	-1.813343e+001	1.039868e+002	-1.387081e+001	-2.983038e+001	-1.381260e+001	-2.953337e+001	-1.351414e+001	-1.646240e+002
5001213.172	-1.894207e+001	1.053673e+002	-1.364894e+001	-3.619425e+001	-1.359985e+001	-3.590661e+001	-1.395308e+001	-1.681948e+002
5025649.913	-1.968278e+001	1.074267e+002	-1.346430e+001	-4.260363e+001	-1.342080e+001	-4.230492e+001	-1.440722e+001	-1.715495e+002
5050086.655	-2.033731e+001	1.100445e+002	-1.331087e+001	-4.900891e+001	-1.327255e+001	-4.868867e+001	-1.487582e+001	-1.746908e+002
5074523.397	-2.090205e+001	1.130771e+002	-1.318539e+001	-5.537138e+001	-1.315211e+001	-5.504678e+001	-1.535061e+001	-1.776211e+002
5098960.139	-2.137533e+001	1.163824e+002	-1.308226e+001	-6.170861e+001	-1.305311e+001	-6.137222e+001	-1.583359e+001	1.796631e+002
5123396.880	-2.175006e+001	1.198668e+002	-1.300072e+001	-6.801239e+001	-1.297481e+001	-6.765089e+001	-1.631902e+001	1.771499e+002
5147833.622	-2.204759e+001	1.233538e+002	-1.293809e+001	-7.424292e+001	-1.291492e+001	-7.388577e+001	-1.680887e+001	1.748824e+002
5172270.364	-2.225939e+001	1.268988e+002	-1.289033e+001	-8.045048e+001	-1.286936e+001	-8.006944e+001	-1.729235e+001	1.728066e+002
5196707.106	-2.239816e+001	1.303193e+002	-1.285732e+001	-8.661421e+001	-1.283809e+001	-8.621765e+001	-1.777146e+001	1.709651e+002
5221143.847	-2.247000e+001	1.336544e+002	-1.283693e+001	-9.270804e+001	-1.281762e+001	-9.235574e+001	-1.823835e+001	1.694199e+002
5245580.589	-2.248502e+001	1.368113e+002	-1.282698e+001	-9.878709e+001	-1.280990e+001	-9.842937e+001	-1.868241e+001	1.680512e+002
5270017.331	-2.245153e+001	1.397494e+002	-1.282758e+001	-1.048386e+002	-1.281280e+001	-1.044791e+002	-1.910127e+001	1.669096e+002
5294454.073	-2.237714e+001	1.425051e+002	-1.283865e+001	-1.108500e+002	-1.282479e+001	-1.104801e+002	-1.948316e+001	1.658857e+002
5318890.815	-2.226167e+001	1.450576e+002	-1.285727e+001	-1.168131e+002	-1.284399e+001	-1.164464e+002	-1.983193e+001	1.650244e+002
5343327.556	-2.210227e+001	1.473913e+002	-1.287900e+001	-1.227643e+002	-1.286712e+001	-1.223894e+002	-2.014208e+001	1.642641e+002
5367764.298	-2.191943e+001	1.494103e+002	-1.290631e+001	-1.286914e+002	-1.289447e+001	-1.283298e+002	-2.040734e+001	1.636170e+002
5392201.040	-2.172160e+001	1.510539e+002	-1.293738e+001	-1.346608e+002	-1.292773e+001	-1.342838e+002	-2.061021e+001	1.630592e+002
5416637.782	-2.153191e+001	1.523984e+002	-1.297784e+001	-1.406169e+002	-1.296832e+001	-1.402436e+002	-2.074763e+001	1.624044e+002
5441074.523	-2.135447e+001	1.535281e+002	-1.302623e+001	-1.465831e+002	-1.301931e+001	-1.462120e+002	-2.081836e+001	1.615870e+002
