!Agilent Technologies,E5061B,MY49101568,A.02.00
!Date: Wed Mar 01 13:16:33 2023
!Data & Calibration Information:
!Freq	S11:SOLT2(OFF)	S21:SOLT2(OFF)	S12:SOLT2(OFF)	S22:SOLT2(OFF)
# Hz S dB R 50
1800000.000	-9.918193e+000	-1.605451e+001	-2.222712e+001	-1.493898e+002	-2.223129e+001	-1.494190e+002	-1.038060e+001	2.047632e+001
1824436.742	-1.005791e+001	-2.022446e+001	-2.190048e+001	-1.534728e+002	-2.190215e+001	-1.535056e+002	-1.054624e+001	1.684138e+001
1848873.484	-1.020482e+001	-2.446955e+001	-2.156257e+001	-1.576739e+002	-2.157102e+001	-1.576598e+002	-1.071618e+001	1.314447e+001
1873310.225	-1.036208e+001	-2.875223e+001	-2.122294e+001	-1.619386e+002	-2.123264e+001	-1.619583e+002	-1.088539e+001	9.445014e+000
1897746.967	-1.052052e+001	-3.308794e+001	-2.086738e+001	-1.662767e+002	-2.088627e+001	-1.662991e+002	-1.105381e+001	5.695081e+000
1922183.709	-1.069039e+001	-3.751741e+001	-2.051260e+001	-1.707775e+002	-2.053307e+001	-1.707662e+002	-1.122538e+001	1.843455e+000
1946620.451	-1.086406e+001	-4.202626e+001	-2.016088e+001	-1.753451e+002	-2.017740e+001	-1.753612e+002	-1.139765e+001	-2.057404e+000
1971057.192	-1.104622e+001	-4.665273e+001	-1.980176e+001	-1.799378e+002	-1.982256e+001	-1.799451e+002	-1.156828e+001	-6.056601e+000
1995493.934	-1.123930e+001	-5.135968e+001	-1.944572e+001	1.752707e+002	-1.946699e+001	1.753547e+002	-1.174081e+001	-1.009155e+001
2019930.676	-1.144324e+001	-5.617969e+001	-1.909099e+001	1.704943e+002	-1.912660e+001	1.705358e+002	-1.190445e+001	-1.418036e+001
2044367.418	-1.166072e+001	-6.112694e+001	-1.871754e+001	1.656500e+002	-1.875815e+001	1.657724e+002	-1.206891e+001	-1.849146e+001
2068804.159	-1.189723e+001	-6.616122e+001	-1.833421e+001	1.606653e+002	-1.837896e+001	1.608145e+002	-1.224018e+001	-2.283117e+001
2093240.901	-1.215273e+001	-7.126425e+001	-1.795101e+001	1.555403e+002	-1.800383e+001	1.557086e+002	-1.241106e+001	-2.721742e+001
2117677.643	-1.242127e+001	-7.647982e+001	-1.758299e+001	1.501837e+002	-1.763152e+001	1.504098e+002	-1.258143e+001	-3.165883e+001
2142114.385	-1.270869e+001	-8.182930e+001	-1.721544e+001	1.447576e+002	-1.726152e+001	1.450486e+002	-1.274124e+001	-3.622517e+001
2166551.127	-1.301459e+001	-8.726430e+001	-1.685495e+001	1.391511e+002	-1.689065e+001	1.394887e+002	-1.290373e+001	-4.091983e+001
2190987.868	-1.334270e+001	-9.285170e+001	-1.649939e+001	1.334191e+002	-1.653920e+001	1.337721e+002	-1.305663e+001	-4.563990e+001
2215424.610	-1.368193e+001	-9.854478e+001	-1.616688e+001	1.275300e+002	-1.620551e+001	1.278967e+002	-1.319990e+001	-5.045551e+001
2239861.352	-1.403974e+001	-1.043637e+002	-1.584920e+001	1.215257e+002	-1.588525e+001	1.219292e+002	-1.332330e+001	-5.538525e+001
2264298.094	-1.440631e+001	-1.103644e+002	-1.555401e+001	1.154261e+002	-1.558263e+001	1.158753e+002	-1.343302e+001	-6.044344e+001
2288734.835	-1.478311e+001	-1.166469e+002	-1.527308e+001	1.093507e+002	-1.530083e+001	1.097931e+002	-1.352233e+001	-6.569646e+001
2313171.577	-1.518534e+001	-1.231824e+002	-1.499736e+001	1.031642e+002	-1.502576e+001	1.035992e+002	-1.359789e+001	-7.109576e+001
2337608.319	-1.560299e+001	-1.298996e+002	-1.474122e+001	9.684543e+001	-1.476417e+001	9.734207e+001	-1.365732e+001	-7.669671e+001
2362045.061	-1.601854e+001	-1.368463e+002	-1.451107e+001	9.044688e+001	-1.453518e+001	9.092155e+001	-1.369491e+001	-8.233102e+001
2386481.802	-1.641138e+001	-1.441569e+002	-1.431445e+001	8.397655e+001	-1.433281e+001	8.449272e+001	-1.370069e+001	-8.820694e+001
2410918.544	-1.677986e+001	-1.520853e+002	-1.414456e+001	7.759727e+001	-1.415915e+001	7.813024e+001	-1.367021e+001	-9.433601e+001
2435355.286	-1.714185e+001	-1.608307e+002	-1.397972e+001	7.139235e+001	-1.398654e+001	7.194265e+001	-1.361998e+001	-1.008857e+002
2459792.028	-1.754869e+001	-1.703329e+002	-1.379059e+001	6.519292e+001	-1.379261e+001	6.573002e+001	-1.357710e+001	-1.077895e+002
2484228.769	-1.796664e+001	1.797906e+002	-1.359978e+001	5.877219e+001	-1.359336e+001	5.925380e+001	-1.355426e+001	-1.148380e+002
2508665.511	-1.836837e+001	1.697192e+002	-1.343451e+001	5.208892e+001	-1.342432e+001	5.256660e+001	-1.352589e+001	-1.219077e+002
2533102.253	-1.870921e+001	1.594772e+002	-1.329839e+001	4.527353e+001	-1.328488e+001	4.576815e+001	-1.349124e+001	-1.290562e+002
2557538.995	-1.893496e+001	1.490606e+002	-1.321107e+001	3.837053e+001	-1.319014e+001	3.884609e+001	-1.344441e+001	-1.362188e+002
2581975.737	-1.904767e+001	1.384092e+002	-1.316423e+001	3.147569e+001	-1.313376e+001	3.195132e+001	-1.338007e+001	-1.434302e+002
2606412.478	-1.904058e+001	1.276001e+002	-1.315230e+001	2.465627e+001	-1.311567e+001	2.512368e+001	-1.330081e+001	-1.507270e+002
2630849.220	-1.890520e+001	1.167479e+002	-1.317857e+001	1.798868e+001	-1.313725e+001	1.843786e+001	-1.319923e+001	-1.580936e+002
2655285.962	-1.868663e+001	1.058822e+002	-1.321439e+001	1.147214e+001	-1.316964e+001	1.187789e+001	-1.310099e+001	-1.656124e+002
2679722.704	-1.843013e+001	9.534879e+001	-1.326307e+001	4.957358e+000	-1.321120e+001	5.371032e+000	-1.302347e+001	-1.731457e+002
2704159.445	-1.811769e+001	8.531237e+001	-1.333539e+001	-1.473872e+000	-1.326923e+001	-1.163352e+000	-1.296357e+001	1.794129e+002
2728596.187	-1.777182e+001	7.583584e+001	-1.343083e+001	-7.861666e+000	-1.337010e+001	-7.599502e+000	-1.289692e+001	1.721468e+002
2753032.929	-1.739439e+001	6.683774e+001	-1.355723e+001	-1.409479e+001	-1.349151e+001	-1.389136e+001	-1.283983e+001	1.649436e+002
2777469.671	-1.701091e+001	5.830620e+001	-1.369602e+001	-2.018539e+001	-1.362921e+001	-2.005009e+001	-1.278703e+001	1.578930e+002
2801906.412	-1.663033e+001	5.025082e+001	-1.384957e+001	-2.613397e+001	-1.378762e+001	-2.603994e+001	-1.273853e+001	1.509663e+002
2826343.154	-1.625615e+001	4.264225e+001	-1.402153e+001	-3.194046e+001	-1.396211e+001	-3.191380e+001	-1.270088e+001	1.442550e+002
2850779.896	-1.590051e+001	3.540309e+001	-1.419748e+001	-3.758123e+001	-1.414207e+001	-3.759568e+001	-1.267025e+001	1.376618e+002
2875216.638	-1.556431e+001	2.855091e+001	-1.438325e+001	-4.310689e+001	-1.433312e+001	-4.312766e+001	-1.264860e+001	1.312542e+002
2899653.380	-1.523902e+001	2.203243e+001	-1.457625e+001	-4.843832e+001	-1.452967e+001	-4.851307e+001	-1.263415e+001	1.250574e+002
2924090.121	-1.494182e+001	1.579959e+001	-1.476702e+001	-5.365763e+001	-1.472796e+001	-5.374862e+001	-1.263051e+001	1.190325e+002
2948526.863	-1.466206e+001	9.893660e+000	-1.496244e+001	-5.875261e+001	-1.492850e+001	-5.887433e+001	-1.263346e+001	1.132142e+002
2972963.605	-1.439844e+001	4.251286e+000	-1.516474e+001	-6.368682e+001	-1.513697e+001	-6.382894e+001	-1.263530e+001	1.076183e+002
2997400.347	-1.414465e+001	-1.173574e+000	-1.536389e+001	-6.845474e+001	-1.534541e+001	-6.860108e+001	-1.263841e+001	1.021762e+002
3021837.088	-1.390465e+001	-6.409551e+000	-1.555800e+001	-7.304873e+001	-1.554733e+001	-7.322773e+001	-1.264527e+001	9.686720e+001
3046273.830	-1.367980e+001	-1.145769e+001	-1.574454e+001	-7.753314e+001	-1.574007e+001	-7.771262e+001	-1.265474e+001	9.170516e+001
3070710.572	-1.346832e+001	-1.638134e+001	-1.591455e+001	-8.186839e+001	-1.591846e+001	-8.204786e+001	-1.266828e+001	8.666943e+001
3095147.314	-1.327237e+001	-2.114598e+001	-1.607201e+001	-8.611728e+001	-1.608384e+001	-8.629761e+001	-1.268937e+001	8.173112e+001
3119584.055	-1.309132e+001	-2.576197e+001	-1.621816e+001	-9.032315e+001	-1.623458e+001	-9.049751e+001	-1.272036e+001	7.694720e+001
3144020.797	-1.292445e+001	-3.025489e+001	-1.635575e+001	-9.444240e+001	-1.637717e+001	-9.466409e+001	-1.275635e+001	7.235006e+001
3168457.539	-1.276987e+001	-3.459621e+001	-1.648441e+001	-9.853501e+001	-1.651482e+001	-9.873721e+001	-1.279653e+001	6.785930e+001
3192894.281	-1.262553e+001	-3.882646e+001	-1.660684e+001	-1.025715e+002	-1.664215e+001	-1.027754e+002	-1.283961e+001	6.349008e+001
3217331.023	-1.248886e+001	-4.294594e+001	-1.672198e+001	-1.066041e+002	-1.676064e+001	-1.067698e+002	-1.288434e+001	5.926462e+001
3241767.764	-1.236057e+001	-4.694480e+001	-1.683141e+001	-1.105709e+002	-1.687521e+001	-1.107169e+002	-1.293001e+001	5.515932e+001
3266204.506	-1.223649e+001	-5.084323e+001	-1.693814e+001	-1.144446e+002	-1.698731e+001	-1.145748e+002	-1.297359e+001	5.117696e+001
3290641.248	-1.211559e+001	-5.467767e+001	-1.703668e+001	-1.182258e+002	-1.708700e+001	-1.183434e+002	-1.301233e+001	4.725503e+001
3315077.990	-1.200238e+001	-5.847546e+001	-1.710683e+001	-1.219507e+002	-1.716496e+001	-1.220350e+002	-1.305432e+001	4.338070e+001
3339514.731	-1.190022e+001	-6.222242e+001	-1.716327e+001	-1.257123e+002	-1.722473e+001	-1.257565e+002	-1.310654e+001	3.956343e+001
3363951.473	-1.180953e+001	-6.588764e+001	-1.720821e+001	-1.294870e+002	-1.727658e+001	-1.295110e+002	-1.316426e+001	3.585787e+001
3388388.215	-1.172585e+001	-6.948442e+001	-1.725117e+001	-1.332784e+002	-1.732143e+001	-1.332718e+002	-1.322520e+001	3.225992e+001
3412824.957	-1.165221e+001	-7.301036e+001	-1.728646e+001	-1.370569e+002	-1.735965e+001	-1.370137e+002	-1.329010e+001	2.875249e+001
3437261.698	-1.158470e+001	-7.646522e+001	-1.731524e+001	-1.408619e+002	-1.739088e+001	-1.407773e+002	-1.335802e+001	2.536063e+001
3461698.440	-1.152425e+001	-7.985406e+001	-1.733969e+001	-1.446606e+002	-1.741705e+001	-1.445538e+002	-1.342846e+001	2.205039e+001
3486135.182	-1.146952e+001	-8.316945e+001	-1.735602e+001	-1.484554e+002	-1.743581e+001	-1.483362e+002	-1.349899e+001	1.885060e+001
3510571.924	-1.142431e+001	-8.639809e+001	-1.737018e+001	-1.522918e+002	-1.745199e+001	-1.521201e+002	-1.356981e+001	1.576120e+001
3535008.666	-1.138287e+001	-8.955011e+001	-1.738389e+001	-1.561086e+002	-1.746642e+001	-1.559187e+002	-1.363912e+001	1.279773e+001
3559445.407	-1.134365e+001	-9.262820e+001	-1.739616e+001	-1.599228e+002	-1.747828e+001	-1.596949e+002	-1.370166e+001	9.928306e+000
3583882.149	-1.130445e+001	-9.563223e+001	-1.740487e+001	-1.636877e+002	-1.748960e+001	-1.634432e+002	-1.375481e+001	7.164040e+000
3608318.891	-1.126360e+001	-9.858433e+001	-1.740306e+001	-1.674312e+002	-1.748738e+001	-1.671379e+002	-1.379353e+001	4.406609e+000
3632755.633	-1.122166e+001	-1.015249e+002	-1.738641e+001	-1.711491e+002	-1.747014e+001	-1.708246e+002	-1.383400e+001	1.635111e+000
3657192.374	-1.118880e+001	-1.044291e+002	-1.735136e+001	-1.749873e+002	-1.743471e+001	-1.746044e+002	-1.387925e+001	-1.053490e+000
3681629.116	-1.116251e+001	-1.072702e+002	-1.731014e+001	-1.789461e+002	-1.739457e+001	-1.785200e+002	-1.392751e+001	-3.666017e+000
3706065.858	-1.114101e+001	-1.100089e+002	-1.727958e+001	1.769632e+002	-1.736804e+001	1.773850e+002	-1.397261e+001	-6.106675e+000
3730502.600	-1.111481e+001	-1.126332e+002	-1.727958e+001	1.727913e+002	-1.735839e+001	1.732663e+002	-1.400767e+001	-8.432539e+000
3754939.341	-1.108142e+001	-1.151588e+002	-1.730173e+001	1.686376e+002	-1.738590e+001	1.691373e+002	-1.401295e+001	-1.060788e+001
3779376.083	-1.103022e+001	-1.175985e+002	-1.736410e+001	1.645798e+002	-1.745272e+001	1.651317e+002	-1.398331e+001	-1.271828e+001
3803812.825	-1.094178e+001	-1.200304e+002	-1.746296e+001	1.609449e+002	-1.754850e+001	1.614928e+002	-1.390283e+001	-1.492229e+001
3828249.567	-1.083226e+001	-1.226397e+002	-1.754392e+001	1.577690e+002	-1.762831e+001	1.584161e+002	-1.379212e+001	-1.745134e+001
3852686.308	-1.071616e+001	-1.255739e+002	-1.755002e+001	1.551371e+002	-1.762627e+001	1.558169e+002	-1.368481e+001	-2.045157e+001
3877123.050	-1.062738e+001	-1.287978e+002	-1.744075e+001	1.525542e+002	-1.751344e+001	1.531955e+002	-1.363081e+001	-2.374642e+001
3901559.792	-1.059636e+001	-1.321377e+002	-1.723310e+001	1.494793e+002	-1.730608e+001	1.501656e+002	-1.364594e+001	-2.713753e+001
3925996.534	-1.062036e+001	-1.352891e+002	-1.701323e+001	1.456190e+002	-1.706500e+001	1.464107e+002	-1.372805e+001	-3.028102e+001
3950433.276	-1.066962e+001	-1.382439e+002	-1.681493e+001	1.413113e+002	-1.685411e+001	1.420224e+002	-1.384348e+001	-3.299487e+001
3974870.017	-1.072458e+001	-1.409117e+002	-1.667517e+001	1.367060e+002	-1.670808e+001	1.373232e+002	-1.394713e+001	-3.529460e+001
3999306.759	-1.077391e+001	-1.433621e+002	-1.658863e+001	1.319793e+002	-1.663410e+001	1.325169e+002	-1.401916e+001	-3.724713e+001
4023743.501	-1.079565e+001	-1.456120e+002	-1.657126e+001	1.272826e+002	-1.662611e+001	1.277881e+002	-1.403683e+001	-3.899716e+001
4048180.243	-1.078838e+001	-1.478333e+002	-1.659212e+001	1.227733e+002	-1.666466e+001	1.233213e+002	-1.399933e+001	-4.075889e+001
4072616.984	-1.074842e+001	-1.500941e+002	-1.664505e+001	1.186005e+002	-1.673305e+001	1.192264e+002	-1.391141e+001	-4.267624e+001
4097053.726	-1.069100e+001	-1.525447e+002	-1.670182e+001	1.148135e+002	-1.679436e+001	1.155997e+002	-1.379483e+001	-4.490308e+001
4121490.468	-1.062668e+001	-1.552045e+002	-1.673814e+001	1.113871e+002	-1.681880e+001	1.123199e+002	-1.367551e+001	-4.745713e+001
4145927.210	-1.057614e+001	-1.580521e+002	-1.672964e+001	1.081938e+002	-1.679788e+001	1.092326e+002	-1.356773e+001	-5.026032e+001
4170363.951	-1.054506e+001	-1.610390e+002	-1.667461e+001	1.051555e+002	-1.671812e+001	1.060990e+002	-1.349350e+001	-5.316839e+001
4194800.693	-1.054456e+001	-1.641370e+002	-1.656371e+001	1.020298e+002	-1.660040e+001	1.030052e+002	-1.343434e+001	-5.623901e+001
4219237.435	-1.057368e+001	-1.672713e+002	-1.641325e+001	9.878619e+001	-1.644207e+001	9.973630e+001	-1.340691e+001	-5.935075e+001
4243674.177	-1.063328e+001	-1.703807e+002	-1.623139e+001	9.535151e+001	-1.625498e+001	9.631790e+001	-1.339640e+001	-6.247701e+001
4268110.919	-1.071955e+001	-1.734329e+002	-1.603130e+001	9.171045e+001	-1.605082e+001	9.266094e+001	-1.341428e+001	-6.555322e+001
4292547.660	-1.083110e+001	-1.763978e+002	-1.582220e+001	8.783382e+001	-1.583636e+001	8.877801e+001	-1.344903e+001	-6.856507e+001
4316984.402	-1.095797e+001	-1.792352e+002	-1.561651e+001	8.375779e+001	-1.562293e+001	8.468114e+001	-1.349768e+001	-7.148182e+001
4341421.144	-1.110235e+001	1.780534e+002	-1.541286e+001	7.951042e+001	-1.541525e+001	8.043546e+001	-1.355361e+001	-7.431554e+001
4365857.886	-1.125542e+001	1.754928e+002	-1.522273e+001	7.508774e+001	-1.522257e+001	7.602396e+001	-1.361203e+001	-7.705385e+001
4390294.627	-1.141437e+001	1.730364e+002	-1.504341e+001	7.059063e+001	-1.504128e+001	7.149803e+001	-1.367349e+001	-7.969554e+001
4414731.369	-1.157185e+001	1.707109e+002	-1.488049e+001	6.600397e+001	-1.487344e+001	6.689577e+001	-1.372829e+001	-8.229391e+001
4439168.111	-1.173181e+001	1.684503e+002	-1.472887e+001	6.133003e+001	-1.471591e+001	6.224851e+001	-1.377994e+001	-8.487344e+001
4463604.853	-1.188830e+001	1.662993e+002	-1.459082e+001	5.664793e+001	-1.457456e+001	5.755769e+001	-1.382233e+001	-8.740079e+001
4488041.594	-1.204318e+001	1.642043e+002	-1.446074e+001	5.193867e+001	-1.444267e+001	5.283942e+001	-1.386181e+001	-8.992539e+001
4512478.336	-1.219462e+001	1.621594e+002	-1.433978e+001	4.721571e+001	-1.431823e+001	4.809884e+001	-1.389559e+001	-9.247267e+001
4536915.078	-1.234651e+001	1.601622e+002	-1.422575e+001	4.246559e+001	-1.420283e+001	4.333410e+001	-1.392643e+001	-9.500773e+001
4561351.820	-1.249324e+001	1.582220e+002	-1.412043e+001	3.767183e+001	-1.409464e+001	3.852347e+001	-1.395694e+001	-9.756924e+001
4585788.562	-1.263138e+001	1.563002e+002	-1.402867e+001	3.284008e+001	-1.399811e+001	3.370673e+001	-1.397714e+001	-1.001516e+002
4610225.303	-1.276324e+001	1.543439e+002	-1.395182e+001	2.803059e+001	-1.391807e+001	2.888305e+001	-1.398868e+001	-1.027592e+002
4634662.045	-1.289323e+001	1.523107e+002	-1.388510e+001	2.326549e+001	-1.384604e+001	2.409654e+001	-1.399448e+001	-1.054710e+002
4659098.787	-1.302511e+001	1.502007e+002	-1.382850e+001	1.853964e+001	-1.378553e+001	1.934100e+001	-1.399266e+001	-1.082628e+002
4683535.529	-1.316713e+001	1.479788e+002	-1.377652e+001	1.388299e+001	-1.373168e+001	1.465247e+001	-1.398907e+001	-1.112048e+002
4707972.270	-1.333175e+001	1.456683e+002	-1.372577e+001	9.346002e+000	-1.368157e+001	1.003982e+001	-1.398728e+001	-1.142743e+002
4732409.012	-1.351871e+001	1.432701e+002	-1.367375e+001	4.826617e+000	-1.362471e+001	5.513992e+000	-1.399493e+001	-1.175633e+002
4756845.754	-1.374280e+001	1.408288e+002	-1.361214e+001	3.871467e-001	-1.356160e+001	1.036713e+000	-1.402271e+001	-1.210291e+002
4781282.496	-1.400716e+001	1.384219e+002	-1.353910e+001	-4.040698e+000	-1.348438e+001	-3.425386e+000	-1.407435e+001	-1.246164e+002
4805719.237	-1.430880e+001	1.361075e+002	-1.345286e+001	-8.490160e+000	-1.339729e+001	-7.913612e+000	-1.415211e+001	-1.282991e+002
4830155.979	-1.464614e+001	1.339653e+002	-1.335712e+001	-1.299510e+001	-1.330007e+001	-1.246006e+001	-1.426007e+001	-1.320550e+002
4854592.721	-1.501858e+001	1.320086e+002	-1.325151e+001	-1.756474e+001	-1.319716e+001	-1.706629e+001	-1.439746e+001	-1.358491e+002
4879029.463	-1.541606e+001	1.303009e+002	-1.314093e+001	-2.223745e+001	-1.308825e+001	-2.177023e+001	-1.456608e+001	-1.396468e+002
4903466.205	-1.583168e+001	1.288426e+002	-1.303334e+001	-2.703051e+001	-1.298276e+001	-2.658828e+001	-1.476265e+001	-1.434144e+002
4927902.946	-1.625796e+001	1.276091e+002	-1.293199e+001	-3.191171e+001	-1.288407e+001	-3.148944e+001	-1.497943e+001	-1.471400e+002
4952339.688	-1.669487e+001	1.265884e+002	-1.284119e+001	-3.691318e+001	-1.279514e+001	-3.646130e+001	-1.521702e+001	-1.508353e+002
4976776.430	-1.714729e+001	1.257830e+002	-1.276187e+001	-4.192326e+001	-1.271831e+001	-4.149396e+001	-1.546997e+001	-1.544906e+002
5001213.172	-1.761487e+001	1.252125e+002	-1.269337e+001	-4.696915e+001	-1.265353e+001	-4.656493e+001	-1.573982e+001	-1.581112e+002
5025649.913	-1.809872e+001	1.248700e+002	-1.263847e+001	-5.204205e+001	-1.259944e+001	-5.165986e+001	-1.602296e+001	-1.617166e+002
5050086.655	-1.860133e+001	1.248192e+002	-1.259365e+001	-5.713941e+001	-1.255683e+001	-5.675415e+001	-1.632486e+001	-1.653130e+002
5074523.397	-1.912170e+001	1.251115e+002	-1.256012e+001	-6.223945e+001	-1.252548e+001	-6.186949e+001	-1.664165e+001	-1.688823e+002
5098960.139	-1.965788e+001	1.257987e+002	-1.253870e+001	-6.735093e+001	-1.250663e+001	-6.698571e+001	-1.696897e+001	-1.724438e+002
5123396.880	-2.021216e+001	1.269386e+002	-1.253019e+001	-7.243584e+001	-1.250180e+001	-7.208624e+001	-1.730617e+001	-1.760217e+002
5147833.622	-2.077844e+001	1.285989e+002	-1.253666e+001	-7.748169e+001	-1.251093e+001	-7.714313e+001	-1.764896e+001	-1.796552e+002
5172270.364	-2.135494e+001	1.310387e+002	-1.255208e+001	-8.245916e+001	-1.252928e+001	-8.212855e+001	-1.800345e+001	1.765804e+002
5196707.106	-2.190286e+001	1.344266e+002	-1.257038e+001	-8.737509e+001	-1.255236e+001	-8.703836e+001	-1.838199e+001	1.726736e+002
5221143.847	-2.236897e+001	1.388982e+002	-1.259030e+001	-9.218623e+001	-1.257417e+001	-9.189751e+001	-1.879321e+001	1.686506e+002
5245580.589	-2.267129e+001	1.442791e+002	-1.260493e+001	-9.701457e+001	-1.259539e+001	-9.671501e+001	-1.924811e+001	1.644944e+002
5270017.331	-2.276881e+001	1.501560e+002	-1.262214e+001	-1.018250e+002	-1.261532e+001	-1.015143e+002	-1.973727e+001	1.603326e+002
5294454.073	-2.263952e+001	1.560262e+002	-1.263876e+001	-1.066293e+002	-1.263449e+001	-1.063180e+002	-2.026794e+001	1.561366e+002
5318890.815	-2.230276e+001	1.613675e+002	-1.265892e+001	-1.114481e+002	-1.265700e+001	-1.111102e+002	-2.083292e+001	1.519043e+002
5343327.556	-2.182123e+001	1.658663e+002	-1.268149e+001	-1.162388e+002	-1.268114e+001	-1.159033e+002	-2.142670e+001	1.476739e+002
5367764.298	-2.124501e+001	1.694291e+002	-1.270898e+001	-1.210416e+002	-1.271173e+001	-1.206763e+002	-2.205097e+001	1.433580e+002
5392201.040	-2.062127e+001	1.720719e+002	-1.274021e+001	-1.258212e+002	-1.274377e+001	-1.254454e+002	-2.270824e+001	1.389843e+002
5416637.782	-1.997929e+001	1.738901e+002	-1.277435e+001	-1.305716e+002	-1.277984e+001	-1.301781e+002	-2.339459e+001	1.344324e+002
5441074.523	-1.934763e+001	1.749961e+002	-1.281123e+001	-1.353077e+002	-1.281940e+001	-1.348931e+002	-2.410944e+001	1.297216e+002
