!Agilent Technologies,E5061B,MY49101568,A.02.00
!Date: Wed Mar 01 13:25:58 2023
!Data & Calibration Information:
!Freq	S11:SOLT2(OFF)	S21:SOLT2(OFF)	S12:SOLT2(OFF)	S22:SOLT2(OFF)
# Hz S dB R 50
1800000.000	-1.370321e+001	-4.619342e+001	-1.189064e+001	-1.449146e+002	-1.189772e+001	-1.446803e+002	-1.494391e+001	-1.828419e+001
1824436.742	-1.473242e+001	-5.224787e+001	-1.140410e+001	-1.524393e+002	-1.141377e+001	-1.521331e+002	-1.612001e+001	-2.486724e+001
1848873.484	-1.600196e+001	-5.775676e+001	-1.097930e+001	-1.602834e+002	-1.099050e+001	-1.599423e+002	-1.758827e+001	-3.106963e+001
1873310.225	-1.755764e+001	-6.220374e+001	-1.062104e+001	-1.683134e+002	-1.063010e+001	-1.679489e+002	-1.941858e+001	-3.643061e+001
1897746.967	-1.943238e+001	-6.479287e+001	-1.032729e+001	-1.763824e+002	-1.033034e+001	-1.760761e+002	-2.173407e+001	-4.020843e+001
1922183.709	-2.167976e+001	-6.427941e+001	-1.008889e+001	1.755185e+002	-1.009093e+001	1.758254e+002	-2.470487e+001	-4.079671e+001
1946620.451	-2.422411e+001	-5.718578e+001	-9.909949e+000	1.673831e+002	-9.903164e+000	1.677137e+002	-2.862834e+001	-3.267432e+001
1971057.192	-2.626099e+001	-3.992981e+001	-9.786716e+000	1.593516e+002	-9.780246e+000	1.596528e+002	-3.213121e+001	-1.575765e+000
1995493.934	-2.621059e+001	-1.746208e+001	-9.718538e+000	1.514627e+002	-9.705763e+000	1.517586e+002	-3.040747e+001	3.668518e+001
2019930.676	-2.443586e+001	-2.607475e+000	-9.692565e+000	1.437452e+002	-9.680523e+000	1.440452e+002	-2.684039e+001	4.958136e+001
2044367.418	-2.239168e+001	2.403253e+000	-9.712145e+000	1.362527e+002	-9.697688e+000	1.365300e+002	-2.423365e+001	5.046132e+001
2068804.159	-2.074389e+001	2.056542e+000	-9.769836e+000	1.291195e+002	-9.756769e+000	1.293346e+002	-2.238554e+001	4.696251e+001
2093240.901	-1.951518e+001	-8.568896e-001	-9.844432e+000	1.223968e+002	-9.835626e+000	1.225089e+002	-2.110688e+001	4.177922e+001
2117677.643	-1.858176e+001	-4.877949e+000	-9.918285e+000	1.159245e+002	-9.915638e+000	1.160345e+002	-2.020104e+001	3.605373e+001
2142114.385	-1.789184e+001	-9.382432e+000	-9.984171e+000	1.097398e+002	-9.980601e+000	1.098711e+002	-1.957189e+001	3.017275e+001
2166551.127	-1.733205e+001	-1.401449e+001	-1.002511e+001	1.036990e+002	-1.002524e+001	1.038075e+002	-1.908513e+001	2.432736e+001
2190987.868	-1.688643e+001	-1.901189e+001	-1.006558e+001	9.776924e+001	-1.006686e+001	9.786132e+001	-1.871413e+001	1.827808e+001
2215424.610	-1.656448e+001	-2.418932e+001	-1.009672e+001	9.199481e+001	-1.010485e+001	9.209654e+001	-1.845521e+001	1.198823e+001
2239861.352	-1.633831e+001	-2.948850e+001	-1.011668e+001	8.635866e+001	-1.013378e+001	8.647408e+001	-1.830401e+001	5.512226e+000
2264298.094	-1.619825e+001	-3.481007e+001	-1.011866e+001	8.082414e+001	-1.013521e+001	8.097875e+001	-1.825787e+001	-9.585848e-001
2288734.835	-1.612155e+001	-4.003175e+001	-1.009613e+001	7.534424e+001	-1.011066e+001	7.550033e+001	-1.826433e+001	-7.301862e+000
2313171.577	-1.608965e+001	-4.529843e+001	-1.006175e+001	6.982283e+001	-1.007763e+001	6.996863e+001	-1.830396e+001	-1.384530e+001
2337608.319	-1.611067e+001	-5.072850e+001	-1.002170e+001	6.429411e+001	-1.003839e+001	6.444575e+001	-1.839951e+001	-2.061289e+001
2362045.061	-1.619904e+001	-5.624619e+001	-9.974204e+000	5.881204e+001	-9.995031e+000	5.892371e+001	-1.854132e+001	-2.759243e+001
2386481.802	-1.636206e+001	-6.188338e+001	-9.920740e+000	5.330266e+001	-9.942319e+000	5.342953e+001	-1.873384e+001	-3.494083e+001
2410918.544	-1.660825e+001	-6.747199e+001	-9.854177e+000	4.781027e+001	-9.875752e+000	4.795630e+001	-1.901104e+001	-4.258919e+001
2435355.286	-1.690647e+001	-7.290494e+001	-9.771116e+000	4.222464e+001	-9.791843e+000	4.237838e+001	-1.934123e+001	-5.027694e+001
2459792.028	-1.726063e+001	-7.842557e+001	-9.686857e+000	3.653089e+001	-9.707965e+000	3.668493e+001	-1.969792e+001	-5.831156e+001
2484228.769	-1.769673e+001	-8.400635e+001	-9.607653e+000	3.074765e+001	-9.626769e+000	3.094128e+001	-2.010419e+001	-6.677356e+001
2508665.511	-1.822534e+001	-8.963748e+001	-9.533072e+000	2.492609e+001	-9.552000e+000	2.513428e+001	-2.055818e+001	-7.569530e+001
2533102.253	-1.886361e+001	-9.517103e+001	-9.461856e+000	1.908150e+001	-9.479459e+000	1.926220e+001	-2.107471e+001	-8.504424e+001
2557538.995	-1.961686e+001	-1.006594e+002	-9.399838e+000	1.313747e+001	-9.413073e+000	1.333638e+001	-2.161642e+001	-9.499489e+001
2581975.737	-2.051145e+001	-1.059956e+002	-9.348220e+000	7.141230e+000	-9.358327e+000	7.335988e+000	-2.221038e+001	-1.054391e+002
2606412.478	-2.157317e+001	-1.111008e+002	-9.308823e+000	1.106056e+000	-9.314682e+000	1.301644e+000	-2.280516e+001	-1.165931e+002
2630849.220	-2.284502e+001	-1.157714e+002	-9.280497e+000	-4.954000e+000	-9.285791e+000	-4.749714e+000	-2.341907e+001	-1.284812e+002
2655285.962	-2.437876e+001	-1.197959e+002	-9.266988e+000	-1.101975e+001	-9.271448e+000	-1.082273e+001	-2.400204e+001	-1.410079e+002
2679722.704	-2.627616e+001	-1.226914e+002	-9.269678e+000	-1.707324e+001	-9.271731e+000	-1.687540e+001	-2.455409e+001	-1.541709e+002
2704159.445	-2.868206e+001	-1.233130e+002	-9.284299e+000	-2.309674e+001	-9.284486e+000	-2.289268e+001	-2.502223e+001	-1.678976e+002
2728596.187	-3.178770e+001	-1.187574e+002	-9.312368e+000	-2.908010e+001	-9.310878e+000	-2.889230e+001	-2.539398e+001	1.779872e+002
2753032.929	-3.541339e+001	-1.013477e+002	-9.347851e+000	-3.500245e+001	-9.344557e+000	-3.481212e+001	-2.566285e+001	1.637427e+002
2777469.671	-3.669043e+001	-6.415406e+001	-9.391294e+000	-4.087415e+001	-9.389924e+000	-4.068942e+001	-2.584610e+001	1.497492e+002
2801906.412	-3.394712e+001	-3.620339e+001	-9.444164e+000	-4.668738e+001	-9.440269e+000	-4.651403e+001	-2.596667e+001	1.361559e+002
2826343.154	-3.087104e+001	-2.659339e+001	-9.499668e+000	-5.245045e+001	-9.497401e+000	-5.228226e+001	-2.601486e+001	1.231815e+002
2850779.896	-2.850704e+001	-2.463230e+001	-9.561063e+000	-5.814788e+001	-9.559479e+000	-5.798530e+001	-2.604015e+001	1.108473e+002
2875216.638	-2.671284e+001	-2.577727e+001	-9.625298e+000	-6.382759e+001	-9.622295e+000	-6.358834e+001	-2.605506e+001	9.906577e+001
2899653.380	-2.531217e+001	-2.847107e+001	-9.688621e+000	-6.941306e+001	-9.685604e+000	-6.916809e+001	-2.613335e+001	8.800337e+001
2924090.121	-2.421101e+001	-3.185615e+001	-9.751420e+000	-7.494809e+001	-9.749855e+000	-7.470515e+001	-2.627048e+001	7.739481e+001
2948526.863	-2.333629e+001	-3.561699e+001	-9.813717e+000	-8.044813e+001	-9.814229e+000	-8.020215e+001	-2.648994e+001	6.741464e+001
2972963.605	-2.263176e+001	-3.958758e+001	-9.873897e+000	-8.591039e+001	-9.876102e+000	-8.564704e+001	-2.677173e+001	5.756373e+001
2997400.347	-2.207167e+001	-4.358209e+001	-9.932778e+000	-9.133748e+001	-9.935674e+000	-9.106041e+001	-2.716238e+001	4.798587e+001
3021837.088	-2.162173e+001	-4.763671e+001	-9.987697e+000	-9.672137e+001	-9.991903e+000	-9.642705e+001	-2.763940e+001	3.847627e+001
3046273.830	-2.126975e+001	-5.172911e+001	-1.003592e+001	-1.020764e+002	-1.003928e+001	-1.017624e+002	-2.821983e+001	2.860051e+001
3070710.572	-2.101564e+001	-5.586348e+001	-1.007422e+001	-1.074232e+002	-1.007847e+001	-1.070961e+002	-2.896959e+001	1.789785e+001
3095147.314	-2.087300e+001	-5.999194e+001	-1.010146e+001	-1.128154e+002	-1.010673e+001	-1.124635e+002	-2.990043e+001	5.808643e+000
3119584.055	-2.082864e+001	-6.401243e+001	-1.012272e+001	-1.182598e+002	-1.012812e+001	-1.178958e+002	-3.107671e+001	-8.566971e+000
3144020.797	-2.091109e+001	-6.775379e+001	-1.014384e+001	-1.238067e+002	-1.014608e+001	-1.234048e+002	-3.248737e+001	-2.628559e+001
3168457.539	-2.108076e+001	-7.116413e+001	-1.016469e+001	-1.294301e+002	-1.016590e+001	-1.290020e+002	-3.388762e+001	-5.013130e+001
3192894.281	-2.136040e+001	-7.405353e+001	-1.019256e+001	-1.351469e+002	-1.019093e+001	-1.347014e+002	-3.457717e+001	-8.098359e+001
3217331.023	-2.172560e+001	-7.621704e+001	-1.022978e+001	-1.409486e+002	-1.022749e+001	-1.404788e+002	-3.376144e+001	-1.137191e+002
3241767.764	-2.215997e+001	-7.739585e+001	-1.028486e+001	-1.467936e+002	-1.027868e+001	-1.462999e+002	-3.183215e+001	-1.405449e+002
3266204.506	-2.260474e+001	-7.754000e+001	-1.035500e+001	-1.526151e+002	-1.034282e+001	-1.521207e+002	-2.972584e+001	-1.601713e+002
3290641.248	-2.304435e+001	-7.682168e+001	-1.042537e+001	-1.583872e+002	-1.040867e+001	-1.578942e+002	-2.777187e+001	-1.744685e+002
3315077.990	-2.353867e+001	-7.504247e+001	-1.048348e+001	-1.642680e+002	-1.046360e+001	-1.637510e+002	-2.592398e+001	1.745193e+002
3339514.731	-2.399996e+001	-7.131865e+001	-1.055278e+001	-1.703209e+002	-1.052857e+001	-1.698144e+002	-2.418483e+001	1.645257e+002
3363951.473	-2.424118e+001	-6.550495e+001	-1.064753e+001	-1.765011e+002	-1.061934e+001	-1.760193e+002	-2.262957e+001	1.550389e+002
3388388.215	-2.406707e+001	-5.838957e+001	-1.077321e+001	1.772347e+002	-1.074202e+001	1.776835e+002	-2.126436e+001	1.459287e+002
3412824.957	-2.342786e+001	-5.159526e+001	-1.093375e+001	1.709444e+002	-1.089991e+001	1.713649e+002	-2.007239e+001	1.371347e+002
3437261.698	-2.243275e+001	-4.656272e+001	-1.112876e+001	1.646728e+002	-1.109481e+001	1.650672e+002	-1.903277e+001	1.286340e+002
3461698.440	-2.125213e+001	-4.378543e+001	-1.136377e+001	1.584706e+002	-1.132688e+001	1.588358e+002	-1.813037e+001	1.203926e+002
3486135.182	-2.006732e+001	-4.308809e+001	-1.162920e+001	1.523957e+002	-1.159603e+001	1.527294e+002	-1.735315e+001	1.123867e+002
3510571.924	-1.894952e+001	-4.408712e+001	-1.193014e+001	1.465412e+002	-1.189691e+001	1.468221e+002	-1.669302e+001	1.047176e+002
3535008.666	-1.795164e+001	-4.620821e+001	-1.224971e+001	1.409584e+002	-1.221918e+001	1.411777e+002	-1.614269e+001	9.738315e+001
3559445.407	-1.708825e+001	-4.897888e+001	-1.256944e+001	1.356437e+002	-1.254644e+001	1.358076e+002	-1.568044e+001	9.051599e+001
3583882.149	-1.633237e+001	-5.200156e+001	-1.287782e+001	1.305100e+002	-1.286211e+001	1.306527e+002	-1.527829e+001	8.415020e+001
3608318.891	-1.565415e+001	-5.511816e+001	-1.317027e+001	1.254570e+002	-1.316274e+001	1.255929e+002	-1.490759e+001	7.822761e+001
3632755.633	-1.502182e+001	-5.830499e+001	-1.345809e+001	1.203676e+002	-1.346641e+001	1.204982e+002	-1.453973e+001	7.253114e+001
3657192.374	-1.442908e+001	-6.161036e+001	-1.375484e+001	1.153322e+002	-1.377101e+001	1.154521e+002	-1.419296e+001	6.702216e+001
3681629.116	-1.386963e+001	-6.508478e+001	-1.406558e+001	1.103482e+002	-1.409108e+001	1.104661e+002	-1.386585e+001	6.157981e+001
3706065.858	-1.335010e+001	-6.872593e+001	-1.439332e+001	1.054812e+002	-1.442554e+001	1.056115e+002	-1.356981e+001	5.621224e+001
3730502.600	-1.287641e+001	-7.246180e+001	-1.472689e+001	1.007691e+002	-1.476885e+001	1.009054e+002	-1.330749e+001	5.095925e+001
3754939.341	-1.244657e+001	-7.625074e+001	-1.506318e+001	9.623676e+001	-1.511379e+001	9.639864e+001	-1.307622e+001	4.581885e+001
3779376.083	-1.205294e+001	-8.002389e+001	-1.539279e+001	9.180983e+001	-1.544989e+001	9.198868e+001	-1.286825e+001	4.087390e+001
3803812.825	-1.168803e+001	-8.377761e+001	-1.571857e+001	8.747087e+001	-1.578567e+001	8.771099e+001	-1.267891e+001	3.603901e+001
3828249.567	-1.134805e+001	-8.756414e+001	-1.605042e+001	8.323847e+001	-1.611789e+001	8.344566e+001	-1.249943e+001	3.136547e+001
3852686.308	-1.103272e+001	-9.131078e+001	-1.637972e+001	7.907330e+001	-1.645429e+001	7.934995e+001	-1.233994e+001	2.678520e+001
3877123.050	-1.073793e+001	-9.505203e+001	-1.670307e+001	7.501371e+001	-1.678696e+001	7.533168e+001	-1.218966e+001	2.231730e+001
3901559.792	-1.046206e+001	-9.878446e+001	-1.703174e+001	7.102017e+001	-1.711741e+001	7.139540e+001	-1.204991e+001	1.796144e+001
3925996.534	-1.020493e+001	-1.025068e+002	-1.735801e+001	6.710641e+001	-1.744692e+001	6.753891e+001	-1.191760e+001	1.370043e+001
3950433.276	-9.963410e+000	-1.062243e+002	-1.768904e+001	6.328192e+001	-1.777772e+001	6.375046e+001	-1.179144e+001	9.520761e+000
3974870.017	-9.738601e+000	-1.099269e+002	-1.801940e+001	5.954664e+001	-1.810943e+001	6.004490e+001	-1.167206e+001	5.402765e+000
3999306.759	-9.525631e+000	-1.136352e+002	-1.836088e+001	5.587656e+001	-1.844887e+001	5.641353e+001	-1.155530e+001	1.352843e+000
4023743.501	-9.326528e+000	-1.173388e+002	-1.869988e+001	5.233122e+001	-1.879359e+001	5.290103e+001	-1.144342e+001	-2.657502e+000
4048180.243	-9.141006e+000	-1.210552e+002	-1.904808e+001	4.889217e+001	-1.914566e+001	4.946481e+001	-1.133538e+001	-6.627872e+000
4072616.984	-8.966579e+000	-1.247819e+002	-1.941031e+001	4.554110e+001	-1.950876e+001	4.616787e+001	-1.123415e+001	-1.056807e+001
4097053.726	-8.806549e+000	-1.285177e+002	-1.977643e+001	4.239057e+001	-1.988455e+001	4.302713e+001	-1.113517e+001	-1.449279e+001
4121490.468	-8.658519e+000	-1.322850e+002	-2.016131e+001	3.939613e+001	-2.027144e+001	4.010094e+001	-1.104481e+001	-1.840508e+001
4145927.210	-8.525707e+000	-1.360733e+002	-2.055665e+001	3.666471e+001	-2.066997e+001	3.740308e+001	-1.095865e+001	-2.230269e+001
4170363.951	-8.406421e+000	-1.398696e+002	-2.095501e+001	3.423452e+001	-2.108625e+001	3.505656e+001	-1.088045e+001	-2.618100e+001
4194800.693	-8.307053e+000	-1.437168e+002	-2.135985e+001	3.222272e+001	-2.149576e+001	3.308757e+001	-1.081391e+001	-3.008642e+001
4219237.435	-8.227371e+000	-1.475609e+002	-2.174776e+001	3.063392e+001	-2.188500e+001	3.158279e+001	-1.075799e+001	-3.395698e+001
4243674.177	-8.160949e+000	-1.513930e+002	-2.209762e+001	2.934675e+001	-2.222696e+001	3.043512e+001	-1.071160e+001	-3.778548e+001
4268110.919	-8.111540e+000	-1.552227e+002	-2.241798e+001	2.841395e+001	-2.254686e+001	2.953457e+001	-1.066619e+001	-4.159142e+001
4292547.660	-8.074454e+000	-1.590915e+002	-2.272730e+001	2.784211e+001	-2.283004e+001	2.905768e+001	-1.063018e+001	-4.540385e+001
4316984.402	-8.063697e+000	-1.629662e+002	-2.294747e+001	2.789306e+001	-2.304830e+001	2.917507e+001	-1.060468e+001	-4.923963e+001
4341421.144	-8.078735e+000	-1.667999e+002	-2.304282e+001	2.828033e+001	-2.313680e+001	2.954904e+001	-1.059756e+001	-5.301265e+001
4365857.886	-8.104484e+000	-1.705223e+002	-2.302295e+001	2.824228e+001	-2.309150e+001	2.957450e+001	-1.059537e+001	-5.665789e+001
4390294.627	-8.126916e+000	-1.741660e+002	-2.296921e+001	2.750552e+001	-2.303285e+001	2.888841e+001	-1.057691e+001	-6.020309e+001
4414731.369	-8.139590e+000	-1.779255e+002	-2.301835e+001	2.665425e+001	-2.305782e+001	2.805582e+001	-1.053408e+001	-6.382335e+001
4439168.111	-8.160561e+000	1.780898e+002	-2.313982e+001	2.653929e+001	-2.317879e+001	2.799566e+001	-1.047545e+001	-6.771366e+001
4463604.853	-8.211609e+000	1.738240e+002	-2.325273e+001	2.801823e+001	-2.326761e+001	2.947553e+001	-1.042730e+001	-7.191469e+001
4488041.594	-8.326749e+000	1.693026e+002	-2.311856e+001	3.127888e+001	-2.313512e+001	3.271984e+001	-1.041607e+001	-7.646123e+001
4512478.336	-8.535567e+000	1.646551e+002	-2.252108e+001	3.526662e+001	-2.251505e+001	3.667310e+001	-1.047962e+001	-8.129605e+001
4536915.078	-8.864281e+000	1.602246e+002	-2.140837e+001	3.742503e+001	-2.138800e+001	3.876293e+001	-1.065255e+001	-8.614503e+001
4561351.820	-9.285879e+000	1.564556e+002	-2.011881e+001	3.607292e+001	-2.008855e+001	3.731364e+001	-1.092463e+001	-9.057352e+001
4585788.562	-9.733203e+000	1.535419e+002	-1.896493e+001	3.185864e+001	-1.892533e+001	3.302731e+001	-1.124507e+001	-9.433072e+001
4610225.303	-1.014184e+001	1.513363e+002	-1.806161e+001	2.616826e+001	-1.801126e+001	2.723571e+001	-1.155883e+001	-9.742457e+001
4634662.045	-1.047472e+001	1.495118e+002	-1.740235e+001	1.996167e+001	-1.734022e+001	2.089313e+001	-1.181945e+001	-1.000519e+002
4659098.787	-1.073887e+001	1.476637e+002	-1.693677e+001	1.394680e+001	-1.686745e+001	1.479654e+001	-1.200574e+001	-1.025862e+002
4683535.529	-1.098107e+001	1.454791e+002	-1.658125e+001	8.613638e+000	-1.651429e+001	9.336372e+000	-1.214103e+001	-1.053956e+002
4707972.270	-1.126852e+001	1.429087e+002	-1.624938e+001	4.261915e+000	-1.615671e+001	4.511306e+000	-1.229158e+001	-1.085473e+002
4732409.012	-1.167567e+001	1.405507e+002	-1.577608e+001	2.235741e-001	-1.571684e+001	1.564158e-001	-1.251293e+001	-1.120849e+002
4756845.754	-1.216823e+001	1.391231e+002	-1.516737e+001	-4.417776e+000	-1.517478e+001	-4.644566e+000	-1.284727e+001	-1.154192e+002
4781282.496	-1.261446e+001	1.389081e+002	-1.454493e+001	-1.020918e+001	-1.463107e+001	-1.024192e+001	-1.323837e+001	-1.181169e+002
4805719.237	-1.290738e+001	1.393366e+002	-1.402585e+001	-1.677739e+001	-1.415528e+001	-1.633029e+001	-1.362465e+001	-1.202254e+002
4830155.979	-1.307064e+001	1.397365e+002	-1.360315e+001	-2.352946e+001	-1.371417e+001	-2.264084e+001	-1.401941e+001	-1.218483e+002
4854592.721	-1.313386e+001	1.399554e+002	-1.324405e+001	-3.036472e+001	-1.330936e+001	-2.916677e+001	-1.440169e+001	-1.229091e+002
4879029.463	-1.311265e+001	1.398696e+002	-1.293508e+001	-3.729052e+001	-1.294507e+001	-3.596895e+001	-1.474125e+001	-1.232720e+002
4903466.205	-1.302465e+001	1.393680e+002	-1.267071e+001	-4.428671e+001	-1.263795e+001	-4.306143e+001	-1.497960e+001	-1.229729e+002
4927902.946	-1.288907e+001	1.382965e+002	-1.245628e+001	-5.139667e+001	-1.239501e+001	-5.029231e+001	-1.507795e+001	-1.223924e+002
4952339.688	-1.274632e+001	1.365510e+002	-1.230009e+001	-5.852633e+001	-1.222044e+001	-5.750706e+001	-1.503258e+001	-1.220167e+002
4976776.430	-1.263282e+001	1.342770e+002	-1.218924e+001	-6.552193e+001	-1.210232e+001	-6.464854e+001	-1.488062e+001	-1.220710e+002
5001213.172	-1.255696e+001	1.315795e+002	-1.211481e+001	-7.243632e+001	-1.202780e+001	-7.165659e+001	-1.466240e+001	-1.227250e+002
5025649.913	-1.253113e+001	1.285725e+002	-1.207082e+001	-7.923192e+001	-1.198588e+001	-7.852356e+001	-1.441443e+001	-1.239423e+002
5050086.655	-1.255591e+001	1.253291e+002	-1.205150e+001	-8.592758e+001	-1.196749e+001	-8.526571e+001	-1.415854e+001	-1.256511e+002
5074523.397	-1.263249e+001	1.219211e+002	-1.205379e+001	-9.252824e+001	-1.196682e+001	-9.188367e+001	-1.390787e+001	-1.277710e+002
5098960.139	-1.276052e+001	1.184129e+002	-1.207059e+001	-9.902448e+001	-1.198347e+001	-9.841265e+001	-1.366779e+001	-1.302403e+002
5123396.880	-1.293780e+001	1.148096e+002	-1.210520e+001	-1.054432e+002	-1.201371e+001	-1.048645e+002	-1.344105e+001	-1.330282e+002
5147833.622	-1.316315e+001	1.111681e+002	-1.215048e+001	-1.117913e+002	-1.205686e+001	-1.112322e+002	-1.323267e+001	-1.360717e+002
5172270.364	-1.343574e+001	1.074638e+002	-1.220713e+001	-1.180891e+002	-1.211217e+001	-1.175635e+002	-1.303882e+001	-1.393541e+002
5196707.106	-1.375569e+001	1.037281e+002	-1.227531e+001	-1.243337e+002	-1.217845e+001	-1.238313e+002	-1.286690e+001	-1.428303e+002
5221143.847	-1.412575e+001	9.989673e+001	-1.235973e+001	-1.305301e+002	-1.225635e+001	-1.300423e+002	-1.271463e+001	-1.464785e+002
5245580.589	-1.454905e+001	9.605517e+001	-1.245059e+001	-1.366857e+002	-1.234564e+001	-1.362426e+002	-1.257677e+001	-1.503298e+002
5270017.331	-1.503235e+001	9.216346e+001	-1.255253e+001	-1.428004e+002	-1.244847e+001	-1.423804e+002	-1.246170e+001	-1.543586e+002
5294454.073	-1.557879e+001	8.822390e+001	-1.266681e+001	-1.488525e+002	-1.256050e+001	-1.484558e+002	-1.236902e+001	-1.585182e+002
5318890.815	-1.619030e+001	8.422534e+001	-1.278520e+001	-1.548566e+002	-1.268135e+001	-1.544904e+002	-1.229797e+001	-1.627990e+002
5343327.556	-1.687546e+001	8.013542e+001	-1.291018e+001	-1.608358e+002	-1.280921e+001	-1.605005e+002	-1.224409e+001	-1.671794e+002
5367764.298	-1.764601e+001	7.584476e+001	-1.304366e+001	-1.668124e+002	-1.294281e+001	-1.664955e+002	-1.220511e+001	-1.716498e+002
5392201.040	-1.851579e+001	7.129028e+001	-1.318677e+001	-1.727848e+002	-1.308923e+001	-1.724800e+002	-1.218184e+001	-1.762415e+002
5416637.782	-1.951917e+001	6.634860e+001	-1.334151e+001	-1.787281e+002	-1.324776e+001	-1.784424e+002	-1.217198e+001	1.790354e+002
5441074.523	-2.068080e+001	6.088849e+001	-1.350934e+001	1.753482e+002	-1.341882e+001	1.756241e+002	-1.218067e+001	1.742019e+002
