!Agilent Technologies,E5061B,MY49101568,A.02.00
!Date: Wed Mar 01 13:21:43 2023
!Data & Calibration Information:
!Freq	S11:SOLT2(OFF)	S21:SOLT2(OFF)	S12:SOLT2(OFF)	S22:SOLT2(OFF)
# Hz S dB R 50
1800000.000	-9.124894e+000	-1.618103e+001	-2.740108e+001	-1.275002e+002	-2.746180e+001	-1.273714e+002	-9.470373e+000	2.056322e+001
1824436.742	-9.198680e+000	-2.040423e+001	-2.702441e+001	-1.311652e+002	-2.710652e+001	-1.310390e+002	-9.571447e+000	1.684638e+001
1848873.484	-9.274826e+000	-2.472748e+001	-2.664256e+001	-1.349788e+002	-2.672904e+001	-1.347306e+002	-9.674758e+000	1.307485e+001
1873310.225	-9.350224e+000	-2.909167e+001	-2.625944e+001	-1.386750e+002	-2.633983e+001	-1.385250e+002	-9.771834e+000	9.280567e+000
1897746.967	-9.424008e+000	-3.353970e+001	-2.585602e+001	-1.425510e+002	-2.593550e+001	-1.423866e+002	-9.865985e+000	5.414969e+000
1922183.709	-9.498881e+000	-3.811255e+001	-2.544186e+001	-1.464668e+002	-2.552498e+001	-1.463644e+002	-9.956332e+000	1.443115e+000
1946620.451	-9.574023e+000	-4.279671e+001	-2.502451e+001	-1.504989e+002	-2.510409e+001	-1.503820e+002	-1.004189e+001	-2.611600e+000
1971057.192	-9.651814e+000	-4.761504e+001	-2.458990e+001	-1.546319e+002	-2.466397e+001	-1.544869e+002	-1.012727e+001	-6.774294e+000
1995493.934	-9.731094e+000	-5.254764e+001	-2.414352e+001	-1.588958e+002	-2.421123e+001	-1.586835e+002	-1.020917e+001	-1.101124e+001
2019930.676	-9.817788e+000	-5.761996e+001	-2.368860e+001	-1.632786e+002	-2.376859e+001	-1.630757e+002	-1.028642e+001	-1.531859e+001
2044367.418	-9.908145e+000	-6.284336e+001	-2.320270e+001	-1.678507e+002	-2.329106e+001	-1.676080e+002	-1.035431e+001	-1.979745e+001
2068804.159	-1.000626e+001	-6.821236e+001	-2.272219e+001	-1.725559e+002	-2.281634e+001	-1.722098e+002	-1.042427e+001	-2.434056e+001
2093240.901	-1.011323e+001	-7.373848e+001	-2.222477e+001	-1.775045e+002	-2.231154e+001	-1.772312e+002	-1.049582e+001	-2.896448e+001
2117677.643	-1.022520e+001	-7.945721e+001	-2.173431e+001	1.774427e+002	-2.182376e+001	1.777958e+002	-1.055805e+001	-3.370240e+001
2142114.385	-1.034857e+001	-8.536406e+001	-2.124696e+001	1.722239e+002	-2.133484e+001	1.726661e+002	-1.061121e+001	-3.855165e+001
2166551.127	-1.047568e+001	-9.146750e+001	-2.075416e+001	1.668802e+002	-2.084661e+001	1.673247e+002	-1.066324e+001	-4.354146e+001
2190987.868	-1.061887e+001	-9.777459e+001	-2.027159e+001	1.612907e+002	-2.035637e+001	1.617334e+002	-1.071085e+001	-4.863695e+001
2215424.610	-1.078225e+001	-1.042979e+002	-1.978988e+001	1.553821e+002	-1.986471e+001	1.558495e+002	-1.076276e+001	-5.386847e+001
2239861.352	-1.095647e+001	-1.110431e+002	-1.933127e+001	1.493933e+002	-1.940299e+001	1.499777e+002	-1.079364e+001	-5.920191e+001
2264298.094	-1.114062e+001	-1.180430e+002	-1.887922e+001	1.432882e+002	-1.894889e+001	1.438875e+002	-1.082349e+001	-6.465457e+001
2288734.835	-1.134358e+001	-1.252748e+002	-1.844249e+001	1.369575e+002	-1.851103e+001	1.376195e+002	-1.084895e+001	-7.022416e+001
2313171.577	-1.156582e+001	-1.327345e+002	-1.802474e+001	1.304502e+002	-1.808522e+001	1.310990e+002	-1.086991e+001	-7.590481e+001
2337608.319	-1.180735e+001	-1.404321e+002	-1.762768e+001	1.237421e+002	-1.767551e+001	1.244418e+002	-1.088314e+001	-8.168037e+001
2362045.061	-1.205285e+001	-1.483546e+002	-1.725988e+001	1.169814e+002	-1.730746e+001	1.177207e+002	-1.088084e+001	-8.755225e+001
2386481.802	-1.231682e+001	-1.565080e+002	-1.691730e+001	1.099734e+002	-1.695700e+001	1.107520e+002	-1.087554e+001	-9.353416e+001
2410918.544	-1.258337e+001	-1.649009e+002	-1.660523e+001	1.028414e+002	-1.663828e+001	1.036880e+002	-1.086027e+001	-9.962291e+001
2435355.286	-1.285577e+001	-1.734979e+002	-1.632180e+001	9.560192e+001	-1.634670e+001	9.648590e+001	-1.083375e+001	-1.058194e+002
2459792.028	-1.312545e+001	1.777123e+002	-1.607180e+001	8.829357e+001	-1.608728e+001	8.921114e+001	-1.080239e+001	-1.121285e+002
2484228.769	-1.337797e+001	1.687320e+002	-1.585753e+001	8.090206e+001	-1.585390e+001	8.178049e+001	-1.076810e+001	-1.185576e+002
2508665.511	-1.360731e+001	1.596066e+002	-1.568251e+001	7.355626e+001	-1.565919e+001	7.433342e+001	-1.072532e+001	-1.250658e+002
2533102.253	-1.379906e+001	1.503817e+002	-1.555019e+001	6.630187e+001	-1.549876e+001	6.681183e+001	-1.068090e+001	-1.316437e+002
2557538.995	-1.398169e+001	1.410956e+002	-1.544425e+001	5.888756e+001	-1.538008e+001	5.935185e+001	-1.062613e+001	-1.383221e+002
2581975.737	-1.412660e+001	1.318022e+002	-1.537063e+001	5.148010e+001	-1.529600e+001	5.189357e+001	-1.057269e+001	-1.450782e+002
2606412.478	-1.423699e+001	1.225594e+002	-1.533467e+001	4.413385e+001	-1.524469e+001	4.445220e+001	-1.052158e+001	-1.518854e+002
2630849.220	-1.430553e+001	1.134018e+002	-1.532736e+001	3.681656e+001	-1.523024e+001	3.710349e+001	-1.047215e+001	-1.587353e+002
2655285.962	-1.434051e+001	1.044022e+002	-1.535365e+001	2.960607e+001	-1.525237e+001	2.983143e+001	-1.042946e+001	-1.656051e+002
2679722.704	-1.433486e+001	9.556624e+001	-1.540838e+001	2.246222e+001	-1.530281e+001	2.265602e+001	-1.039610e+001	-1.724854e+002
2704159.445	-1.429540e+001	8.696084e+001	-1.549299e+001	1.548510e+001	-1.538430e+001	1.559710e+001	-1.036582e+001	-1.793188e+002
2728596.187	-1.422851e+001	7.858537e+001	-1.560150e+001	8.655740e+000	-1.549180e+001	8.701321e+000	-1.034572e+001	1.738881e+002
2753032.929	-1.413596e+001	7.050718e+001	-1.573501e+001	1.996667e+000	-1.562641e+001	1.949527e+000	-1.033632e+001	1.671586e+002
2777469.671	-1.402947e+001	6.270636e+001	-1.589290e+001	-4.539965e+000	-1.578319e+001	-4.644842e+000	-1.033742e+001	1.605360e+002
2801906.412	-1.390333e+001	5.518283e+001	-1.606419e+001	-1.091494e+001	-1.595180e+001	-1.108512e+001	-1.035073e+001	1.540235e+002
2826343.154	-1.376945e+001	4.796907e+001	-1.625147e+001	-1.710655e+001	-1.614126e+001	-1.735691e+001	-1.037358e+001	1.476363e+002
2850779.896	-1.362791e+001	4.103243e+001	-1.644915e+001	-2.312746e+001	-1.634852e+001	-2.343523e+001	-1.040255e+001	1.413883e+002
2875216.638	-1.348252e+001	3.437393e+001	-1.666457e+001	-2.899647e+001	-1.656178e+001	-2.931535e+001	-1.043977e+001	1.352871e+002
2899653.380	-1.333847e+001	2.797348e+001	-1.687852e+001	-3.466677e+001	-1.678310e+001	-3.504349e+001	-1.048854e+001	1.293528e+002
2924090.121	-1.319467e+001	2.183801e+001	-1.709934e+001	-4.020023e+001	-1.700614e+001	-4.062427e+001	-1.054380e+001	1.235911e+002
2948526.863	-1.304975e+001	1.592831e+001	-1.731945e+001	-4.554077e+001	-1.723586e+001	-4.601896e+001	-1.060470e+001	1.179666e+002
2972963.605	-1.290715e+001	1.025743e+001	-1.754307e+001	-5.072390e+001	-1.746916e+001	-5.120946e+001	-1.066400e+001	1.125129e+002
2997400.347	-1.276397e+001	4.785571e+000	-1.776385e+001	-5.572640e+001	-1.769999e+001	-5.623473e+001	-1.072686e+001	1.072060e+002
3021837.088	-1.262660e+001	-4.872188e-001	-1.797990e+001	-6.059891e+001	-1.792206e+001	-6.112944e+001	-1.079415e+001	1.020482e+002
3046273.830	-1.248936e+001	-5.596027e+000	-1.818687e+001	-6.533657e+001	-1.813911e+001	-6.587948e+001	-1.086195e+001	9.702316e+001
3070710.572	-1.235702e+001	-1.052555e+001	-1.838964e+001	-6.992116e+001	-1.834881e+001	-7.044336e+001	-1.092709e+001	9.213739e+001
3095147.314	-1.222822e+001	-1.530840e+001	-1.858298e+001	-7.439984e+001	-1.855493e+001	-7.489468e+001	-1.099215e+001	8.739120e+001
3119584.055	-1.210185e+001	-1.994424e+001	-1.876544e+001	-7.878011e+001	-1.875462e+001	-7.921044e+001	-1.105636e+001	8.276950e+001
3144020.797	-1.197592e+001	-2.444523e+001	-1.894458e+001	-8.297974e+001	-1.895440e+001	-8.335055e+001	-1.111297e+001	7.830645e+001
3168457.539	-1.185590e+001	-2.883398e+001	-1.911232e+001	-8.714147e+001	-1.912874e+001	-8.749640e+001	-1.117884e+001	7.391720e+001
3192894.281	-1.174055e+001	-3.311653e+001	-1.926625e+001	-9.121648e+001	-1.928946e+001	-9.155360e+001	-1.124241e+001	6.962827e+001
3217331.023	-1.162716e+001	-3.728647e+001	-1.940928e+001	-9.521654e+001	-1.944061e+001	-9.551907e+001	-1.130703e+001	6.544751e+001
3241767.764	-1.151922e+001	-4.135641e+001	-1.954150e+001	-9.918048e+001	-1.958215e+001	-9.944356e+001	-1.136992e+001	6.135768e+001
3266204.506	-1.141237e+001	-4.533544e+001	-1.966819e+001	-1.030303e+002	-1.971250e+001	-1.032947e+002	-1.143133e+001	5.735954e+001
3290641.248	-1.130576e+001	-4.923618e+001	-1.978138e+001	-1.067828e+002	-1.983218e+001	-1.070384e+002	-1.148605e+001	5.344170e+001
3315077.990	-1.120281e+001	-5.307201e+001	-1.987363e+001	-1.104488e+002	-1.993343e+001	-1.106365e+002	-1.153859e+001	4.958112e+001
3339514.731	-1.110488e+001	-5.687258e+001	-1.994260e+001	-1.141266e+002	-2.001754e+001	-1.142249e+002	-1.159145e+001	4.578276e+001
3363951.473	-1.101117e+001	-6.058693e+001	-2.000161e+001	-1.177483e+002	-2.008508e+001	-1.177908e+002	-1.164447e+001	4.205669e+001
3388388.215	-1.092210e+001	-6.426194e+001	-2.004794e+001	-1.213524e+002	-2.013829e+001	-1.213584e+002	-1.169956e+001	3.838434e+001
3412824.957	-1.083602e+001	-6.787262e+001	-2.008273e+001	-1.249266e+002	-2.017632e+001	-1.248703e+002	-1.175355e+001	3.478066e+001
3437261.698	-1.075767e+001	-7.143239e+001	-2.010149e+001	-1.285121e+002	-2.020032e+001	-1.283980e+002	-1.180808e+001	3.124155e+001
3461698.440	-1.068351e+001	-7.493919e+001	-2.010235e+001	-1.321139e+002	-2.021195e+001	-1.318927e+002	-1.186264e+001	2.776182e+001
3486135.182	-1.061618e+001	-7.839730e+001	-2.009122e+001	-1.357749e+002	-2.020974e+001	-1.354186e+002	-1.191784e+001	2.435078e+001
3510571.924	-1.055130e+001	-8.179660e+001	-2.007041e+001	-1.393378e+002	-2.019257e+001	-1.389537e+002	-1.197489e+001	2.101262e+001
3535008.666	-1.049148e+001	-8.513027e+001	-2.004079e+001	-1.429600e+002	-2.016386e+001	-1.424908e+002	-1.202990e+001	1.774406e+001
3559445.407	-1.043495e+001	-8.841646e+001	-1.999344e+001	-1.466019e+002	-2.012545e+001	-1.460358e+002	-1.208146e+001	1.453133e+001
3583882.149	-1.037818e+001	-9.165193e+001	-1.993312e+001	-1.501976e+002	-2.006724e+001	-1.495790e+002	-1.212860e+001	1.134870e+001
3608318.891	-1.031764e+001	-9.486112e+001	-1.985630e+001	-1.537247e+002	-1.998781e+001	-1.531076e+002	-1.217693e+001	8.204010e+000
3632755.633	-1.026183e+001	-9.805264e+001	-1.975750e+001	-1.574021e+002	-1.987998e+001	-1.567833e+002	-1.222852e+001	5.030386e+000
3657192.374	-1.020980e+001	-1.012362e+002	-1.964078e+001	-1.611434e+002	-1.976379e+001	-1.605565e+002	-1.228316e+001	1.931308e+000
3681629.116	-1.016492e+001	-1.043813e+002	-1.951379e+001	-1.650554e+002	-1.963059e+001	-1.644290e+002	-1.233913e+001	-1.138210e+000
3706065.858	-1.012407e+001	-1.075154e+002	-1.937819e+001	-1.690484e+002	-1.949618e+001	-1.684280e+002	-1.240047e+001	-4.144138e+000
3730502.600	-1.009085e+001	-1.106212e+002	-1.924325e+001	-1.731952e+002	-1.935471e+001	-1.725733e+002	-1.246501e+001	-7.097445e+000
3754939.341	-1.006062e+001	-1.137173e+002	-1.910506e+001	-1.773907e+002	-1.921553e+001	-1.767571e+002	-1.252683e+001	-1.001490e+001
3779376.083	-1.003848e+001	-1.168036e+002	-1.896190e+001	1.783550e+002	-1.906814e+001	1.790228e+002	-1.258951e+001	-1.289908e+001
3803812.825	-1.002524e+001	-1.198811e+002	-1.880965e+001	1.740126e+002	-1.891160e+001	1.747008e+002	-1.265753e+001	-1.576448e+001
3828249.567	-1.002645e+001	-1.229496e+002	-1.864022e+001	1.695381e+002	-1.874752e+001	1.702657e+002	-1.273316e+001	-1.860128e+001
3852686.308	-1.004173e+001	-1.259595e+002	-1.847460e+001	1.648923e+002	-1.857394e+001	1.656461e+002	-1.281979e+001	-2.138144e+001
3877123.050	-1.007159e+001	-1.289029e+002	-1.830666e+001	1.600483e+002	-1.840047e+001	1.608589e+002	-1.292002e+001	-2.406549e+001
3901559.792	-1.011723e+001	-1.317638e+002	-1.813907e+001	1.550090e+002	-1.823398e+001	1.558588e+002	-1.303125e+001	-2.662400e+001
3925996.534	-1.017756e+001	-1.345095e+002	-1.798156e+001	1.497643e+002	-1.806839e+001	1.506717e+002	-1.315214e+001	-2.904961e+001
3950433.276	-1.025043e+001	-1.371223e+002	-1.783462e+001	1.443446e+002	-1.791618e+001	1.452919e+002	-1.328147e+001	-3.127451e+001
3974870.017	-1.033025e+001	-1.395766e+002	-1.770393e+001	1.387433e+002	-1.778192e+001	1.396589e+002	-1.341473e+001	-3.328092e+001
3999306.759	-1.041561e+001	-1.418161e+002	-1.759449e+001	1.329121e+002	-1.766918e+001	1.338135e+002	-1.354491e+001	-3.503872e+001
4023743.501	-1.049817e+001	-1.437952e+002	-1.752132e+001	1.268087e+002	-1.758981e+001	1.277355e+002	-1.366158e+001	-3.648047e+001
4048180.243	-1.056663e+001	-1.455144e+002	-1.748995e+001	1.204905e+002	-1.755277e+001	1.214262e+002	-1.375013e+001	-3.760543e+001
4072616.984	-1.060714e+001	-1.470067e+002	-1.750704e+001	1.140283e+002	-1.757136e+001	1.149265e+002	-1.379137e+001	-3.843719e+001
4097053.726	-1.060140e+001	-1.482739e+002	-1.759076e+001	1.073996e+002	-1.765348e+001	1.083440e+002	-1.376718e+001	-3.910564e+001
4121490.468	-1.053770e+001	-1.494666e+002	-1.775279e+001	1.007544e+002	-1.781820e+001	1.017116e+002	-1.366165e+001	-3.968561e+001
4145927.210	-1.040955e+001	-1.507288e+002	-1.800151e+001	9.424765e+001	-1.806598e+001	9.516596e+001	-1.347901e+001	-4.038879e+001
4170363.951	-1.022209e+001	-1.521775e+002	-1.834198e+001	8.796223e+001	-1.842207e+001	8.879568e+001	-1.321297e+001	-4.134385e+001
4194800.693	-9.981308e+000	-1.540320e+002	-1.878685e+001	8.215531e+001	-1.886338e+001	8.302138e+001	-1.289850e+001	-4.286936e+001
4219237.435	-9.730453e+000	-1.563592e+002	-1.928393e+001	7.710965e+001	-1.935432e+001	7.803685e+001	-1.257265e+001	-4.499038e+001
4243674.177	-9.492360e+000	-1.590872e+002	-1.978950e+001	7.278558e+001	-1.984698e+001	7.380252e+001	-1.226696e+001	-4.755295e+001
4268110.919	-9.277599e+000	-1.621020e+002	-2.028768e+001	6.905138e+001	-2.033112e+001	7.017759e+001	-1.198652e+001	-5.040946e+001
4292547.660	-9.083625e+000	-1.653442e+002	-2.078581e+001	6.590847e+001	-2.081812e+001	6.699941e+001	-1.172348e+001	-5.343702e+001
4316984.402	-8.918328e+000	-1.688139e+002	-2.125706e+001	6.354809e+001	-2.128767e+001	6.461143e+001	-1.148177e+001	-5.672257e+001
4341421.144	-8.789376e+000	-1.724766e+002	-2.164879e+001	6.191153e+001	-2.166950e+001	6.289297e+001	-1.127704e+001	-6.016189e+001
4365857.886	-8.707382e+000	-1.761561e+002	-2.188700e+001	6.042406e+001	-2.190644e+001	6.144917e+001	-1.111503e+001	-6.366054e+001
4390294.627	-8.648687e+000	-1.797826e+002	-2.205822e+001	5.863068e+001	-2.206288e+001	5.961254e+001	-1.097598e+001	-6.705147e+001
4414731.369	-8.591526e+000	1.766621e+002	-2.226415e+001	5.642376e+001	-2.227323e+001	5.733133e+001	-1.082756e+001	-7.030888e+001
4439168.111	-8.521674e+000	1.729567e+002	-2.257452e+001	5.457155e+001	-2.257635e+001	5.555860e+001	-1.065616e+001	-7.369097e+001
4463604.853	-8.450403e+000	1.690437e+002	-2.294998e+001	5.372267e+001	-2.295443e+001	5.496435e+001	-1.046061e+001	-7.727562e+001
4488041.594	-8.400563e+000	1.647330e+002	-2.325045e+001	5.485197e+001	-2.323861e+001	5.619700e+001	-1.026854e+001	-8.121364e+001
4512478.336	-8.410545e+000	1.600584e+002	-2.320789e+001	5.754437e+001	-2.317710e+001	5.902215e+001	-1.011113e+001	-8.556796e+001
4536915.078	-8.507714e+000	1.552089e+002	-2.269534e+001	5.988307e+001	-2.263981e+001	6.126233e+001	-1.002035e+001	-9.016316e+001
4561351.820	-8.689718e+000	1.504972e+002	-2.190357e+001	5.989983e+001	-2.182836e+001	6.118720e+001	-1.000206e+001	-9.473351e+001
4585788.562	-8.929294e+000	1.460706e+002	-2.110876e+001	5.761205e+001	-2.102478e+001	5.880712e+001	-1.003408e+001	-9.910445e+001
4610225.303	-9.196063e+000	1.419098e+002	-2.042146e+001	5.400060e+001	-2.033179e+001	5.509436e+001	-1.008763e+001	-1.032549e+002
4634662.045	-9.478882e+000	1.379424e+002	-1.985790e+001	4.969487e+001	-1.976104e+001	5.059757e+001	-1.015083e+001	-1.072195e+002
4659098.787	-9.763007e+000	1.341833e+002	-1.942915e+001	4.495069e+001	-1.931736e+001	4.587935e+001	-1.020526e+001	-1.110456e+002
4683535.529	-1.004362e+001	1.303962e+002	-1.908169e+001	4.040121e+001	-1.897751e+001	4.119922e+001	-1.024308e+001	-1.148139e+002
4707972.270	-1.031868e+001	1.264956e+002	-1.881755e+001	3.630013e+001	-1.868057e+001	3.686434e+001	-1.026496e+001	-1.186574e+002
4732409.012	-1.062612e+001	1.223068e+002	-1.851690e+001	3.260828e+001	-1.837830e+001	3.295166e+001	-1.027573e+001	-1.227471e+002
4756845.754	-1.100689e+001	1.179304e+002	-1.812331e+001	2.891039e+001	-1.799146e+001	2.909309e+001	-1.031215e+001	-1.271211e+002
4781282.496	-1.147180e+001	1.136274e+002	-1.766860e+001	2.467766e+001	-1.755939e+001	2.474275e+001	-1.039104e+001	-1.316016e+002
4805719.237	-1.199556e+001	1.095765e+002	-1.723380e+001	1.980111e+001	-1.714793e+001	1.986432e+001	-1.050434e+001	-1.360426e+002
4830155.979	-1.256528e+001	1.057053e+002	-1.684187e+001	1.461818e+001	-1.676989e+001	1.479047e+001	-1.063379e+001	-1.404757e+002
4854592.721	-1.317485e+001	1.019099e+002	-1.649131e+001	9.383439e+000	-1.641752e+001	9.583662e+000	-1.078149e+001	-1.449609e+002
4879029.463	-1.384843e+001	9.818012e+001	-1.615368e+001	4.060367e+000	-1.607330e+001	4.246758e+000	-1.095459e+001	-1.495050e+002
4903466.205	-1.459426e+001	9.463624e+001	-1.582869e+001	-1.438213e+000	-1.574463e+001	-1.291775e+000	-1.115806e+001	-1.540787e+002
4927902.946	-1.541774e+001	9.134491e+001	-1.552151e+001	-7.110244e+000	-1.544072e+001	-7.023516e+000	-1.139062e+001	-1.586228e+002
4952339.688	-1.631608e+001	8.825293e+001	-1.524645e+001	-1.289576e+001	-1.516649e+001	-1.290283e+001	-1.165069e+001	-1.631539e+002
4976776.430	-1.730571e+001	8.564534e+001	-1.499256e+001	-1.884800e+001	-1.492374e+001	-1.891529e+001	-1.193573e+001	-1.675862e+002
5001213.172	-1.838030e+001	8.348134e+001	-1.477291e+001	-2.489498e+001	-1.471229e+001	-2.499045e+001	-1.224283e+001	-1.719630e+002
5025649.913	-1.955072e+001	8.180698e+001	-1.458070e+001	-3.098423e+001	-1.452940e+001	-3.107062e+001	-1.256910e+001	-1.762960e+002
5050086.655	-2.084255e+001	8.073128e+001	-1.441930e+001	-3.709722e+001	-1.437388e+001	-3.718811e+001	-1.291405e+001	1.794421e+002
5074523.397	-2.227063e+001	8.044425e+001	-1.428011e+001	-4.320453e+001	-1.424336e+001	-4.330525e+001	-1.327843e+001	1.752492e+002
5098960.139	-2.388114e+001	8.127908e+001	-1.416330e+001	-4.927924e+001	-1.413244e+001	-4.938999e+001	-1.365846e+001	1.710984e+002
5123396.880	-2.570949e+001	8.379563e+001	-1.406659e+001	-5.534537e+001	-1.404271e+001	-5.542530e+001	-1.405469e+001	1.669759e+002
5147833.622	-2.779253e+001	8.916734e+001	-1.398867e+001	-6.136040e+001	-1.396956e+001	-6.142843e+001	-1.446592e+001	1.628916e+002
5172270.364	-3.005985e+001	9.956262e+001	-1.392347e+001	-6.734326e+001	-1.391119e+001	-6.741441e+001	-1.489633e+001	1.588896e+002
5196707.106	-3.201617e+001	1.178187e+002	-1.387334e+001	-7.331589e+001	-1.386585e+001	-7.336782e+001	-1.534514e+001	1.549377e+002
5221143.847	-3.251580e+001	1.426810e+002	-1.383495e+001	-7.921002e+001	-1.383171e+001	-7.908924e+001	-1.579092e+001	1.508227e+002
5245580.589	-3.124409e+001	1.644567e+002	-1.380651e+001	-8.507920e+001	-1.380829e+001	-8.495055e+001	-1.627124e+001	1.469298e+002
5270017.331	-2.926539e+001	1.777926e+002	-1.378926e+001	-9.091245e+001	-1.379360e+001	-9.075699e+001	-1.676618e+001	1.430877e+002
5294454.073	-2.734593e+001	-1.749636e+002	-1.378178e+001	-9.671018e+001	-1.378784e+001	-9.652124e+001	-1.727531e+001	1.392795e+002
5318890.815	-2.567208e+001	-1.712148e+002	-1.378013e+001	-1.024613e+002	-1.378965e+001	-1.022450e+002	-1.780013e+001	1.355190e+002
5343327.556	-2.424077e+001	-1.695413e+002	-1.378284e+001	-1.081912e+002	-1.379519e+001	-1.079352e+002	-1.834152e+001	1.318125e+002
5367764.298	-2.301101e+001	-1.691814e+002	-1.378747e+001	-1.139029e+002	-1.380060e+001	-1.136155e+002	-1.890793e+001	1.281998e+002
5392201.040	-2.195513e+001	-1.696193e+002	-1.379614e+001	-1.196130e+002	-1.381106e+001	-1.193000e+002	-1.949427e+001	1.247389e+002
5416637.782	-2.104356e+001	-1.705984e+002	-1.380995e+001	-1.253121e+002	-1.382814e+001	-1.250119e+002	-2.009622e+001	1.214663e+002
5441074.523	-2.025460e+001	-1.719499e+002	-1.382777e+001	-1.310395e+002	-1.384659e+001	-1.307130e+002	-2.070575e+001	1.183619e+002
