!Agilent Technologies,E5061B,MY49101568,A.02.00
!Date: Wed Mar 01 13:16:55 2023
!Data & Calibration Information:
!Freq	S11:SOLT2(OFF)	S21:SOLT2(OFF)	S12:SOLT2(OFF)	S22:SOLT2(OFF)
# Hz S dB R 50
1800000.000	-9.587916e+000	-1.581609e+001	-2.372403e+001	-1.446148e+002	-2.372358e+001	-1.446281e+002	-9.986759e+000	2.067910e+001
1824436.742	-9.704280e+000	-2.001669e+001	-2.339304e+001	-1.485147e+002	-2.340033e+001	-1.485820e+002	-1.012812e+001	1.701226e+001
1848873.484	-9.826466e+000	-2.428979e+001	-2.304956e+001	-1.525587e+002	-2.306024e+001	-1.526086e+002	-1.027475e+001	1.330833e+001
1873310.225	-9.954757e+000	-2.861738e+001	-2.270083e+001	-1.566806e+002	-2.271511e+001	-1.567252e+002	-1.041897e+001	9.563330e+000
1897746.967	-1.008625e+001	-3.299636e+001	-2.233971e+001	-1.608568e+002	-2.235963e+001	-1.609233e+002	-1.056210e+001	5.768608e+000
1922183.709	-1.022257e+001	-3.749916e+001	-2.197883e+001	-1.651625e+002	-2.200325e+001	-1.652119e+002	-1.070348e+001	1.869950e+000
1946620.451	-1.036334e+001	-4.208988e+001	-2.160858e+001	-1.695737e+002	-2.163422e+001	-1.695970e+002	-1.084558e+001	-2.096525e+000
1971057.192	-1.050839e+001	-4.679215e+001	-2.124213e+001	-1.740470e+002	-2.127845e+001	-1.740807e+002	-1.098394e+001	-6.135312e+000
1995493.934	-1.066250e+001	-5.159612e+001	-2.086879e+001	-1.786361e+002	-2.091206e+001	-1.785945e+002	-1.112312e+001	-1.025784e+001
2019930.676	-1.082066e+001	-5.653150e+001	-2.050597e+001	1.767899e+002	-2.054028e+001	1.768734e+002	-1.125689e+001	-1.447551e+001
2044367.418	-1.099180e+001	-6.161790e+001	-2.011050e+001	1.721155e+002	-2.015681e+001	1.722746e+002	-1.138753e+001	-1.885608e+001
2068804.159	-1.117931e+001	-6.683709e+001	-1.970365e+001	1.673159e+002	-1.974795e+001	1.674777e+002	-1.152274e+001	-2.330837e+001
2093240.901	-1.137889e+001	-7.215275e+001	-1.928909e+001	1.623482e+002	-1.933421e+001	1.625035e+002	-1.166015e+001	-2.782324e+001
2117677.643	-1.159448e+001	-7.761193e+001	-1.888997e+001	1.571493e+002	-1.893898e+001	1.573380e+002	-1.179291e+001	-3.240401e+001
2142114.385	-1.182585e+001	-8.324316e+001	-1.848507e+001	1.518375e+002	-1.853484e+001	1.520690e+002	-1.191897e+001	-3.711212e+001
2166551.127	-1.207275e+001	-8.902790e+001	-1.808383e+001	1.463690e+002	-1.813013e+001	1.466555e+002	-1.204549e+001	-4.195097e+001
2190987.868	-1.233978e+001	-9.493503e+001	-1.769095e+001	1.406601e+002	-1.774278e+001	1.410093e+002	-1.216503e+001	-4.684043e+001
2215424.610	-1.262113e+001	-1.009868e+002	-1.732051e+001	1.347701e+002	-1.736214e+001	1.351688e+002	-1.228130e+001	-5.184432e+001
2239861.352	-1.291951e+001	-1.072402e+002	-1.696044e+001	1.287985e+002	-1.700345e+001	1.292144e+002	-1.238471e+001	-5.693367e+001
2264298.094	-1.322873e+001	-1.136845e+002	-1.662168e+001	1.226753e+002	-1.666241e+001	1.231455e+002	-1.247778e+001	-6.213847e+001
2288734.835	-1.355533e+001	-1.203325e+002	-1.630468e+001	1.164558e+002	-1.633702e+001	1.169789e+002	-1.255223e+001	-6.747470e+001
2313171.577	-1.388956e+001	-1.272486e+002	-1.600114e+001	1.102129e+002	-1.602915e+001	1.106880e+002	-1.261353e+001	-7.294977e+001
2337608.319	-1.424163e+001	-1.344051e+002	-1.571151e+001	1.038092e+002	-1.574245e+001	1.042829e+002	-1.266212e+001	-7.854603e+001
2362045.061	-1.459706e+001	-1.418347e+002	-1.544678e+001	9.737333e+001	-1.547828e+001	9.774916e+001	-1.269556e+001	-8.421841e+001
2386481.802	-1.494179e+001	-1.494914e+002	-1.521601e+001	9.077646e+001	-1.524934e+001	9.114003e+001	-1.269970e+001	-9.002988e+001
2410918.544	-1.527158e+001	-1.576279e+002	-1.500740e+001	8.424727e+001	-1.506375e+001	8.463490e+001	-1.266578e+001	-9.604700e+001
2435355.286	-1.558738e+001	-1.662134e+002	-1.481469e+001	7.772992e+001	-1.488342e+001	7.839525e+001	-1.259882e+001	-1.024282e+002
2459792.028	-1.590311e+001	-1.752604e+002	-1.462675e+001	7.119915e+001	-1.466152e+001	7.206443e+001	-1.254952e+001	-1.091776e+002
2484228.769	-1.621153e+001	1.752442e+002	-1.444393e+001	6.456060e+001	-1.444214e+001	6.543539e+001	-1.252188e+001	-1.160370e+002
2508665.511	-1.651346e+001	1.655510e+002	-1.427589e+001	5.773888e+001	-1.425227e+001	5.853826e+001	-1.249044e+001	-1.229185e+002
2533102.253	-1.676779e+001	1.556780e+002	-1.414297e+001	5.085805e+001	-1.411503e+001	5.151352e+001	-1.245123e+001	-1.297792e+002
2557538.995	-1.696375e+001	1.457535e+002	-1.404816e+001	4.382342e+001	-1.400716e+001	4.443887e+001	-1.240292e+001	-1.367294e+002
2581975.737	-1.707640e+001	1.357877e+002	-1.399581e+001	3.678072e+001	-1.394836e+001	3.737431e+001	-1.234262e+001	-1.437302e+002
2606412.478	-1.709504e+001	1.257696e+002	-1.398555e+001	2.985267e+001	-1.393267e+001	3.031747e+001	-1.227124e+001	-1.507399e+002
2630849.220	-1.703288e+001	1.158206e+002	-1.401366e+001	2.299711e+001	-1.395166e+001	2.345757e+001	-1.218361e+001	-1.578782e+002
2655285.962	-1.691414e+001	1.058349e+002	-1.405044e+001	1.633197e+001	-1.398486e+001	1.675335e+001	-1.210059e+001	-1.650935e+002
2679722.704	-1.675162e+001	9.607094e+001	-1.410465e+001	9.717143e+000	-1.403882e+001	1.008328e+001	-1.203098e+001	-1.723421e+002
2704159.445	-1.655730e+001	8.669797e+001	-1.418653e+001	3.103258e+000	-1.411543e+001	3.410234e+000	-1.197438e+001	-1.795011e+002
2728596.187	-1.633109e+001	7.768989e+001	-1.428993e+001	-3.395788e+000	-1.421859e+001	-3.141868e+000	-1.192266e+001	1.734203e+002
2753032.929	-1.606762e+001	6.913041e+001	-1.442859e+001	-9.756282e+000	-1.435483e+001	-9.545510e+000	-1.187672e+001	1.664692e+002
2777469.671	-1.579877e+001	6.090210e+001	-1.457756e+001	-1.598041e+001	-1.450677e+001	-1.583786e+001	-1.183641e+001	1.595992e+002
2801906.412	-1.552013e+001	5.306882e+001	-1.474668e+001	-2.202316e+001	-1.467667e+001	-2.193258e+001	-1.180652e+001	1.528558e+002
2826343.154	-1.524172e+001	4.561362e+001	-1.493415e+001	-2.791958e+001	-1.486660e+001	-2.788005e+001	-1.178143e+001	1.462975e+002
2850779.896	-1.496981e+001	3.848356e+001	-1.512662e+001	-3.366335e+001	-1.506603e+001	-3.367236e+001	-1.176814e+001	1.398744e+002
2875216.638	-1.470686e+001	3.171600e+001	-1.533181e+001	-3.927633e+001	-1.526993e+001	-3.928035e+001	-1.176233e+001	1.336050e+002
2899653.380	-1.445451e+001	2.524429e+001	-1.554218e+001	-4.469447e+001	-1.549077e+001	-4.474841e+001	-1.175998e+001	1.275562e+002
2924090.121	-1.421422e+001	1.904899e+001	-1.575244e+001	-4.994570e+001	-1.570687e+001	-5.006108e+001	-1.176933e+001	1.216433e+002
2948526.863	-1.398527e+001	1.314004e+001	-1.596910e+001	-5.508583e+001	-1.592741e+001	-5.522184e+001	-1.178328e+001	1.159233e+002
2972963.605	-1.376350e+001	7.493126e+000	-1.619038e+001	-6.005406e+001	-1.615599e+001	-6.022668e+001	-1.180050e+001	1.103994e+002
2997400.347	-1.355121e+001	2.053859e+000	-1.641437e+001	-6.485659e+001	-1.638546e+001	-6.505146e+001	-1.181819e+001	1.050377e+002
3021837.088	-1.334744e+001	-3.184389e+000	-1.662970e+001	-6.949068e+001	-1.660936e+001	-6.968992e+001	-1.183501e+001	9.980956e+001
3046273.830	-1.315298e+001	-8.251351e+000	-1.683582e+001	-7.398647e+001	-1.682403e+001	-7.419154e+001	-1.185546e+001	9.472514e+001
3070710.572	-1.296899e+001	-1.316155e+001	-1.703075e+001	-7.834294e+001	-1.702800e+001	-7.855089e+001	-1.188087e+001	8.975736e+001
3095147.314	-1.279428e+001	-1.791421e+001	-1.721618e+001	-8.259129e+001	-1.721870e+001	-8.282152e+001	-1.191017e+001	8.491384e+001
3119584.055	-1.263165e+001	-2.254713e+001	-1.738978e+001	-8.675842e+001	-1.739839e+001	-8.699334e+001	-1.194410e+001	8.022133e+001
3144020.797	-1.247791e+001	-2.701597e+001	-1.755116e+001	-9.086663e+001	-1.756881e+001	-9.111756e+001	-1.198122e+001	7.568448e+001
3168457.539	-1.233339e+001	-3.137491e+001	-1.770786e+001	-9.491416e+001	-1.773351e+001	-9.516755e+001	-1.202147e+001	7.125413e+001
3192894.281	-1.219495e+001	-3.560893e+001	-1.785551e+001	-9.889828e+001	-1.788600e+001	-9.914124e+001	-1.206072e+001	6.695116e+001
3217331.023	-1.206420e+001	-3.972890e+001	-1.799616e+001	-1.028309e+002	-1.803339e+001	-1.030557e+002	-1.210295e+001	6.275247e+001
3241767.764	-1.193968e+001	-4.374003e+001	-1.812913e+001	-1.067081e+002	-1.817460e+001	-1.069001e+002	-1.214303e+001	5.867661e+001
3266204.506	-1.181752e+001	-4.764941e+001	-1.825995e+001	-1.105037e+002	-1.831232e+001	-1.106996e+002	-1.218095e+001	5.472842e+001
3290641.248	-1.169801e+001	-5.148742e+001	-1.838205e+001	-1.141916e+002	-1.843584e+001	-1.143325e+002	-1.221193e+001	5.082185e+001
3315077.990	-1.158339e+001	-5.527368e+001	-1.848108e+001	-1.177916e+002	-1.853930e+001	-1.179074e+002	-1.224841e+001	4.697744e+001
3339514.731	-1.147675e+001	-5.900906e+001	-1.856370e+001	-1.214125e+002	-1.862790e+001	-1.215018e+002	-1.228951e+001	4.320780e+001
3363951.473	-1.137713e+001	-6.267726e+001	-1.863709e+001	-1.250182e+002	-1.870675e+001	-1.251066e+002	-1.233299e+001	3.953701e+001
3388388.215	-1.128514e+001	-6.627333e+001	-1.870093e+001	-1.286250e+002	-1.877552e+001	-1.286749e+002	-1.237589e+001	3.594102e+001
3412824.957	-1.119777e+001	-6.980404e+001	-1.875838e+001	-1.322173e+002	-1.883577e+001	-1.322351e+002	-1.242074e+001	3.243353e+001
3437261.698	-1.111622e+001	-7.327278e+001	-1.880418e+001	-1.357955e+002	-1.888729e+001	-1.357836e+002	-1.246523e+001	2.900714e+001
3461698.440	-1.103870e+001	-7.667859e+001	-1.884618e+001	-1.393587e+002	-1.893120e+001	-1.393082e+002	-1.251068e+001	2.565653e+001
3486135.182	-1.096828e+001	-8.002929e+001	-1.887903e+001	-1.429153e+002	-1.896402e+001	-1.428298e+002	-1.255671e+001	2.237736e+001
3510571.924	-1.090195e+001	-8.331715e+001	-1.890016e+001	-1.464755e+002	-1.899180e+001	-1.463520e+002	-1.260263e+001	1.919840e+001
3535008.666	-1.084031e+001	-8.653512e+001	-1.892247e+001	-1.500354e+002	-1.901198e+001	-1.498575e+002	-1.264415e+001	1.610432e+001
3559445.407	-1.077923e+001	-8.969643e+001	-1.893220e+001	-1.535820e+002	-1.902527e+001	-1.533713e+002	-1.268034e+001	1.310232e+001
3583882.149	-1.071852e+001	-9.279196e+001	-1.894031e+001	-1.570913e+002	-1.903521e+001	-1.568548e+002	-1.271109e+001	1.015665e+001
3608318.891	-1.065696e+001	-9.585258e+001	-1.893287e+001	-1.605736e+002	-1.902914e+001	-1.602962e+002	-1.273400e+001	7.251232e+000
3632755.633	-1.059785e+001	-9.889814e+001	-1.890708e+001	-1.641302e+002	-1.900240e+001	-1.637275e+002	-1.275293e+001	4.313220e+000
3657192.374	-1.054012e+001	-1.019160e+002	-1.886574e+001	-1.676679e+002	-1.896252e+001	-1.672712e+002	-1.277493e+001	1.435503e+000
3681629.116	-1.048748e+001	-1.048904e+002	-1.881977e+001	-1.713641e+002	-1.891145e+001	-1.709420e+002	-1.279905e+001	-1.388802e+000
3706065.858	-1.044045e+001	-1.078222e+002	-1.877410e+001	-1.751994e+002	-1.886718e+001	-1.747438e+002	-1.282559e+001	-4.119434e+000
3730502.600	-1.039284e+001	-1.106836e+002	-1.874482e+001	-1.791083e+002	-1.883093e+001	-1.786002e+002	-1.284267e+001	-6.792827e+000
3754939.341	-1.034301e+001	-1.134679e+002	-1.874339e+001	1.769603e+002	-1.882589e+001	1.775055e+002	-1.284667e+001	-9.341434e+000
3779376.083	-1.028740e+001	-1.161909e+002	-1.876028e+001	1.730529e+002	-1.885255e+001	1.736490e+002	-1.283298e+001	-1.181778e+001
3803812.825	-1.021047e+001	-1.188722e+002	-1.881965e+001	1.694780e+002	-1.889038e+001	1.700275e+002	-1.279670e+001	-1.431973e+001
3828249.567	-1.011682e+001	-1.216360e+002	-1.886899e+001	1.662568e+002	-1.895531e+001	1.668768e+002	-1.272118e+001	-1.690505e+001
3852686.308	-1.001314e+001	-1.245860e+002	-1.886384e+001	1.634939e+002	-1.894305e+001	1.641380e+002	-1.264597e+001	-1.980766e+001
3877123.050	-9.922441e+000	-1.277474e+002	-1.876874e+001	1.608224e+002	-1.885131e+001	1.614727e+002	-1.258814e+001	-2.290902e+001
3901559.792	-9.864108e+000	-1.310319e+002	-1.858853e+001	1.578361e+002	-1.866935e+001	1.585219e+002	-1.257032e+001	-2.614459e+001
3925996.534	-9.844814e+000	-1.343002e+002	-1.836970e+001	1.542696e+002	-1.844549e+001	1.550189e+002	-1.259734e+001	-2.930167e+001
3950433.276	-9.851490e+000	-1.374563e+002	-1.816582e+001	1.502574e+002	-1.823880e+001	1.510158e+002	-1.264797e+001	-3.226603e+001
3974870.017	-9.875070e+000	-1.404389e+002	-1.799784e+001	1.458880e+002	-1.807161e+001	1.466628e+002	-1.270737e+001	-3.497790e+001
3999306.759	-9.898908e+000	-1.432371e+002	-1.788755e+001	1.413761e+002	-1.796277e+001	1.421788e+002	-1.275554e+001	-3.746885e+001
4023743.501	-9.913452e+000	-1.459035e+002	-1.783065e+001	1.368382e+002	-1.789830e+001	1.376861e+002	-1.278442e+001	-3.979440e+001
4048180.243	-9.910235e+000	-1.485040e+002	-1.781575e+001	1.324803e+002	-1.788284e+001	1.333330e+002	-1.278114e+001	-4.201622e+001
4072616.984	-9.888703e+000	-1.511032e+002	-1.782890e+001	1.283858e+002	-1.789533e+001	1.292319e+002	-1.274585e+001	-4.427427e+001
4097053.726	-9.852902e+000	-1.537904e+002	-1.784703e+001	1.245984e+002	-1.791527e+001	1.254779e+002	-1.268158e+001	-4.663558e+001
4121490.468	-9.810083e+000	-1.566048e+002	-1.785266e+001	1.211146e+002	-1.791597e+001	1.220672e+002	-1.260186e+001	-4.919113e+001
4145927.210	-9.773848e+000	-1.595695e+002	-1.781511e+001	1.178372e+002	-1.787415e+001	1.188496e+002	-1.252315e+001	-5.193365e+001
4170363.951	-9.752196e+000	-1.626307e+002	-1.773810e+001	1.146558e+002	-1.779019e+001	1.156637e+002	-1.245495e+001	-5.478889e+001
4194800.693	-9.746298e+000	-1.657943e+002	-1.762382e+001	1.114654e+002	-1.766375e+001	1.124731e+002	-1.239999e+001	-5.779392e+001
4219237.435	-9.760221e+000	-1.690112e+002	-1.747488e+001	1.081675e+002	-1.750990e+001	1.091786e+002	-1.235855e+001	-6.084028e+001
4243674.177	-9.797419e+000	-1.722593e+002	-1.730030e+001	1.047284e+002	-1.732695e+001	1.057505e+002	-1.233239e+001	-6.393516e+001
4268110.919	-9.856899e+000	-1.754937e+002	-1.710220e+001	1.011177e+002	-1.712239e+001	1.021561e+002	-1.232262e+001	-6.705150e+001
4292547.660	-9.936795e+000	-1.787172e+002	-1.689567e+001	9.732065e+001	-1.690884e+001	9.834708e+001	-1.232807e+001	-7.015766e+001
4316984.402	-1.003882e+001	1.781036e+002	-1.668538e+001	9.334504e+001	-1.669160e+001	9.436309e+001	-1.234472e+001	-7.322859e+001
4341421.144	-1.015757e+001	1.749875e+002	-1.647417e+001	8.920669e+001	-1.647722e+001	9.021534e+001	-1.237016e+001	-7.627084e+001
4365857.886	-1.029154e+001	1.719565e+002	-1.627194e+001	8.490911e+001	-1.626895e+001	8.591570e+001	-1.240301e+001	-7.925733e+001
4390294.627	-1.044029e+001	1.689895e+002	-1.607847e+001	8.051739e+001	-1.607168e+001	8.150020e+001	-1.243990e+001	-8.221191e+001
4414731.369	-1.059741e+001	1.660920e+002	-1.589776e+001	7.602914e+001	-1.588391e+001	7.699126e+001	-1.247873e+001	-8.512869e+001
4439168.111	-1.076620e+001	1.632546e+002	-1.572411e+001	7.143284e+001	-1.570637e+001	7.244784e+001	-1.251544e+001	-8.805198e+001
4463604.853	-1.094355e+001	1.605010e+002	-1.556171e+001	6.682158e+001	-1.554004e+001	6.780140e+001	-1.255439e+001	-9.093302e+001
4488041.594	-1.112924e+001	1.578026e+002	-1.540789e+001	6.214415e+001	-1.538110e+001	6.313272e+001	-1.259304e+001	-9.382042e+001
4512478.336	-1.132263e+001	1.551476e+002	-1.526536e+001	5.745382e+001	-1.523170e+001	5.842135e+001	-1.263138e+001	-9.671408e+001
4536915.078	-1.152490e+001	1.525641e+002	-1.512849e+001	5.271938e+001	-1.508834e+001	5.364498e+001	-1.267286e+001	-9.960690e+001
4561351.820	-1.173508e+001	1.500314e+002	-1.499642e+001	4.794185e+001	-1.495409e+001	4.883864e+001	-1.271354e+001	-1.025059e+002
4585788.562	-1.194995e+001	1.475621e+002	-1.487822e+001	4.311289e+001	-1.483440e+001	4.399369e+001	-1.275099e+001	-1.054035e+002
4610225.303	-1.216520e+001	1.451323e+002	-1.477554e+001	3.827237e+001	-1.472381e+001	3.911049e+001	-1.278737e+001	-1.083191e+002
4634662.045	-1.238590e+001	1.427071e+002	-1.468335e+001	3.342684e+001	-1.462888e+001	3.423963e+001	-1.281751e+001	-1.112641e+002
4659098.787	-1.260847e+001	1.402834e+002	-1.460299e+001	2.860079e+001	-1.454723e+001	2.938755e+001	-1.284160e+001	-1.142611e+002
4683535.529	-1.283901e+001	1.378175e+002	-1.453212e+001	2.383101e+001	-1.447233e+001	2.458007e+001	-1.286376e+001	-1.173501e+002
4707972.270	-1.308069e+001	1.352816e+002	-1.447041e+001	1.914742e+001	-1.440837e+001	1.982068e+001	-1.288237e+001	-1.205130e+002
4732409.012	-1.334481e+001	1.326447e+002	-1.440609e+001	1.451310e+001	-1.434394e+001	1.514806e+001	-1.290080e+001	-1.238510e+002
4756845.754	-1.363755e+001	1.299700e+002	-1.433719e+001	9.924922e+000	-1.427734e+001	1.052226e+001	-1.292609e+001	-1.273241e+002
4781282.496	-1.396944e+001	1.272534e+002	-1.426390e+001	5.365959e+000	-1.419999e+001	5.934611e+000	-1.296866e+001	-1.309511e+002
4805719.237	-1.434080e+001	1.245778e+002	-1.417993e+001	7.911843e-001	-1.411548e+001	1.323556e+000	-1.302619e+001	-1.347043e+002
4830155.979	-1.475650e+001	1.219428e+002	-1.409069e+001	-3.800345e+000	-1.402574e+001	-3.307844e+000	-1.310470e+001	-1.385530e+002
4854592.721	-1.521833e+001	1.194473e+002	-1.399254e+001	-8.459802e+000	-1.392915e+001	-8.002240e+000	-1.320724e+001	-1.424841e+002
4879029.463	-1.572681e+001	1.171105e+002	-1.389204e+001	-1.318265e+001	-1.382744e+001	-1.277513e+001	-1.333330e+001	-1.464727e+002
4903466.205	-1.628075e+001	1.149696e+002	-1.379086e+001	-1.799578e+001	-1.373107e+001	-1.762625e+001	-1.347956e+001	-1.505073e+002
4927902.946	-1.687458e+001	1.130645e+002	-1.369774e+001	-2.290152e+001	-1.364166e+001	-2.256099e+001	-1.364711e+001	-1.545498e+002
4952339.688	-1.751248e+001	1.113983e+002	-1.361274e+001	-2.790362e+001	-1.355974e+001	-2.755047e+001	-1.383333e+001	-1.586378e+002
4976776.430	-1.819800e+001	1.100150e+002	-1.353867e+001	-3.293301e+001	-1.349017e+001	-3.260845e+001	-1.403614e+001	-1.626933e+002
5001213.172	-1.893607e+001	1.089156e+002	-1.347557e+001	-3.798183e+001	-1.343256e+001	-3.767679e+001	-1.425464e+001	-1.667959e+002
5025649.913	-1.973664e+001	1.081798e+002	-1.342547e+001	-4.306397e+001	-1.338518e+001	-4.278048e+001	-1.448654e+001	-1.709137e+002
5050086.655	-2.060967e+001	1.079147e+002	-1.338606e+001	-4.814816e+001	-1.334857e+001	-4.789177e+001	-1.473261e+001	-1.750696e+002
5074523.397	-2.155746e+001	1.082613e+002	-1.335798e+001	-5.325145e+001	-1.332387e+001	-5.300124e+001	-1.499454e+001	-1.792421e+002
5098960.139	-2.259897e+001	1.094417e+002	-1.334057e+001	-5.836058e+001	-1.331185e+001	-5.811179e+001	-1.526903e+001	1.765498e+002
5123396.880	-2.372510e+001	1.117372e+002	-1.333692e+001	-6.344688e+001	-1.331537e+001	-6.322049e+001	-1.555091e+001	1.723191e+002
5147833.622	-2.494272e+001	1.155364e+002	-1.334801e+001	-6.850282e+001	-1.333007e+001	-6.827188e+001	-1.583794e+001	1.680074e+002
5172270.364	-2.621380e+001	1.215929e+002	-1.336777e+001	-7.349398e+001	-1.335571e+001	-7.326440e+001	-1.613253e+001	1.635982e+002
5196707.106	-2.741664e+001	1.308502e+002	-1.339444e+001	-7.842375e+001	-1.338700e+001	-7.818588e+001	-1.643419e+001	1.590434e+002
5221143.847	-2.824546e+001	1.437978e+002	-1.342238e+001	-8.324990e+001	-1.342044e+001	-8.304296e+001	-1.675094e+001	1.543558e+002
5245580.589	-2.831660e+001	1.588364e+002	-1.345382e+001	-8.807325e+001	-1.345461e+001	-8.785245e+001	-1.708994e+001	1.495073e+002
5270017.331	-2.755635e+001	1.726611e+002	-1.348321e+001	-9.286827e+001	-1.348799e+001	-9.262946e+001	-1.744568e+001	1.445060e+002
5294454.073	-2.629321e+001	-1.770959e+002	-1.351457e+001	-9.763781e+001	-1.352423e+001	-9.739546e+001	-1.782014e+001	1.394173e+002
5318890.815	-2.488156e+001	-1.704831e+002	-1.354631e+001	-1.024075e+002	-1.356156e+001	-1.021475e+002	-1.820954e+001	1.342207e+002
5343327.556	-2.352102e+001	-1.665897e+002	-1.358397e+001	-1.071596e+002	-1.360118e+001	-1.068656e+002	-1.860959e+001	1.288912e+002
5367764.298	-2.227094e+001	-1.645762e+002	-1.362449e+001	-1.118919e+002	-1.364636e+001	-1.115703e+002	-1.901384e+001	1.234350e+002
5392201.040	-2.114539e+001	-1.637611e+002	-1.367076e+001	-1.165848e+002	-1.369453e+001	-1.162490e+002	-1.941913e+001	1.178338e+002
5416637.782	-2.013720e+001	-1.638402e+002	-1.371991e+001	-1.212738e+002	-1.374448e+001	-1.208926e+002	-1.982643e+001	1.120893e+002
5441074.523	-1.922631e+001	-1.644945e+002	-1.377113e+001	-1.259036e+002	-1.379782e+001	-1.255058e+002	-2.022537e+001	1.061495e+002
