!Agilent Technologies,E5061B,MY49101568,A.02.00
!Date: Wed Mar 01 13:23:43 2023
!Data & Calibration Information:
!Freq	S11:SOLT2(OFF)	S21:SOLT2(OFF)	S12:SOLT2(OFF)	S22:SOLT2(OFF)
# Hz S dB R 50
1800000.000	-1.292420e+001	-4.355406e+001	-1.211844e+001	-1.405192e+002	-1.213335e+001	-1.404977e+002	-1.393177e+001	-1.441816e+001
1824436.742	-1.379605e+001	-4.990452e+001	-1.161254e+001	-1.477300e+002	-1.163278e+001	-1.476438e+002	-1.489574e+001	-2.090820e+001
1848873.484	-1.486445e+001	-5.606162e+001	-1.115068e+001	-1.552954e+002	-1.117190e+001	-1.551630e+002	-1.608852e+001	-2.728761e+001
1873310.225	-1.616450e+001	-6.165067e+001	-1.075534e+001	-1.630709e+002	-1.076622e+001	-1.628918e+002	-1.753470e+001	-3.329173e+001
1897746.967	-1.771943e+001	-6.647587e+001	-1.041085e+001	-1.708852e+002	-1.041651e+001	-1.707619e+002	-1.929051e+001	-3.862275e+001
1922183.709	-1.964762e+001	-6.993616e+001	-1.011278e+001	-1.788404e+002	-1.011895e+001	-1.787410e+002	-2.149472e+001	-4.280976e+001
1946620.451	-2.207429e+001	-7.031924e+001	-9.869022e+000	1.730909e+002	-9.875897e+000	1.732050e+002	-2.435618e+001	-4.404838e+001
1971057.192	-2.497045e+001	-6.423608e+001	-9.684086e+000	1.650298e+002	-9.690646e+000	1.651597e+002	-2.809012e+001	-3.789929e+001
1995493.934	-2.763775e+001	-4.565241e+001	-9.552864e+000	1.570278e+002	-9.564259e+000	1.572496e+002	-3.189527e+001	-1.246213e+001
2019930.676	-2.771413e+001	-1.763841e+001	-9.478536e+000	1.491710e+002	-9.483613e+000	1.493965e+002	-3.113668e+001	2.772653e+001
2044367.418	-2.543238e+001	-6.644886e-001	-9.452632e+000	1.414680e+002	-9.456134e+000	1.417069e+002	-2.767215e+001	4.396458e+001
2068804.159	-2.313080e+001	4.211450e+000	-9.473292e+000	1.340632e+002	-9.477533e+000	1.342730e+002	-2.495083e+001	4.580704e+001
2093240.901	-2.136138e+001	3.275065e+000	-9.529627e+000	1.270250e+002	-9.532170e+000	1.272390e+002	-2.312278e+001	4.258347e+001
2117677.643	-2.011506e+001	1.226447e-002	-9.595580e+000	1.203504e+002	-9.591220e+000	1.206246e+002	-2.190878e+001	3.779033e+001
2142114.385	-1.921026e+001	-3.853887e+000	-9.642437e+000	1.139931e+002	-9.632300e+000	1.142200e+002	-2.103564e+001	3.272757e+001
2166551.127	-1.846284e+001	-8.134893e+000	-9.675502e+000	1.077077e+002	-9.665003e+000	1.079343e+002	-2.036797e+001	2.739496e+001
2190987.868	-1.786425e+001	-1.304357e+001	-9.714063e+000	1.015461e+002	-9.702548e+000	1.017664e+002	-1.985857e+001	2.153609e+001
2215424.610	-1.743599e+001	-1.832911e+001	-9.753439e+000	9.555113e+001	-9.740460e+000	9.581429e+001	-1.950572e+001	1.526664e+001
2239861.352	-1.715245e+001	-2.357678e+001	-9.774629e+000	8.978475e+001	-9.764457e+000	9.002996e+001	-1.930664e+001	8.834504e+000
2264298.094	-1.695518e+001	-2.872572e+001	-9.774849e+000	8.407581e+001	-9.766599e+000	8.430671e+001	-1.920079e+001	2.482219e+000
2288734.835	-1.682519e+001	-3.395437e+001	-9.761952e+000	7.839844e+001	-9.758041e+000	7.863776e+001	-1.917224e+001	-4.087827e+000
2313171.577	-1.676412e+001	-3.928604e+001	-9.742320e+000	7.274334e+001	-9.737785e+000	7.298784e+001	-1.921061e+001	-1.083317e+001
2337608.319	-1.677414e+001	-4.466525e+001	-9.713725e+000	6.711636e+001	-9.710824e+000	6.736791e+001	-1.931619e+001	-1.779864e+001
2362045.061	-1.685693e+001	-5.016720e+001	-9.678925e+000	6.151488e+001	-9.677659e+000	6.175339e+001	-1.948977e+001	-2.503727e+001
2386481.802	-1.702798e+001	-5.571664e+001	-9.633721e+000	5.590724e+001	-9.634501e+000	5.615464e+001	-1.972791e+001	-3.265959e+001
2410918.544	-1.727273e+001	-6.121023e+001	-9.581169e+000	5.028929e+001	-9.582485e+000	5.054153e+001	-2.003439e+001	-4.063833e+001
2435355.286	-1.759706e+001	-6.664700e+001	-9.521296e+000	4.464042e+001	-9.523043e+000	4.490117e+001	-2.040811e+001	-4.900278e+001
2459792.028	-1.800552e+001	-7.205048e+001	-9.456790e+000	3.892837e+001	-9.457222e+000	3.920104e+001	-2.083914e+001	-5.782889e+001
2484228.769	-1.850094e+001	-7.738460e+001	-9.392270e+000	3.311674e+001	-9.391653e+000	3.344261e+001	-2.132287e+001	-6.715940e+001
2508665.511	-1.909619e+001	-8.265755e+001	-9.328962e+000	2.728500e+001	-9.327764e+000	2.761524e+001	-2.186542e+001	-7.713137e+001
2533102.253	-1.981342e+001	-8.775716e+001	-9.270897e+000	2.141905e+001	-9.269588e+000	2.171387e+001	-2.244145e+001	-8.782491e+001
2557538.995	-2.066796e+001	-9.263357e+001	-9.221123e+000	1.546938e+001	-9.217684e+000	1.577227e+001	-2.302948e+001	-9.932293e+001
2581975.737	-2.169279e+001	-9.721840e+001	-9.180535e+000	9.475558e+000	-9.176299e+000	9.778897e+000	-2.362011e+001	-1.117995e+002
2606412.478	-2.292007e+001	-1.012572e+002	-9.155749e+000	3.454556e+000	-9.147969e+000	3.760478e+000	-2.415688e+001	-1.252177e+002
2630849.220	-2.442168e+001	-1.043532e+002	-9.138693e+000	-2.584691e+000	-9.134042e+000	-2.279734e+000	-2.459565e+001	-1.394696e+002
2655285.962	-2.625371e+001	-1.058033e+002	-9.140007e+000	-8.604100e+000	-9.131666e+000	-8.325064e+000	-2.491140e+001	-1.544931e+002
2679722.704	-2.850373e+001	-1.039555e+002	-9.152947e+000	-1.460288e+001	-9.144059e+000	-1.434087e+001	-2.505891e+001	-1.698198e+002
2704159.445	-3.115541e+001	-9.605617e+001	-9.177041e+000	-2.058149e+001	-9.167063e+000	-2.031591e+001	-2.504741e+001	1.750207e+002
2728596.187	-3.348444e+001	-7.639910e+001	-9.212357e+000	-2.651680e+001	-9.202515e+000	-2.625687e+001	-2.488842e+001	1.604030e+002
2753032.929	-3.352167e+001	-4.825196e+001	-9.258459e+000	-3.238802e+001	-9.247995e+000	-3.215363e+001	-2.462494e+001	1.466303e+002
2777469.671	-3.136750e+001	-2.915272e+001	-9.314079e+000	-3.822159e+001	-9.303572e+000	-3.798711e+001	-2.429967e+001	1.336701e+002
2801906.412	-2.891366e+001	-2.129984e+001	-9.374300e+000	-4.396474e+001	-9.365949e+000	-4.375229e+001	-2.397266e+001	1.217533e+002
2826343.154	-2.687912e+001	-1.930316e+001	-9.440754e+000	-4.965330e+001	-9.434211e+000	-4.945348e+001	-2.365682e+001	1.106255e+002
2850779.896	-2.525100e+001	-2.011140e+001	-9.509318e+000	-5.526204e+001	-9.506983e+000	-5.507984e+001	-2.338641e+001	1.003074e+002
2875216.638	-2.393745e+001	-2.251324e+001	-9.582749e+000	-6.083269e+001	-9.579563e+000	-6.064085e+001	-2.317816e+001	9.061927e+001
2899653.380	-2.286632e+001	-2.572150e+001	-9.654478e+000	-6.631337e+001	-9.653169e+000	-6.613383e+001	-2.302977e+001	8.147445e+001
2924090.121	-2.200314e+001	-2.937420e+001	-9.725564e+000	-7.175030e+001	-9.726630e+000	-7.157563e+001	-2.295455e+001	7.280586e+001
2948526.863	-2.128240e+001	-3.327384e+001	-9.795636e+000	-7.711739e+001	-9.799115e+000	-7.695746e+001	-2.293744e+001	6.453858e+001
2972963.605	-2.068285e+001	-3.727480e+001	-9.865367e+000	-8.244264e+001	-9.872109e+000	-8.227591e+001	-2.298053e+001	5.671122e+001
2997400.347	-2.017428e+001	-4.140294e+001	-9.929228e+000	-8.766945e+001	-9.937078e+000	-8.751182e+001	-2.306476e+001	4.895123e+001
3021837.088	-1.975692e+001	-4.566493e+001	-9.981765e+000	-9.286512e+001	-9.992001e+000	-9.270492e+001	-2.322082e+001	4.119388e+001
3046273.830	-1.943515e+001	-5.005538e+001	-1.002076e+001	-9.805972e+001	-1.003281e+001	-9.789209e+001	-2.346688e+001	3.323299e+001
3070710.572	-1.920797e+001	-5.442901e+001	-1.005209e+001	-1.032921e+002	-1.006435e+001	-1.031277e+002	-2.384493e+001	2.514932e+001
3095147.314	-1.906343e+001	-5.868036e+001	-1.007894e+001	-1.085634e+002	-1.009218e+001	-1.084020e+002	-2.436122e+001	1.695399e+001
3119584.055	-1.899290e+001	-6.284217e+001	-1.010305e+001	-1.138750e+002	-1.011676e+001	-1.136930e+002	-2.500400e+001	8.569232e+000
3144020.797	-1.897804e+001	-6.689052e+001	-1.012225e+001	-1.191454e+002	-1.013476e+001	-1.190342e+002	-2.581360e+001	-3.198988e-001
3168457.539	-1.905624e+001	-7.081412e+001	-1.013486e+001	-1.245374e+002	-1.014809e+001	-1.244288e+002	-2.682653e+001	-1.023830e+001
3192894.281	-1.921885e+001	-7.447167e+001	-1.014875e+001	-1.300280e+002	-1.016144e+001	-1.299197e+002	-2.812532e+001	-2.161497e+001
3217331.023	-1.946850e+001	-7.775582e+001	-1.016870e+001	-1.356119e+002	-1.018092e+001	-1.355028e+002	-2.980622e+001	-3.537722e+001
3241767.764	-1.978473e+001	-8.044030e+001	-1.020282e+001	-1.412596e+002	-1.021342e+001	-1.411539e+002	-3.189573e+001	-5.312538e+001
3266204.506	-2.014019e+001	-8.252885e+001	-1.025006e+001	-1.468711e+002	-1.026054e+001	-1.467859e+002	-3.410943e+001	-7.778384e+001
3290641.248	-2.052175e+001	-8.426123e+001	-1.029284e+001	-1.524395e+002	-1.030479e+001	-1.523643e+002	-3.505807e+001	-1.112980e+002
3315077.990	-2.099151e+001	-8.561973e+001	-1.031705e+001	-1.580685e+002	-1.032771e+001	-1.580219e+002	-3.342815e+001	-1.448130e+002
3339514.731	-2.159210e+001	-8.588799e+001	-1.034366e+001	-1.639228e+002	-1.035415e+001	-1.638891e+002	-3.065853e+001	-1.694554e+002
3363951.473	-2.225090e+001	-8.442985e+001	-1.039119e+001	-1.699529e+002	-1.040094e+001	-1.699379e+002	-2.797283e+001	1.728550e+002
3388388.215	-2.284871e+001	-8.080194e+001	-1.046518e+001	-1.760945e+002	-1.047584e+001	-1.761035e+002	-2.569692e+001	1.592214e+002
3412824.957	-2.321587e+001	-7.503330e+001	-1.056747e+001	1.776809e+002	-1.058010e+001	1.776318e+002	-2.375832e+001	1.477035e+002
3437261.698	-2.316886e+001	-6.783241e+001	-1.070631e+001	1.714173e+002	-1.072067e+001	1.713400e+002	-2.213037e+001	1.374323e+002
3461698.440	-2.262705e+001	-6.091271e+001	-1.088437e+001	1.651780e+002	-1.089941e+001	1.650678e+002	-2.075824e+001	1.279462e+002
3486135.182	-2.172320e+001	-5.565448e+001	-1.109446e+001	1.589931e+002	-1.111909e+001	1.588555e+002	-1.958395e+001	1.190392e+002
3510571.924	-2.062962e+001	-5.282480e+001	-1.134547e+001	1.529817e+002	-1.137427e+001	1.528114e+002	-1.860755e+001	1.105995e+002
3535008.666	-1.953683e+001	-5.208548e+001	-1.161932e+001	1.472041e+002	-1.165575e+001	1.470105e+002	-1.779990e+001	1.026737e+002
3559445.407	-1.853656e+001	-5.283029e+001	-1.190161e+001	1.416737e+002	-1.194431e+001	1.414842e+002	-1.712917e+001	9.536059e+001
3583882.149	-1.765051e+001	-5.439086e+001	-1.217488e+001	1.363420e+002	-1.222271e+001	1.361240e+002	-1.654668e+001	8.870398e+001
3608318.891	-1.684672e+001	-5.635843e+001	-1.243641e+001	1.310632e+002	-1.249280e+001	1.308406e+002	-1.601383e+001	8.255587e+001
3632755.633	-1.609700e+001	-5.862442e+001	-1.269665e+001	1.257313e+002	-1.276187e+001	1.255774e+002	-1.551050e+001	7.669456e+001
3657192.374	-1.538563e+001	-6.125686e+001	-1.297113e+001	1.204534e+002	-1.304218e+001	1.202777e+002	-1.502566e+001	7.100622e+001
3681629.116	-1.471126e+001	-6.421599e+001	-1.326726e+001	1.151968e+002	-1.334477e+001	1.150606e+002	-1.458347e+001	6.535441e+001
3706065.858	-1.408841e+001	-6.748368e+001	-1.358270e+001	1.100571e+002	-1.366537e+001	1.099590e+002	-1.418278e+001	5.977694e+001
3730502.600	-1.352237e+001	-7.100118e+001	-1.391009e+001	1.050989e+002	-1.399859e+001	1.050037e+002	-1.382818e+001	5.429022e+001
3754939.341	-1.301242e+001	-7.464491e+001	-1.424326e+001	1.003037e+002	-1.433887e+001	1.002493e+002	-1.351915e+001	4.893983e+001
3779376.083	-1.255035e+001	-7.833754e+001	-1.457606e+001	9.564450e+001	-1.467598e+001	9.563173e+001	-1.324521e+001	4.376061e+001
3803812.825	-1.212655e+001	-8.206470e+001	-1.490470e+001	9.109549e+001	-1.500669e+001	9.111338e+001	-1.299934e+001	3.878412e+001
3828249.567	-1.173501e+001	-8.577577e+001	-1.523320e+001	8.660466e+001	-1.534226e+001	8.664576e+001	-1.276723e+001	3.393758e+001
3852686.308	-1.136950e+001	-8.954715e+001	-1.557191e+001	8.222152e+001	-1.568470e+001	8.231241e+001	-1.256005e+001	2.918904e+001
3877123.050	-1.103381e+001	-9.331973e+001	-1.590912e+001	7.795027e+001	-1.602771e+001	7.808805e+001	-1.237031e+001	2.456157e+001
3901559.792	-1.072235e+001	-9.709377e+001	-1.624622e+001	7.377690e+001	-1.637251e+001	7.395504e+001	-1.219478e+001	2.005877e+001
3925996.534	-1.043432e+001	-1.008614e+002	-1.658586e+001	6.968091e+001	-1.671545e+001	6.992554e+001	-1.203172e+001	1.565227e+001
3950433.276	-1.016426e+001	-1.046278e+002	-1.693007e+001	6.566622e+001	-1.706334e+001	6.597816e+001	-1.187915e+001	1.133262e+001
3974870.017	-9.911936e+000	-1.084012e+002	-1.727696e+001	6.175240e+001	-1.741462e+001	6.214624e+001	-1.173779e+001	7.089213e+000
3999306.759	-9.678067e+000	-1.121700e+002	-1.763034e+001	5.792638e+001	-1.776923e+001	5.841617e+001	-1.160495e+001	2.914409e+000
4023743.501	-9.458159e+000	-1.159594e+002	-1.799467e+001	5.419845e+001	-1.812811e+001	5.476974e+001	-1.147814e+001	-1.193867e+000
4048180.243	-9.254867e+000	-1.197497e+002	-1.836718e+001	5.059652e+001	-1.849671e+001	5.124907e+001	-1.135798e+001	-5.270628e+000
4072616.984	-9.065722e+000	-1.235633e+002	-1.875291e+001	4.712722e+001	-1.887488e+001	4.785035e+001	-1.124266e+001	-9.296736e+000
4097053.726	-8.891890e+000	-1.273917e+002	-1.915177e+001	4.382141e+001	-1.926602e+001	4.461495e+001	-1.113488e+001	-1.331258e+001
4121490.468	-8.732315e+000	-1.312392e+002	-1.956516e+001	4.068974e+001	-1.967567e+001	4.157568e+001	-1.103381e+001	-1.730453e+001
4145927.210	-8.588538e+000	-1.351290e+002	-1.999353e+001	3.784129e+001	-2.009728e+001	3.879470e+001	-1.094040e+001	-2.128796e+001
4170363.951	-8.461902e+000	-1.390444e+002	-2.044750e+001	3.536334e+001	-2.052970e+001	3.630382e+001	-1.085336e+001	-2.524447e+001
4194800.693	-8.353745e+000	-1.430060e+002	-2.090536e+001	3.327946e+001	-2.096672e+001	3.435832e+001	-1.078518e+001	-2.924533e+001
4219237.435	-8.271180e+000	-1.469634e+002	-2.134088e+001	3.174240e+001	-2.137987e+001	3.285897e+001	-1.072839e+001	-3.320478e+001
4243674.177	-8.209243e+000	-1.509082e+002	-2.173674e+001	3.068283e+001	-2.174189e+001	3.178113e+001	-1.068485e+001	-3.710654e+001
4268110.919	-8.162277e+000	-1.548216e+002	-2.207995e+001	2.988293e+001	-2.206929e+001	3.087840e+001	-1.064316e+001	-4.096533e+001
4292547.660	-8.131658e+000	-1.587279e+002	-2.237592e+001	2.944181e+001	-2.236977e+001	3.035474e+001	-1.060471e+001	-4.482899e+001
4316984.402	-8.121526e+000	-1.626490e+002	-2.260948e+001	2.948938e+001	-2.260794e+001	3.030179e+001	-1.057773e+001	-4.869630e+001
4341421.144	-8.136522e+000	-1.665422e+002	-2.273251e+001	2.986665e+001	-2.272482e+001	3.063404e+001	-1.057082e+001	-5.253080e+001
4365857.886	-8.164136e+000	-1.703105e+002	-2.271969e+001	2.985468e+001	-2.272049e+001	3.077343e+001	-1.056951e+001	-5.625345e+001
4390294.627	-8.190639e+000	-1.740132e+002	-2.268007e+001	2.921546e+001	-2.268159e+001	3.015994e+001	-1.055409e+001	-5.984938e+001
4414731.369	-8.206961e+000	-1.777941e+002	-2.272133e+001	2.836764e+001	-2.272428e+001	2.937735e+001	-1.051178e+001	-6.350852e+001
4439168.111	-8.216178e+000	1.781748e+002	-2.291254e+001	2.803363e+001	-2.286654e+001	2.933048e+001	-1.045225e+001	-6.744902e+001
4463604.853	-8.263062e+000	1.738381e+002	-2.305857e+001	2.958898e+001	-2.297718e+001	3.074016e+001	-1.040212e+001	-7.167361e+001
4488041.594	-8.367383e+000	1.692199e+002	-2.298817e+001	3.289498e+001	-2.289226e+001	3.391918e+001	-1.038213e+001	-7.626728e+001
4512478.336	-8.570313e+000	1.644527e+002	-2.242909e+001	3.703120e+001	-2.234475e+001	3.793082e+001	-1.043489e+001	-8.116925e+001
4536915.078	-8.889985e+000	1.598432e+002	-2.136364e+001	3.951611e+001	-2.128170e+001	4.031789e+001	-1.059064e+001	-8.612869e+001
4561351.820	-9.309922e+000	1.558149e+002	-2.009168e+001	3.855782e+001	-2.002033e+001	3.931709e+001	-1.084620e+001	-9.074051e+001
4585788.562	-9.768869e+000	1.525816e+002	-1.894124e+001	3.475113e+001	-1.888500e+001	3.542090e+001	-1.115393e+001	-9.472092e+001
4610225.303	-1.021120e+001	1.500722e+002	-1.801441e+001	2.940493e+001	-1.797631e+001	3.003493e+001	-1.146078e+001	-9.811416e+001
4634662.045	-1.059495e+001	1.480298e+002	-1.732169e+001	2.344473e+001	-1.730502e+001	2.413629e+001	-1.172463e+001	-1.010921e+002
4659098.787	-1.091324e+001	1.460627e+002	-1.682116e+001	1.757867e+001	-1.680429e+001	1.837063e+001	-1.193482e+001	-1.039768e+002
4683535.529	-1.120207e+001	1.438551e+002	-1.644228e+001	1.228833e+001	-1.642025e+001	1.317040e+001	-1.209599e+001	-1.070526e+002
4707972.270	-1.152561e+001	1.413404e+002	-1.608352e+001	7.788050e+000	-1.610281e+001	8.937021e+000	-1.222362e+001	-1.106654e+002
4732409.012	-1.196697e+001	1.388566e+002	-1.561736e+001	3.729218e+000	-1.560989e+001	4.899223e+000	-1.247718e+001	-1.146860e+002
4756845.754	-1.250981e+001	1.372385e+002	-1.502690e+001	-8.520969e-001	-1.499457e+001	3.785601e-001	-1.286794e+001	-1.186379e+002
4781282.496	-1.303459e+001	1.368664e+002	-1.442498e+001	-6.486591e+000	-1.436326e+001	-5.254894e+000	-1.336870e+001	-1.218212e+002
4805719.237	-1.342590e+001	1.372780e+002	-1.391672e+001	-1.285368e+001	-1.382452e+001	-1.172850e+001	-1.388178e+001	-1.240008e+002
4830155.979	-1.369143e+001	1.378701e+002	-1.349924e+001	-1.937982e+001	-1.338408e+001	-1.844092e+001	-1.436240e+001	-1.255120e+002
4854592.721	-1.387144e+001	1.384633e+002	-1.313084e+001	-2.588732e+001	-1.301269e+001	-2.516935e+001	-1.480353e+001	-1.265650e+002
4879029.463	-1.395695e+001	1.390741e+002	-1.279022e+001	-3.252047e+001	-1.268810e+001	-3.195623e+001	-1.520262e+001	-1.270957e+002
4903466.205	-1.393617e+001	1.395116e+002	-1.248393e+001	-3.933789e+001	-1.239803e+001	-3.884777e+001	-1.555081e+001	-1.270360e+002
4927902.946	-1.382116e+001	1.394224e+002	-1.222968e+001	-4.632516e+001	-1.216313e+001	-4.583134e+001	-1.578243e+001	-1.265318e+002
4952339.688	-1.366207e+001	1.386234e+002	-1.202923e+001	-5.337912e+001	-1.198196e+001	-5.280374e+001	-1.588819e+001	-1.259496e+002
4976776.430	-1.349925e+001	1.371254e+002	-1.188122e+001	-6.039532e+001	-1.183818e+001	-5.978411e+001	-1.587889e+001	-1.253936e+002
5001213.172	-1.336566e+001	1.350427e+002	-1.177806e+001	-6.734026e+001	-1.173281e+001	-6.669463e+001	-1.576800e+001	-1.251749e+002
5025649.913	-1.327752e+001	1.325164e+002	-1.170993e+001	-7.418494e+001	-1.166026e+001	-7.352235e+001	-1.558361e+001	-1.254653e+002
5050086.655	-1.324488e+001	1.296791e+002	-1.166906e+001	-8.090513e+001	-1.161621e+001	-8.025089e+001	-1.535536e+001	-1.262878e+002
5074523.397	-1.326829e+001	1.266035e+002	-1.165371e+001	-8.752624e+001	-1.159628e+001	-8.689831e+001	-1.510470e+001	-1.276045e+002
5098960.139	-1.334428e+001	1.234043e+002	-1.165539e+001	-9.405311e+001	-1.159454e+001	-9.345368e+001	-1.484576e+001	-1.293935e+002
5123396.880	-1.347330e+001	1.200948e+002	-1.167382e+001	-1.004902e+002	-1.160909e+001	-9.992264e+001	-1.459423e+001	-1.315729e+002
5147833.622	-1.365309e+001	1.167389e+002	-1.170342e+001	-1.068467e+002	-1.163708e+001	-1.063211e+002	-1.435175e+001	-1.341035e+002
5172270.364	-1.388154e+001	1.133321e+002	-1.174735e+001	-1.131445e+002	-1.167922e+001	-1.126547e+002	-1.412540e+001	-1.369395e+002
5196707.106	-1.415774e+001	1.099048e+002	-1.179916e+001	-1.193857e+002	-1.173157e+001	-1.189487e+002	-1.391429e+001	-1.400478e+002
5221143.847	-1.448309e+001	1.064839e+002	-1.186129e+001	-1.255336e+002	-1.179781e+001	-1.252080e+002	-1.371895e+001	-1.433821e+002
5245580.589	-1.485941e+001	1.030158e+002	-1.193457e+001	-1.316877e+002	-1.187245e+001	-1.314059e+002	-1.354450e+001	-1.469443e+002
5270017.331	-1.529370e+001	9.953173e+001	-1.202111e+001	-1.377848e+002	-1.196041e+001	-1.375626e+002	-1.339245e+001	-1.507184e+002
5294454.073	-1.578314e+001	9.604444e+001	-1.211391e+001	-1.438504e+002	-1.205774e+001	-1.436755e+002	-1.326052e+001	-1.546706e+002
5318890.815	-1.633748e+001	9.255124e+001	-1.221516e+001	-1.498629e+002	-1.216342e+001	-1.497432e+002	-1.315212e+001	-1.587765e+002
5343327.556	-1.695764e+001	8.903187e+001	-1.232171e+001	-1.558626e+002	-1.227463e+001	-1.557789e+002	-1.306186e+001	-1.629962e+002
5367764.298	-1.765231e+001	8.541242e+001	-1.243527e+001	-1.618479e+002	-1.239620e+001	-1.618147e+002	-1.298610e+001	-1.673514e+002
5392201.040	-1.844605e+001	8.167806e+001	-1.255928e+001	-1.678302e+002	-1.252636e+001	-1.678417e+002	-1.292584e+001	-1.718440e+002
5416637.782	-1.935738e+001	7.773951e+001	-1.269581e+001	-1.738171e+002	-1.267111e+001	-1.738561e+002	-1.287886e+001	-1.764914e+002
5441074.523	-2.041831e+001	7.353667e+001	-1.284383e+001	-1.797831e+002	-1.282608e+001	-1.798486e+002	-1.285310e+001	1.787327e+002
