!Agilent Technologies,E5061B,MY49101568,A.02.00
!Date: Wed Mar 01 13:22:19 2023
!Data & Calibration Information:
!Freq	S11:SOLT2(OFF)	S21:SOLT2(OFF)	S12:SOLT2(OFF)	S22:SOLT2(OFF)
# Hz S dB R 50
1800000.000	-9.508095e+000	-1.685570e+001	-2.432015e+001	-1.342921e+002	-2.432125e+001	-1.343350e+002	-9.912461e+000	1.968833e+001
1824436.742	-9.614018e+000	-2.115923e+001	-2.395069e+001	-1.382278e+002	-2.395396e+001	-1.382557e+002	-1.004484e+001	1.590567e+001
1848873.484	-9.724556e+000	-2.555475e+001	-2.355938e+001	-1.423135e+002	-2.357592e+001	-1.422979e+002	-1.018115e+001	1.206734e+001
1873310.225	-9.842161e+000	-3.001103e+001	-2.316811e+001	-1.464446e+002	-2.318700e+001	-1.464534e+002	-1.031399e+001	8.200206e+000
1897746.967	-9.960437e+000	-3.453811e+001	-2.276634e+001	-1.506075e+002	-2.278702e+001	-1.506597e+002	-1.044706e+001	4.265218e+000
1922183.709	-1.008279e+001	-3.920292e+001	-2.235103e+001	-1.549344e+002	-2.238026e+001	-1.549855e+002	-1.057985e+001	2.063283e-001
1946620.451	-1.021265e+001	-4.397889e+001	-2.192980e+001	-1.593770e+002	-2.195967e+001	-1.593615e+002	-1.071150e+001	-3.933254e+000
1971057.192	-1.034791e+001	-4.889622e+001	-2.149888e+001	-1.638869e+002	-2.152807e+001	-1.638813e+002	-1.084621e+001	-8.169383e+000
1995493.934	-1.049394e+001	-5.391576e+001	-2.104798e+001	-1.685615e+002	-2.109920e+001	-1.684857e+002	-1.098274e+001	-1.249918e+001
2019930.676	-1.065206e+001	-5.908930e+001	-2.060801e+001	-1.733938e+002	-2.065262e+001	-1.732439e+002	-1.111653e+001	-1.688248e+001
2044367.418	-1.082087e+001	-6.438951e+001	-2.015533e+001	-1.783831e+002	-2.020017e+001	-1.781912e+002	-1.125137e+001	-2.145163e+001
2068804.159	-1.100337e+001	-6.980401e+001	-1.970200e+001	1.765039e+002	-1.974887e+001	1.767002e+002	-1.138657e+001	-2.605757e+001
2093240.901	-1.119705e+001	-7.536999e+001	-1.924609e+001	1.712247e+002	-1.929723e+001	1.713828e+002	-1.152095e+001	-3.073111e+001
2117677.643	-1.140683e+001	-8.110594e+001	-1.880532e+001	1.657784e+002	-1.885573e+001	1.659979e+002	-1.165395e+001	-3.549822e+001
2142114.385	-1.163480e+001	-8.702370e+001	-1.836489e+001	1.602114e+002	-1.841608e+001	1.604228e+002	-1.178131e+001	-4.038159e+001
2166551.127	-1.188308e+001	-9.310802e+001	-1.792187e+001	1.544667e+002	-1.797452e+001	1.547145e+002	-1.190876e+001	-4.536727e+001
2190987.868	-1.215248e+001	-9.935323e+001	-1.749401e+001	1.484956e+002	-1.754847e+001	1.487925e+002	-1.203227e+001	-5.045779e+001
2215424.610	-1.244275e+001	-1.057842e+002	-1.708339e+001	1.423432e+002	-1.713814e+001	1.427280e+002	-1.215053e+001	-5.563934e+001
2239861.352	-1.275151e+001	-1.124002e+002	-1.668742e+001	1.361059e+002	-1.674432e+001	1.365409e+002	-1.225493e+001	-6.092423e+001
2264298.094	-1.308191e+001	-1.192455e+002	-1.630728e+001	1.297240e+002	-1.636002e+001	1.302314e+002	-1.235521e+001	-6.634506e+001
2288734.835	-1.343355e+001	-1.263060e+002	-1.594570e+001	1.232159e+002	-1.599419e+001	1.237613e+002	-1.244493e+001	-7.184128e+001
2313171.577	-1.380328e+001	-1.335574e+002	-1.560174e+001	1.165933e+002	-1.564403e+001	1.171608e+002	-1.252370e+001	-7.745153e+001
2337608.319	-1.419267e+001	-1.410484e+002	-1.528278e+001	1.098493e+002	-1.531974e+001	1.104349e+002	-1.258975e+001	-8.316015e+001
2362045.061	-1.458798e+001	-1.487545e+002	-1.498848e+001	1.030150e+002	-1.501639e+001	1.035961e+002	-1.263903e+001	-8.895882e+001
2386481.802	-1.498723e+001	-1.567325e+002	-1.471950e+001	9.608470e+001	-1.474141e+001	9.668068e+001	-1.267083e+001	-9.489453e+001
2410918.544	-1.537996e+001	-1.649608e+002	-1.447778e+001	8.908602e+001	-1.449629e+001	8.970885e+001	-1.268205e+001	-1.009727e+002
2435355.286	-1.575926e+001	-1.735190e+002	-1.425903e+001	8.204560e+001	-1.426821e+001	8.266774e+001	-1.267335e+001	-1.071900e+002
2459792.028	-1.611823e+001	1.776506e+002	-1.406860e+001	7.496769e+001	-1.406904e+001	7.559524e+001	-1.265113e+001	-1.135531e+002
2484228.769	-1.644391e+001	1.685189e+002	-1.390486e+001	6.781992e+001	-1.389258e+001	6.847805e+001	-1.261453e+001	-1.200759e+002
2508665.511	-1.672298e+001	1.591354e+002	-1.376794e+001	6.068718e+001	-1.374625e+001	6.132318e+001	-1.256677e+001	-1.267168e+002
2533102.253	-1.694882e+001	1.495525e+002	-1.366064e+001	5.356819e+001	-1.362812e+001	5.415385e+001	-1.251012e+001	-1.334603e+002
2557538.995	-1.711206e+001	1.398231e+002	-1.357954e+001	4.643384e+001	-1.353989e+001	4.699036e+001	-1.244252e+001	-1.403411e+002
2581975.737	-1.720623e+001	1.299854e+002	-1.352662e+001	3.931284e+001	-1.348056e+001	3.985067e+001	-1.237193e+001	-1.473036e+002
2606412.478	-1.723275e+001	1.201620e+002	-1.350272e+001	3.224035e+001	-1.344787e+001	3.273476e+001	-1.229940e+001	-1.543486e+002
2630849.220	-1.718675e+001	1.104400e+002	-1.350653e+001	2.522824e+001	-1.344545e+001	2.567673e+001	-1.223006e+001	-1.614432e+002
2655285.962	-1.708082e+001	1.008946e+002	-1.353610e+001	1.830266e+001	-1.347110e+001	1.868438e+001	-1.216238e+001	-1.685534e+002
2679722.704	-1.692097e+001	9.158713e+001	-1.359031e+001	1.146459e+001	-1.352252e+001	1.179372e+001	-1.210285e+001	-1.756628e+002
2704159.445	-1.672169e+001	8.257263e+001	-1.366687e+001	4.725383e+000	-1.359650e+001	5.020417e+000	-1.204949e+001	1.772775e+002
2728596.187	-1.649423e+001	7.386425e+001	-1.376586e+001	-1.874618e+000	-1.369409e+001	-1.655676e+000	-1.200750e+001	1.702609e+002
2753032.929	-1.624295e+001	6.552170e+001	-1.388209e+001	-8.370984e+000	-1.381098e+001	-8.204008e+000	-1.197407e+001	1.633305e+002
2777469.671	-1.598430e+001	5.753974e+001	-1.401721e+001	-1.472449e+001	-1.394469e+001	-1.458833e+001	-1.195310e+001	1.565095e+002
2801906.412	-1.572385e+001	4.989322e+001	-1.416515e+001	-2.092183e+001	-1.409432e+001	-2.084991e+001	-1.194238e+001	1.498241e+002
2826343.154	-1.545754e+001	4.259776e+001	-1.432769e+001	-2.698452e+001	-1.425888e+001	-2.695448e+001	-1.194304e+001	1.432883e+002
2850779.896	-1.520151e+001	3.562211e+001	-1.449720e+001	-3.289678e+001	-1.443257e+001	-3.289198e+001	-1.195395e+001	1.369138e+002
2875216.638	-1.495401e+001	2.895972e+001	-1.467678e+001	-3.869137e+001	-1.461541e+001	-3.869511e+001	-1.197681e+001	1.306938e+002
2899653.380	-1.471496e+001	2.257785e+001	-1.485821e+001	-4.429453e+001	-1.480462e+001	-4.433839e+001	-1.200550e+001	1.246619e+002
2924090.121	-1.448841e+001	1.647335e+001	-1.504517e+001	-4.974754e+001	-1.499632e+001	-4.983459e+001	-1.204312e+001	1.188180e+002
2948526.863	-1.427058e+001	1.060963e+001	-1.523108e+001	-5.507141e+001	-1.518885e+001	-5.515708e+001	-1.208555e+001	1.131428e+002
2972963.605	-1.406270e+001	4.991604e+000	-1.541889e+001	-6.022722e+001	-1.538407e+001	-6.035378e+001	-1.213326e+001	1.076331e+002
2997400.347	-1.386413e+001	-4.246069e-001	-1.560210e+001	-6.524073e+001	-1.557439e+001	-6.539096e+001	-1.218406e+001	1.022853e+002
3021837.088	-1.367647e+001	-5.656560e+000	-1.577948e+001	-7.013768e+001	-1.575878e+001	-7.027805e+001	-1.223847e+001	9.708695e+001
3046273.830	-1.349893e+001	-1.071863e+001	-1.594728e+001	-7.491135e+001	-1.593497e+001	-7.505489e+001	-1.229634e+001	9.202888e+001
3070710.572	-1.333327e+001	-1.562695e+001	-1.610609e+001	-7.958083e+001	-1.610007e+001	-7.972852e+001	-1.236198e+001	8.710228e+001
3095147.314	-1.317742e+001	-2.037166e+001	-1.625659e+001	-8.417084e+001	-1.625923e+001	-8.431922e+001	-1.242962e+001	8.233183e+001
3119584.055	-1.302926e+001	-2.496559e+001	-1.640336e+001	-8.867409e+001	-1.640809e+001	-8.880698e+001	-1.249943e+001	7.769156e+001
3144020.797	-1.289118e+001	-2.944359e+001	-1.653427e+001	-9.305833e+001	-1.654940e+001	-9.323176e+001	-1.257208e+001	7.321334e+001
3168457.539	-1.276050e+001	-3.380598e+001	-1.665646e+001	-9.740669e+001	-1.667840e+001	-9.757692e+001	-1.264868e+001	6.881450e+001
3192894.281	-1.263968e+001	-3.805979e+001	-1.677102e+001	-1.017068e+002	-1.679726e+001	-1.018538e+002	-1.272506e+001	6.452606e+001
3217331.023	-1.252684e+001	-4.220774e+001	-1.686930e+001	-1.059579e+002	-1.690366e+001	-1.060848e+002	-1.280432e+001	6.036910e+001
3241767.764	-1.241962e+001	-4.623753e+001	-1.696570e+001	-1.101784e+002	-1.700255e+001	-1.102851e+002	-1.288636e+001	5.631952e+001
3266204.506	-1.231867e+001	-5.018435e+001	-1.705422e+001	-1.143356e+002	-1.709812e+001	-1.144215e+002	-1.296565e+001	5.237780e+001
3290641.248	-1.221760e+001	-5.405903e+001	-1.713288e+001	-1.183575e+002	-1.718181e+001	-1.184500e+002	-1.304065e+001	4.851414e+001
3315077.990	-1.212687e+001	-5.789434e+001	-1.718634e+001	-1.223584e+002	-1.723881e+001	-1.224146e+002	-1.311882e+001	4.465486e+001
3339514.731	-1.204617e+001	-6.168203e+001	-1.722099e+001	-1.263746e+002	-1.727989e+001	-1.263935e+002	-1.320656e+001	4.086253e+001
3363951.473	-1.197693e+001	-6.540718e+001	-1.724126e+001	-1.304451e+002	-1.730562e+001	-1.304181e+002	-1.330430e+001	3.715466e+001
3388388.215	-1.191730e+001	-6.905560e+001	-1.725082e+001	-1.345296e+002	-1.731902e+001	-1.344657e+002	-1.340707e+001	3.356172e+001
3412824.957	-1.186781e+001	-7.263250e+001	-1.725132e+001	-1.386287e+002	-1.732293e+001	-1.385431e+002	-1.351898e+001	3.004637e+001
3437261.698	-1.182921e+001	-7.614087e+001	-1.724744e+001	-1.427702e+002	-1.731719e+001	-1.426509e+002	-1.363654e+001	2.662493e+001
3461698.440	-1.179947e+001	-7.957471e+001	-1.723049e+001	-1.469427e+002	-1.730287e+001	-1.467975e+002	-1.376113e+001	2.334467e+001
3486135.182	-1.178125e+001	-8.290729e+001	-1.721103e+001	-1.511903e+002	-1.728563e+001	-1.510199e+002	-1.389336e+001	2.017660e+001
3510571.924	-1.176991e+001	-8.615338e+001	-1.718569e+001	-1.554476e+002	-1.726255e+001	-1.552586e+002	-1.402484e+001	1.714559e+001
3535008.666	-1.176380e+001	-8.929552e+001	-1.716307e+001	-1.597143e+002	-1.723933e+001	-1.595169e+002	-1.415880e+001	1.425649e+001
3559445.407	-1.176227e+001	-9.235911e+001	-1.713007e+001	-1.639780e+002	-1.721175e+001	-1.637431e+002	-1.428476e+001	1.146564e+001
3583882.149	-1.176151e+001	-9.534107e+001	-1.709034e+001	-1.682062e+002	-1.717222e+001	-1.679495e+002	-1.440542e+001	8.734469e+000
3608318.891	-1.176857e+001	-9.828210e+001	-1.702642e+001	-1.724934e+002	-1.711030e+001	-1.721916e+002	-1.453271e+001	6.046479e+000
3632755.633	-1.178179e+001	-1.011688e+002	-1.694592e+001	-1.768840e+002	-1.702603e+001	-1.765601e+002	-1.468113e+001	3.439551e+000
3657192.374	-1.180630e+001	-1.039630e+002	-1.685654e+001	1.785892e+002	-1.693671e+001	1.789281e+002	-1.483318e+001	1.003647e+000
3681629.116	-1.184016e+001	-1.066404e+002	-1.676514e+001	1.738926e+002	-1.684173e+001	1.742445e+002	-1.499556e+001	-1.240020e+000
3706065.858	-1.188156e+001	-1.091914e+002	-1.667551e+001	1.690544e+002	-1.675422e+001	1.694050e+002	-1.515321e+001	-3.222841e+000
3730502.600	-1.192212e+001	-1.116098e+002	-1.659885e+001	1.640928e+002	-1.667832e+001	1.644562e+002	-1.530134e+001	-4.971197e+000
3754939.341	-1.196386e+001	-1.139098e+002	-1.653323e+001	1.590645e+002	-1.661174e+001	1.594390e+002	-1.543180e+001	-6.546488e+000
3779376.083	-1.200607e+001	-1.160795e+002	-1.647154e+001	1.539432e+002	-1.654898e+001	1.543379e+002	-1.554475e+001	-7.956559e+000
3803812.825	-1.205184e+001	-1.181474e+002	-1.640759e+001	1.487486e+002	-1.649054e+001	1.491612e+002	-1.564043e+001	-9.210355e+000
3828249.567	-1.209462e+001	-1.199980e+002	-1.635895e+001	1.433952e+002	-1.643912e+001	1.437963e+002	-1.571873e+001	-1.021954e+001
3852686.308	-1.212999e+001	-1.216716e+002	-1.632218e+001	1.378995e+002	-1.640578e+001	1.383276e+002	-1.576585e+001	-1.104405e+001
3877123.050	-1.214753e+001	-1.231198e+002	-1.630749e+001	1.322592e+002	-1.639173e+001	1.327111e+002	-1.577165e+001	-1.165427e+001
3901559.792	-1.213750e+001	-1.244040e+002	-1.631671e+001	1.265120e+002	-1.640071e+001	1.270018e+002	-1.572498e+001	-1.215319e+001
3925996.534	-1.209339e+001	-1.255495e+002	-1.635589e+001	1.206846e+002	-1.643717e+001	1.211945e+002	-1.562360e+001	-1.259282e+001
3950433.276	-1.200733e+001	-1.266144e+002	-1.642782e+001	1.147955e+002	-1.650598e+001	1.152951e+002	-1.546432e+001	-1.303815e+001
3974870.017	-1.187622e+001	-1.276615e+002	-1.653373e+001	1.088376e+002	-1.661119e+001	1.093211e+002	-1.524034e+001	-1.362436e+001
3999306.759	-1.170024e+001	-1.287860e+002	-1.667866e+001	1.028926e+002	-1.675592e+001	1.033705e+002	-1.496594e+001	-1.443913e+001
4023743.501	-1.148048e+001	-1.300499e+002	-1.686285e+001	9.695442e+001	-1.694533e+001	9.740666e+001	-1.464317e+001	-1.555148e+001
4048180.243	-1.122476e+001	-1.315310e+002	-1.709089e+001	9.107551e+001	-1.717953e+001	9.150088e+001	-1.429232e+001	-1.701760e+001
4072616.984	-1.094052e+001	-1.332703e+002	-1.736918e+001	8.526680e+001	-1.747003e+001	8.570252e+001	-1.391649e+001	-1.886235e+001
4097053.726	-1.063610e+001	-1.353241e+002	-1.769930e+001	7.960188e+001	-1.780600e+001	8.008021e+001	-1.353867e+001	-2.109200e+001
4121490.468	-1.032544e+001	-1.376962e+002	-1.808140e+001	7.416962e+001	-1.819791e+001	7.470358e+001	-1.316622e+001	-2.368576e+001
4145927.210	-1.001700e+001	-1.404037e+002	-1.852027e+001	6.905916e+001	-1.864238e+001	6.963529e+001	-1.280682e+001	-2.660669e+001
4170363.951	-9.726010e+000	-1.434195e+002	-1.899805e+001	6.441976e+001	-1.912814e+001	6.505619e+001	-1.247537e+001	-2.982030e+001
4194800.693	-9.456715e+000	-1.467372e+002	-1.952445e+001	6.031393e+001	-1.966143e+001	6.104872e+001	-1.217106e+001	-3.333147e+001
4219237.435	-9.225052e+000	-1.502867e+002	-2.005662e+001	5.691559e+001	-2.018992e+001	5.775542e+001	-1.191051e+001	-3.700594e+001
4243674.177	-9.032045e+000	-1.539676e+002	-2.056331e+001	5.411601e+001	-2.068694e+001	5.511008e+001	-1.168826e+001	-4.076746e+001
4268110.919	-8.871113e+000	-1.577018e+002	-2.102637e+001	5.177147e+001	-2.113890e+001	5.276500e+001	-1.149647e+001	-4.449594e+001
4292547.660	-8.735138e+000	-1.615053e+002	-2.147373e+001	4.981191e+001	-2.156970e+001	5.087432e+001	-1.132174e+001	-4.825978e+001
4316984.402	-8.628284e+000	-1.654050e+002	-2.187692e+001	4.856355e+001	-2.196569e+001	4.966929e+001	-1.116825e+001	-5.211991e+001
4341421.144	-8.557564e+000	-1.693398e+002	-2.217377e+001	4.783474e+001	-2.224340e+001	4.894111e+001	-1.104779e+001	-5.596668e+001
4365857.886	-8.520862e+000	-1.732004e+002	-2.232959e+001	4.707891e+001	-2.238806e+001	4.812065e+001	-1.095245e+001	-5.970308e+001
4390294.627	-8.494102e+000	-1.769328e+002	-2.242922e+001	4.572401e+001	-2.249277e+001	4.678575e+001	-1.085833e+001	-6.330362e+001
4414731.369	-8.458520e+000	1.793337e+002	-2.259256e+001	4.404627e+001	-2.265622e+001	4.507927e+001	-1.074482e+001	-6.682282e+001
4439168.111	-8.413505e+000	1.754420e+002	-2.287166e+001	4.276237e+001	-2.293543e+001	4.390699e+001	-1.060431e+001	-7.049771e+001
4463604.853	-8.380500e+000	1.712348e+002	-2.318425e+001	4.301582e+001	-2.325612e+001	4.431000e+001	-1.045252e+001	-7.446705e+001
4488041.594	-8.386696e+000	1.666991e+002	-2.335302e+001	4.514404e+001	-2.340903e+001	4.665590e+001	-1.031831e+001	-7.881101e+001
4512478.336	-8.461899e+000	1.618698e+002	-2.314897e+001	4.860053e+001	-2.315875e+001	5.027405e+001	-1.023200e+001	-8.350024e+001
4536915.078	-8.636593e+000	1.570106e+002	-2.242353e+001	5.115521e+001	-2.239636e+001	5.281903e+001	-1.022845e+001	-8.836129e+001
4561351.820	-8.900599e+000	1.524207e+002	-2.144700e+001	5.095427e+001	-2.138460e+001	5.248498e+001	-1.030208e+001	-9.307411e+001
4585788.562	-9.213923e+000	1.482405e+002	-2.050992e+001	4.828373e+001	-2.042795e+001	4.964016e+001	-1.042348e+001	-9.747074e+001
4610225.303	-9.550826e+000	1.445057e+002	-1.972217e+001	4.400343e+001	-1.962843e+001	4.534124e+001	-1.056438e+001	-1.015500e+002
4634662.045	-9.879171e+000	1.410516e+002	-1.911525e+001	3.910555e+001	-1.899674e+001	4.028581e+001	-1.070265e+001	-1.053452e+002
4659098.787	-1.019386e+001	1.377455e+002	-1.865244e+001	3.404138e+001	-1.852078e+001	3.505691e+001	-1.081961e+001	-1.089641e+002
4683535.529	-1.049095e+001	1.343989e+002	-1.830316e+001	2.923896e+001	-1.816081e+001	3.004471e+001	-1.090460e+001	-1.125558e+002
4707972.270	-1.077733e+001	1.308178e+002	-1.803892e+001	2.507614e+001	-1.785854e+001	2.559934e+001	-1.096010e+001	-1.163138e+002
4732409.012	-1.113990e+001	1.269161e+002	-1.767975e+001	2.142035e+001	-1.750754e+001	2.161750e+001	-1.102686e+001	-1.204641e+002
4756845.754	-1.160589e+001	1.229816e+002	-1.720729e+001	1.767682e+001	-1.707604e+001	1.760633e+001	-1.113786e+001	-1.248678e+002
4781282.496	-1.216722e+001	1.194174e+002	-1.667310e+001	1.321509e+001	-1.660255e+001	1.303526e+001	-1.130656e+001	-1.292969e+002
4805719.237	-1.278320e+001	1.164135e+002	-1.616934e+001	8.033011e+000	-1.614964e+001	7.968013e+000	-1.151462e+001	-1.336218e+002
4830155.979	-1.342667e+001	1.138775e+002	-1.572300e+001	2.459616e+000	-1.572239e+001	2.656535e+000	-1.175132e+001	-1.379221e+002
4854592.721	-1.409379e+001	1.117532e+002	-1.532297e+001	-3.279241e+000	-1.532036e+001	-2.849978e+000	-1.202123e+001	-1.421756e+002
4879029.463	-1.479883e+001	1.100850e+002	-1.494979e+001	-9.148220e+000	-1.493336e+001	-8.598645e+000	-1.233230e+001	-1.463773e+002
4903466.205	-1.552657e+001	1.090013e+002	-1.460460e+001	-1.518439e+001	-1.456938e+001	-1.459821e+001	-1.268894e+001	-1.504247e+002
4927902.946	-1.625387e+001	1.085889e+002	-1.429305e+001	-2.138669e+001	-1.424176e+001	-2.083399e+001	-1.308242e+001	-1.542376e+002
4952339.688	-1.694574e+001	1.087852e+002	-1.402643e+001	-2.775377e+001	-1.396386e+001	-2.728143e+001	-1.350079e+001	-1.577439e+002
4976776.430	-1.760281e+001	1.096592e+002	-1.378120e+001	-3.418117e+001	-1.372205e+001	-3.375285e+001	-1.393462e+001	-1.610049e+002
5001213.172	-1.818463e+001	1.110161e+002	-1.357281e+001	-4.066992e+001	-1.351975e+001	-4.025188e+001	-1.437897e+001	-1.640072e+002
5025649.913	-1.868429e+001	1.126660e+002	-1.339934e+001	-4.717677e+001	-1.335014e+001	-4.676120e+001	-1.482689e+001	-1.667307e+002
5050086.655	-1.910944e+001	1.144205e+002	-1.325658e+001	-5.366096e+001	-1.321253e+001	-5.324846e+001	-1.527466e+001	-1.692122e+002
5074523.397	-1.946053e+001	1.162042e+002	-1.314361e+001	-6.013109e+001	-1.310126e+001	-5.969864e+001	-1.571402e+001	-1.714536e+002
5098960.139	-1.976001e+001	1.178840e+002	-1.305263e+001	-6.656052e+001	-1.301374e+001	-6.611149e+001	-1.614432e+001	-1.734490e+002
5123396.880	-2.002067e+001	1.194354e+002	-1.298240e+001	-7.293657e+001	-1.294705e+001	-7.247497e+001	-1.655614e+001	-1.752361e+002
5147833.622	-2.025903e+001	1.208721e+002	-1.293201e+001	-7.926713e+001	-1.289732e+001	-7.878951e+001	-1.694845e+001	-1.768175e+002
5172270.364	-2.047931e+001	1.222176e+002	-1.289691e+001	-8.555630e+001	-1.286452e+001	-8.506047e+001	-1.731666e+001	-1.782331e+002
5196707.106	-2.069294e+001	1.235067e+002	-1.287527e+001	-9.179220e+001	-1.284322e+001	-9.128230e+001	-1.765700e+001	-1.794745e+002
5221143.847	-2.089824e+001	1.247553e+002	-1.286649e+001	-9.799173e+001	-1.283508e+001	-9.749762e+001	-1.795944e+001	1.794583e+002
5245580.589	-2.110499e+001	1.260183e+002	-1.287037e+001	-1.041692e+002	-1.283861e+001	-1.036584e+002	-1.822200e+001	1.784474e+002
5270017.331	-2.131410e+001	1.273194e+002	-1.288578e+001	-1.102974e+002	-1.285303e+001	-1.097832e+002	-1.844334e+001	1.774393e+002
5294454.073	-2.152468e+001	1.287140e+002	-1.291072e+001	-1.163896e+002	-1.287866e+001	-1.158715e+002	-1.862029e+001	1.764111e+002
5318890.815	-2.172947e+001	1.302465e+002	-1.294211e+001	-1.224478e+002	-1.290999e+001	-1.219255e+002	-1.875751e+001	1.752915e+002
5343327.556	-2.191857e+001	1.319357e+002	-1.297803e+001	-1.284767e+002	-1.294938e+001	-1.279598e+002	-1.885944e+001	1.740861e+002
5367764.298	-2.209322e+001	1.336570e+002	-1.302224e+001	-1.345111e+002	-1.299310e+001	-1.339837e+002	-1.892151e+001	1.727622e+002
5392201.040	-2.225557e+001	1.354067e+002	-1.307091e+001	-1.405605e+002	-1.304388e+001	-1.400195e+002	-1.893930e+001	1.712850e+002
5416637.782	-2.242096e+001	1.372524e+002	-1.313256e+001	-1.466069e+002	-1.310376e+001	-1.460765e+002	-1.891626e+001	1.695663e+002
5441074.523	-2.259457e+001	1.392466e+002	-1.320321e+001	-1.526520e+002	-1.317486e+001	-1.521243e+002	-1.886024e+001	1.675318e+002
