!Agilent Technologies,E5061B,MY49101568,A.02.00
!Date: Wed Mar 01 12:36:57 2023
!Data & Calibration Information:
!Freq	S11:SOLT2(OFF)	S21:SOLT2(OFF)	S12:SOLT2(OFF)	S22:SOLT2(OFF)
# Hz S dB R 50
1800000.000	-1.297475e+001	-4.483027e+001	-1.222929e+001	-1.404822e+002	-1.224398e+001	-1.407788e+002	-1.409568e+001	-1.692028e+001
1824436.742	-1.383602e+001	-5.122437e+001	-1.172415e+001	-1.477015e+002	-1.174223e+001	-1.477825e+002	-1.502680e+001	-2.376327e+001
1848873.484	-1.487780e+001	-5.751402e+001	-1.127134e+001	-1.553163e+002	-1.126937e+001	-1.552861e+002	-1.618252e+001	-3.069772e+001
1873310.225	-1.609652e+001	-6.366743e+001	-1.085694e+001	-1.628611e+002	-1.086480e+001	-1.629196e+002	-1.755840e+001	-3.728709e+001
1897746.967	-1.759817e+001	-6.909514e+001	-1.049964e+001	-1.706545e+002	-1.049567e+001	-1.708659e+002	-1.929026e+001	-4.362797e+001
1922183.709	-1.946901e+001	-7.321251e+001	-1.019863e+001	-1.786274e+002	-1.019976e+001	-1.787871e+002	-2.142795e+001	-4.924854e+001
1946620.451	-2.185031e+001	-7.516945e+001	-9.943817e+000	1.733299e+002	-9.945913e+000	1.731456e+002	-2.424031e+001	-5.285641e+001
1971057.192	-2.485361e+001	-7.157210e+001	-9.750806e+000	1.652271e+002	-9.764747e+000	1.651588e+002	-2.796802e+001	-5.175805e+001
1995493.934	-2.798966e+001	-5.603074e+001	-9.619768e+000	1.572112e+002	-9.628998e+000	1.573340e+002	-3.306372e+001	-3.531127e+001
2019930.676	-2.898980e+001	-2.564820e+001	-9.541450e+000	1.493337e+002	-9.543385e+000	1.494150e+002	-3.466534e+001	1.760102e+001
2044367.418	-2.675803e+001	-3.117590e+000	-9.500540e+000	1.416380e+002	-9.508532e+000	1.417232e+002	-3.018525e+001	4.460000e+001
2068804.159	-2.421545e+001	3.336416e+000	-9.528527e+000	1.341874e+002	-9.535290e+000	1.342886e+002	-2.662521e+001	4.658965e+001
2093240.901	-2.220136e+001	2.756026e+000	-9.584790e+000	1.271034e+002	-9.603881e+000	1.273174e+002	-2.448310e+001	4.223768e+001
2117677.643	-2.081631e+001	-1.241595e-001	-9.639468e+000	1.204183e+002	-9.667868e+000	1.207680e+002	-2.311589e+001	3.708630e+001
2142114.385	-1.984488e+001	-4.022657e+000	-9.693812e+000	1.140356e+002	-9.679944e+000	1.142847e+002	-2.212296e+001	3.227306e+001
2166551.127	-1.902238e+001	-8.236194e+000	-9.722570e+000	1.077551e+002	-9.723294e+000	1.079953e+002	-2.130575e+001	2.630376e+001
2190987.868	-1.837964e+001	-1.313399e+001	-9.758668e+000	1.015999e+002	-9.747887e+000	1.018453e+002	-2.077760e+001	2.026127e+001
2215424.610	-1.789157e+001	-1.867836e+001	-9.810364e+000	9.555937e+001	-9.791457e+000	9.583716e+001	-2.031962e+001	1.354230e+001
2239861.352	-1.757400e+001	-2.410660e+001	-9.830519e+000	8.979455e+001	-9.810176e+000	8.997349e+001	-2.002727e+001	6.783179e+000
2264298.094	-1.738274e+001	-2.940351e+001	-9.834996e+000	8.410995e+001	-9.821475e+000	8.431155e+001	-1.990666e+001	-3.482465e-001
2288734.835	-1.719700e+001	-3.450747e+001	-9.818202e+000	7.845704e+001	-9.805516e+000	7.870696e+001	-1.984695e+001	-7.101757e+000
2313171.577	-1.712802e+001	-4.004749e+001	-9.801459e+000	7.274934e+001	-9.788077e+000	7.304268e+001	-1.984734e+001	-1.429472e+001
2337608.319	-1.711565e+001	-4.544430e+001	-9.774966e+000	6.710939e+001	-9.760589e+000	6.742837e+001	-1.988652e+001	-2.173795e+001
2362045.061	-1.717888e+001	-5.097543e+001	-9.735778e+000	6.151662e+001	-9.724223e+000	6.179674e+001	-2.000508e+001	-2.941984e+001
2386481.802	-1.732485e+001	-5.667649e+001	-9.698896e+000	5.595608e+001	-9.684768e+000	5.623402e+001	-2.017418e+001	-3.748979e+001
2410918.544	-1.754712e+001	-6.206259e+001	-9.641604e+000	5.032290e+001	-9.635335e+000	5.060647e+001	-2.040346e+001	-4.595252e+001
2435355.286	-1.783124e+001	-6.768948e+001	-9.579584e+000	4.464317e+001	-9.569975e+000	4.497587e+001	-2.067085e+001	-5.477763e+001
2459792.028	-1.821330e+001	-7.317571e+001	-9.517802e+000	3.889847e+001	-9.501045e+000	3.927361e+001	-2.099086e+001	-6.413492e+001
2484228.769	-1.870047e+001	-7.870754e+001	-9.445730e+000	3.315674e+001	-9.439453e+000	3.356323e+001	-2.134094e+001	-7.410683e+001
2508665.511	-1.927591e+001	-8.405719e+001	-9.388090e+000	2.728544e+001	-9.371555e+000	2.770802e+001	-2.171570e+001	-8.419447e+001
2533102.253	-1.995788e+001	-8.941040e+001	-9.332050e+000	2.148494e+001	-9.314963e+000	2.177817e+001	-2.208523e+001	-9.498013e+001
2557538.995	-2.079991e+001	-9.460325e+001	-9.270653e+000	1.552974e+001	-9.269325e+000	1.583028e+001	-2.244544e+001	-1.065861e+002
2581975.737	-2.179626e+001	-9.919467e+001	-9.244227e+000	9.536276e+000	-9.223477e+000	9.866549e+000	-2.279763e+001	-1.186069e+002
2606412.478	-2.296275e+001	-1.036758e+002	-9.217692e+000	3.521124e+000	-9.197463e+000	3.827718e+000	-2.311237e+001	-1.313336e+002
2630849.220	-2.445348e+001	-1.066565e+002	-9.196467e+000	-2.547232e+000	-9.185775e+000	-2.231110e+000	-2.331793e+001	-1.437733e+002
2655285.962	-2.617742e+001	-1.092288e+002	-9.191110e+000	-8.547819e+000	-9.171915e+000	-8.232143e+000	-2.346059e+001	-1.570988e+002
2679722.704	-2.840329e+001	-1.085106e+002	-9.210207e+000	-1.456591e+001	-9.191894e+000	-1.423249e+001	-2.355744e+001	-1.703488e+002
2704159.445	-3.107966e+001	-1.022768e+002	-9.227577e+000	-2.054646e+001	-9.212116e+000	-2.028933e+001	-2.356644e+001	1.764237e+002
2728596.187	-3.366253e+001	-8.518362e+001	-9.267017e+000	-2.644496e+001	-9.246718e+000	-2.615850e+001	-2.346464e+001	1.637801e+002
2753032.929	-3.440656e+001	-5.641856e+001	-9.311732e+000	-3.231034e+001	-9.293419e+000	-3.207780e+001	-2.339474e+001	1.515928e+002
2777469.671	-3.237595e+001	-3.404309e+001	-9.363259e+000	-3.820660e+001	-9.347739e+000	-3.789404e+001	-2.329155e+001	1.397240e+002
2801906.412	-2.982515e+001	-2.414920e+001	-9.425112e+000	-4.384154e+001	-9.414298e+000	-4.367244e+001	-2.314065e+001	1.289637e+002
2826343.154	-2.771490e+001	-2.135303e+001	-9.497477e+000	-4.953894e+001	-9.477041e+000	-4.938198e+001	-2.301591e+001	1.181817e+002
2850779.896	-2.594937e+001	-2.158652e+001	-9.556632e+000	-5.521728e+001	-9.554816e+000	-5.502171e+001	-2.293694e+001	1.082646e+002
2875216.638	-2.456106e+001	-2.401366e+001	-9.633794e+000	-6.074010e+001	-9.625183e+000	-6.056297e+001	-2.292926e+001	9.880183e+001
2899653.380	-2.345718e+001	-2.718870e+001	-9.702747e+000	-6.622395e+001	-9.697185e+000	-6.603846e+001	-2.297428e+001	8.957748e+001
2924090.121	-2.252593e+001	-3.087191e+001	-9.777725e+000	-7.165205e+001	-9.774999e+000	-7.149074e+001	-2.301605e+001	8.092795e+001
2948526.863	-2.179200e+001	-3.470863e+001	-9.844968e+000	-7.701998e+001	-9.839966e+000	-7.683527e+001	-2.311632e+001	7.229730e+001
2972963.605	-2.116698e+001	-3.886760e+001	-9.910997e+000	-8.232980e+001	-9.906699e+000	-8.216312e+001	-2.332968e+001	6.418912e+001
2997400.347	-2.062018e+001	-4.310829e+001	-9.965588e+000	-8.757491e+001	-9.975739e+000	-8.740840e+001	-2.354125e+001	5.632914e+001
3021837.088	-2.019029e+001	-4.739432e+001	-1.002112e+001	-9.274204e+001	-1.002569e+001	-9.263468e+001	-2.386997e+001	4.821143e+001
3046273.830	-1.985765e+001	-5.183639e+001	-1.006495e+001	-9.790954e+001	-1.006428e+001	-9.781888e+001	-2.426426e+001	3.988067e+001
3070710.572	-1.962307e+001	-5.632993e+001	-1.009169e+001	-1.032118e+002	-1.009764e+001	-1.030288e+002	-2.479056e+001	3.148589e+001
3095147.314	-1.945063e+001	-6.056577e+001	-1.011275e+001	-1.084360e+002	-1.012351e+001	-1.083411e+002	-2.551549e+001	2.261468e+001
3119584.055	-1.939602e+001	-6.490682e+001	-1.013574e+001	-1.137919e+002	-1.014915e+001	-1.136419e+002	-2.637241e+001	1.382141e+001
3144020.797	-1.936799e+001	-6.906047e+001	-1.015375e+001	-1.190607e+002	-1.016506e+001	-1.189734e+002	-2.744565e+001	3.755264e+000
3168457.539	-1.945453e+001	-7.299648e+001	-1.016703e+001	-1.244422e+002	-1.018237e+001	-1.243706e+002	-2.879633e+001	-7.666497e+000
3192894.281	-1.961145e+001	-7.676640e+001	-1.017633e+001	-1.299464e+002	-1.018839e+001	-1.299153e+002	-3.053402e+001	-2.192353e+001
3217331.023	-1.989087e+001	-8.024020e+001	-1.019342e+001	-1.355363e+002	-1.020688e+001	-1.354970e+002	-3.256473e+001	-4.042931e+001
3241767.764	-2.023413e+001	-8.280962e+001	-1.023339e+001	-1.411924e+002	-1.024215e+001	-1.411875e+002	-3.499829e+001	-6.888857e+001
3266204.506	-2.061485e+001	-8.493224e+001	-1.028427e+001	-1.467984e+002	-1.029512e+001	-1.468569e+002	-3.600672e+001	-1.073287e+002
3290641.248	-2.099430e+001	-8.651266e+001	-1.033736e+001	-1.523436e+002	-1.033696e+001	-1.524326e+002	-3.435896e+001	-1.414165e+002
3315077.990	-2.147342e+001	-8.811064e+001	-1.035843e+001	-1.579102e+002	-1.036469e+001	-1.580575e+002	-3.149054e+001	-1.631793e+002
3339514.731	-2.211343e+001	-8.854409e+001	-1.037107e+001	-1.637525e+002	-1.038510e+001	-1.639221e+002	-2.866759e+001	-1.786555e+002
3363951.473	-2.287546e+001	-8.709107e+001	-1.041408e+001	-1.698178e+002	-1.043357e+001	-1.700159e+002	-2.624953e+001	1.683325e+002
3388388.215	-2.356327e+001	-8.296348e+001	-1.049285e+001	-1.759957e+002	-1.050993e+001	-1.762438e+002	-2.426202e+001	1.574194e+002
3412824.957	-2.401032e+001	-7.650559e+001	-1.059465e+001	1.777743e+002	-1.061111e+001	1.774552e+002	-2.255276e+001	1.474047e+002
3437261.698	-2.390443e+001	-6.866250e+001	-1.074062e+001	1.716530e+002	-1.076679e+001	1.712209e+002	-2.116127e+001	1.380523e+002
3461698.440	-2.330375e+001	-6.078078e+001	-1.092206e+001	1.653511e+002	-1.095309e+001	1.649551e+002	-1.995199e+001	1.291600e+002
3486135.182	-2.230707e+001	-5.483637e+001	-1.113380e+001	1.591096e+002	-1.117913e+001	1.587247e+002	-1.890408e+001	1.205369e+002
3510571.924	-2.115127e+001	-5.180936e+001	-1.136604e+001	1.531360e+002	-1.142658e+001	1.526835e+002	-1.804361e+001	1.125471e+002
3535008.666	-1.997221e+001	-5.090634e+001	-1.163937e+001	1.473167e+002	-1.170817e+001	1.468944e+002	-1.732284e+001	1.049516e+002
3559445.407	-1.890240e+001	-5.168164e+001	-1.192933e+001	1.417422e+002	-1.200490e+001	1.412625e+002	-1.669902e+001	9.768915e+001
3583882.149	-1.794147e+001	-5.325697e+001	-1.220564e+001	1.363133e+002	-1.228539e+001	1.358265e+002	-1.615749e+001	9.113852e+001
3608318.891	-1.707306e+001	-5.549654e+001	-1.249315e+001	1.310078e+002	-1.257888e+001	1.305351e+002	-1.566809e+001	8.474111e+001
3632755.633	-1.628850e+001	-5.816536e+001	-1.276846e+001	1.258629e+002	-1.286994e+001	1.253922e+002	-1.523672e+001	7.866094e+001
3657192.374	-1.556713e+001	-6.089505e+001	-1.304778e+001	1.206483e+002	-1.316545e+001	1.200314e+002	-1.478961e+001	7.294390e+001
3681629.116	-1.489812e+001	-6.411660e+001	-1.334459e+001	1.155201e+002	-1.346038e+001	1.150798e+002	-1.444498e+001	6.735832e+001
3706065.858	-1.428400e+001	-6.740546e+001	-1.364940e+001	1.105605e+002	-1.377449e+001	1.100594e+002	-1.408656e+001	6.179888e+001
3730502.600	-1.369785e+001	-7.092382e+001	-1.396713e+001	1.054782e+002	-1.410206e+001	1.052198e+002	-1.377843e+001	5.635719e+001
3754939.341	-1.319071e+001	-7.461986e+001	-1.428612e+001	1.008007e+002	-1.443388e+001	1.004502e+002	-1.349002e+001	5.104336e+001
3779376.083	-1.271762e+001	-7.826892e+001	-1.462182e+001	9.610759e+001	-1.477043e+001	9.588428e+001	-1.325077e+001	4.588631e+001
3803812.825	-1.228684e+001	-8.211724e+001	-1.495182e+001	9.160952e+001	-1.508779e+001	9.138344e+001	-1.302386e+001	4.093517e+001
3828249.567	-1.188361e+001	-8.578685e+001	-1.527295e+001	8.704598e+001	-1.542246e+001	8.696120e+001	-1.281956e+001	3.606484e+001
3852686.308	-1.150391e+001	-8.961504e+001	-1.561423e+001	8.266379e+001	-1.575771e+001	8.261540e+001	-1.262550e+001	3.133409e+001
3877123.050	-1.116984e+001	-9.338771e+001	-1.594513e+001	7.845676e+001	-1.610769e+001	7.837096e+001	-1.245279e+001	2.664561e+001
3901559.792	-1.085452e+001	-9.716412e+001	-1.627478e+001	7.437656e+001	-1.645020e+001	7.426905e+001	-1.228713e+001	2.209920e+001
3925996.534	-1.054935e+001	-1.009512e+002	-1.661513e+001	7.018671e+001	-1.679657e+001	7.026306e+001	-1.214633e+001	1.766436e+001
3950433.276	-1.027698e+001	-1.047282e+002	-1.694916e+001	6.620720e+001	-1.714118e+001	6.636106e+001	-1.199668e+001	1.328162e+001
3974870.017	-1.001496e+001	-1.085248e+002	-1.731261e+001	6.227309e+001	-1.748329e+001	6.252683e+001	-1.186599e+001	9.000186e+000
3999306.759	-9.781116e+000	-1.122843e+002	-1.764472e+001	5.853736e+001	-1.784987e+001	5.879926e+001	-1.174867e+001	4.777121e+000
4023743.501	-9.552012e+000	-1.160475e+002	-1.800748e+001	5.472316e+001	-1.817744e+001	5.524068e+001	-1.163318e+001	7.061856e-001
4048180.243	-9.334525e+000	-1.198278e+002	-1.838363e+001	5.111357e+001	-1.855878e+001	5.174770e+001	-1.152180e+001	-3.460474e+000
4072616.984	-9.138216e+000	-1.236499e+002	-1.874769e+001	4.754853e+001	-1.891712e+001	4.829240e+001	-1.140845e+001	-7.463274e+000
4097053.726	-8.958364e+000	-1.275008e+002	-1.915686e+001	4.429775e+001	-1.931095e+001	4.504976e+001	-1.130184e+001	-1.156082e+001
4121490.468	-8.789992e+000	-1.313502e+002	-1.957364e+001	4.104004e+001	-1.970176e+001	4.206594e+001	-1.121054e+001	-1.556319e+001
4145927.210	-8.630670e+000	-1.352557e+002	-2.001461e+001	3.796622e+001	-2.013524e+001	3.921093e+001	-1.111488e+001	-1.960901e+001
4170363.951	-8.494378e+000	-1.391526e+002	-2.046589e+001	3.524427e+001	-2.054094e+001	3.645028e+001	-1.102414e+001	-2.352305e+001
4194800.693	-8.375215e+000	-1.432067e+002	-2.100175e+001	3.336222e+001	-2.104010e+001	3.433717e+001	-1.094690e+001	-2.776095e+001
4219237.435	-8.281948e+000	-1.472277e+002	-2.147820e+001	3.178571e+001	-2.152555e+001	3.294400e+001	-1.088590e+001	-3.184258e+001
4243674.177	-8.215539e+000	-1.513273e+002	-2.195012e+001	3.103093e+001	-2.195270e+001	3.219832e+001	-1.084713e+001	-3.589543e+001
4268110.919	-8.183988e+000	-1.553390e+002	-2.232024e+001	3.104800e+001	-2.236870e+001	3.205788e+001	-1.081274e+001	-3.999175e+001
4292547.660	-8.159347e+000	-1.593213e+002	-2.262791e+001	3.133176e+001	-2.261551e+001	3.214772e+001	-1.079901e+001	-4.397351e+001
4316984.402	-8.166402e+000	-1.632900e+002	-2.279870e+001	3.206874e+001	-2.282198e+001	3.315127e+001	-1.079737e+001	-4.800214e+001
4341421.144	-8.200071e+000	-1.671963e+002	-2.281246e+001	3.314341e+001	-2.282963e+001	3.406916e+001	-1.081412e+001	-5.188383e+001
4365857.886	-8.249863e+000	-1.709466e+002	-2.266937e+001	3.367846e+001	-2.264639e+001	3.463070e+001	-1.085196e+001	-5.568961e+001
4390294.627	-8.305138e+000	-1.745491e+002	-2.242268e+001	3.319840e+001	-2.236436e+001	3.391942e+001	-1.089082e+001	-5.918332e+001
4414731.369	-8.344799e+000	-1.780684e+002	-2.223339e+001	3.168386e+001	-2.219482e+001	3.259168e+001	-1.087905e+001	-6.270332e+001
4439168.111	-8.365211e+000	1.782159e+002	-2.222022e+001	3.023933e+001	-2.217310e+001	3.115821e+001	-1.083157e+001	-6.632731e+001
4463604.853	-8.399847e+000	1.741717e+002	-2.228038e+001	2.998004e+001	-2.224606e+001	3.089036e+001	-1.077575e+001	-7.034483e+001
4488041.594	-8.481905e+000	1.697449e+002	-2.224652e+001	3.181888e+001	-2.221997e+001	3.251616e+001	-1.074443e+001	-7.481479e+001
4512478.336	-8.663161e+000	1.651411e+002	-2.180289e+001	3.462738e+001	-2.173290e+001	3.549169e+001	-1.079864e+001	-7.965339e+001
4536915.078	-8.986708e+000	1.608833e+002	-2.081519e+001	3.603546e+001	-2.077113e+001	3.681078e+001	-1.097595e+001	-8.447771e+001
4561351.820	-9.357781e+000	1.574910e+002	-1.973431e+001	3.351875e+001	-1.966999e+001	3.435738e+001	-1.124535e+001	-8.847084e+001
4585788.562	-9.675343e+000	1.548798e+002	-1.890854e+001	2.858012e+001	-1.886859e+001	2.936914e+001	-1.147165e+001	-9.163158e+001
4610225.303	-9.899996e+000	1.522250e+002	-1.843843e+001	2.351204e+001	-1.838328e+001	2.441243e+001	-1.159832e+001	-9.478871e+001
4634662.045	-1.013108e+001	1.491298e+002	-1.807167e+001	1.947179e+001	-1.801579e+001	2.037410e+001	-1.168380e+001	-9.828453e+001
4659098.787	-1.038863e+001	1.458001e+002	-1.771028e+001	1.609879e+001	-1.762606e+001	1.706175e+001	-1.178102e+001	-1.022346e+002
4683535.529	-1.074456e+001	1.423304e+002	-1.724228e+001	1.335519e+001	-1.717082e+001	1.407217e+001	-1.193098e+001	-1.064533e+002
4707972.270	-1.119141e+001	1.389705e+002	-1.668682e+001	1.039652e+001	-1.659579e+001	1.112051e+001	-1.214803e+001	-1.110830e+002
4732409.012	-1.175158e+001	1.361903e+002	-1.601048e+001	6.992192e+000	-1.593321e+001	7.720531e+000	-1.247614e+001	-1.157508e+002
4756845.754	-1.241642e+001	1.344382e+002	-1.523485e+001	2.456286e+000	-1.515634e+001	3.068271e+000	-1.295913e+001	-1.201580e+002
4781282.496	-1.307690e+001	1.342591e+002	-1.447928e+001	-3.389005e+000	-1.442376e+001	-2.662391e+000	-1.356160e+001	-1.236665e+002
4805719.237	-1.358285e+001	1.352109e+002	-1.385318e+001	-1.006506e+001	-1.378872e+001	-9.381282e+000	-1.419946e+001	-1.261386e+002
4830155.979	-1.389479e+001	1.366880e+002	-1.335600e+001	-1.718029e+001	-1.328314e+001	-1.644863e+001	-1.481625e+001	-1.275168e+002
4854592.721	-1.405307e+001	1.381923e+002	-1.292665e+001	-2.434045e+001	-1.285769e+001	-2.360475e+001	-1.540149e+001	-1.280975e+002
4879029.463	-1.405137e+001	1.393569e+002	-1.257584e+001	-3.160198e+001	-1.250058e+001	-3.088622e+001	-1.589104e+001	-1.277505e+002
4903466.205	-1.392805e+001	1.399393e+002	-1.228371e+001	-3.890071e+001	-1.221951e+001	-3.825894e+001	-1.625933e+001	-1.266775e+002
4927902.946	-1.374950e+001	1.396115e+002	-1.207051e+001	-4.618516e+001	-1.201059e+001	-4.555232e+001	-1.646024e+001	-1.253669e+002
4952339.688	-1.355128e+001	1.385400e+002	-1.190770e+001	-5.346305e+001	-1.185659e+001	-5.283132e+001	-1.647480e+001	-1.240705e+002
4976776.430	-1.337207e+001	1.366544e+002	-1.180107e+001	-6.061824e+001	-1.174534e+001	-5.997342e+001	-1.636317e+001	-1.231594e+002
5001213.172	-1.324627e+001	1.343977e+002	-1.172904e+001	-6.749367e+001	-1.166661e+001	-6.688364e+001	-1.616197e+001	-1.230205e+002
5025649.913	-1.318098e+001	1.316991e+002	-1.167704e+001	-7.433252e+001	-1.162894e+001	-7.364397e+001	-1.591393e+001	-1.235574e+002
5050086.655	-1.317213e+001	1.287540e+002	-1.165529e+001	-8.101881e+001	-1.159891e+001	-8.039444e+001	-1.565874e+001	-1.246142e+002
5074523.397	-1.321561e+001	1.257219e+002	-1.165446e+001	-8.758723e+001	-1.159470e+001	-8.696569e+001	-1.538317e+001	-1.261117e+002
5098960.139	-1.331545e+001	1.225696e+002	-1.166080e+001	-9.400969e+001	-1.159884e+001	-9.342769e+001	-1.511145e+001	-1.281141e+002
5123396.880	-1.345778e+001	1.192649e+002	-1.169002e+001	-1.004235e+002	-1.162066e+001	-9.980408e+001	-1.486023e+001	-1.304634e+002
5147833.622	-1.364292e+001	1.160798e+002	-1.170728e+001	-1.067362e+002	-1.164424e+001	-1.061862e+002	-1.462729e+001	-1.330460e+002
5172270.364	-1.387528e+001	1.128312e+002	-1.175264e+001	-1.129687e+002	-1.168746e+001	-1.124194e+002	-1.440548e+001	-1.360021e+002
5196707.106	-1.415917e+001	1.094877e+002	-1.180131e+001	-1.191411e+002	-1.173073e+001	-1.186890e+002	-1.418556e+001	-1.390691e+002
5221143.847	-1.449163e+001	1.062758e+002	-1.186201e+001	-1.252569e+002	-1.179927e+001	-1.249785e+002	-1.398237e+001	-1.425409e+002
5245580.589	-1.486189e+001	1.029401e+002	-1.193035e+001	-1.313710e+002	-1.187088e+001	-1.311741e+002	-1.380032e+001	-1.461680e+002
5270017.331	-1.528205e+001	9.963200e+001	-1.200502e+001	-1.374592e+002	-1.194932e+001	-1.373002e+002	-1.366189e+001	-1.500003e+002
5294454.073	-1.574698e+001	9.630692e+001	-1.209269e+001	-1.435123e+002	-1.204718e+001	-1.434139e+002	-1.351880e+001	-1.540408e+002
5318890.815	-1.629823e+001	9.291646e+001	-1.219493e+001	-1.494994e+002	-1.214340e+001	-1.494946e+002	-1.340778e+001	-1.581652e+002
5343327.556	-1.688570e+001	8.967468e+001	-1.228255e+001	-1.555012e+002	-1.224757e+001	-1.554993e+002	-1.331488e+001	-1.624140e+002
5367764.298	-1.755475e+001	8.622876e+001	-1.239926e+001	-1.615138e+002	-1.237157e+001	-1.615592e+002	-1.324460e+001	-1.668978e+002
5392201.040	-1.831082e+001	8.266215e+001	-1.251219e+001	-1.675079e+002	-1.250055e+001	-1.675811e+002	-1.318339e+001	-1.714748e+002
5416637.782	-1.916641e+001	7.897309e+001	-1.264375e+001	-1.734611e+002	-1.264140e+001	-1.736751e+002	-1.313094e+001	-1.762075e+002
5441074.523	-2.016577e+001	7.500661e+001	-1.278200e+001	-1.794460e+002	-1.279243e+001	-1.796959e+002	-1.310348e+001	1.789371e+002
