!Agilent Technologies,E5061B,MY49101568,A.02.00
!Date: Wed Mar 01 12:39:31 2023
!Data & Calibration Information:
!Freq	S11:SOLT2(OFF)	S21:SOLT2(OFF)	S12:SOLT2(OFF)	S22:SOLT2(OFF)
# Hz S dB R 50
1800000.000	-9.619061e+000	-2.081403e+001	-2.072831e+001	-1.234469e+002	-2.074356e+001	-1.234930e+002	-1.003016e+001	1.383109e+001
1824436.742	-9.762779e+000	-2.553927e+001	-2.026738e+001	-1.278379e+002	-2.027645e+001	-1.279124e+002	-1.020292e+001	9.602963e+000
1848873.484	-9.922883e+000	-3.040957e+001	-1.979318e+001	-1.323578e+002	-1.980547e+001	-1.324560e+002	-1.038398e+001	5.282800e+000
1873310.225	-1.009790e+001	-3.536839e+001	-1.931584e+001	-1.371211e+002	-1.932175e+001	-1.371780e+002	-1.057382e+001	8.788782e-001
1897746.967	-1.027741e+001	-4.044375e+001	-1.883542e+001	-1.418700e+002	-1.877798e+001	-1.422831e+002	-1.079390e+001	-3.706699e+000
1922183.709	-1.047890e+001	-4.570674e+001	-1.833655e+001	-1.468575e+002	-1.827592e+001	-1.473612e+002	-1.100551e+001	-8.350504e+000
1946620.451	-1.069761e+001	-5.114368e+001	-1.783276e+001	-1.520095e+002	-1.778596e+001	-1.524178e+002	-1.121325e+001	-1.312528e+001
1971057.192	-1.094121e+001	-5.675881e+001	-1.732449e+001	-1.573856e+002	-1.728518e+001	-1.577902e+002	-1.144262e+001	-1.802155e+001
1995493.934	-1.124159e+001	-6.260768e+001	-1.677649e+001	-1.632129e+002	-1.678534e+001	-1.632943e+002	-1.169026e+001	-2.302960e+001
2019930.676	-1.157113e+001	-6.858036e+001	-1.625521e+001	-1.691810e+002	-1.629210e+001	-1.689694e+002	-1.194532e+001	-2.810958e+001
2044367.418	-1.192168e+001	-7.469128e+001	-1.575370e+001	-1.752000e+002	-1.580050e+001	-1.749604e+002	-1.221944e+001	-3.334196e+001
2068804.159	-1.231679e+001	-8.090842e+001	-1.527784e+001	1.785507e+002	-1.531691e+001	1.787362e+002	-1.253045e+001	-3.856263e+001
2093240.901	-1.279421e+001	-8.728714e+001	-1.479051e+001	1.719137e+002	-1.488016e+001	1.725189e+002	-1.281424e+001	-4.378512e+001
2117677.643	-1.330320e+001	-9.368979e+001	-1.435486e+001	1.651534e+002	-1.446610e+001	1.661088e+002	-1.311897e+001	-4.900593e+001
2142114.385	-1.384008e+001	-1.002918e+002	-1.394654e+001	1.584534e+002	-1.406622e+001	1.595857e+002	-1.342130e+001	-5.429160e+001
2166551.127	-1.444191e+001	-1.070586e+002	-1.355566e+001	1.516498e+002	-1.367098e+001	1.529379e+002	-1.373284e+001	-5.969681e+001
2190987.868	-1.512699e+001	-1.138141e+002	-1.318429e+001	1.445399e+002	-1.330290e+001	1.460901e+002	-1.405570e+001	-6.504070e+001
2215424.610	-1.586868e+001	-1.205676e+002	-1.285347e+001	1.373157e+002	-1.296908e+001	1.392358e+002	-1.435360e+001	-7.036346e+001
2239861.352	-1.661043e+001	-1.275104e+002	-1.256396e+001	1.303129e+002	-1.266452e+001	1.321510e+002	-1.466136e+001	-7.560701e+001
2264298.094	-1.740097e+001	-1.346863e+002	-1.229468e+001	1.232556e+002	-1.238077e+001	1.249845e+002	-1.494859e+001	-8.081854e+001
2288734.835	-1.827970e+001	-1.417923e+002	-1.205016e+001	1.160295e+002	-1.212363e+001	1.178366e+002	-1.520197e+001	-8.605112e+001
2313171.577	-1.917023e+001	-1.491677e+002	-1.183508e+001	1.088948e+002	-1.189517e+001	1.106835e+002	-1.541246e+001	-9.131339e+001
2337608.319	-2.006434e+001	-1.567027e+002	-1.164877e+001	1.017724e+002	-1.169605e+001	1.035312e+002	-1.558041e+001	-9.661975e+001
2362045.061	-2.068623e+001	-1.656978e+002	-1.150497e+001	9.535806e+001	-1.151838e+001	9.634079e+001	-1.570601e+001	-1.019648e+002
2386481.802	-2.150729e+001	-1.741198e+002	-1.136469e+001	8.830581e+001	-1.136820e+001	8.918452e+001	-1.577213e+001	-1.074421e+002
2410918.544	-2.224805e+001	1.767648e+002	-1.124222e+001	8.132824e+001	-1.123790e+001	8.208898e+001	-1.578626e+001	-1.131344e+002
2435355.286	-2.289428e+001	1.670685e+002	-1.113747e+001	7.437185e+001	-1.112411e+001	7.502524e+001	-1.575738e+001	-1.191026e+002
2459792.028	-2.340030e+001	1.566192e+002	-1.104758e+001	6.745626e+001	-1.102536e+001	6.796920e+001	-1.569312e+001	-1.252809e+002
2484228.769	-2.361094e+001	1.453089e+002	-1.098103e+001	6.070187e+001	-1.093863e+001	6.074479e+001	-1.564011e+001	-1.315755e+002
2508665.511	-2.375629e+001	1.341673e+002	-1.092368e+001	5.379125e+001	-1.087623e+001	5.373918e+001	-1.551340e+001	-1.382354e+002
2533102.253	-2.369160e+001	1.230632e+002	-1.088566e+001	4.693230e+001	-1.082446e+001	4.652043e+001	-1.542437e+001	-1.449036e+002
2557538.995	-2.345642e+001	1.121475e+002	-1.086494e+001	4.006667e+001	-1.079658e+001	3.954871e+001	-1.527156e+001	-1.519272e+002
2581975.737	-2.303740e+001	1.016994e+002	-1.086135e+001	3.324764e+001	-1.078808e+001	3.273698e+001	-1.509247e+001	-1.591884e+002
2606412.478	-2.250608e+001	9.181119e+001	-1.087727e+001	2.647907e+001	-1.079981e+001	2.593402e+001	-1.491228e+001	-1.664937e+002
2630849.220	-2.189793e+001	8.253178e+001	-1.091458e+001	1.976764e+001	-1.083052e+001	1.916368e+001	-1.474257e+001	-1.738505e+002
2655285.962	-2.125666e+001	7.379966e+001	-1.096990e+001	1.311561e+001	-1.088172e+001	1.243708e+001	-1.458551e+001	1.788220e+002
2679722.704	-2.060309e+001	6.565161e+001	-1.104056e+001	6.557593e+000	-1.094926e+001	5.907779e+000	-1.441924e+001	1.713708e+002
2704159.445	-1.993170e+001	5.784151e+001	-1.112541e+001	1.425650e-001	-1.103348e+001	-5.300195e-001	-1.426229e+001	1.640249e+002
2728596.187	-1.928992e+001	5.037942e+001	-1.122701e+001	-6.181402e+000	-1.113197e+001	-6.834813e+000	-1.411757e+001	1.567298e+002
2753032.929	-1.868458e+001	4.329888e+001	-1.133794e+001	-1.238022e+001	-1.124539e+001	-1.307576e+001	-1.400024e+001	1.495856e+002
2777469.671	-1.811920e+001	3.653101e+001	-1.146260e+001	-1.846761e+001	-1.136816e+001	-1.926421e+001	-1.392053e+001	1.425808e+002
2801906.412	-1.759918e+001	2.997141e+001	-1.159497e+001	-2.443989e+001	-1.150216e+001	-2.525799e+001	-1.384009e+001	1.357106e+002
2826343.154	-1.711917e+001	2.368734e+001	-1.173484e+001	-3.029389e+001	-1.164582e+001	-3.108859e+001	-1.377292e+001	1.289948e+002
2850779.896	-1.668085e+001	1.765015e+001	-1.187615e+001	-3.601853e+001	-1.179809e+001	-3.670758e+001	-1.370838e+001	1.224530e+002
2875216.638	-1.630257e+001	1.176809e+001	-1.202006e+001	-4.174595e+001	-1.196836e+001	-4.200372e+001	-1.361708e+001	1.161316e+002
2899653.380	-1.593882e+001	6.108184e+000	-1.216529e+001	-4.721938e+001	-1.212539e+001	-4.743143e+001	-1.360473e+001	1.099838e+002
2924090.121	-1.561283e+001	6.127216e-001	-1.230839e+001	-5.260173e+001	-1.227979e+001	-5.275617e+001	-1.361212e+001	1.040380e+002
2948526.863	-1.532378e+001	-4.714842e+000	-1.244871e+001	-5.793090e+001	-1.243272e+001	-5.794241e+001	-1.362995e+001	9.824304e+001
2972963.605	-1.504539e+001	-9.874497e+000	-1.258630e+001	-6.305024e+001	-1.258196e+001	-6.302184e+001	-1.366073e+001	9.263500e+001
2997400.347	-1.478431e+001	-1.488196e+001	-1.271967e+001	-6.802973e+001	-1.272594e+001	-6.797849e+001	-1.370283e+001	8.719349e+001
3021837.088	-1.455297e+001	-1.977018e+001	-1.284466e+001	-7.294042e+001	-1.286136e+001	-7.281176e+001	-1.375129e+001	8.186815e+001
3046273.830	-1.434665e+001	-2.457537e+001	-1.295524e+001	-7.778433e+001	-1.298305e+001	-7.755627e+001	-1.381518e+001	7.666416e+001
3070710.572	-1.414666e+001	-2.926522e+001	-1.305748e+001	-8.245448e+001	-1.309096e+001	-8.224534e+001	-1.389485e+001	7.156110e+001
3095147.314	-1.397988e+001	-3.385093e+001	-1.314636e+001	-8.715555e+001	-1.318841e+001	-8.689861e+001	-1.399296e+001	6.659338e+001
3119584.055	-1.383245e+001	-3.832467e+001	-1.322639e+001	-9.182099e+001	-1.327582e+001	-9.151316e+001	-1.410150e+001	6.177118e+001
3144020.797	-1.369038e+001	-4.269769e+001	-1.329916e+001	-9.632297e+001	-1.335222e+001	-9.608666e+001	-1.422694e+001	5.708884e+001
3168457.539	-1.357607e+001	-4.701338e+001	-1.335671e+001	-1.008880e+002	-1.341307e+001	-1.006307e+002	-1.436535e+001	5.246808e+001
3192894.281	-1.348926e+001	-5.125186e+001	-1.339970e+001	-1.055295e+002	-1.346181e+001	-1.051428e+002	-1.451855e+001	4.792642e+001
3217331.023	-1.340952e+001	-5.540801e+001	-1.343318e+001	-1.100869e+002	-1.349967e+001	-1.096775e+002	-1.469104e+001	4.350588e+001
3241767.764	-1.335489e+001	-5.944976e+001	-1.346278e+001	-1.147074e+002	-1.353336e+001	-1.142383e+002	-1.487991e+001	3.925638e+001
3266204.506	-1.330469e+001	-6.338399e+001	-1.349056e+001	-1.192506e+002	-1.356276e+001	-1.187877e+002	-1.508104e+001	3.514973e+001
3290641.248	-1.326709e+001	-6.725799e+001	-1.350788e+001	-1.237645e+002	-1.358147e+001	-1.232835e+002	-1.528496e+001	3.111892e+001
3315077.990	-1.323127e+001	-7.115934e+001	-1.350052e+001	-1.281736e+002	-1.357362e+001	-1.276902e+002	-1.549496e+001	2.696385e+001
3339514.731	-1.321774e+001	-7.506675e+001	-1.347183e+001	-1.326126e+002	-1.354154e+001	-1.321869e+002	-1.574871e+001	2.283209e+001
3363951.473	-1.323951e+001	-7.891320e+001	-1.342849e+001	-1.372154e+002	-1.349756e+001	-1.367962e+002	-1.604579e+001	1.880447e+001
3388388.215	-1.329525e+001	-8.266942e+001	-1.337804e+001	-1.419719e+002	-1.344615e+001	-1.415239e+002	-1.638892e+001	1.493531e+001
3412824.957	-1.338147e+001	-8.631362e+001	-1.332394e+001	-1.468207e+002	-1.338567e+001	-1.463955e+002	-1.678715e+001	1.126517e+001
3437261.698	-1.349819e+001	-8.981647e+001	-1.326738e+001	-1.517852e+002	-1.332735e+001	-1.513975e+002	-1.724134e+001	7.901505e+000
3461698.440	-1.365455e+001	-9.310407e+001	-1.321692e+001	-1.569095e+002	-1.326992e+001	-1.565390e+002	-1.775682e+001	4.926636e+000
3486135.182	-1.384065e+001	-9.612340e+001	-1.317454e+001	-1.621648e+002	-1.322665e+001	-1.618062e+002	-1.832774e+001	2.570850e+000
3510571.924	-1.404717e+001	-9.883664e+001	-1.314478e+001	-1.674749e+002	-1.319650e+001	-1.671833e+002	-1.894440e+001	9.648810e-001
3535008.666	-1.426474e+001	-1.012276e+002	-1.313100e+001	-1.728121e+002	-1.318109e+001	-1.725901e+002	-1.956795e+001	1.508561e-001
3559445.407	-1.448943e+001	-1.033090e+002	-1.312151e+001	-1.781662e+002	-1.317478e+001	-1.779909e+002	-2.017720e+001	1.834799e-001
3583882.149	-1.471855e+001	-1.050635e+002	-1.311347e+001	1.764696e+002	-1.316779e+001	1.766190e+002	-2.076334e+001	9.816816e-001
3608318.891	-1.495547e+001	-1.064582e+002	-1.310663e+001	1.710046e+002	-1.316016e+001	1.711343e+002	-2.132122e+001	2.827986e+000
3632755.633	-1.517728e+001	-1.074672e+002	-1.310419e+001	1.654690e+002	-1.316806e+001	1.652279e+002	-2.182615e+001	6.845224e+000
3657192.374	-1.539147e+001	-1.079732e+002	-1.310931e+001	1.598023e+002	-1.318306e+001	1.594587e+002	-2.208461e+001	1.132807e+001
3681629.116	-1.556517e+001	-1.079911e+002	-1.313028e+001	1.540419e+002	-1.320628e+001	1.537045e+002	-2.208417e+001	1.616177e+001
3706065.858	-1.568081e+001	-1.074735e+002	-1.317305e+001	1.481118e+002	-1.325351e+001	1.478344e+002	-2.178395e+001	2.101617e+001
3730502.600	-1.570106e+001	-1.065841e+002	-1.324666e+001	1.421349e+002	-1.333559e+001	1.418411e+002	-2.118287e+001	2.512369e+001
3754939.341	-1.561238e+001	-1.055672e+002	-1.334789e+001	1.361690e+002	-1.343808e+001	1.359266e+002	-2.043663e+001	2.762105e+001
3779376.083	-1.541983e+001	-1.046203e+002	-1.347245e+001	1.302019e+002	-1.356697e+001	1.300159e+002	-1.962042e+001	2.874759e+001
3803812.825	-1.513731e+001	-1.038629e+002	-1.361753e+001	1.242476e+002	-1.371776e+001	1.240701e+002	-1.878655e+001	2.872300e+001
3828249.567	-1.477079e+001	-1.034006e+002	-1.378816e+001	1.182488e+002	-1.389879e+001	1.181113e+002	-1.796833e+001	2.772784e+001
3852686.308	-1.432878e+001	-1.033596e+002	-1.399336e+001	1.122441e+002	-1.409536e+001	1.122697e+002	-1.722308e+001	2.593935e+001
3877123.050	-1.383396e+001	-1.039116e+002	-1.423834e+001	1.063151e+002	-1.432636e+001	1.065039e+002	-1.652329e+001	2.347953e+001
3901559.792	-1.332638e+001	-1.050291e+002	-1.450482e+001	1.004984e+002	-1.458445e+001	1.007957e+002	-1.587797e+001	2.055842e+001
3925996.534	-1.282876e+001	-1.066822e+002	-1.478614e+001	9.485916e+001	-1.487340e+001	9.516449e+001	-1.528062e+001	1.727894e+001
3950433.276	-1.234222e+001	-1.087555e+002	-1.509431e+001	8.933698e+001	-1.518893e+001	8.965052e+001	-1.474078e+001	1.372154e+001
3974870.017	-1.187627e+001	-1.112058e+002	-1.542718e+001	8.394789e+001	-1.552895e+001	8.429247e+001	-1.425290e+001	9.987010e+000
3999306.759	-1.143128e+001	-1.139697e+002	-1.579116e+001	7.867121e+001	-1.588706e+001	7.907281e+001	-1.381540e+001	6.109730e+000
4023743.501	-1.101364e+001	-1.169963e+002	-1.617637e+001	7.356241e+001	-1.627119e+001	7.400618e+001	-1.341616e+001	2.114192e+000
4048180.243	-1.063150e+001	-1.202322e+002	-1.658107e+001	6.865019e+001	-1.667727e+001	6.916561e+001	-1.306100e+001	-1.946479e+000
4072616.984	-1.027523e+001	-1.236626e+002	-1.701436e+001	6.390326e+001	-1.710563e+001	6.452298e+001	-1.274037e+001	-6.072584e+000
4097053.726	-9.945128e+000	-1.272544e+002	-1.748463e+001	5.936123e+001	-1.755755e+001	6.010407e+001	-1.244943e+001	-1.023778e+001
4121490.468	-9.646475e+000	-1.309933e+002	-1.798171e+001	5.509203e+001	-1.803898e+001	5.592326e+001	-1.218446e+001	-1.443310e+001
4145927.210	-9.378280e+000	-1.348341e+002	-1.849786e+001	5.112785e+001	-1.855982e+001	5.207164e+001	-1.194546e+001	-1.870331e+001
4170363.951	-9.133690e+000	-1.388100e+002	-1.907805e+001	4.755507e+001	-1.909630e+001	4.869636e+001	-1.173813e+001	-2.297520e+001
4194800.693	-8.928889e+000	-1.428821e+002	-1.965776e+001	4.459904e+001	-1.967185e+001	4.586645e+001	-1.155300e+001	-2.734192e+001
4219237.435	-8.763817e+000	-1.470647e+002	-2.024900e+001	4.245285e+001	-2.024926e+001	4.372907e+001	-1.140063e+001	-3.172305e+001
4243674.177	-8.641741e+000	-1.512604e+002	-2.079052e+001	4.113830e+001	-2.078486e+001	4.238466e+001	-1.128011e+001	-3.608838e+001
4268110.919	-8.551822e+000	-1.554340e+002	-2.126054e+001	4.041950e+001	-2.124593e+001	4.157413e+001	-1.118499e+001	-4.035364e+001
4292547.660	-8.489518e+000	-1.595645e+002	-2.164466e+001	4.017734e+001	-2.163310e+001	4.126510e+001	-1.110733e+001	-4.456170e+001
4316984.402	-8.456267e+000	-1.637107e+002	-2.193685e+001	4.054653e+001	-2.193186e+001	4.158881e+001	-1.105048e+001	-4.878925e+001
4341421.144	-8.460944e+000	-1.677896e+002	-2.204926e+001	4.122578e+001	-2.206398e+001	4.242779e+001	-1.102596e+001	-5.296238e+001
4365857.886	-8.499796e+000	-1.716933e+002	-2.195645e+001	4.154032e+001	-2.197578e+001	4.280955e+001	-1.103041e+001	-5.692366e+001
4390294.627	-8.541174e+000	-1.753720e+002	-2.178859e+001	4.065481e+001	-2.178822e+001	4.200198e+001	-1.103533e+001	-6.058784e+001
4414731.369	-8.559854e+000	-1.789693e+002	-2.170249e+001	3.888371e+001	-2.169038e+001	4.011720e+001	-1.100075e+001	-6.407119e+001
4439168.111	-8.557022e+000	1.772388e+002	-2.177970e+001	3.728790e+001	-2.176324e+001	3.817661e+001	-1.091574e+001	-6.767791e+001
4463604.853	-8.552526e+000	1.731297e+002	-2.196145e+001	3.678480e+001	-2.196264e+001	3.760433e+001	-1.080381e+001	-7.166291e+001
4488041.594	-8.593464e+000	1.685818e+002	-2.205489e+001	3.836726e+001	-2.207204e+001	3.920073e+001	-1.071081e+001	-7.618743e+001
4512478.336	-8.730716e+000	1.637698e+002	-2.174169e+001	4.122982e+001	-2.176489e+001	4.219131e+001	-1.069452e+001	-8.113155e+001
4536915.078	-8.991884e+000	1.591116e+002	-2.092408e+001	4.283591e+001	-2.092377e+001	4.376599e+001	-1.079883e+001	-8.610176e+001
4561351.820	-9.329397e+000	1.551205e+002	-1.995145e+001	4.112030e+001	-1.995863e+001	4.195773e+001	-1.098090e+001	-9.052563e+001
4585788.562	-9.650049e+000	1.517548e+002	-1.919257e+001	3.721015e+001	-1.921423e+001	3.810474e+001	-1.115222e+001	-9.437310e+001
4610225.303	-9.920382e+000	1.484808e+002	-1.868349e+001	3.304016e+001	-1.868830e+001	3.403823e+001	-1.127016e+001	-9.808876e+001
4634662.045	-1.018527e+001	1.450191e+002	-1.827365e+001	2.934801e+001	-1.825385e+001	3.040116e+001	-1.136091e+001	-1.019971e+002
4659098.787	-1.048736e+001	1.413488e+002	-1.785536e+001	2.605036e+001	-1.780254e+001	2.707939e+001	-1.145978e+001	-1.062017e+002
4683535.529	-1.085297e+001	1.375681e+002	-1.738025e+001	2.293028e+001	-1.731278e+001	2.383759e+001	-1.158685e+001	-1.106557e+002
4707972.270	-1.131598e+001	1.337598e+002	-1.681417e+001	1.984233e+001	-1.675992e+001	2.039788e+001	-1.176376e+001	-1.153009e+002
4732409.012	-1.188705e+001	1.303299e+002	-1.617155e+001	1.605549e+001	-1.610525e+001	1.660992e+001	-1.203115e+001	-1.202370e+002
4756845.754	-1.256757e+001	1.276434e+002	-1.547596e+001	1.136590e+001	-1.539728e+001	1.181446e+001	-1.241584e+001	-1.250210e+002
4781282.496	-1.328676e+001	1.260931e+002	-1.482960e+001	5.661040e+000	-1.473673e+001	5.930544e+000	-1.289859e+001	-1.292624e+002
4805719.237	-1.396614e+001	1.256118e+002	-1.427915e+001	-6.840647e-001	-1.418674e+001	-5.887875e-001	-1.342266e+001	-1.328196e+002
4830155.979	-1.457026e+001	1.258888e+002	-1.381932e+001	-7.246563e+000	-1.373846e+001	-7.273064e+000	-1.394886e+001	-1.358666e+002
4854592.721	-1.508112e+001	1.267504e+002	-1.342645e+001	-1.389431e+001	-1.336262e+001	-1.398098e+001	-1.447919e+001	-1.385073e+002
4879029.463	-1.548549e+001	1.280586e+002	-1.308258e+001	-2.061121e+001	-1.303528e+001	-2.068622e+001	-1.501478e+001	-1.407317e+002
4903466.205	-1.575915e+001	1.295689e+002	-1.278813e+001	-2.742397e+001	-1.275246e+001	-2.749794e+001	-1.555587e+001	-1.423802e+002
4927902.946	-1.590052e+001	1.309396e+002	-1.254437e+001	-3.429385e+001	-1.251922e+001	-3.437935e+001	-1.606600e+001	-1.433922e+002
4952339.688	-1.592287e+001	1.318634e+002	-1.235175e+001	-4.125168e+001	-1.230704e+001	-4.094706e+001	-1.656181e+001	-1.443941e+002
4976776.430	-1.590245e+001	1.322442e+002	-1.219550e+001	-4.807424e+001	-1.215055e+001	-4.773056e+001	-1.696758e+001	-1.445517e+002
5001213.172	-1.585575e+001	1.320421e+002	-1.207677e+001	-5.482278e+001	-1.202828e+001	-5.444105e+001	-1.729308e+001	-1.444116e+002
5025649.913	-1.581062e+001	1.313471e+002	-1.198139e+001	-6.149882e+001	-1.193700e+001	-6.109421e+001	-1.752881e+001	-1.441370e+002
5050086.655	-1.578902e+001	1.302321e+002	-1.191531e+001	-6.810207e+001	-1.186659e+001	-6.766785e+001	-1.768659e+001	-1.438569e+002
5074523.397	-1.579241e+001	1.287855e+002	-1.187018e+001	-7.465344e+001	-1.181776e+001	-7.416457e+001	-1.776184e+001	-1.437024e+002
5098960.139	-1.583146e+001	1.270513e+002	-1.184548e+001	-8.115587e+001	-1.178750e+001	-8.059648e+001	-1.776902e+001	-1.437665e+002
5123396.880	-1.591887e+001	1.252223e+002	-1.183175e+001	-8.754963e+001	-1.177154e+001	-8.695908e+001	-1.772402e+001	-1.441028e+002
5147833.622	-1.604998e+001	1.233017e+002	-1.183111e+001	-9.387286e+001	-1.176840e+001	-9.326404e+001	-1.763343e+001	-1.447692e+002
5172270.364	-1.621733e+001	1.212876e+002	-1.184233e+001	-1.001602e+002	-1.177714e+001	-9.952400e+001	-1.750971e+001	-1.457520e+002
5196707.106	-1.642722e+001	1.192179e+002	-1.186577e+001	-1.064208e+002	-1.179541e+001	-1.057406e+002	-1.736246e+001	-1.470739e+002
5221143.847	-1.668048e+001	1.171825e+002	-1.189911e+001	-1.125817e+002	-1.182474e+001	-1.119312e+002	-1.719693e+001	-1.487319e+002
5245580.589	-1.697880e+001	1.152112e+002	-1.194062e+001	-1.187306e+002	-1.186587e+001	-1.181146e+002	-1.701288e+001	-1.507564e+002
5270017.331	-1.731594e+001	1.132701e+002	-1.199034e+001	-1.248304e+002	-1.191884e+001	-1.242680e+002	-1.682588e+001	-1.531295e+002
5294454.073	-1.770742e+001	1.114000e+002	-1.205022e+001	-1.309036e+002	-1.198117e+001	-1.303877e+002	-1.664789e+001	-1.558284e+002
5318890.815	-1.814873e+001	1.096100e+002	-1.211996e+001	-1.369514e+002	-1.205059e+001	-1.364576e+002	-1.648390e+001	-1.588359e+002
5343327.556	-1.863968e+001	1.079026e+002	-1.219724e+001	-1.429925e+002	-1.212455e+001	-1.425253e+002	-1.632988e+001	-1.620414e+002
5367764.298	-1.917362e+001	1.063352e+002	-1.227359e+001	-1.490350e+002	-1.220444e+001	-1.485751e+002	-1.618343e+001	-1.654640e+002
5392201.040	-1.977881e+001	1.048428e+002	-1.236167e+001	-1.550858e+002	-1.229503e+001	-1.546488e+002	-1.604168e+001	-1.691560e+002
5416637.782	-2.046675e+001	1.034902e+002	-1.245820e+001	-1.611421e+002	-1.239430e+001	-1.607447e+002	-1.590425e+001	-1.730833e+002
5441074.523	-2.126635e+001	1.023739e+002	-1.256901e+001	-1.672001e+002	-1.250869e+001	-1.668511e+002	-1.577832e+001	-1.772961e+002
