!Agilent Technologies,E5061B,MY49101568,A.02.00
!Date: Wed Mar 01 12:22:04 2023
!Data & Calibration Information:
!Freq	S11:SOLT2(OFF)	S21:SOLT2(OFF)	S12:SOLT2(OFF)	S22:SOLT2(OFF)
# Hz S dB R 50
1800000.000	-1.018364e+001	-1.620769e+001	-2.233265e+001	-1.490861e+002	-2.235438e+001	-1.490362e+002	-1.075419e+001	1.984483e+001
1824436.742	-1.032222e+001	-2.040644e+001	-2.197576e+001	-1.532092e+002	-2.198502e+001	-1.532604e+002	-1.090564e+001	1.610005e+001
1848873.484	-1.046221e+001	-2.464716e+001	-2.166054e+001	-1.574166e+002	-2.166459e+001	-1.573998e+002	-1.107873e+001	1.232493e+001
1873310.225	-1.061353e+001	-2.905728e+001	-2.131928e+001	-1.614163e+002	-2.129818e+001	-1.614954e+002	-1.124779e+001	8.473043e+000
1897746.967	-1.076940e+001	-3.340752e+001	-2.095978e+001	-1.659171e+002	-2.095684e+001	-1.658156e+002	-1.141638e+001	4.638957e+000
1922183.709	-1.093910e+001	-3.792756e+001	-2.057832e+001	-1.702838e+002	-2.059817e+001	-1.704185e+002	-1.157917e+001	7.641297e-001
1946620.451	-1.109262e+001	-4.258175e+001	-2.023999e+001	-1.746326e+002	-2.024124e+001	-1.746662e+002	-1.174613e+001	-3.352651e+000
1971057.192	-1.128562e+001	-4.714359e+001	-1.986179e+001	-1.796231e+002	-1.986146e+001	-1.793283e+002	-1.191174e+001	-7.473664e+000
1995493.934	-1.147521e+001	-5.194681e+001	-1.947916e+001	1.757106e+002	-1.952650e+001	1.759774e+002	-1.208508e+001	-1.161823e+001
2019930.676	-1.166288e+001	-5.682976e+001	-1.912375e+001	1.708814e+002	-1.913855e+001	1.710899e+002	-1.225713e+001	-1.582589e+001
2044367.418	-1.185121e+001	-6.174976e+001	-1.881352e+001	1.661099e+002	-1.875840e+001	1.659852e+002	-1.242766e+001	-2.015211e+001
2068804.159	-1.206731e+001	-6.671855e+001	-1.844786e+001	1.609475e+002	-1.838201e+001	1.612470e+002	-1.257091e+001	-2.467357e+001
2093240.901	-1.230643e+001	-7.194385e+001	-1.804191e+001	1.558716e+002	-1.806273e+001	1.558744e+002	-1.271372e+001	-2.894224e+001
2117677.643	-1.257099e+001	-7.736577e+001	-1.766246e+001	1.507614e+002	-1.766751e+001	1.509337e+002	-1.287446e+001	-3.372511e+001
2142114.385	-1.282756e+001	-8.297788e+001	-1.727812e+001	1.456895e+002	-1.733259e+001	1.457732e+002	-1.298391e+001	-3.844166e+001
2166551.127	-1.314443e+001	-8.836550e+001	-1.690990e+001	1.398033e+002	-1.691920e+001	1.402093e+002	-1.314401e+001	-4.335533e+001
2190987.868	-1.347679e+001	-9.392336e+001	-1.651501e+001	1.338785e+002	-1.659089e+001	1.344798e+002	-1.326813e+001	-4.813891e+001
2215424.610	-1.376811e+001	-9.975323e+001	-1.620132e+001	1.281026e+002	-1.621654e+001	1.286171e+002	-1.339775e+001	-5.308968e+001
2239861.352	-1.411786e+001	-1.058690e+002	-1.586324e+001	1.223861e+002	-1.589873e+001	1.224474e+002	-1.351658e+001	-5.796730e+001
2264298.094	-1.448856e+001	-1.118015e+002	-1.554863e+001	1.160617e+002	-1.557708e+001	1.163947e+002	-1.361620e+001	-6.312410e+001
2288734.835	-1.483794e+001	-1.179692e+002	-1.526923e+001	1.098625e+002	-1.529632e+001	1.103073e+002	-1.366668e+001	-6.847445e+001
2313171.577	-1.522002e+001	-1.246473e+002	-1.500734e+001	1.037191e+002	-1.502922e+001	1.040846e+002	-1.370889e+001	-7.374403e+001
2337608.319	-1.561889e+001	-1.312004e+002	-1.473602e+001	9.719536e+001	-1.475550e+001	9.768565e+001	-1.375297e+001	-7.930070e+001
2362045.061	-1.600309e+001	-1.380629e+002	-1.448754e+001	9.080568e+001	-1.452666e+001	9.132406e+001	-1.375365e+001	-8.499292e+001
2386481.802	-1.640346e+001	-1.454557e+002	-1.427101e+001	8.438852e+001	-1.428894e+001	8.488331e+001	-1.375010e+001	-9.089703e+001
2410918.544	-1.671664e+001	-1.529993e+002	-1.411956e+001	7.781601e+001	-1.418211e+001	7.806257e+001	-1.365216e+001	-9.647343e+001
2435355.286	-1.702496e+001	-1.614922e+002	-1.397297e+001	7.159103e+001	-1.397570e+001	7.203336e+001	-1.358271e+001	-1.031854e+002
2459792.028	-1.732974e+001	-1.705592e+002	-1.381542e+001	6.533799e+001	-1.384491e+001	6.592175e+001	-1.344233e+001	-1.097905e+002
2484228.769	-1.770164e+001	1.795872e+002	-1.362630e+001	5.902181e+001	-1.364491e+001	5.943855e+001	-1.340728e+001	-1.167004e+002
2508665.511	-1.802484e+001	1.698785e+002	-1.349413e+001	5.236091e+001	-1.347120e+001	5.304121e+001	-1.330614e+001	-1.237667e+002
2533102.253	-1.832720e+001	1.599724e+002	-1.335271e+001	4.560502e+001	-1.331988e+001	4.617747e+001	-1.325379e+001	-1.307151e+002
2557538.995	-1.853119e+001	1.497297e+002	-1.326256e+001	3.882729e+001	-1.320623e+001	3.938441e+001	-1.317764e+001	-1.378679e+002
2581975.737	-1.868687e+001	1.395364e+002	-1.320871e+001	3.194547e+001	-1.316914e+001	3.259646e+001	-1.308621e+001	-1.447977e+002
2606412.478	-1.866445e+001	1.287308e+002	-1.319826e+001	2.530571e+001	-1.315325e+001	2.550518e+001	-1.299012e+001	-1.517011e+002
2630849.220	-1.856064e+001	1.184911e+002	-1.322957e+001	1.857568e+001	-1.317623e+001	1.877440e+001	-1.288885e+001	-1.586827e+002
2655285.962	-1.832602e+001	1.085231e+002	-1.332394e+001	1.192556e+001	-1.323347e+001	1.262101e+001	-1.272567e+001	-1.660102e+002
2679722.704	-1.805688e+001	9.708633e+001	-1.333217e+001	6.025668e+000	-1.323445e+001	6.220264e+000	-1.264723e+001	-1.737227e+002
2704159.445	-1.785913e+001	8.740407e+001	-1.341069e+001	-5.065596e-001	-1.331959e+001	-3.758031e-001	-1.257239e+001	1.793785e+002
2728596.187	-1.762747e+001	7.773966e+001	-1.345139e+001	-6.884174e+000	-1.336477e+001	-6.666252e+000	-1.254058e+001	1.719417e+002
2753032.929	-1.735267e+001	6.874567e+001	-1.356054e+001	-1.324753e+001	-1.349737e+001	-1.300349e+001	-1.248563e+001	1.651732e+002
2777469.671	-1.704198e+001	6.004865e+001	-1.365082e+001	-1.947682e+001	-1.360590e+001	-1.933109e+001	-1.246998e+001	1.582090e+002
2801906.412	-1.669795e+001	5.241279e+001	-1.385251e+001	-2.552360e+001	-1.376262e+001	-2.540457e+001	-1.244209e+001	1.515521e+002
2826343.154	-1.634746e+001	4.452274e+001	-1.400072e+001	-3.131797e+001	-1.390623e+001	-3.144060e+001	-1.243478e+001	1.451042e+002
2850779.896	-1.606280e+001	3.731220e+001	-1.417709e+001	-3.723960e+001	-1.413721e+001	-3.705497e+001	-1.241027e+001	1.388446e+002
2875216.638	-1.573183e+001	3.034991e+001	-1.436718e+001	-4.274367e+001	-1.432332e+001	-4.262093e+001	-1.240866e+001	1.326308e+002
2899653.380	-1.541786e+001	2.368781e+001	-1.456833e+001	-4.796812e+001	-1.452518e+001	-4.802841e+001	-1.241621e+001	1.266829e+002
2924090.121	-1.512575e+001	1.756702e+001	-1.477826e+001	-5.317210e+001	-1.473315e+001	-5.327581e+001	-1.242802e+001	1.208586e+002
2948526.863	-1.485618e+001	1.158541e+001	-1.497778e+001	-5.826807e+001	-1.494164e+001	-5.833620e+001	-1.243035e+001	1.152121e+002
2972963.605	-1.459195e+001	5.767998e+000	-1.518580e+001	-6.305862e+001	-1.514807e+001	-6.315458e+001	-1.245097e+001	1.096598e+002
2997400.347	-1.434766e+001	1.901460e-001	-1.537531e+001	-6.780856e+001	-1.535366e+001	-6.799304e+001	-1.248300e+001	1.043164e+002
3021837.088	-1.412167e+001	-5.192910e+000	-1.555996e+001	-7.245272e+001	-1.554034e+001	-7.254520e+001	-1.251475e+001	9.905769e+001
3046273.830	-1.389011e+001	-1.026623e+001	-1.576201e+001	-7.684823e+001	-1.573699e+001	-7.709400e+001	-1.254287e+001	9.397785e+001
3070710.572	-1.368602e+001	-1.531554e+001	-1.592495e+001	-8.124442e+001	-1.591151e+001	-8.137712e+001	-1.258865e+001	8.898445e+001
3095147.314	-1.349305e+001	-2.024042e+001	-1.607591e+001	-8.542913e+001	-1.607876e+001	-8.565161e+001	-1.263357e+001	8.414902e+001
3119584.055	-1.331539e+001	-2.487221e+001	-1.624290e+001	-8.962630e+001	-1.623963e+001	-8.972085e+001	-1.266532e+001	7.942549e+001
3144020.797	-1.314660e+001	-2.948788e+001	-1.636352e+001	-9.360353e+001	-1.636842e+001	-9.398194e+001	-1.273650e+001	7.486958e+001
3168457.539	-1.297731e+001	-3.393530e+001	-1.647927e+001	-9.765548e+001	-1.650727e+001	-9.798346e+001	-1.279539e+001	7.041046e+001
3192894.281	-1.284126e+001	-3.816525e+001	-1.660544e+001	-1.017898e+002	-1.663473e+001	-1.020960e+002	-1.284693e+001	6.603421e+001
3217331.023	-1.270768e+001	-4.234673e+001	-1.672414e+001	-1.057741e+002	-1.674170e+001	-1.060289e+002	-1.292329e+001	6.185235e+001
3241767.764	-1.257278e+001	-4.642555e+001	-1.682280e+001	-1.097155e+002	-1.685988e+001	-1.099669e+002	-1.299635e+001	5.775308e+001
3266204.506	-1.245654e+001	-5.040466e+001	-1.694132e+001	-1.137083e+002	-1.696089e+001	-1.137877e+002	-1.305211e+001	5.376529e+001
3290641.248	-1.233012e+001	-5.428058e+001	-1.702768e+001	-1.174294e+002	-1.705462e+001	-1.175625e+002	-1.310471e+001	4.992375e+001
3315077.990	-1.221330e+001	-5.809605e+001	-1.711072e+001	-1.211332e+002	-1.714836e+001	-1.212032e+002	-1.316204e+001	4.594723e+001
3339514.731	-1.210605e+001	-6.188237e+001	-1.716194e+001	-1.248282e+002	-1.719863e+001	-1.249567e+002	-1.322178e+001	4.215151e+001
3363951.473	-1.201147e+001	-6.571545e+001	-1.719565e+001	-1.285854e+002	-1.725381e+001	-1.286823e+002	-1.329624e+001	3.842756e+001
3388388.215	-1.192117e+001	-6.934315e+001	-1.722547e+001	-1.322795e+002	-1.729411e+001	-1.324505e+002	-1.337817e+001	3.477680e+001
3412824.957	-1.183936e+001	-7.289586e+001	-1.726243e+001	-1.361446e+002	-1.732495e+001	-1.361662e+002	-1.345479e+001	3.121472e+001
3437261.698	-1.177110e+001	-7.633639e+001	-1.729567e+001	-1.399509e+002	-1.734974e+001	-1.399268e+002	-1.354608e+001	2.776443e+001
3461698.440	-1.170121e+001	-7.982956e+001	-1.731059e+001	-1.435712e+002	-1.738412e+001	-1.436434e+002	-1.362281e+001	2.444863e+001
3486135.182	-1.165729e+001	-8.310802e+001	-1.732051e+001	-1.474621e+002	-1.738962e+001	-1.473614e+002	-1.370364e+001	2.112722e+001
3510571.924	-1.160061e+001	-8.643879e+001	-1.733665e+001	-1.511602e+002	-1.740327e+001	-1.510480e+002	-1.377501e+001	1.803275e+001
3535008.666	-1.155436e+001	-8.964025e+001	-1.733535e+001	-1.548949e+002	-1.740449e+001	-1.548158e+002	-1.385481e+001	1.492283e+001
3559445.407	-1.150079e+001	-9.280515e+001	-1.732031e+001	-1.587064e+002	-1.739713e+001	-1.585537e+002	-1.392538e+001	1.204083e+001
3583882.149	-1.146104e+001	-9.589347e+001	-1.731864e+001	-1.624257e+002	-1.740189e+001	-1.622023e+002	-1.400125e+001	9.132306e+000
3608318.891	-1.141807e+001	-9.889514e+001	-1.729826e+001	-1.661085e+002	-1.736857e+001	-1.660330e+002	-1.405430e+001	6.234552e+000
3632755.633	-1.138495e+001	-1.018940e+002	-1.725811e+001	-1.700196e+002	-1.733025e+001	-1.696980e+002	-1.412038e+001	3.347381e+000
3657192.374	-1.134901e+001	-1.048476e+002	-1.720242e+001	-1.738112e+002	-1.729813e+001	-1.735594e+002	-1.418283e+001	6.413881e-001
3681629.116	-1.131329e+001	-1.077869e+002	-1.714043e+001	-1.776539e+002	-1.723589e+001	-1.773715e+002	-1.424509e+001	-2.177113e+000
3706065.858	-1.129544e+001	-1.106534e+002	-1.708212e+001	1.782440e+002	-1.716082e+001	1.786210e+002	-1.432316e+001	-4.810475e+000
3730502.600	-1.127869e+001	-1.134415e+002	-1.703305e+001	1.741022e+002	-1.712061e+001	1.745786e+002	-1.436980e+001	-7.381841e+000
3754939.341	-1.126332e+001	-1.161609e+002	-1.698709e+001	1.698071e+002	-1.706360e+001	1.702361e+002	-1.444749e+001	-9.736666e+000
3779376.083	-1.125236e+001	-1.187323e+002	-1.696460e+001	1.655550e+002	-1.702592e+001	1.659735e+002	-1.450690e+001	-1.208038e+001
3803812.825	-1.122900e+001	-1.212998e+002	-1.694421e+001	1.613567e+002	-1.703417e+001	1.616789e+002	-1.453155e+001	-1.416940e+001
3828249.567	-1.120174e+001	-1.237389e+002	-1.695945e+001	1.570348e+002	-1.703977e+001	1.573074e+002	-1.454917e+001	-1.630064e+001
3852686.308	-1.116865e+001	-1.261634e+002	-1.697135e+001	1.527948e+002	-1.706579e+001	1.531748e+002	-1.454545e+001	-1.834166e+001
3877123.050	-1.114322e+001	-1.284748e+002	-1.701350e+001	1.483783e+002	-1.708379e+001	1.487714e+002	-1.454818e+001	-2.037259e+001
3901559.792	-1.109068e+001	-1.307731e+002	-1.705807e+001	1.442327e+002	-1.716244e+001	1.445136e+002	-1.450330e+001	-2.225743e+001
3925996.534	-1.102877e+001	-1.329283e+002	-1.716737e+001	1.398814e+002	-1.721337e+001	1.404635e+002	-1.444047e+001	-2.431905e+001
3950433.276	-1.092405e+001	-1.352986e+002	-1.727388e+001	1.361962e+002	-1.733627e+001	1.369475e+002	-1.430625e+001	-2.657479e+001
3974870.017	-1.079935e+001	-1.377612e+002	-1.740335e+001	1.328854e+002	-1.745391e+001	1.336603e+002	-1.415721e+001	-2.893947e+001
3999306.759	-1.068067e+001	-1.405041e+002	-1.746557e+001	1.299854e+002	-1.753459e+001	1.306716e+002	-1.402022e+001	-3.160361e+001
4023743.501	-1.054852e+001	-1.433964e+002	-1.754162e+001	1.273048e+002	-1.755899e+001	1.279563e+002	-1.388154e+001	-3.447723e+001
4048180.243	-1.045665e+001	-1.466205e+002	-1.750126e+001	1.249561e+002	-1.755724e+001	1.255720e+002	-1.375041e+001	-3.760471e+001
4072616.984	-1.039239e+001	-1.498161e+002	-1.740925e+001	1.222393e+002	-1.745343e+001	1.230695e+002	-1.366390e+001	-4.097250e+001
4097053.726	-1.035847e+001	-1.531601e+002	-1.725576e+001	1.196316e+002	-1.732620e+001	1.203612e+002	-1.360797e+001	-4.417286e+001
4121490.468	-1.035211e+001	-1.565492e+002	-1.705015e+001	1.168052e+002	-1.710210e+001	1.175605e+002	-1.359812e+001	-4.766884e+001
4145927.210	-1.037751e+001	-1.598509e+002	-1.683813e+001	1.136617e+002	-1.689676e+001	1.144692e+002	-1.357280e+001	-5.101412e+001
4170363.951	-1.042285e+001	-1.631771e+002	-1.658553e+001	1.103362e+002	-1.664679e+001	1.111013e+002	-1.359932e+001	-5.438891e+001
4194800.693	-1.050342e+001	-1.664182e+002	-1.632911e+001	1.067573e+002	-1.638737e+001	1.073311e+002	-1.365037e+001	-5.759669e+001
4219237.435	-1.060749e+001	-1.694212e+002	-1.609459e+001	1.026327e+002	-1.611294e+001	1.034788e+002	-1.373388e+001	-6.082469e+001
4243674.177	-1.074091e+001	-1.724100e+002	-1.583842e+001	9.841022e+001	-1.586991e+001	9.935471e+001	-1.380288e+001	-6.380648e+001
4268110.919	-1.086962e+001	-1.751285e+002	-1.562453e+001	9.400907e+001	-1.562669e+001	9.488688e+001	-1.390779e+001	-6.671243e+001
4292547.660	-1.102780e+001	-1.778797e+002	-1.539405e+001	8.958772e+001	-1.542444e+001	9.049909e+001	-1.398153e+001	-6.947199e+001
4316984.402	-1.117513e+001	1.796239e+002	-1.519778e+001	8.498295e+001	-1.520317e+001	8.592300e+001	-1.408339e+001	-7.217469e+001
4341421.144	-1.132269e+001	1.772496e+002	-1.502594e+001	8.034037e+001	-1.502609e+001	8.123146e+001	-1.416318e+001	-7.475165e+001
4365857.886	-1.148280e+001	1.750093e+002	-1.486340e+001	7.548584e+001	-1.486433e+001	7.637270e+001	-1.425396e+001	-7.711271e+001
4390294.627	-1.163756e+001	1.729167e+002	-1.471527e+001	7.060001e+001	-1.470796e+001	7.154024e+001	-1.432954e+001	-7.947828e+001
4414731.369	-1.177066e+001	1.708599e+002	-1.459179e+001	6.586772e+001	-1.457478e+001	6.669265e+001	-1.438255e+001	-8.177737e+001
4439168.111	-1.191084e+001	1.689421e+002	-1.446309e+001	6.086869e+001	-1.445232e+001	6.173951e+001	-1.442983e+001	-8.403311e+001
4463604.853	-1.203039e+001	1.670124e+002	-1.436402e+001	5.611188e+001	-1.436579e+001	5.697844e+001	-1.445140e+001	-8.633733e+001
4488041.594	-1.212880e+001	1.651408e+002	-1.430012e+001	5.124195e+001	-1.427167e+001	5.207843e+001	-1.446156e+001	-8.858556e+001
4512478.336	-1.222181e+001	1.630791e+002	-1.421764e+001	4.653290e+001	-1.418662e+001	4.733078e+001	-1.446155e+001	-9.104182e+001
4536915.078	-1.231971e+001	1.612307e+002	-1.414269e+001	4.164014e+001	-1.410585e+001	4.247162e+001	-1.447807e+001	-9.341908e+001
4561351.820	-1.242406e+001	1.591969e+002	-1.406245e+001	3.695519e+001	-1.403628e+001	3.773393e+001	-1.446491e+001	-9.597619e+001
4585788.562	-1.249067e+001	1.572321e+002	-1.403446e+001	3.215881e+001	-1.398955e+001	3.285323e+001	-1.443955e+001	-9.838257e+001
4610225.303	-1.256277e+001	1.550960e+002	-1.400011e+001	2.736141e+001	-1.396050e+001	2.803605e+001	-1.438714e+001	-1.008940e+002
4634662.045	-1.265599e+001	1.526968e+002	-1.397651e+001	2.288339e+001	-1.394485e+001	2.355956e+001	-1.432107e+001	-1.038032e+002
4659098.787	-1.275102e+001	1.500685e+002	-1.395417e+001	1.853769e+001	-1.390267e+001	1.921068e+001	-1.428433e+001	-1.070198e+002
4683535.529	-1.288537e+001	1.474474e+002	-1.392260e+001	1.420722e+001	-1.388209e+001	1.495812e+001	-1.422189e+001	-1.104683e+002
4707972.270	-1.306972e+001	1.446081e+002	-1.387063e+001	1.013099e+001	-1.382730e+001	1.077407e+001	-1.420421e+001	-1.139911e+002
4732409.012	-1.328789e+001	1.419014e+002	-1.379914e+001	5.966890e+000	-1.374085e+001	6.554823e+000	-1.422037e+001	-1.177381e+002
4756845.754	-1.356817e+001	1.393699e+002	-1.367783e+001	1.648501e+000	-1.362361e+001	2.348751e+000	-1.428529e+001	-1.216513e+002
4781282.496	-1.387795e+001	1.368623e+002	-1.356710e+001	-2.597856e+000	-1.350735e+001	-2.021628e+000	-1.436874e+001	-1.255406e+002
4805719.237	-1.423808e+001	1.346278e+002	-1.342281e+001	-6.941500e+000	-1.335754e+001	-6.605225e+000	-1.451738e+001	-1.293923e+002
4830155.979	-1.459354e+001	1.327269e+002	-1.328636e+001	-1.162853e+001	-1.323085e+001	-1.118268e+001	-1.466332e+001	-1.332897e+002
4854592.721	-1.495868e+001	1.310624e+002	-1.315402e+001	-1.646660e+001	-1.310485e+001	-1.592042e+001	-1.484489e+001	-1.371088e+002
4879029.463	-1.534092e+001	1.293438e+002	-1.304315e+001	-2.127488e+001	-1.298888e+001	-2.087694e+001	-1.503420e+001	-1.408289e+002
4903466.205	-1.572165e+001	1.280326e+002	-1.293056e+001	-2.628684e+001	-1.287750e+001	-2.579094e+001	-1.525492e+001	-1.445655e+002
4927902.946	-1.613214e+001	1.267680e+002	-1.282764e+001	-3.120265e+001	-1.278489e+001	-3.086643e+001	-1.549064e+001	-1.481930e+002
4952339.688	-1.653358e+001	1.256078e+002	-1.275564e+001	-3.631895e+001	-1.270458e+001	-3.593138e+001	-1.573169e+001	-1.518230e+002
4976776.430	-1.698059e+001	1.245293e+002	-1.268764e+001	-4.132103e+001	-1.262911e+001	-4.098675e+001	-1.599150e+001	-1.556022e+002
5001213.172	-1.744026e+001	1.238232e+002	-1.261940e+001	-4.643975e+001	-1.257558e+001	-4.609639e+001	-1.626301e+001	-1.591978e+002
5025649.913	-1.791520e+001	1.233373e+002	-1.256451e+001	-5.159546e+001	-1.252644e+001	-5.110577e+001	-1.656916e+001	-1.629741e+002
5050086.655	-1.843632e+001	1.229939e+002	-1.253166e+001	-5.661384e+001	-1.249382e+001	-5.626593e+001	-1.686532e+001	-1.666496e+002
5074523.397	-1.896557e+001	1.230810e+002	-1.249942e+001	-6.170620e+001	-1.246571e+001	-6.137513e+001	-1.718960e+001	-1.702922e+002
5098960.139	-1.950279e+001	1.235204e+002	-1.247836e+001	-6.685690e+001	-1.244892e+001	-6.647034e+001	-1.752549e+001	-1.739933e+002
5123396.880	-2.008459e+001	1.244179e+002	-1.247886e+001	-7.196067e+001	-1.244237e+001	-7.161540e+001	-1.790193e+001	-1.776297e+002
5147833.622	-2.070063e+001	1.259531e+002	-1.248319e+001	-7.698210e+001	-1.245301e+001	-7.664521e+001	-1.824377e+001	1.786362e+002
5172270.364	-2.129650e+001	1.282649e+002	-1.249172e+001	-8.201849e+001	-1.246787e+001	-8.161450e+001	-1.862357e+001	1.746617e+002
5196707.106	-2.189955e+001	1.316006e+002	-1.250636e+001	-8.685600e+001	-1.249274e+001	-8.657934e+001	-1.901140e+001	1.706478e+002
5221143.847	-2.242156e+001	1.360484e+002	-1.252387e+001	-9.170138e+001	-1.251613e+001	-9.145228e+001	-1.945746e+001	1.665277e+002
5245580.589	-2.278804e+001	1.412376e+002	-1.254514e+001	-9.657420e+001	-1.254456e+001	-9.627101e+001	-1.991360e+001	1.622474e+002
5270017.331	-2.293450e+001	1.472023e+002	-1.256924e+001	-1.014490e+002	-1.256361e+001	-1.011168e+002	-2.043695e+001	1.579887e+002
5294454.073	-2.290945e+001	1.534173e+002	-1.260234e+001	-1.062512e+002	-1.258373e+001	-1.059563e+002	-2.099499e+001	1.536696e+002
5318890.815	-2.262497e+001	1.591906e+002	-1.263037e+001	-1.110898e+002	-1.262476e+001	-1.107171e+002	-2.153732e+001	1.490860e+002
5343327.556	-2.215760e+001	1.642425e+002	-1.265409e+001	-1.158324e+002	-1.265389e+001	-1.154739e+002	-2.214996e+001	1.444723e+002
5367764.298	-2.157653e+001	1.683189e+002	-1.268595e+001	-1.206258e+002	-1.268932e+001	-1.202784e+002	-2.279158e+001	1.398131e+002
5392201.040	-2.091023e+001	1.713787e+002	-1.271351e+001	-1.253567e+002	-1.272577e+001	-1.250224e+002	-2.345589e+001	1.351041e+002
5416637.782	-2.024691e+001	1.735640e+002	-1.276033e+001	-1.300569e+002	-1.275740e+001	-1.296938e+002	-2.416559e+001	1.297313e+002
5441074.523	-1.957144e+001	1.748673e+002	-1.280080e+001	-1.347824e+002	-1.280657e+001	-1.344134e+002	-2.487509e+001	1.246803e+002
