!Agilent Technologies,E5061B,MY49101568,A.02.00
!Date: Wed Mar 01 12:24:36 2023
!Data & Calibration Information:
!Freq	S11:SOLT2(OFF)	S21:SOLT2(OFF)	S12:SOLT2(OFF)	S22:SOLT2(OFF)
# Hz S dB R 50
1800000.000	-1.157358e+001	3.433174e+001	-1.085721e+001	1.409988e+002	-1.079000e+001	1.411945e+002	-1.130893e+001	8.056893e+001
1824436.742	-1.142450e+001	2.941261e+001	-1.111111e+001	1.360343e+002	-1.104083e+001	1.360828e+002	-1.123637e+001	7.518247e+001
1848873.484	-1.133658e+001	2.493235e+001	-1.129999e+001	1.315213e+002	-1.122627e+001	1.311615e+002	-1.119507e+001	7.036065e+001
1873310.225	-1.122793e+001	2.054685e+001	-1.144595e+001	1.267895e+002	-1.141391e+001	1.266846e+002	-1.121653e+001	6.553328e+001
1897746.967	-1.116760e+001	1.608007e+001	-1.161403e+001	1.223444e+002	-1.159129e+001	1.222470e+002	-1.124406e+001	6.075517e+001
1922183.709	-1.110598e+001	1.167688e+001	-1.173924e+001	1.178777e+002	-1.174420e+001	1.179514e+002	-1.130887e+001	5.604340e+001
1946620.451	-1.112497e+001	7.011845e+000	-1.189644e+001	1.139597e+002	-1.182434e+001	1.133038e+002	-1.130907e+001	5.175773e+001
1971057.192	-1.103900e+001	2.677085e+000	-1.198004e+001	1.092423e+002	-1.198023e+001	1.095863e+002	-1.145332e+001	4.696282e+001
1995493.934	-1.105963e+001	-1.818087e+000	-1.207882e+001	1.052143e+002	-1.207092e+001	1.052069e+002	-1.150822e+001	4.237730e+001
2019930.676	-1.110656e+001	-6.161749e+000	-1.213030e+001	1.014184e+002	-1.215423e+001	1.013537e+002	-1.163155e+001	3.780805e+001
2044367.418	-1.116854e+001	-1.103544e+001	-1.224229e+001	9.769765e+001	-1.220126e+001	9.777077e+001	-1.180216e+001	3.341210e+001
2068804.159	-1.126630e+001	-1.520857e+001	-1.222305e+001	9.422742e+001	-1.214303e+001	9.434853e+001	-1.198360e+001	2.939001e+001
2093240.901	-1.129786e+001	-1.900288e+001	-1.212809e+001	9.023534e+001	-1.209334e+001	8.986563e+001	-1.204991e+001	2.523384e+001
2117677.643	-1.136097e+001	-2.319190e+001	-1.206670e+001	8.637022e+001	-1.208054e+001	8.580496e+001	-1.216823e+001	2.073688e+001
2142114.385	-1.137696e+001	-2.767258e+001	-1.201501e+001	8.202556e+001	-1.200962e+001	8.185453e+001	-1.231744e+001	1.641317e+001
2166551.127	-1.143913e+001	-3.218564e+001	-1.196698e+001	7.791748e+001	-1.197692e+001	7.789143e+001	-1.247221e+001	1.164203e+001
2190987.868	-1.149829e+001	-3.683032e+001	-1.189500e+001	7.373006e+001	-1.192217e+001	7.388890e+001	-1.263951e+001	6.820486e+000
2215424.610	-1.162099e+001	-4.148257e+001	-1.182880e+001	6.977117e+001	-1.184556e+001	6.966363e+001	-1.279682e+001	1.933255e+000
2239861.352	-1.174920e+001	-4.652984e+001	-1.177222e+001	6.565104e+001	-1.175854e+001	6.576863e+001	-1.301664e+001	-3.126642e+000
2264298.094	-1.192789e+001	-5.132157e+001	-1.164545e+001	6.172674e+001	-1.164910e+001	6.179343e+001	-1.325662e+001	-8.132380e+000
2288734.835	-1.212022e+001	-5.592384e+001	-1.149957e+001	5.770580e+001	-1.151995e+001	5.793137e+001	-1.354413e+001	-1.331829e+001
2313171.577	-1.235544e+001	-6.098432e+001	-1.136765e+001	5.359760e+001	-1.137837e+001	5.369250e+001	-1.380094e+001	-1.865607e+001
2337608.319	-1.261929e+001	-6.554453e+001	-1.117413e+001	4.947036e+001	-1.117348e+001	4.948529e+001	-1.414323e+001	-2.397192e+001
2362045.061	-1.281631e+001	-7.011166e+001	-1.095524e+001	4.470849e+001	-1.100217e+001	4.513415e+001	-1.447663e+001	-2.931080e+001
2386481.802	-1.312900e+001	-7.483929e+001	-1.075264e+001	4.030336e+001	-1.079029e+001	4.059706e+001	-1.485425e+001	-3.471293e+001
2410918.544	-1.342320e+001	-7.986542e+001	-1.056118e+001	3.552586e+001	-1.057950e+001	3.604117e+001	-1.525693e+001	-4.037803e+001
2435355.286	-1.373451e+001	-8.465507e+001	-1.034752e+001	3.048387e+001	-1.037018e+001	3.112862e+001	-1.569650e+001	-4.615259e+001
2459792.028	-1.411688e+001	-8.969538e+001	-1.015596e+001	2.547137e+001	-1.017487e+001	2.588212e+001	-1.610210e+001	-5.191647e+001
2484228.769	-1.454666e+001	-9.486462e+001	-9.981776e+000	2.022895e+001	-9.975215e+000	2.056037e+001	-1.657135e+001	-5.789266e+001
2508665.511	-1.501523e+001	-9.998760e+001	-9.813438e+000	1.496272e+001	-9.807558e+000	1.528045e+001	-1.711048e+001	-6.436039e+001
2533102.253	-1.556582e+001	-1.053020e+002	-9.658490e+000	9.557355e+000	-9.666478e+000	9.824152e+000	-1.769701e+001	-7.118471e+001
2557538.995	-1.618648e+001	-1.107225e+002	-9.527370e+000	3.977297e+000	-9.552128e+000	4.256712e+000	-1.832284e+001	-7.839888e+001
2581975.737	-1.692372e+001	-1.162311e+002	-9.420159e+000	-1.580178e+000	-9.444828e+000	-1.349317e+000	-1.901175e+001	-8.584843e+001
2606412.478	-1.772559e+001	-1.214335e+002	-9.316693e+000	-7.305216e+000	-9.349957e+000	-6.963428e+000	-1.979597e+001	-9.365940e+001
2630849.220	-1.877228e+001	-1.266713e+002	-9.245427e+000	-1.284281e+001	-9.254271e+000	-1.253111e+001	-2.075192e+001	-1.016503e+002
2655285.962	-1.986931e+001	-1.315016e+002	-9.183618e+000	-1.855274e+001	-9.196491e+000	-1.822071e+001	-2.166669e+001	-1.103822e+002
2679722.704	-2.120458e+001	-1.359113e+002	-9.145315e+000	-2.421961e+001	-9.111766e+000	-2.383048e+001	-2.303905e+001	-1.188533e+002
2704159.445	-2.274748e+001	-1.389181e+002	-9.091253e+000	-2.978125e+001	-9.097390e+000	-2.928621e+001	-2.429937e+001	-1.295812e+002
2728596.187	-2.457565e+001	-1.416442e+002	-9.087967e+000	-3.541095e+001	-9.070816e+000	-3.513411e+001	-2.568613e+001	-1.387367e+002
2753032.929	-2.667121e+001	-1.420255e+002	-9.077915e+000	-4.110820e+001	-9.070333e+000	-4.084554e+001	-2.714169e+001	-1.497268e+002
2777469.671	-2.914353e+001	-1.383951e+002	-9.081338e+000	-4.668210e+001	-9.079688e+000	-4.644777e+001	-2.883786e+001	-1.626594e+002
2801906.412	-3.231695e+001	-1.273303e+002	-9.109758e+000	-5.206750e+001	-9.099235e+000	-5.190063e+001	-3.067594e+001	-1.779173e+002
2826343.154	-3.473709e+001	-1.040746e+002	-9.162252e+000	-5.763963e+001	-9.164428e+000	-5.735679e+001	-3.197535e+001	1.639783e+002
2850779.896	-3.412406e+001	-7.093386e+001	-9.221260e+000	-6.288524e+001	-9.202222e+000	-6.272883e+001	-3.351861e+001	1.434221e+002
2875216.638	-3.164619e+001	-5.389897e+001	-9.287748e+000	-6.816618e+001	-9.267320e+000	-6.798674e+001	-3.391167e+001	1.203590e+002
2899653.380	-2.912785e+001	-4.733751e+001	-9.338358e+000	-7.337039e+001	-9.336340e+000	-7.306001e+001	-3.364612e+001	9.801243e+001
2924090.121	-2.723049e+001	-4.573494e+001	-9.416149e+000	-7.841370e+001	-9.405292e+000	-7.820004e+001	-3.320811e+001	7.913932e+001
2948526.863	-2.564226e+001	-4.654225e+001	-9.481112e+000	-8.334722e+001	-9.476507e+000	-8.315690e+001	-3.245830e+001	6.334200e+001
2972963.605	-2.443190e+001	-4.891078e+001	-9.536646e+000	-8.836399e+001	-9.531731e+000	-8.808878e+001	-3.176934e+001	4.879832e+001
2997400.347	-2.337768e+001	-5.200326e+001	-9.599072e+000	-9.310439e+001	-9.593801e+000	-9.292606e+001	-3.099279e+001	3.644482e+001
3021837.088	-2.257908e+001	-5.522646e+001	-9.656682e+000	-9.791940e+001	-9.640324e+000	-9.768387e+001	-3.037038e+001	2.464484e+001
3046273.830	-2.189020e+001	-5.908012e+001	-9.690633e+000	-1.026373e+002	-9.698971e+000	-1.024019e+002	-2.990931e+001	1.535705e+001
3070710.572	-2.128593e+001	-6.309499e+001	-9.733373e+000	-1.072099e+002	-9.731982e+000	-1.070539e+002	-2.944890e+001	4.728078e+000
3095147.314	-2.083667e+001	-6.724004e+001	-9.745674e+000	-1.118258e+002	-9.749535e+000	-1.116925e+002	-2.901030e+001	-6.111815e+000
3119584.055	-2.048157e+001	-7.173000e+001	-9.749601e+000	-1.165034e+002	-9.756525e+000	-1.163085e+002	-2.864629e+001	-1.625041e+001
3144020.797	-2.027312e+001	-7.633371e+001	-9.726715e+000	-1.213080e+002	-9.746991e+000	-1.210926e+002	-2.843186e+001	-2.851559e+001
3168457.539	-2.013241e+001	-8.063194e+001	-9.722029e+000	-1.260602e+002	-9.737209e+000	-1.259542e+002	-2.835247e+001	-4.123563e+001
3192894.281	-2.009917e+001	-8.493588e+001	-9.713954e+000	-1.310763e+002	-9.724989e+000	-1.308195e+002	-2.819978e+001	-5.412691e+001
3217331.023	-2.020831e+001	-8.894541e+001	-9.702402e+000	-1.360996e+002	-9.710924e+000	-1.357894e+002	-2.811911e+001	-6.767813e+001
3241767.764	-2.037448e+001	-9.261953e+001	-9.716684e+000	-1.412062e+002	-9.719805e+000	-1.408977e+002	-2.819713e+001	-8.206669e+001
3266204.506	-2.060850e+001	-9.602049e+001	-9.726570e+000	-1.462291e+002	-9.727091e+000	-1.459662e+002	-2.809274e+001	-9.620962e+001
3290641.248	-2.087472e+001	-9.882923e+001	-9.751744e+000	-1.512567e+002	-9.750977e+000	-1.509407e+002	-2.789186e+001	-1.102238e+002
3315077.990	-2.120607e+001	-1.020098e+002	-9.747341e+000	-1.562537e+002	-9.751226e+000	-1.559636e+002	-2.735757e+001	-1.229814e+002
3339514.731	-2.171242e+001	-1.047754e+002	-9.738794e+000	-1.615132e+002	-9.749014e+000	-1.612348e+002	-2.655546e+001	-1.375705e+002
3363951.473	-2.238501e+001	-1.065913e+002	-9.760219e+000	-1.668218e+002	-9.761776e+000	-1.666223e+002	-2.567335e+001	-1.516827e+002
3388388.215	-2.323864e+001	-1.068148e+002	-9.796596e+000	-1.724198e+002	-9.801879e+000	-1.721487e+002	-2.480229e+001	-1.654317e+002
3412824.957	-2.412283e+001	-1.050368e+002	-9.860690e+000	-1.779508e+002	-9.862366e+000	-1.776309e+002	-2.390537e+001	-1.782903e+002
3437261.698	-2.495228e+001	-1.009706e+002	-9.947055e+000	1.765915e+002	-9.947214e+000	1.767858e+002	-2.300064e+001	1.695073e+002
3461698.440	-2.553553e+001	-9.368878e+001	-1.008123e+001	1.710087e+002	-1.006716e+001	1.711601e+002	-2.214437e+001	1.577959e+002
3486135.182	-2.558988e+001	-8.454970e+001	-1.022580e+001	1.655689e+002	-1.021583e+001	1.657309e+002	-2.140968e+001	1.470646e+002
3510571.924	-2.512200e+001	-7.612899e+001	-1.040115e+001	1.602306e+002	-1.039124e+001	1.603611e+002	-2.068565e+001	1.368291e+002
3535008.666	-2.412657e+001	-6.963762e+001	-1.059713e+001	1.550003e+002	-1.059021e+001	1.550963e+002	-2.007519e+001	1.271851e+002
3559445.407	-2.300443e+001	-6.566432e+001	-1.081207e+001	1.499252e+002	-1.079605e+001	1.500586e+002	-1.950721e+001	1.183925e+002
3583882.149	-2.190252e+001	-6.386237e+001	-1.103099e+001	1.450894e+002	-1.103131e+001	1.452050e+002	-1.901691e+001	1.097983e+002
3608318.891	-2.086445e+001	-6.362230e+001	-1.124450e+001	1.404096e+002	-1.124107e+001	1.404959e+002	-1.857671e+001	1.022413e+002
3632755.633	-1.989118e+001	-6.421440e+001	-1.146023e+001	1.356745e+002	-1.147197e+001	1.357621e+002	-1.810316e+001	9.479934e+001
3657192.374	-1.897447e+001	-6.560691e+001	-1.167341e+001	1.310996e+002	-1.168323e+001	1.312626e+002	-1.772925e+001	8.809852e+001
3681629.116	-1.813246e+001	-6.760411e+001	-1.190650e+001	1.265791e+002	-1.192358e+001	1.266814e+002	-1.728572e+001	8.117119e+001
3706065.858	-1.732448e+001	-7.002109e+001	-1.215492e+001	1.220778e+002	-1.217552e+001	1.221978e+002	-1.690417e+001	7.451823e+001
3730502.600	-1.657691e+001	-7.294923e+001	-1.241764e+001	1.177858e+002	-1.243140e+001	1.178241e+002	-1.655164e+001	6.821382e+001
3754939.341	-1.589551e+001	-7.621450e+001	-1.269842e+001	1.136051e+002	-1.272792e+001	1.136838e+002	-1.623157e+001	6.160926e+001
3779376.083	-1.528090e+001	-7.990140e+001	-1.299207e+001	1.096824e+002	-1.300971e+001	1.097820e+002	-1.597838e+001	5.538409e+001
3803812.825	-1.474834e+001	-8.371363e+001	-1.329170e+001	1.060679e+002	-1.331553e+001	1.061872e+002	-1.579248e+001	4.912780e+001
3828249.567	-1.429897e+001	-8.766169e+001	-1.355980e+001	1.027718e+002	-1.360564e+001	1.027149e+002	-1.560175e+001	4.330462e+001
3852686.308	-1.385611e+001	-9.170951e+001	-1.386076e+001	9.949024e+001	-1.388819e+001	9.960682e+001	-1.546365e+001	3.744892e+001
3877123.050	-1.347731e+001	-9.577869e+001	-1.414328e+001	9.657698e+001	-1.417377e+001	9.673194e+001	-1.534791e+001	3.173770e+001
3901559.792	-1.316875e+001	-1.000633e+002	-1.440401e+001	9.413881e+001	-1.445668e+001	9.422893e+001	-1.527872e+001	2.600372e+001
3925996.534	-1.289562e+001	-1.045392e+002	-1.467788e+001	9.216226e+001	-1.471460e+001	9.227826e+001	-1.526469e+001	2.028863e+001
3950433.276	-1.272901e+001	-1.089663e+002	-1.482449e+001	9.073914e+001	-1.486687e+001	9.085072e+001	-1.535135e+001	1.491341e+001
3974870.017	-1.265263e+001	-1.131956e+002	-1.486623e+001	8.961252e+001	-1.493881e+001	8.963295e+001	-1.549827e+001	9.840118e+000
3999306.759	-1.267218e+001	-1.170418e+002	-1.476707e+001	8.826113e+001	-1.487413e+001	8.848776e+001	-1.571719e+001	5.286487e+000
4023743.501	-1.270401e+001	-1.206002e+002	-1.460878e+001	8.661023e+001	-1.468728e+001	8.693330e+001	-1.598756e+001	1.549904e+000
4048180.243	-1.278906e+001	-1.233968e+002	-1.434608e+001	8.432588e+001	-1.441937e+001	8.463063e+001	-1.624752e+001	-1.309164e+000
4072616.984	-1.287439e+001	-1.256941e+002	-1.405301e+001	8.141286e+001	-1.411655e+001	8.177430e+001	-1.647548e+001	-3.237399e+000
4097053.726	-1.292396e+001	-1.274461e+002	-1.378615e+001	7.789950e+001	-1.386813e+001	7.827504e+001	-1.658275e+001	-4.968232e+000
4121490.468	-1.290912e+001	-1.288211e+002	-1.354359e+001	7.388624e+001	-1.362935e+001	7.436752e+001	-1.660528e+001	-6.266731e+000
4145927.210	-1.282449e+001	-1.300188e+002	-1.334852e+001	6.957191e+001	-1.340902e+001	7.019974e+001	-1.656367e+001	-7.515794e+000
4170363.951	-1.267648e+001	-1.311945e+002	-1.318843e+001	6.507944e+001	-1.325064e+001	6.580710e+001	-1.643063e+001	-8.895238e+000
4194800.693	-1.249179e+001	-1.327148e+002	-1.307042e+001	6.068465e+001	-1.312182e+001	6.124479e+001	-1.623825e+001	-1.039280e+001
4219237.435	-1.229183e+001	-1.341750e+002	-1.295801e+001	5.612473e+001	-1.302184e+001	5.664119e+001	-1.600026e+001	-1.226762e+001
4243674.177	-1.203215e+001	-1.359266e+002	-1.289748e+001	5.146932e+001	-1.296091e+001	5.219305e+001	-1.575270e+001	-1.463387e+001
4268110.919	-1.179153e+001	-1.380074e+002	-1.284728e+001	4.707379e+001	-1.292348e+001	4.765993e+001	-1.549208e+001	-1.710410e+001
4292547.660	-1.154305e+001	-1.404206e+002	-1.284033e+001	4.266342e+001	-1.290893e+001	4.332776e+001	-1.525328e+001	-2.002062e+001
4316984.402	-1.130405e+001	-1.428913e+002	-1.281974e+001	3.838653e+001	-1.287486e+001	3.900971e+001	-1.504047e+001	-2.286767e+001
4341421.144	-1.108163e+001	-1.454594e+002	-1.280570e+001	3.407886e+001	-1.287124e+001	3.475419e+001	-1.482804e+001	-2.594292e+001
4365857.886	-1.088673e+001	-1.482504e+002	-1.279419e+001	2.997948e+001	-1.286401e+001	3.068150e+001	-1.465012e+001	-2.911806e+001
4390294.627	-1.068821e+001	-1.511756e+002	-1.280391e+001	2.579725e+001	-1.286086e+001	2.654259e+001	-1.447143e+001	-3.237402e+001
4414731.369	-1.050937e+001	-1.541267e+002	-1.279852e+001	2.163340e+001	-1.286046e+001	2.249620e+001	-1.431380e+001	-3.574729e+001
4439168.111	-1.035957e+001	-1.572049e+002	-1.280567e+001	1.765306e+001	-1.286133e+001	1.862912e+001	-1.418994e+001	-3.927343e+001
4463604.853	-1.022022e+001	-1.602856e+002	-1.279299e+001	1.361519e+001	-1.285891e+001	1.474111e+001	-1.406441e+001	-4.271067e+001
4488041.594	-1.012516e+001	-1.634350e+002	-1.277922e+001	9.821630e+000	-1.282008e+001	1.078879e+001	-1.397607e+001	-4.600027e+001
4512478.336	-1.004308e+001	-1.665585e+002	-1.274951e+001	5.990423e+000	-1.279650e+001	7.030941e+000	-1.390552e+001	-4.943003e+001
4536915.078	-9.964873e+000	-1.696593e+002	-1.271525e+001	2.019782e+000	-1.274204e+001	3.142646e+000	-1.384059e+001	-5.272030e+001
4561351.820	-9.914333e+000	-1.728394e+002	-1.268154e+001	-1.749231e+000	-1.268976e+001	-6.737924e-001	-1.378828e+001	-5.604350e+001
4585788.562	-9.872145e+000	-1.760636e+002	-1.264886e+001	-5.616546e+000	-1.265642e+001	-4.537603e+000	-1.374334e+001	-5.947673e+001
4610225.303	-9.869730e+000	-1.792369e+002	-1.260741e+001	-9.302072e+000	-1.259812e+001	-8.254298e+000	-1.373226e+001	-6.294329e+001
4634662.045	-9.881245e+000	1.776646e+002	-1.253465e+001	-1.306828e+001	-1.251773e+001	-1.197931e+001	-1.374870e+001	-6.623836e+001
4659098.787	-9.920445e+000	1.747025e+002	-1.243694e+001	-1.675579e+001	-1.242183e+001	-1.582894e+001	-1.377768e+001	-6.943985e+001
4683535.529	-9.953299e+000	1.719000e+002	-1.231315e+001	-2.071846e+001	-1.229736e+001	-1.980687e+001	-1.381246e+001	-7.241995e+001
4707972.270	-9.990040e+000	1.690780e+002	-1.219286e+001	-2.475832e+001	-1.217616e+001	-2.380400e+001	-1.385785e+001	-7.530257e+001
4732409.012	-1.003087e+001	1.662435e+002	-1.207657e+001	-2.890312e+001	-1.205826e+001	-2.799654e+001	-1.388467e+001	-7.818380e+001
4756845.754	-1.007071e+001	1.634532e+002	-1.195195e+001	-3.323232e+001	-1.193204e+001	-3.229037e+001	-1.391322e+001	-8.090496e+001
4781282.496	-1.012385e+001	1.605738e+002	-1.184725e+001	-3.761217e+001	-1.182238e+001	-3.671672e+001	-1.394697e+001	-8.367262e+001
4805719.237	-1.018011e+001	1.576490e+002	-1.175573e+001	-4.207889e+001	-1.172161e+001	-4.111948e+001	-1.397378e+001	-8.654483e+001
4830155.979	-1.025572e+001	1.547233e+002	-1.166294e+001	-4.658013e+001	-1.160874e+001	-4.565795e+001	-1.400557e+001	-8.916964e+001
4854592.721	-1.035635e+001	1.518687e+002	-1.156772e+001	-5.110952e+001	-1.152886e+001	-5.021589e+001	-1.402654e+001	-9.203653e+001
4879029.463	-1.047363e+001	1.489079e+002	-1.149523e+001	-5.563390e+001	-1.144321e+001	-5.478349e+001	-1.405801e+001	-9.484029e+001
4903466.205	-1.060558e+001	1.460387e+002	-1.141774e+001	-6.018769e+001	-1.136650e+001	-5.942789e+001	-1.409980e+001	-9.761716e+001
4927902.946	-1.076024e+001	1.431662e+002	-1.134495e+001	-6.477693e+001	-1.129191e+001	-6.399450e+001	-1.415044e+001	-1.004657e+002
4952339.688	-1.093201e+001	1.403616e+002	-1.127985e+001	-6.950250e+001	-1.122022e+001	-6.865328e+001	-1.420971e+001	-1.032526e+002
4976776.430	-1.113185e+001	1.375477e+002	-1.122348e+001	-7.413288e+001	-1.116663e+001	-7.331698e+001	-1.426878e+001	-1.060322e+002
5001213.172	-1.134617e+001	1.348302e+002	-1.117117e+001	-7.880912e+001	-1.110161e+001	-7.804110e+001	-1.433175e+001	-1.086982e+002
5025649.913	-1.158554e+001	1.322678e+002	-1.111492e+001	-8.346547e+001	-1.105459e+001	-8.276869e+001	-1.439806e+001	-1.114832e+002
5050086.655	-1.184881e+001	1.297084e+002	-1.106796e+001	-8.815539e+001	-1.099624e+001	-8.744689e+001	-1.449284e+001	-1.141508e+002
5074523.397	-1.212525e+001	1.273505e+002	-1.101856e+001	-9.287865e+001	-1.095723e+001	-9.220619e+001	-1.457022e+001	-1.168494e+002
5098960.139	-1.240885e+001	1.250087e+002	-1.098272e+001	-9.765924e+001	-1.091998e+001	-9.698412e+001	-1.464405e+001	-1.194905e+002
5123396.880	-1.272775e+001	1.228423e+002	-1.095767e+001	-1.023979e+002	-1.088233e+001	-1.018099e+002	-1.473005e+001	-1.221058e+002
5147833.622	-1.306734e+001	1.208141e+002	-1.093349e+001	-1.070997e+002	-1.086218e+001	-1.065361e+002	-1.482266e+001	-1.247769e+002
5172270.364	-1.341913e+001	1.189380e+002	-1.091144e+001	-1.118568e+002	-1.084851e+001	-1.113050e+002	-1.491554e+001	-1.275207e+002
5196707.106	-1.379373e+001	1.172217e+002	-1.089775e+001	-1.166096e+002	-1.083236e+001	-1.161031e+002	-1.500832e+001	-1.300853e+002
5221143.847	-1.417268e+001	1.157975e+002	-1.088309e+001	-1.213116e+002	-1.080997e+001	-1.208000e+002	-1.512225e+001	-1.326606e+002
5245580.589	-1.455258e+001	1.145212e+002	-1.086255e+001	-1.260752e+002	-1.080608e+001	-1.255931e+002	-1.522561e+001	-1.352667e+002
5270017.331	-1.495655e+001	1.135287e+002	-1.085836e+001	-1.307641e+002	-1.079070e+001	-1.303807e+002	-1.531712e+001	-1.378194e+002
5294454.073	-1.535341e+001	1.126957e+002	-1.085286e+001	-1.355436e+002	-1.079691e+001	-1.351687e+002	-1.542395e+001	-1.405187e+002
5318890.815	-1.574603e+001	1.120650e+002	-1.085411e+001	-1.403243e+002	-1.078510e+001	-1.399109e+002	-1.552927e+001	-1.430061e+002
5343327.556	-1.614207e+001	1.117003e+002	-1.085445e+001	-1.450610e+002	-1.079613e+001	-1.447158e+002	-1.562761e+001	-1.457171e+002
5367764.298	-1.652276e+001	1.115207e+002	-1.086065e+001	-1.498718e+002	-1.080433e+001	-1.494813e+002	-1.573564e+001	-1.484295e+002
5392201.040	-1.690108e+001	1.116282e+002	-1.087020e+001	-1.545666e+002	-1.081694e+001	-1.543163e+002	-1.581120e+001	-1.511924e+002
5416637.782	-1.726215e+001	1.117410e+002	-1.088233e+001	-1.594106e+002	-1.082705e+001	-1.590957e+002	-1.591989e+001	-1.539288e+002
5441074.523	-1.758850e+001	1.120095e+002	-1.088690e+001	-1.641601e+002	-1.084041e+001	-1.638523e+002	-1.603216e+001	-1.567253e+002
