!Agilent Technologies,E5061B,MY49101568,A.02.00
!Date: Wed Mar 01 12:38:58 2023
!Data & Calibration Information:
!Freq	S11:SOLT2(OFF)	S21:SOLT2(OFF)	S12:SOLT2(OFF)	S22:SOLT2(OFF)
# Hz S dB R 50
1800000.000	-1.371602e+001	-4.315172e+001	-1.179460e+001	-1.437574e+002	-1.181273e+001	-1.437225e+002	-1.492371e+001	-1.588699e+001
1824436.742	-1.477031e+001	-4.899228e+001	-1.132434e+001	-1.513137e+002	-1.133611e+001	-1.511648e+002	-1.612575e+001	-2.224440e+001
1848873.484	-1.607240e+001	-5.437741e+001	-1.089322e+001	-1.591592e+002	-1.091316e+001	-1.589415e+002	-1.762148e+001	-2.827016e+001
1873310.225	-1.765831e+001	-5.852552e+001	-1.053779e+001	-1.672051e+002	-1.055141e+001	-1.669181e+002	-1.948527e+001	-3.334420e+001
1897746.967	-1.956274e+001	-6.076851e+001	-1.024428e+001	-1.752722e+002	-1.024985e+001	-1.750116e+002	-2.183134e+001	-3.669169e+001
1922183.709	-2.183401e+001	-5.947885e+001	-1.000959e+001	1.766045e+002	-1.000120e+001	1.768811e+002	-2.490454e+001	-3.659266e+001
1946620.451	-2.434906e+001	-5.152200e+001	-9.824849e+000	1.685169e+002	-9.810452e+000	1.687280e+002	-2.886926e+001	-2.629604e+001
1971057.192	-2.615743e+001	-3.337129e+001	-9.703879e+000	1.604791e+002	-9.685990e+000	1.606573e+002	-3.179419e+001	7.751057e+000
1995493.934	-2.592051e+001	-1.177363e+001	-9.625436e+000	1.526191e+002	-9.615690e+000	1.527788e+002	-2.958071e+001	4.145914e+001
2019930.676	-2.408770e+001	1.752184e+000	-9.598996e+000	1.449199e+002	-9.585050e+000	1.450711e+002	-2.624023e+001	5.226353e+001
2044367.418	-2.211408e+001	6.177912e+000	-9.613048e+000	1.374408e+002	-9.598882e+000	1.375582e+002	-2.378233e+001	5.277815e+001
2068804.159	-2.051463e+001	5.535403e+000	-9.666143e+000	1.302565e+002	-9.652189e+000	1.303396e+002	-2.203156e+001	4.910238e+001
2093240.901	-1.930749e+001	2.640429e+000	-9.730047e+000	1.234651e+002	-9.728542e+000	1.234683e+002	-2.079801e+001	4.387508e+001
2117677.643	-1.842803e+001	-1.730310e+000	-9.813487e+000	1.170191e+002	-9.814806e+000	1.170348e+002	-1.996161e+001	3.792055e+001
2142114.385	-1.779019e+001	-6.114906e+000	-9.866351e+000	1.108699e+002	-9.868679e+000	1.108824e+002	-1.939389e+001	3.209667e+001
2166551.127	-1.724834e+001	-1.069709e+001	-9.903205e+000	1.047769e+002	-9.907324e+000	1.048100e+002	-1.895179e+001	2.635490e+001
2190987.868	-1.681901e+001	-1.570414e+001	-9.939297e+000	9.879204e+001	-9.947310e+000	9.885045e+001	-1.861349e+001	2.027059e+001
2215424.610	-1.651916e+001	-2.099853e+001	-9.975147e+000	9.297299e+001	-9.976661e+000	9.309013e+001	-1.840831e+001	1.401247e+001
2239861.352	-1.633008e+001	-2.628003e+001	-9.992363e+000	8.734608e+001	-9.991526e+000	8.743467e+001	-1.830024e+001	7.675943e+000
2264298.094	-1.620865e+001	-3.146402e+001	-9.983596e+000	8.176187e+001	-9.987116e+000	8.182766e+001	-1.825440e+001	1.295186e+000
2288734.835	-1.613611e+001	-3.669325e+001	-9.962292e+000	7.619035e+001	-9.968837e+000	7.625005e+001	-1.827109e+001	-5.206554e+000
2313171.577	-1.612448e+001	-4.201315e+001	-9.931870e+000	7.062588e+001	-9.940854e+000	7.070437e+001	-1.834665e+001	-1.192499e+001
2337608.319	-1.617297e+001	-4.741954e+001	-9.892208e+000	6.507225e+001	-9.902875e+000	6.515964e+001	-1.847458e+001	-1.885307e+001
2362045.061	-1.628272e+001	-5.290154e+001	-9.844789e+000	5.954133e+001	-9.855491e+000	5.963037e+001	-1.866141e+001	-2.596536e+001
2386481.802	-1.646544e+001	-5.846232e+001	-9.789942e+000	5.398420e+001	-9.805576e+000	5.408279e+001	-1.889811e+001	-3.344448e+001
2410918.544	-1.671936e+001	-6.400673e+001	-9.724816e+000	4.839631e+001	-9.742047e+000	4.854579e+001	-1.919314e+001	-4.125070e+001
2435355.286	-1.704121e+001	-6.953684e+001	-9.653197e+000	4.277096e+001	-9.667832e+000	4.295559e+001	-1.955231e+001	-4.935611e+001
2459792.028	-1.743426e+001	-7.505288e+001	-9.577960e+000	3.706508e+001	-9.587240e+000	3.727663e+001	-1.995799e+001	-5.774435e+001
2484228.769	-1.790437e+001	-8.063857e+001	-9.504102e+000	3.126107e+001	-9.507265e+000	3.153172e+001	-2.040483e+001	-6.657238e+001
2508665.511	-1.846703e+001	-8.614831e+001	-9.432598e+000	2.542301e+001	-9.433286e+000	2.570701e+001	-2.088628e+001	-7.593313e+001
2533102.253	-1.914479e+001	-9.163567e+001	-9.367721e+000	1.954932e+001	-9.365861e+000	1.981806e+001	-2.141436e+001	-8.584969e+001
2557538.995	-1.993537e+001	-9.691438e+001	-9.307096e+000	1.359742e+001	-9.303151e+000	1.388148e+001	-2.196341e+001	-9.637758e+001
2581975.737	-2.088043e+001	-1.020268e+002	-9.256427e+000	7.592668e+000	-9.250289e+000	7.889909e+000	-2.253193e+001	-1.075716e+002
2606412.478	-2.199316e+001	-1.068218e+002	-9.220100e+000	1.548719e+000	-9.211707e+000	1.862320e+000	-2.308734e+001	-1.194371e+002
2630849.220	-2.332771e+001	-1.111529e+002	-9.195172e+000	-4.515662e+000	-9.186925e+000	-4.207518e+000	-2.360512e+001	-1.319807e+002
2655285.962	-2.496192e+001	-1.145329e+002	-9.186614e+000	-1.056874e+001	-9.174965e+000	-1.026490e+001	-2.407297e+001	-1.451498e+002
2679722.704	-2.697337e+001	-1.163063e+002	-9.189180e+000	-1.661209e+001	-9.175216e+000	-1.630161e+001	-2.446459e+001	-1.588882e+002
2704159.445	-2.949503e+001	-1.146811e+002	-9.199228e+000	-2.259936e+001	-9.188043e+000	-2.231584e+001	-2.476316e+001	-1.727220e+002
2728596.187	-3.248589e+001	-1.062991e+002	-9.226530e+000	-2.859477e+001	-9.212000e+000	-2.829624e+001	-2.494893e+001	1.733911e+002
2753032.929	-3.527213e+001	-8.377337e+001	-9.259495e+000	-3.453123e+001	-9.245889e+000	-3.423280e+001	-2.505154e+001	1.597764e+002
2777469.671	-3.506283e+001	-5.111154e+001	-9.304615e+000	-4.042331e+001	-9.289689e+000	-4.012923e+001	-2.508666e+001	1.467336e+002
2801906.412	-3.243575e+001	-3.169476e+001	-9.352212e+000	-4.625095e+001	-9.340217e+000	-4.596563e+001	-2.508612e+001	1.342719e+002
2826343.154	-2.984951e+001	-2.471167e+001	-9.410417e+000	-5.202338e+001	-9.398310e+000	-5.173857e+001	-2.507186e+001	1.224939e+002
2850779.896	-2.780274e+001	-2.328743e+001	-9.469364e+000	-5.773350e+001	-9.459808e+000	-5.745264e+001	-2.507584e+001	1.114539e+002
2875216.638	-2.621123e+001	-2.463767e+001	-9.534530e+000	-6.341282e+001	-9.524102e+000	-6.310329e+001	-2.511409e+001	1.010554e+002
2899653.380	-2.494201e+001	-2.724644e+001	-9.597562e+000	-6.900550e+001	-9.588670e+000	-6.869070e+001	-2.521373e+001	9.110391e+001
2924090.121	-2.393291e+001	-3.059341e+001	-9.661334e+000	-7.454344e+001	-9.653982e+000	-7.423589e+001	-2.538417e+001	8.169967e+001
2948526.863	-2.312074e+001	-3.433516e+001	-9.722217e+000	-8.002721e+001	-9.718088e+000	-7.971758e+001	-2.562656e+001	7.264775e+001
2972963.605	-2.246802e+001	-3.822606e+001	-9.780843e+000	-8.548011e+001	-9.777723e+000	-8.516633e+001	-2.597621e+001	6.384400e+001
2997400.347	-2.194300e+001	-4.222795e+001	-9.837579e+000	-9.088225e+001	-9.835670e+000	-9.056946e+001	-2.642407e+001	5.525473e+001
3021837.088	-2.152815e+001	-4.641219e+001	-9.883391e+000	-9.626109e+001	-9.884626e+000	-9.593116e+001	-2.699015e+001	4.643512e+001
3046273.830	-2.122987e+001	-5.066687e+001	-9.919718e+000	-1.016421e+002	-9.922121e+000	-1.012982e+002	-2.774359e+001	3.719418e+001
3070710.572	-2.105000e+001	-5.488640e+001	-9.947216e+000	-1.070686e+002	-9.951186e+000	-1.067230e+002	-2.878407e+001	2.720225e+001
3095147.314	-2.098110e+001	-5.889610e+001	-9.976135e+000	-1.125617e+002	-9.978454e+000	-1.121995e+002	-3.018724e+001	1.632627e+001
3119584.055	-2.099741e+001	-6.266622e+001	-1.000504e+001	-1.180879e+002	-1.000836e+001	-1.177233e+002	-3.203901e+001	3.772936e+000
3144020.797	-2.110451e+001	-6.619320e+001	-1.003172e+001	-1.236307e+002	-1.003340e+001	-1.233221e+002	-3.459934e+001	-1.375017e+001
3168457.539	-2.131084e+001	-6.940306e+001	-1.005840e+001	-1.292566e+002	-1.005943e+001	-1.289456e+002	-3.756928e+001	-4.295122e+001
3192894.281	-2.162518e+001	-7.202055e+001	-1.009080e+001	-1.349832e+002	-1.008674e+001	-1.346846e+002	-3.867451e+001	-9.219469e+001
3217331.023	-2.204270e+001	-7.387064e+001	-1.013136e+001	-1.408214e+002	-1.012680e+001	-1.405087e+002	-3.565224e+001	-1.353660e+002
3241767.764	-2.250611e+001	-7.455333e+001	-1.019356e+001	-1.466859e+002	-1.018668e+001	-1.463908e+002	-3.211288e+001	-1.600796e+002
3266204.506	-2.294689e+001	-7.408226e+001	-1.027307e+001	-1.525051e+002	-1.026184e+001	-1.522243e+002	-2.932647e+001	-1.755727e+002
3290641.248	-2.337617e+001	-7.289372e+001	-1.034520e+001	-1.582634e+002	-1.033497e+001	-1.580014e+002	-2.714041e+001	1.735538e+002
3315077.990	-2.382982e+001	-7.058396e+001	-1.040811e+001	-1.641095e+002	-1.039582e+001	-1.638798e+002	-2.521077e+001	1.650839e+002
3339514.731	-2.422533e+001	-6.624693e+001	-1.047996e+001	-1.701598e+002	-1.046600e+001	-1.699532e+002	-2.345283e+001	1.571401e+002
3363951.473	-2.434711e+001	-5.984950e+001	-1.057698e+001	-1.763452e+002	-1.056334e+001	-1.761711e+002	-2.190562e+001	1.492151e+002
3388388.215	-2.400182e+001	-5.271022e+001	-1.070800e+001	1.774071e+002	-1.069376e+001	1.775537e+002	-2.056681e+001	1.412834e+002
3412824.957	-2.322277e+001	-4.645588e+001	-1.087133e+001	1.711348e+002	-1.085688e+001	1.712381e+002	-1.939556e+001	1.334660e+002
3437261.698	-2.214923e+001	-4.220910e+001	-1.107015e+001	1.649019e+002	-1.105712e+001	1.649475e+002	-1.838258e+001	1.257571e+002
3461698.440	-2.096034e+001	-4.020094e+001	-1.130242e+001	1.587415e+002	-1.129533e+001	1.587107e+002	-1.749929e+001	1.181616e+002
3486135.182	-1.977619e+001	-4.011761e+001	-1.157187e+001	1.527094e+002	-1.156735e+001	1.526476e+002	-1.675504e+001	1.107629e+002
3510571.924	-1.869159e+001	-4.147120e+001	-1.186446e+001	1.468817e+002	-1.187299e+001	1.467771e+002	-1.612376e+001	1.035361e+002
3535008.666	-1.772501e+001	-4.381089e+001	-1.217435e+001	1.412975e+002	-1.219375e+001	1.411736e+002	-1.559837e+001	9.666624e+001
3559445.407	-1.687666e+001	-4.670695e+001	-1.248874e+001	1.359251e+002	-1.251648e+001	1.358093e+002	-1.515111e+001	9.019439e+001
3583882.149	-1.612917e+001	-4.983129e+001	-1.279264e+001	1.307244e+002	-1.283089e+001	1.306073e+002	-1.475785e+001	8.412742e+001
3608318.891	-1.544506e+001	-5.310247e+001	-1.309660e+001	1.255885e+002	-1.314293e+001	1.254806e+002	-1.438972e+001	7.836311e+001
3632755.633	-1.482168e+001	-5.656322e+001	-1.339962e+001	1.205503e+002	-1.345711e+001	1.204263e+002	-1.404769e+001	7.277400e+001
3657192.374	-1.424873e+001	-6.010735e+001	-1.370609e+001	1.156225e+002	-1.377357e+001	1.155020e+002	-1.373986e+001	6.739068e+001
3681629.116	-1.371283e+001	-6.374837e+001	-1.402001e+001	1.107552e+002	-1.409493e+001	1.106330e+002	-1.345092e+001	6.211528e+001
3706065.858	-1.321905e+001	-6.746706e+001	-1.433669e+001	1.059735e+002	-1.442212e+001	1.058526e+002	-1.318598e+001	5.695591e+001
3730502.600	-1.276261e+001	-7.126562e+001	-1.466328e+001	1.013033e+002	-1.475923e+001	1.012011e+002	-1.294658e+001	5.187252e+001
3754939.341	-1.234648e+001	-7.511167e+001	-1.499166e+001	9.678134e+001	-1.509660e+001	9.672757e+001	-1.273722e+001	4.691741e+001
3779376.083	-1.196451e+001	-7.893246e+001	-1.531458e+001	9.236563e+001	-1.542806e+001	9.235922e+001	-1.254894e+001	4.210744e+001
3803812.825	-1.161327e+001	-8.272994e+001	-1.563132e+001	8.804370e+001	-1.575418e+001	8.806790e+001	-1.237727e+001	3.743914e+001
3828249.567	-1.127937e+001	-8.651429e+001	-1.595218e+001	8.376261e+001	-1.608323e+001	8.383835e+001	-1.221414e+001	3.287946e+001
3852686.308	-1.096806e+001	-9.030610e+001	-1.627725e+001	7.957695e+001	-1.641357e+001	7.972756e+001	-1.206834e+001	2.839814e+001
3877123.050	-1.067991e+001	-9.409648e+001	-1.660313e+001	7.548501e+001	-1.674227e+001	7.571830e+001	-1.193475e+001	2.402288e+001
3901559.792	-1.041047e+001	-9.787422e+001	-1.693085e+001	7.149804e+001	-1.706853e+001	7.177560e+001	-1.180814e+001	1.975102e+001
3925996.534	-1.015931e+001	-1.016449e+002	-1.725617e+001	6.761564e+001	-1.739532e+001	6.790462e+001	-1.168928e+001	1.555404e+001
3950433.276	-9.922820e+000	-1.053953e+002	-1.758209e+001	6.377928e+001	-1.772485e+001	6.411179e+001	-1.157602e+001	1.142243e+001
3974870.017	-9.702263e+000	-1.091277e+002	-1.791051e+001	6.002076e+001	-1.805871e+001	6.038548e+001	-1.146658e+001	7.347695e+000
3999306.759	-9.492485e+000	-1.128709e+002	-1.824732e+001	5.635564e+001	-1.839337e+001	5.676786e+001	-1.136610e+001	3.347751e+000
4023743.501	-9.297549e+000	-1.165944e+002	-1.858290e+001	5.276501e+001	-1.873532e+001	5.323916e+001	-1.126805e+001	-6.310644e-001
4048180.243	-9.113583e+000	-1.203380e+002	-1.892779e+001	4.928380e+001	-1.908711e+001	4.980190e+001	-1.117296e+001	-4.573275e+000
4072616.984	-8.941638e+000	-1.240881e+002	-1.928785e+001	4.590565e+001	-1.944743e+001	4.645908e+001	-1.108275e+001	-8.483814e+000
4097053.726	-8.780711e+000	-1.278632e+002	-1.965891e+001	4.265470e+001	-1.982399e+001	4.327842e+001	-1.099543e+001	-1.238787e+001
4121490.468	-8.632048e+000	-1.316656e+002	-2.005276e+001	3.955385e+001	-2.021096e+001	4.027527e+001	-1.091333e+001	-1.628572e+001
4145927.210	-8.496802e+000	-1.355029e+002	-2.046494e+001	3.674681e+001	-2.062199e+001	3.750951e+001	-1.083688e+001	-2.019491e+001
4170363.951	-8.374652e+000	-1.393528e+002	-2.089523e+001	3.417687e+001	-2.105360e+001	3.514434e+001	-1.076844e+001	-2.411056e+001
4194800.693	-8.272274e+000	-1.432976e+002	-2.135598e+001	3.216237e+001	-2.149678e+001	3.318596e+001	-1.071152e+001	-2.805284e+001
4219237.435	-8.192686e+000	-1.472689e+002	-2.180438e+001	3.073826e+001	-2.192676e+001	3.187460e+001	-1.066948e+001	-3.201617e+001
4243674.177	-8.138245e+000	-1.512367e+002	-2.220975e+001	2.998638e+001	-2.231111e+001	3.108215e+001	-1.064054e+001	-3.595454e+001
4268110.919	-8.104283e+000	-1.551697e+002	-2.254195e+001	2.966879e+001	-2.262618e+001	3.070956e+001	-1.062211e+001	-3.982602e+001
4292547.660	-8.091070e+000	-1.590861e+002	-2.279497e+001	2.982361e+001	-2.287298e+001	3.080556e+001	-1.061424e+001	-4.368651e+001
4316984.402	-8.097785e+000	-1.629956e+002	-2.295895e+001	3.041108e+001	-2.305505e+001	3.135408e+001	-1.061470e+001	-4.758765e+001
4341421.144	-8.133761e+000	-1.668393e+002	-2.295289e+001	3.122694e+001	-2.304812e+001	3.226107e+001	-1.064256e+001	-5.140765e+001
4365857.886	-8.190192e+000	-1.705247e+002	-2.276216e+001	3.154329e+001	-2.284393e+001	3.269876e+001	-1.068688e+001	-5.505603e+001
4390294.627	-8.240758e+000	-1.740303e+002	-2.251487e+001	3.059720e+001	-2.257389e+001	3.187675e+001	-1.071749e+001	-5.848613e+001
4414731.369	-8.269194e+000	-1.775425e+002	-2.237917e+001	2.886089e+001	-2.241398e+001	3.002880e+001	-1.070718e+001	-6.184494e+001
4439168.111	-8.284603e+000	1.787066e+002	-2.240965e+001	2.738517e+001	-2.242672e+001	2.837069e+001	-1.065769e+001	-6.543392e+001
4463604.853	-8.316976e+000	1.746378e+002	-2.251023e+001	2.728576e+001	-2.253425e+001	2.822156e+001	-1.060295e+001	-6.943562e+001
4488041.594	-8.409706e+000	1.702399e+002	-2.247483e+001	2.916937e+001	-2.251219e+001	3.021566e+001	-1.058716e+001	-7.391597e+001
4512478.336	-8.607837e+000	1.657034e+002	-2.199141e+001	3.222071e+001	-2.202667e+001	3.338123e+001	-1.066114e+001	-7.870061e+001
4536915.078	-8.921629e+000	1.615573e+002	-2.100756e+001	3.339167e+001	-2.101193e+001	3.453395e+001	-1.086122e+001	-8.328906e+001
4561351.820	-9.283754e+000	1.582382e+002	-1.992074e+001	3.098490e+001	-1.994194e+001	3.196148e+001	-1.111618e+001	-8.712584e+001
4585788.562	-9.586387e+000	1.555420e+002	-1.912111e+001	2.632963e+001	-1.916429e+001	2.751062e+001	-1.132186e+001	-9.039031e+001
4610225.303	-9.827567e+000	1.528122e+002	-1.858902e+001	2.161215e+001	-1.862050e+001	2.311666e+001	-1.146623e+001	-9.368225e+001
4634662.045	-1.006877e+001	1.497304e+002	-1.817017e+001	1.774701e+001	-1.814838e+001	1.932524e+001	-1.159565e+001	-9.728745e+001
4659098.787	-1.036343e+001	1.465300e+002	-1.771480e+001	1.433348e+001	-1.765147e+001	1.588563e+001	-1.175275e+001	-1.011730e+002
4683535.529	-1.073162e+001	1.433377e+002	-1.719376e+001	1.113764e+001	-1.708263e+001	1.248497e+001	-1.196691e+001	-1.052642e+002
4707972.270	-1.121887e+001	1.404045e+002	-1.653471e+001	7.985290e+000	-1.643823e+001	8.937392e+000	-1.226123e+001	-1.094867e+002
4732409.012	-1.178172e+001	1.382726e+002	-1.579697e+001	3.842156e+000	-1.570511e+001	4.606600e+000	-1.267455e+001	-1.135284e+002
4756845.754	-1.237671e+001	1.374357e+002	-1.502162e+001	-1.515441e+000	-1.494093e+001	-8.750241e-001	-1.321286e+001	-1.168884e+002
4781282.496	-1.286179e+001	1.379358e+002	-1.432674e+001	-8.102354e+000	-1.425616e+001	-7.482933e+000	-1.380542e+001	-1.190780e+002
4805719.237	-1.314613e+001	1.390098e+002	-1.377632e+001	-1.531812e+001	-1.371590e+001	-1.467994e+001	-1.434392e+001	-1.201658e+002
4830155.979	-1.325531e+001	1.399107e+002	-1.335195e+001	-2.266054e+001	-1.329747e+001	-2.195956e+001	-1.478230e+001	-1.205343e+002
4854592.721	-1.324856e+001	1.403346e+002	-1.301047e+001	-2.992607e+001	-1.295620e+001	-2.917798e+001	-1.513006e+001	-1.204923e+002
4879029.463	-1.316151e+001	1.402394e+002	-1.272862e+001	-3.719355e+001	-1.266740e+001	-3.639349e+001	-1.537614e+001	-1.200648e+002
4903466.205	-1.302472e+001	1.395382e+002	-1.249823e+001	-4.442911e+001	-1.242823e+001	-4.360082e+001	-1.550826e+001	-1.194285e+002
4927902.946	-1.286922e+001	1.381566e+002	-1.232428e+001	-5.162809e+001	-1.224669e+001	-5.080821e+001	-1.550348e+001	-1.188598e+002
4952339.688	-1.272322e+001	1.361421e+002	-1.220025e+001	-5.880422e+001	-1.211078e+001	-5.795564e+001	-1.538556e+001	-1.186663e+002
4976776.430	-1.261697e+001	1.336943e+002	-1.211284e+001	-6.578570e+001	-1.201841e+001	-6.497372e+001	-1.518990e+001	-1.190151e+002
5001213.172	-1.255860e+001	1.308712e+002	-1.205511e+001	-7.265544e+001	-1.195780e+001	-7.187223e+001	-1.495169e+001	-1.199253e+002
5025649.913	-1.255014e+001	1.277852e+002	-1.202212e+001	-7.938974e+001	-1.192670e+001	-7.863116e+001	-1.469103e+001	-1.214145e+002
5050086.655	-1.259146e+001	1.245189e+002	-1.201041e+001	-8.602285e+001	-1.191272e+001	-8.529027e+001	-1.443191e+001	-1.233314e+002
5074523.397	-1.268190e+001	1.211158e+002	-1.201535e+001	-9.256374e+001	-1.191750e+001	-9.184200e+001	-1.418039e+001	-1.256682e+002
5098960.139	-1.282085e+001	1.176126e+002	-1.203533e+001	-9.901466e+001	-1.193410e+001	-9.832455e+001	-1.394278e+001	-1.283122e+002
5123396.880	-1.300613e+001	1.140470e+002	-1.206664e+001	-1.053924e+002	-1.196390e+001	-1.047360e+002	-1.372060e+001	-1.312621e+002
5147833.622	-1.323649e+001	1.104388e+002	-1.211112e+001	-1.117075e+002	-1.200824e+001	-1.110703e+002	-1.351836e+001	-1.344722e+002
5172270.364	-1.351408e+001	1.067764e+002	-1.216636e+001	-1.179653e+002	-1.206055e+001	-1.173675e+002	-1.332994e+001	-1.378798e+002
5196707.106	-1.383389e+001	1.030819e+002	-1.223048e+001	-1.241822e+002	-1.212340e+001	-1.236213e+002	-1.316304e+001	-1.414877e+002
5221143.847	-1.420261e+001	9.934325e+001	-1.230661e+001	-1.303398e+002	-1.220388e+001	-1.298750e+002	-1.300467e+001	-1.453095e+002
5245580.589	-1.462188e+001	9.554439e+001	-1.239361e+001	-1.364788e+002	-1.229158e+001	-1.360703e+002	-1.287205e+001	-1.493025e+002
5270017.331	-1.509735e+001	9.169865e+001	-1.248988e+001	-1.425712e+002	-1.239148e+001	-1.422176e+002	-1.276015e+001	-1.534745e+002
5294454.073	-1.563285e+001	8.778901e+001	-1.259797e+001	-1.486230e+002	-1.250112e+001	-1.483166e+002	-1.266956e+001	-1.577823e+002
5318890.815	-1.623470e+001	8.382245e+001	-1.271218e+001	-1.546193e+002	-1.261969e+001	-1.543726e+002	-1.260069e+001	-1.622122e+002
5343327.556	-1.690172e+001	7.972517e+001	-1.283179e+001	-1.606135e+002	-1.274442e+001	-1.604084e+002	-1.254890e+001	-1.667369e+002
5367764.298	-1.764465e+001	7.545351e+001	-1.295684e+001	-1.666074e+002	-1.287963e+001	-1.664348e+002	-1.251258e+001	-1.713808e+002
5392201.040	-1.848835e+001	7.088586e+001	-1.309597e+001	-1.725919e+002	-1.302491e+001	-1.724637e+002	-1.248636e+001	-1.761462e+002
5416637.782	-1.945601e+001	6.591472e+001	-1.324762e+001	-1.785705e+002	-1.318452e+001	-1.784730e+002	-1.247870e+001	1.789458e+002
5441074.523	-2.057664e+001	6.040889e+001	-1.341341e+001	1.754898e+002	-1.335709e+001	1.755673e+002	-1.248667e+001	1.739279e+002
5465511.265	-2.188590e+001	5.409783e+001	-1.358780e+001	1.695751e+002	-1.354311e+001	1.696123e+002	-1.251126e+001	1.687965e+002
