!Agilent Technologies,E5061B,MY49101568,A.02.00
!Date: Wed Mar 01 12:23:55 2023
!Data & Calibration Information:
!Freq	S11:SOLT2(OFF)	S21:SOLT2(OFF)	S12:SOLT2(OFF)	S22:SOLT2(OFF)
# Hz S dB R 50
1800000.000	-1.109891e+001	3.120829e+001	-1.136863e+001	1.377224e+002	-1.131828e+001	1.379190e+002	-1.090277e+001	7.636672e+001
1824436.742	-1.099621e+001	2.650268e+001	-1.161390e+001	1.329435e+002	-1.156075e+001	1.330587e+002	-1.087517e+001	7.127417e+001
1848873.484	-1.094337e+001	2.217982e+001	-1.176794e+001	1.285010e+002	-1.174470e+001	1.282720e+002	-1.085151e+001	6.659181e+001
1873310.225	-1.088961e+001	1.770575e+001	-1.194466e+001	1.241006e+002	-1.192501e+001	1.239343e+002	-1.090078e+001	6.194549e+001
1897746.967	-1.082193e+001	1.316482e+001	-1.212813e+001	1.196115e+002	-1.209557e+001	1.196914e+002	-1.095726e+001	5.738240e+001
1922183.709	-1.083180e+001	8.968361e+000	-1.222284e+001	1.156476e+002	-1.219162e+001	1.156308e+002	-1.103444e+001	5.314709e+001
1946620.451	-1.078507e+001	4.349492e+000	-1.237619e+001	1.112038e+002	-1.236009e+001	1.112112e+002	-1.108235e+001	4.835552e+001
1971057.192	-1.079288e+001	2.313567e-001	-1.241544e+001	1.072248e+002	-1.240828e+001	1.074251e+002	-1.119516e+001	4.428004e+001
1995493.934	-1.083085e+001	-4.160783e+000	-1.249968e+001	1.033361e+002	-1.249455e+001	1.032445e+002	-1.127305e+001	3.983318e+001
2019930.676	-1.084837e+001	-8.710877e+000	-1.258731e+001	9.933513e+001	-1.255945e+001	9.948531e+001	-1.139641e+001	3.545196e+001
2044367.418	-1.089456e+001	-1.322019e+001	-1.263910e+001	9.551469e+001	-1.255527e+001	9.575443e+001	-1.153095e+001	3.121928e+001
2068804.159	-1.097593e+001	-1.734450e+001	-1.259689e+001	9.195705e+001	-1.252837e+001	9.192262e+001	-1.165431e+001	2.711431e+001
2093240.901	-1.106698e+001	-2.128496e+001	-1.250771e+001	8.844509e+001	-1.251547e+001	8.790186e+001	-1.176564e+001	2.272358e+001
2117677.643	-1.109866e+001	-2.551301e+001	-1.244662e+001	8.436128e+001	-1.249834e+001	8.389463e+001	-1.188587e+001	1.824107e+001
2142114.385	-1.112153e+001	-3.015973e+001	-1.242172e+001	8.011909e+001	-1.244547e+001	8.019674e+001	-1.205155e+001	1.378791e+001
2166551.127	-1.120801e+001	-3.443870e+001	-1.232092e+001	7.628525e+001	-1.238180e+001	7.607744e+001	-1.218199e+001	9.227137e+000
2190987.868	-1.129308e+001	-3.935666e+001	-1.228722e+001	7.219939e+001	-1.231217e+001	7.226146e+001	-1.235184e+001	4.459909e+000
2215424.610	-1.139777e+001	-4.393424e+001	-1.217856e+001	6.824119e+001	-1.218964e+001	6.817372e+001	-1.251569e+001	-9.296679e-002
2239861.352	-1.152104e+001	-4.879472e+001	-1.207147e+001	6.415426e+001	-1.207910e+001	6.427749e+001	-1.271698e+001	-4.935281e+000
2264298.094	-1.168060e+001	-5.366680e+001	-1.196415e+001	6.018439e+001	-1.195491e+001	6.024961e+001	-1.292843e+001	-9.916017e+000
2288734.835	-1.189194e+001	-5.830087e+001	-1.179120e+001	5.630212e+001	-1.182522e+001	5.636175e+001	-1.319146e+001	-1.508813e+001
2313171.577	-1.208736e+001	-6.307334e+001	-1.161150e+001	5.206865e+001	-1.165014e+001	5.224446e+001	-1.345186e+001	-2.019227e+001
2337608.319	-1.230665e+001	-6.780291e+001	-1.142230e+001	4.779491e+001	-1.147343e+001	4.796843e+001	-1.372814e+001	-2.544648e+001
2362045.061	-1.255934e+001	-7.295029e+001	-1.124480e+001	4.340334e+001	-1.126391e+001	4.353190e+001	-1.402764e+001	-3.063645e+001
2386481.802	-1.282893e+001	-7.782974e+001	-1.104029e+001	3.885793e+001	-1.103617e+001	3.907093e+001	-1.437884e+001	-3.594405e+001
2410918.544	-1.311883e+001	-8.205877e+001	-1.075274e+001	3.412704e+001	-1.082407e+001	3.435535e+001	-1.472429e+001	-4.144700e+001
2435355.286	-1.340520e+001	-8.706140e+001	-1.054038e+001	2.911008e+001	-1.056731e+001	2.928530e+001	-1.509388e+001	-4.660890e+001
2459792.028	-1.375639e+001	-9.216745e+001	-1.034001e+001	2.402561e+001	-1.038954e+001	2.425619e+001	-1.549059e+001	-5.276028e+001
2484228.769	-1.408565e+001	-9.775563e+001	-1.015358e+001	1.851333e+001	-1.018177e+001	1.908263e+001	-1.593997e+001	-5.863829e+001
2508665.511	-1.455789e+001	-1.030050e+002	-9.987641e+000	1.325248e+001	-9.995442e+000	1.350012e+001	-1.637929e+001	-6.465987e+001
2533102.253	-1.503841e+001	-1.086654e+002	-9.822257e+000	7.760352e+000	-9.852826e+000	7.997051e+000	-1.685721e+001	-7.116958e+001
2557538.995	-1.558875e+001	-1.143693e+002	-9.678032e+000	2.098898e+000	-9.703092e+000	2.513846e+000	-1.745072e+001	-7.778494e+001
2581975.737	-1.623682e+001	-1.200340e+002	-9.554465e+000	-3.586148e+000	-9.591801e+000	-3.172737e+000	-1.802342e+001	-8.478328e+001
2606412.478	-1.706630e+001	-1.257144e+002	-9.458081e+000	-9.066879e+000	-9.456150e+000	-8.836111e+000	-1.875565e+001	-9.145805e+001
2630849.220	-1.793390e+001	-1.313851e+002	-9.370243e+000	-1.481246e+001	-9.377022e+000	-1.447225e+001	-1.952729e+001	-9.898589e+001
2655285.962	-1.896747e+001	-1.362576e+002	-9.277288e+000	-2.052373e+001	-9.299113e+000	-2.010516e+001	-2.043500e+001	-1.065895e+002
2679722.704	-2.012154e+001	-1.417988e+002	-9.230347e+000	-2.624815e+001	-9.215098e+000	-2.593611e+001	-2.142638e+001	-1.133128e+002
2704159.445	-2.149398e+001	-1.456632e+002	-9.169237e+000	-3.179359e+001	-9.184807e+000	-3.151604e+001	-2.252661e+001	-1.215617e+002
2728596.187	-2.300071e+001	-1.507757e+002	-9.161180e+000	-3.766290e+001	-9.154746e+000	-3.741156e+001	-2.361957e+001	-1.285315e+002
2753032.929	-2.483705e+001	-1.535138e+002	-9.130767e+000	-4.330101e+001	-9.126791e+000	-4.302882e+001	-2.504946e+001	-1.359991e+002
2777469.671	-2.697487e+001	-1.557555e+002	-9.149190e+000	-4.899292e+001	-9.120571e+000	-4.866061e+001	-2.655128e+001	-1.438514e+002
2801906.412	-2.967605e+001	-1.554190e+002	-9.173256e+000	-5.461482e+001	-9.146422e+000	-5.438902e+001	-2.802699e+001	-1.505953e+002
2826343.154	-3.322986e+001	-1.496563e+002	-9.199648e+000	-6.007094e+001	-9.194009e+000	-5.985162e+001	-2.968976e+001	-1.601295e+002
2850779.896	-3.746049e+001	-1.267084e+002	-9.241188e+000	-6.557741e+001	-9.237562e+000	-6.538812e+001	-3.153270e+001	-1.675608e+002
2875216.638	-3.801134e+001	-8.376855e+001	-9.298176e+000	-7.094432e+001	-9.281708e+000	-7.074009e+001	-3.387855e+001	-1.772464e+002
2899653.380	-3.460248e+001	-5.983435e+001	-9.335649e+000	-7.629281e+001	-9.343028e+000	-7.602206e+001	-3.647784e+001	1.731576e+002
2924090.121	-3.141881e+001	-5.088463e+001	-9.399238e+000	-8.137745e+001	-9.396735e+000	-8.114668e+001	-4.026947e+001	1.584512e+002
2948526.863	-2.923291e+001	-4.943458e+001	-9.457547e+000	-8.661895e+001	-9.455236e+000	-8.629357e+001	-4.505496e+001	1.376588e+002
2972963.605	-2.751348e+001	-5.071008e+001	-9.507338e+000	-9.165235e+001	-9.504138e+000	-9.136477e+001	-5.213447e+001	8.182611e+001
2997400.347	-2.615654e+001	-5.306827e+001	-9.553150e+000	-9.662740e+001	-9.556305e+000	-9.638750e+001	-4.828921e+001	3.615023e+000
3021837.088	-2.513619e+001	-5.642935e+001	-9.597248e+000	-1.015297e+002	-9.602638e+000	-1.013311e+002	-4.305149e+001	-2.478812e+001
3046273.830	-2.433490e+001	-5.943407e+001	-9.653567e+000	-1.063957e+002	-9.641900e+000	-1.061551e+002	-3.987176e+001	-3.560038e+001
3070710.572	-2.365195e+001	-6.338732e+001	-9.674347e+000	-1.111909e+002	-9.668841e+000	-1.109946e+002	-3.709332e+001	-4.938958e+001
3095147.314	-2.315494e+001	-6.781541e+001	-9.692552e+000	-1.160007e+002	-9.693064e+000	-1.157831e+002	-3.529771e+001	-6.089812e+001
3119584.055	-2.287840e+001	-7.249951e+001	-9.674208e+000	-1.209924e+002	-9.688894e+000	-1.207476e+002	-3.346490e+001	-7.463492e+001
3144020.797	-2.270948e+001	-7.626373e+001	-9.688350e+000	-1.259536e+002	-9.672220e+000	-1.257353e+002	-3.164505e+001	-8.664299e+001
3168457.539	-2.268276e+001	-8.060233e+001	-9.680332e+000	-1.310383e+002	-9.674335e+000	-1.308136e+002	-3.044657e+001	-9.959257e+001
3192894.281	-2.277242e+001	-8.475975e+001	-9.677546e+000	-1.360870e+002	-9.677936e+000	-1.359414e+002	-2.910886e+001	-1.116985e+002
3217331.023	-2.300454e+001	-8.793139e+001	-9.679557e+000	-1.413669e+002	-9.677212e+000	-1.412367e+002	-2.791255e+001	-1.241083e+002
3241767.764	-2.338417e+001	-9.026354e+001	-9.714715e+000	-1.466840e+002	-9.705299e+000	-1.465294e+002	-2.687940e+001	-1.363390e+002
3266204.506	-2.383927e+001	-9.211649e+001	-9.746119e+000	-1.520240e+002	-9.737956e+000	-1.517919e+002	-2.587375e+001	-1.477299e+002
3290641.248	-2.429102e+001	-9.296306e+001	-9.799243e+000	-1.572365e+002	-9.786400e+000	-1.570367e+002	-2.513604e+001	-1.576139e+002
3315077.990	-2.484810e+001	-9.366254e+001	-9.820582e+000	-1.624083e+002	-9.810100e+000	-1.623372e+002	-2.411428e+001	-1.667409e+002
3339514.731	-2.555466e+001	-9.286213e+001	-9.859170e+000	-1.677495e+002	-9.844177e+000	-1.677808e+002	-2.314546e+001	-1.759165e+002
3363951.473	-2.648709e+001	-8.927508e+001	-9.904264e+000	-1.734255e+002	-9.893518e+000	-1.733823e+002	-2.215691e+001	1.747831e+002
3388388.215	-2.718855e+001	-8.223696e+001	-9.989926e+000	-1.790387e+002	-9.973833e+000	-1.790317e+002	-2.124280e+001	1.654033e+002
3412824.957	-2.737556e+001	-7.248622e+001	-1.009192e+001	1.753220e+002	-1.008211e+001	1.753196e+002	-2.043307e+001	1.561448e+002
3437261.698	-2.690736e+001	-6.219973e+001	-1.022730e+001	1.697525e+002	-1.022547e+001	1.697011e+002	-1.971598e+001	1.472064e+002
3461698.440	-2.577665e+001	-5.359434e+001	-1.038913e+001	1.640889e+002	-1.040530e+001	1.641233e+002	-1.908312e+001	1.383396e+002
3486135.182	-2.437930e+001	-4.924122e+001	-1.059055e+001	1.587700e+002	-1.059530e+001	1.586806e+002	-1.848386e+001	1.299580e+002
3510571.924	-2.298442e+001	-4.715153e+001	-1.079930e+001	1.533899e+002	-1.081403e+001	1.533794e+002	-1.796595e+001	1.218658e+002
3535008.666	-2.170365e+001	-4.710029e+001	-1.104003e+001	1.482572e+002	-1.105998e+001	1.481931e+002	-1.750965e+001	1.138814e+002
3559445.407	-2.053340e+001	-4.881448e+001	-1.129679e+001	1.434134e+002	-1.130732e+001	1.432416e+002	-1.710954e+001	1.064173e+002
3583882.149	-1.952535e+001	-5.121976e+001	-1.154662e+001	1.386918e+002	-1.155547e+001	1.385353e+002	-1.678894e+001	9.947278e+001
3608318.891	-1.862359e+001	-5.367750e+001	-1.178597e+001	1.340282e+002	-1.181065e+001	1.338869e+002	-1.647126e+001	9.283557e+001
3632755.633	-1.783461e+001	-5.657600e+001	-1.202498e+001	1.294971e+002	-1.204549e+001	1.292907e+002	-1.612788e+001	8.649407e+001
3657192.374	-1.710621e+001	-5.967791e+001	-1.225930e+001	1.250686e+002	-1.230871e+001	1.249040e+002	-1.586043e+001	8.016930e+001
3681629.116	-1.642701e+001	-6.296112e+001	-1.250204e+001	1.206807e+002	-1.257139e+001	1.205904e+002	-1.561027e+001	7.412649e+001
3706065.858	-1.578282e+001	-6.652817e+001	-1.277237e+001	1.164501e+002	-1.284045e+001	1.163450e+002	-1.534429e+001	6.814759e+001
3730502.600	-1.519570e+001	-7.007925e+001	-1.303454e+001	1.122437e+002	-1.311471e+001	1.121738e+002	-1.510507e+001	6.238090e+001
3754939.341	-1.466989e+001	-7.407289e+001	-1.332450e+001	1.084148e+002	-1.341945e+001	1.082928e+002	-1.491242e+001	5.645296e+001
3779376.083	-1.418355e+001	-7.806670e+001	-1.362025e+001	1.046400e+002	-1.371168e+001	1.046031e+002	-1.475710e+001	5.081808e+001
3803812.825	-1.376782e+001	-8.208488e+001	-1.388612e+001	1.011142e+002	-1.401717e+001	1.010672e+002	-1.460720e+001	4.523868e+001
3828249.567	-1.336862e+001	-8.622517e+001	-1.418179e+001	9.783464e+001	-1.432922e+001	9.795079e+001	-1.450790e+001	3.963129e+001
3852686.308	-1.302767e+001	-9.037522e+001	-1.446096e+001	9.481197e+001	-1.462323e+001	9.523192e+001	-1.445813e+001	3.417676e+001
3877123.050	-1.273152e+001	-9.436827e+001	-1.471421e+001	9.191268e+001	-1.485033e+001	9.271865e+001	-1.443525e+001	2.914810e+001
3901559.792	-1.246524e+001	-9.857197e+001	-1.497269e+001	8.949844e+001	-1.507901e+001	9.054805e+001	-1.445086e+001	2.402559e+001
3925996.534	-1.226257e+001	-1.029467e+002	-1.521262e+001	8.762082e+001	-1.525986e+001	8.872764e+001	-1.450590e+001	1.914046e+001
3950433.276	-1.213565e+001	-1.071820e+002	-1.534021e+001	8.621625e+001	-1.533873e+001	8.703297e+001	-1.459043e+001	1.464714e+001
3974870.017	-1.207692e+001	-1.112765e+002	-1.536656e+001	8.499291e+001	-1.537893e+001	8.548728e+001	-1.471223e+001	1.027812e+001
3999306.759	-1.204813e+001	-1.149041e+002	-1.531122e+001	8.343722e+001	-1.527680e+001	8.407324e+001	-1.491408e+001	6.487453e+000
4023743.501	-1.210336e+001	-1.182414e+002	-1.511414e+001	8.188823e+001	-1.511624e+001	8.198087e+001	-1.506965e+001	3.253908e+000
4048180.243	-1.215099e+001	-1.209385e+002	-1.484938e+001	7.941008e+001	-1.489703e+001	7.964985e+001	-1.524624e+001	5.193592e-001
4072616.984	-1.219965e+001	-1.231372e+002	-1.458066e+001	7.646376e+001	-1.465579e+001	7.670969e+001	-1.536997e+001	-1.886255e+000
4097053.726	-1.216944e+001	-1.248702e+002	-1.430368e+001	7.265705e+001	-1.439864e+001	7.336175e+001	-1.545485e+001	-3.657077e+000
4121490.468	-1.211946e+001	-1.266094e+002	-1.408870e+001	6.877676e+001	-1.416975e+001	6.933574e+001	-1.541753e+001	-5.219517e+000
4145927.210	-1.199386e+001	-1.282055e+002	-1.390843e+001	6.448474e+001	-1.397310e+001	6.504038e+001	-1.532052e+001	-6.810503e+000
4170363.951	-1.182912e+001	-1.298976e+002	-1.376550e+001	6.015122e+001	-1.384164e+001	6.066088e+001	-1.517976e+001	-8.646911e+000
4194800.693	-1.162728e+001	-1.315372e+002	-1.363993e+001	5.555798e+001	-1.372631e+001	5.617397e+001	-1.498646e+001	-1.070507e+001
4219237.435	-1.140934e+001	-1.336611e+002	-1.358667e+001	5.108022e+001	-1.364663e+001	5.168760e+001	-1.477773e+001	-1.300048e+001
4243674.177	-1.117883e+001	-1.358327e+002	-1.351997e+001	4.660071e+001	-1.359862e+001	4.722932e+001	-1.456357e+001	-1.556928e+001
4268110.919	-1.094719e+001	-1.383001e+002	-1.348367e+001	4.217505e+001	-1.356834e+001	4.295279e+001	-1.436189e+001	-1.835973e+001
4292547.660	-1.072621e+001	-1.409161e+002	-1.346883e+001	3.783635e+001	-1.354578e+001	3.859863e+001	-1.415729e+001	-2.132735e+001
4316984.402	-1.052759e+001	-1.436236e+002	-1.344204e+001	3.363686e+001	-1.352724e+001	3.450490e+001	-1.399377e+001	-2.435349e+001
4341421.144	-1.033278e+001	-1.465731e+002	-1.345905e+001	2.951669e+001	-1.352119e+001	3.029285e+001	-1.382320e+001	-2.746839e+001
4365857.886	-1.015982e+001	-1.494404e+002	-1.344340e+001	2.541241e+001	-1.349785e+001	2.616163e+001	-1.366007e+001	-3.058978e+001
4390294.627	-9.995811e+000	-1.525591e+002	-1.345440e+001	2.141957e+001	-1.350163e+001	2.225375e+001	-1.352598e+001	-3.395265e+001
4414731.369	-9.848936e+000	-1.556112e+002	-1.344814e+001	1.737391e+001	-1.348269e+001	1.829470e+001	-1.340068e+001	-3.718139e+001
4439168.111	-9.720781e+000	-1.587594e+002	-1.343266e+001	1.336781e+001	-1.347832e+001	1.438135e+001	-1.329065e+001	-4.064383e+001
4463604.853	-9.623893e+000	-1.619394e+002	-1.341900e+001	9.671850e+000	-1.345063e+001	1.046537e+001	-1.319438e+001	-4.389498e+001
4488041.594	-9.533563e+000	-1.650886e+002	-1.338260e+001	5.716153e+000	-1.342012e+001	6.719928e+000	-1.312686e+001	-4.725178e+001
4512478.336	-9.466269e+000	-1.682854e+002	-1.335063e+001	1.911263e+000	-1.338201e+001	2.961077e+000	-1.305735e+001	-5.061430e+001
4536915.078	-9.403354e+000	-1.714504e+002	-1.329904e+001	-1.914732e+000	-1.332851e+001	-8.890226e-001	-1.300148e+001	-5.390406e+001
4561351.820	-9.362038e+000	-1.746641e+002	-1.326116e+001	-5.790539e+000	-1.327176e+001	-4.810056e+000	-1.294264e+001	-5.711918e+001
4585788.562	-9.333742e+000	-1.778746e+002	-1.320362e+001	-9.611452e+000	-1.322474e+001	-8.566756e+000	-1.291022e+001	-6.051265e+001
4610225.303	-9.329505e+000	1.789172e+002	-1.314445e+001	-1.337031e+001	-1.315251e+001	-1.234217e+001	-1.289208e+001	-6.385338e+001
4634662.045	-9.351030e+000	1.758718e+002	-1.305075e+001	-1.714560e+001	-1.305551e+001	-1.608833e+001	-1.290759e+001	-6.699321e+001
4659098.787	-9.374932e+000	1.728016e+002	-1.294913e+001	-2.096454e+001	-1.294190e+001	-1.999051e+001	-1.291924e+001	-7.007487e+001
4683535.529	-9.393199e+000	1.698213e+002	-1.282562e+001	-2.505118e+001	-1.282095e+001	-2.395261e+001	-1.293705e+001	-7.309136e+001
4707972.270	-9.431888e+000	1.668277e+002	-1.271249e+001	-2.907501e+001	-1.269434e+001	-2.806204e+001	-1.294052e+001	-7.601841e+001
4732409.012	-9.462674e+000	1.639169e+002	-1.258054e+001	-3.333831e+001	-1.256919e+001	-3.234596e+001	-1.294623e+001	-7.890130e+001
4756845.754	-9.509975e+000	1.609139e+002	-1.246987e+001	-3.764351e+001	-1.244066e+001	-3.672218e+001	-1.296070e+001	-8.166207e+001
4781282.496	-9.568942e+000	1.578763e+002	-1.235840e+001	-4.206279e+001	-1.233312e+001	-4.104239e+001	-1.296584e+001	-8.461721e+001
4805719.237	-9.633706e+000	1.547836e+002	-1.226570e+001	-4.657117e+001	-1.221608e+001	-4.558789e+001	-1.296850e+001	-8.736873e+001
4830155.979	-9.713693e+000	1.517615e+002	-1.215363e+001	-5.109138e+001	-1.212468e+001	-5.011656e+001	-1.297564e+001	-9.035477e+001
4854592.721	-9.814673e+000	1.486367e+002	-1.207845e+001	-5.565499e+001	-1.201798e+001	-5.469332e+001	-1.298614e+001	-9.318635e+001
4879029.463	-9.939072e+000	1.456222e+002	-1.198442e+001	-6.015988e+001	-1.192951e+001	-5.931988e+001	-1.299571e+001	-9.614365e+001
4903466.205	-1.007552e+001	1.424830e+002	-1.191238e+001	-6.484219e+001	-1.184987e+001	-6.394990e+001	-1.301362e+001	-9.908897e+001
4927902.946	-1.023262e+001	1.394536e+002	-1.183197e+001	-6.949768e+001	-1.176798e+001	-6.864957e+001	-1.302934e+001	-1.019889e+002
4952339.688	-1.041400e+001	1.364180e+002	-1.176237e+001	-7.415443e+001	-1.169425e+001	-7.328399e+001	-1.306760e+001	-1.049447e+002
4976776.430	-1.061241e+001	1.334327e+002	-1.170098e+001	-7.888146e+001	-1.162573e+001	-7.803121e+001	-1.310724e+001	-1.078976e+002
5001213.172	-1.082697e+001	1.305086e+002	-1.163477e+001	-8.363168e+001	-1.156326e+001	-8.279544e+001	-1.314848e+001	-1.107849e+002
5025649.913	-1.106829e+001	1.276143e+002	-1.157806e+001	-8.835122e+001	-1.151193e+001	-8.755391e+001	-1.319487e+001	-1.137334e+002
5050086.655	-1.133794e+001	1.248800e+002	-1.152551e+001	-9.304813e+001	-1.145259e+001	-9.233581e+001	-1.325126e+001	-1.166095e+002
5074523.397	-1.161136e+001	1.221175e+002	-1.148141e+001	-9.786198e+001	-1.139707e+001	-9.718617e+001	-1.329699e+001	-1.195003e+002
5098960.139	-1.191796e+001	1.194902e+002	-1.144013e+001	-1.026999e+002	-1.135891e+001	-1.020533e+002	-1.334214e+001	-1.224161e+002
5123396.880	-1.224436e+001	1.169011e+002	-1.141212e+001	-1.075381e+002	-1.131358e+001	-1.069265e+002	-1.340942e+001	-1.253473e+002
5147833.622	-1.259710e+001	1.144723e+002	-1.138162e+001	-1.123028e+002	-1.128862e+001	-1.118002e+002	-1.346462e+001	-1.283332e+002
5172270.364	-1.296459e+001	1.121423e+002	-1.135361e+001	-1.171630e+002	-1.127104e+001	-1.166678e+002	-1.352663e+001	-1.313321e+002
5196707.106	-1.335901e+001	1.100268e+002	-1.133776e+001	-1.219503e+002	-1.125296e+001	-1.215329e+002	-1.360604e+001	-1.343220e+002
5221143.847	-1.376172e+001	1.079916e+002	-1.131608e+001	-1.268074e+002	-1.123723e+001	-1.264481e+002	-1.367621e+001	-1.372819e+002
5245580.589	-1.419808e+001	1.061296e+002	-1.130869e+001	-1.316300e+002	-1.122920e+001	-1.313024e+002	-1.376062e+001	-1.403267e+002
5270017.331	-1.462683e+001	1.044231e+002	-1.128739e+001	-1.365095e+002	-1.122751e+001	-1.361745e+002	-1.383478e+001	-1.433450e+002
5294454.073	-1.510314e+001	1.029256e+002	-1.129619e+001	-1.413556e+002	-1.121650e+001	-1.410518e+002	-1.392295e+001	-1.463583e+002
5318890.815	-1.556305e+001	1.015735e+002	-1.128693e+001	-1.462344e+002	-1.121944e+001	-1.459593e+002	-1.401149e+001	-1.494502e+002
5343327.556	-1.606262e+001	1.004283e+002	-1.129281e+001	-1.511382e+002	-1.122225e+001	-1.508938e+002	-1.409059e+001	-1.525480e+002
5367764.298	-1.657336e+001	9.931733e+001	-1.131264e+001	-1.560487e+002	-1.123477e+001	-1.558312e+002	-1.416530e+001	-1.557656e+002
5392201.040	-1.708686e+001	9.861061e+001	-1.131973e+001	-1.609010e+002	-1.125823e+001	-1.607006e+002	-1.427285e+001	-1.590497e+002
5416637.782	-1.762857e+001	9.802121e+001	-1.133183e+001	-1.658190e+002	-1.127831e+001	-1.656345e+002	-1.435896e+001	-1.623316e+002
5441074.523	-1.819691e+001	9.762522e+001	-1.135478e+001	-1.707714e+002	-1.131272e+001	-1.705730e+002	-1.445970e+001	-1.657764e+002
