!Agilent Technologies,E5061B,MY49101568,A.02.00
!Date: Wed Mar 01 12:22:38 2023
!Data & Calibration Information:
!Freq	S11:SOLT2(OFF)	S21:SOLT2(OFF)	S12:SOLT2(OFF)	S22:SOLT2(OFF)
# Hz S dB R 50
1800000.000	-9.812541e+000	-1.592001e+001	-2.397969e+001	-1.437606e+002	-2.400175e+001	-1.438797e+002	-1.030469e+001	2.010716e+001
1824436.742	-9.923281e+000	-2.012087e+001	-2.366826e+001	-1.476650e+002	-2.365460e+001	-1.477003e+002	-1.043349e+001	1.631002e+001
1848873.484	-1.004526e+001	-2.447335e+001	-2.330234e+001	-1.516858e+002	-2.332170e+001	-1.516564e+002	-1.057126e+001	1.247936e+001
1873310.225	-1.016308e+001	-2.883036e+001	-2.295793e+001	-1.556935e+002	-2.297663e+001	-1.557180e+002	-1.071752e+001	8.726567e+000
1897746.967	-1.028939e+001	-3.324397e+001	-2.259396e+001	-1.597795e+002	-2.262408e+001	-1.598036e+002	-1.084891e+001	4.804370e+000
1922183.709	-1.040310e+001	-3.781115e+001	-2.224296e+001	-1.640444e+002	-2.225333e+001	-1.642698e+002	-1.098850e+001	8.588653e-001
1946620.451	-1.053976e+001	-4.239315e+001	-2.188648e+001	-1.686336e+002	-2.185674e+001	-1.684460e+002	-1.112076e+001	-3.310872e+000
1971057.192	-1.066904e+001	-4.719525e+001	-2.150221e+001	-1.728812e+002	-2.150214e+001	-1.732138e+002	-1.125513e+001	-7.372251e+000
1995493.934	-1.081546e+001	-5.209345e+001	-2.107088e+001	-1.775292e+002	-2.110942e+001	-1.774073e+002	-1.138232e+001	-1.166907e+001
2019930.676	-1.095873e+001	-5.704365e+001	-2.071076e+001	1.778883e+002	-2.068872e+001	1.778594e+002	-1.152054e+001	-1.597946e+001
2044367.418	-1.112247e+001	-6.229033e+001	-2.029291e+001	1.735001e+002	-2.033654e+001	1.731941e+002	-1.163333e+001	-2.041418e+001
2068804.159	-1.128924e+001	-6.741131e+001	-1.992615e+001	1.683860e+002	-1.999837e+001	1.684134e+002	-1.172886e+001	-2.487606e+001
2093240.901	-1.146667e+001	-7.277689e+001	-1.951132e+001	1.634185e+002	-1.954228e+001	1.634443e+002	-1.186122e+001	-2.955918e+001
2117677.643	-1.165434e+001	-7.832046e+001	-1.910869e+001	1.582909e+002	-1.917137e+001	1.585553e+002	-1.196426e+001	-3.426306e+001
2142114.385	-1.187407e+001	-8.416298e+001	-1.865723e+001	1.531289e+002	-1.874824e+001	1.533118e+002	-1.206795e+001	-3.908022e+001
2166551.127	-1.207432e+001	-8.996739e+001	-1.829423e+001	1.478254e+002	-1.832113e+001	1.479459e+002	-1.217181e+001	-4.404653e+001
2190987.868	-1.232300e+001	-9.596290e+001	-1.787788e+001	1.421437e+002	-1.792790e+001	1.422643e+002	-1.227134e+001	-4.901858e+001
2215424.610	-1.257739e+001	-1.020124e+002	-1.750272e+001	1.360836e+002	-1.752405e+001	1.364243e+002	-1.237157e+001	-5.416406e+001
2239861.352	-1.286018e+001	-1.084448e+002	-1.710719e+001	1.302360e+002	-1.714266e+001	1.304814e+002	-1.245122e+001	-5.940894e+001
2264298.094	-1.313352e+001	-1.149222e+002	-1.678172e+001	1.240500e+002	-1.678510e+001	1.246194e+002	-1.251308e+001	-6.467852e+001
2288734.835	-1.345338e+001	-1.215628e+002	-1.642046e+001	1.178582e+002	-1.647547e+001	1.182665e+002	-1.255095e+001	-7.005987e+001
2313171.577	-1.375330e+001	-1.285326e+002	-1.613037e+001	1.115402e+002	-1.616136e+001	1.120126e+002	-1.259058e+001	-7.555794e+001
2337608.319	-1.408560e+001	-1.355817e+002	-1.583717e+001	1.049277e+002	-1.585422e+001	1.055737e+002	-1.261649e+001	-8.107326e+001
2362045.061	-1.440324e+001	-1.430814e+002	-1.555598e+001	9.856127e+001	-1.557423e+001	9.913425e+001	-1.261882e+001	-8.688394e+001
2386481.802	-1.472867e+001	-1.506448e+002	-1.530945e+001	9.181382e+001	-1.532059e+001	9.224582e+001	-1.261598e+001	-9.258225e+001
2410918.544	-1.495652e+001	-1.583181e+002	-1.516951e+001	8.515214e+001	-1.517551e+001	8.580602e+001	-1.251805e+001	-9.840181e+001
2435355.286	-1.525536e+001	-1.669598e+002	-1.495269e+001	7.878035e+001	-1.496797e+001	7.911415e+001	-1.246581e+001	-1.045636e+002
2459792.028	-1.552499e+001	-1.757267e+002	-1.477183e+001	7.220529e+001	-1.476230e+001	7.291892e+001	-1.236631e+001	-1.111788e+002
2484228.769	-1.577532e+001	1.748288e+002	-1.458216e+001	6.566615e+001	-1.457890e+001	6.622949e+001	-1.228699e+001	-1.177548e+002
2508665.511	-1.603270e+001	1.655316e+002	-1.442635e+001	5.889369e+001	-1.438128e+001	5.940780e+001	-1.220927e+001	-1.244778e+002
2533102.253	-1.632141e+001	1.563726e+002	-1.429691e+001	5.158875e+001	-1.424691e+001	5.245236e+001	-1.215816e+001	-1.312038e+002
2557538.995	-1.649441e+001	1.464043e+002	-1.416973e+001	4.476894e+001	-1.412744e+001	4.557176e+001	-1.206783e+001	-1.380808e+002
2581975.737	-1.660652e+001	1.365957e+002	-1.412421e+001	3.793149e+001	-1.407605e+001	3.847946e+001	-1.198192e+001	-1.448398e+002
2606412.478	-1.668505e+001	1.273885e+002	-1.411766e+001	3.060233e+001	-1.405690e+001	3.137042e+001	-1.190422e+001	-1.516688e+002
2630849.220	-1.663859e+001	1.176501e+002	-1.413578e+001	2.388313e+001	-1.407271e+001	2.444980e+001	-1.180934e+001	-1.585649e+002
2655285.962	-1.646626e+001	1.078165e+002	-1.423046e+001	1.757089e+001	-1.417388e+001	1.776495e+001	-1.169599e+001	-1.652631e+002
2679722.704	-1.636766e+001	9.791098e+001	-1.422924e+001	1.102666e+001	-1.413808e+001	1.130530e+001	-1.163799e+001	-1.727021e+002
2704159.445	-1.626329e+001	8.897371e+001	-1.433926e+001	4.187436e+000	-1.422419e+001	4.946700e+000	-1.154453e+001	-1.796807e+002
2728596.187	-1.603391e+001	7.969307e+001	-1.442484e+001	-1.925774e+000	-1.432203e+001	-1.903036e+000	-1.152488e+001	1.734887e+002
2753032.929	-1.588642e+001	7.130097e+001	-1.452972e+001	-8.521860e+000	-1.441331e+001	-8.375247e+000	-1.150306e+001	1.666501e+002
2777469.671	-1.568834e+001	6.288563e+001	-1.466411e+001	-1.487109e+001	-1.456695e+001	-1.464534e+001	-1.149188e+001	1.599859e+002
2801906.412	-1.546133e+001	5.525579e+001	-1.483688e+001	-2.104167e+001	-1.475394e+001	-2.093521e+001	-1.147184e+001	1.536694e+002
2826343.154	-1.522981e+001	4.775083e+001	-1.501056e+001	-2.700830e+001	-1.493745e+001	-2.696991e+001	-1.147574e+001	1.472458e+002
2850779.896	-1.499410e+001	4.054798e+001	-1.522279e+001	-3.269620e+001	-1.513389e+001	-3.282773e+001	-1.145396e+001	1.410716e+002
2875216.638	-1.476879e+001	3.391468e+001	-1.543580e+001	-3.849317e+001	-1.537809e+001	-3.843393e+001	-1.146576e+001	1.351497e+002
2899653.380	-1.452174e+001	2.726751e+001	-1.565779e+001	-4.372167e+001	-1.557904e+001	-4.395315e+001	-1.149036e+001	1.292341e+002
2924090.121	-1.431058e+001	2.103939e+001	-1.586927e+001	-4.913514e+001	-1.582363e+001	-4.916983e+001	-1.149683e+001	1.235000e+002
2948526.863	-1.408344e+001	1.505957e+001	-1.609271e+001	-5.417915e+001	-1.603985e+001	-5.433637e+001	-1.153638e+001	1.178433e+002
2972963.605	-1.387261e+001	9.283631e+000	-1.632481e+001	-5.905371e+001	-1.628441e+001	-5.931150e+001	-1.156789e+001	1.124152e+002
2997400.347	-1.367839e+001	3.778671e+000	-1.653665e+001	-6.382617e+001	-1.650437e+001	-6.410700e+001	-1.159929e+001	1.072452e+002
3021837.088	-1.348176e+001	-1.569171e+000	-1.675124e+001	-6.838823e+001	-1.673852e+001	-6.876408e+001	-1.163477e+001	1.021175e+002
3046273.830	-1.330225e+001	-6.706634e+000	-1.695504e+001	-7.299341e+001	-1.693551e+001	-7.317439e+001	-1.168740e+001	9.699261e+001
3070710.572	-1.311892e+001	-1.174196e+001	-1.716475e+001	-7.739552e+001	-1.715563e+001	-7.749852e+001	-1.172007e+001	9.220321e+001
3095147.314	-1.295510e+001	-1.659834e+001	-1.735264e+001	-8.155492e+001	-1.733552e+001	-8.175285e+001	-1.177246e+001	8.741669e+001
3119584.055	-1.278990e+001	-2.124358e+001	-1.751609e+001	-8.561520e+001	-1.753127e+001	-8.602742e+001	-1.182229e+001	8.282391e+001
3144020.797	-1.264091e+001	-2.579299e+001	-1.769131e+001	-8.967782e+001	-1.768294e+001	-8.997936e+001	-1.187873e+001	7.826061e+001
3168457.539	-1.250819e+001	-3.027050e+001	-1.783637e+001	-9.384922e+001	-1.784079e+001	-9.411153e+001	-1.194120e+001	7.388562e+001
3192894.281	-1.236072e+001	-3.454702e+001	-1.797598e+001	-9.781150e+001	-1.801015e+001	-9.805828e+001	-1.200237e+001	6.958266e+001
3217331.023	-1.223066e+001	-3.873393e+001	-1.813530e+001	-1.016697e+002	-1.815675e+001	-1.019948e+002	-1.205689e+001	6.546999e+001
3241767.764	-1.211013e+001	-4.281335e+001	-1.825709e+001	-1.054073e+002	-1.828716e+001	-1.058104e+002	-1.212075e+001	6.142055e+001
3266204.506	-1.198648e+001	-4.681016e+001	-1.839010e+001	-1.093700e+002	-1.842223e+001	-1.095589e+002	-1.216193e+001	5.742418e+001
3290641.248	-1.186579e+001	-5.069359e+001	-1.852417e+001	-1.129680e+002	-1.855709e+001	-1.132623e+002	-1.221883e+001	5.353018e+001
3315077.990	-1.174577e+001	-5.453927e+001	-1.861663e+001	-1.165636e+002	-1.865748e+001	-1.169026e+002	-1.226150e+001	4.973745e+001
3339514.731	-1.163363e+001	-5.827140e+001	-1.868992e+001	-1.201599e+002	-1.875172e+001	-1.203381e+002	-1.232156e+001	4.593322e+001
3363951.473	-1.153481e+001	-6.199733e+001	-1.875796e+001	-1.236654e+002	-1.881620e+001	-1.239053e+002	-1.236535e+001	4.223501e+001
3388388.215	-1.143631e+001	-6.563614e+001	-1.883105e+001	-1.272673e+002	-1.889962e+001	-1.274245e+002	-1.242458e+001	3.863991e+001
3412824.957	-1.134338e+001	-6.925527e+001	-1.889363e+001	-1.308409e+002	-1.895534e+001	-1.308835e+002	-1.248428e+001	3.509912e+001
3437261.698	-1.125976e+001	-7.276229e+001	-1.892732e+001	-1.343477e+002	-1.900566e+001	-1.344213e+002	-1.253702e+001	3.161392e+001
3461698.440	-1.117937e+001	-7.617038e+001	-1.897053e+001	-1.379174e+002	-1.905100e+001	-1.379419e+002	-1.259651e+001	2.829840e+001
3486135.182	-1.109932e+001	-7.958246e+001	-1.900245e+001	-1.415283e+002	-1.907822e+001	-1.414451e+002	-1.265168e+001	2.499636e+001
3510571.924	-1.102460e+001	-8.293493e+001	-1.902360e+001	-1.449612e+002	-1.910696e+001	-1.448770e+002	-1.270234e+001	2.175786e+001
3535008.666	-1.095450e+001	-8.614039e+001	-1.904948e+001	-1.482841e+002	-1.911066e+001	-1.483105e+002	-1.275027e+001	1.858750e+001
3559445.407	-1.088818e+001	-8.940873e+001	-1.903317e+001	-1.518595e+002	-1.910676e+001	-1.517394e+002	-1.279383e+001	1.543602e+001
3583882.149	-1.082211e+001	-9.258826e+001	-1.901853e+001	-1.552340e+002	-1.911215e+001	-1.550949e+002	-1.283168e+001	1.243852e+001
3608318.891	-1.076067e+001	-9.566408e+001	-1.899026e+001	-1.588247e+002	-1.907774e+001	-1.586355e+002	-1.286968e+001	9.401940e+000
3632755.633	-1.069182e+001	-9.876841e+001	-1.896079e+001	-1.622850e+002	-1.903610e+001	-1.620342e+002	-1.289727e+001	6.391201e+000
3657192.374	-1.063177e+001	-1.018532e+002	-1.890030e+001	-1.659855e+002	-1.898835e+001	-1.654708e+002	-1.292411e+001	3.446880e+000
3681629.116	-1.056666e+001	-1.049075e+002	-1.884012e+001	-1.694310e+002	-1.891603e+001	-1.691782e+002	-1.295888e+001	5.152216e-001
3706065.858	-1.051326e+001	-1.079149e+002	-1.876192e+001	-1.732873e+002	-1.885148e+001	-1.729268e+002	-1.299430e+001	-2.370889e+000
3730502.600	-1.047102e+001	-1.109120e+002	-1.868881e+001	-1.771538e+002	-1.877875e+001	-1.766464e+002	-1.302618e+001	-5.228898e+000
3754939.341	-1.041527e+001	-1.138474e+002	-1.863595e+001	1.790217e+002	-1.871275e+001	1.793558e+002	-1.306924e+001	-8.012677e+000
3779376.083	-1.038127e+001	-1.167641e+002	-1.857519e+001	1.749231e+002	-1.866975e+001	1.755177e+002	-1.309163e+001	-1.069910e+001
3803812.825	-1.033100e+001	-1.196072e+002	-1.853433e+001	1.710915e+002	-1.862592e+001	1.714245e+002	-1.310486e+001	-1.329811e+001
3828249.567	-1.029646e+001	-1.223702e+002	-1.850612e+001	1.668565e+002	-1.858097e+001	1.674274e+002	-1.312982e+001	-1.592059e+001
3852686.308	-1.025187e+001	-1.251662e+002	-1.847908e+001	1.628330e+002	-1.853459e+001	1.634413e+002	-1.314508e+001	-1.855206e+001
3877123.050	-1.021823e+001	-1.279696e+002	-1.843688e+001	1.588400e+002	-1.853331e+001	1.594202e+002	-1.313923e+001	-2.105716e+001
3901559.792	-1.018175e+001	-1.305568e+002	-1.846233e+001	1.544907e+002	-1.854715e+001	1.553052e+002	-1.313028e+001	-2.341502e+001
3925996.534	-1.013104e+001	-1.331576e+002	-1.849955e+001	1.504065e+002	-1.855585e+001	1.512074e+002	-1.311980e+001	-2.579015e+001
3950433.276	-1.006157e+001	-1.357755e+002	-1.855706e+001	1.466922e+002	-1.862328e+001	1.473470e+002	-1.306992e+001	-2.808523e+001
3974870.017	-9.970721e+000	-1.384523e+002	-1.862798e+001	1.432157e+002	-1.868521e+001	1.439355e+002	-1.298893e+001	-3.058555e+001
3999306.759	-9.887188e+000	-1.411433e+002	-1.870407e+001	1.399261e+002	-1.872859e+001	1.407217e+002	-1.290481e+001	-3.313323e+001
4023743.501	-9.783455e+000	-1.440899e+002	-1.873215e+001	1.372354e+002	-1.877005e+001	1.380210e+002	-1.279392e+001	-3.591992e+001
4048180.243	-9.708990e+000	-1.471783e+002	-1.865909e+001	1.345037e+002	-1.875468e+001	1.353300e+002	-1.269399e+001	-3.880923e+001
4072616.984	-9.640233e+000	-1.503520e+002	-1.860715e+001	1.316532e+002	-1.865281e+001	1.325889e+002	-1.262200e+001	-4.190329e+001
4097053.726	-9.579468e+000	-1.536159e+002	-1.847652e+001	1.290045e+002	-1.851656e+001	1.298952e+002	-1.255784e+001	-4.502828e+001
4121490.468	-9.557728e+000	-1.569722e+002	-1.828487e+001	1.260525e+002	-1.831840e+001	1.270721e+002	-1.251169e+001	-4.831918e+001
4145927.210	-9.552704e+000	-1.603936e+002	-1.806117e+001	1.230578e+002	-1.814191e+001	1.239211e+002	-1.247596e+001	-5.151428e+001
4170363.951	-9.570558e+000	-1.636897e+002	-1.786275e+001	1.196719e+002	-1.789840e+001	1.205480e+002	-1.246372e+001	-5.479017e+001
4194800.693	-9.588968e+000	-1.670582e+002	-1.762295e+001	1.163861e+002	-1.766857e+001	1.172243e+002	-1.245981e+001	-5.803272e+001
4219237.435	-9.660135e+000	-1.703562e+002	-1.735765e+001	1.124221e+002	-1.740304e+001	1.134542e+002	-1.247414e+001	-6.134330e+001
4243674.177	-9.727781e+000	-1.736426e+002	-1.712422e+001	1.085458e+002	-1.714977e+001	1.095147e+002	-1.249833e+001	-6.451144e+001
4268110.919	-9.829163e+000	-1.768107e+002	-1.687015e+001	1.042745e+002	-1.691935e+001	1.053370e+002	-1.254168e+001	-6.764104e+001
4292547.660	-9.932546e+000	-1.799742e+002	-1.665305e+001	1.000183e+002	-1.668308e+001	1.009823e+002	-1.258492e+001	-7.069564e+001
4316984.402	-1.005089e+001	1.769783e+002	-1.644820e+001	9.566640e+001	-1.645734e+001	9.656005e+001	-1.264109e+001	-7.373141e+001
4341421.144	-1.018926e+001	1.740292e+002	-1.624110e+001	9.107040e+001	-1.625076e+001	9.209906e+001	-1.268072e+001	-7.665707e+001
4365857.886	-1.032952e+001	1.711229e+002	-1.604942e+001	8.653205e+001	-1.605781e+001	8.744274e+001	-1.274402e+001	-7.959180e+001
4390294.627	-1.048592e+001	1.682666e+002	-1.586868e+001	8.188705e+001	-1.585952e+001	8.272553e+001	-1.279524e+001	-8.244491e+001
4414731.369	-1.063766e+001	1.655781e+002	-1.572157e+001	7.700342e+001	-1.568430e+001	7.798859e+001	-1.285408e+001	-8.532291e+001
4439168.111	-1.080166e+001	1.628816e+002	-1.557279e+001	7.229306e+001	-1.554118e+001	7.321513e+001	-1.289968e+001	-8.809628e+001
4463604.853	-1.097140e+001	1.603127e+002	-1.541448e+001	6.735863e+001	-1.539176e+001	6.840228e+001	-1.293928e+001	-9.086908e+001
4488041.594	-1.113433e+001	1.577662e+002	-1.531013e+001	6.264359e+001	-1.527302e+001	6.348224e+001	-1.297588e+001	-9.356255e+001
4512478.336	-1.129933e+001	1.551509e+002	-1.519949e+001	5.790540e+001	-1.516627e+001	5.871430e+001	-1.300802e+001	-9.637255e+001
4536915.078	-1.148639e+001	1.526440e+002	-1.506411e+001	5.312554e+001	-1.504995e+001	5.397477e+001	-1.302864e+001	-9.924284e+001
4561351.820	-1.166156e+001	1.501908e+002	-1.497476e+001	4.826144e+001	-1.493551e+001	4.892345e+001	-1.305974e+001	-1.019839e+002
4585788.562	-1.183640e+001	1.478219e+002	-1.489434e+001	4.331925e+001	-1.482998e+001	4.414030e+001	-1.308943e+001	-1.049111e+002
4610225.303	-1.200076e+001	1.454537e+002	-1.483554e+001	3.837936e+001	-1.478036e+001	3.919160e+001	-1.309101e+001	-1.076305e+002
4634662.045	-1.216286e+001	1.428367e+002	-1.479760e+001	3.376739e+001	-1.474690e+001	3.451051e+001	-1.306464e+001	-1.105933e+002
4659098.787	-1.234890e+001	1.401601e+002	-1.474929e+001	2.922625e+001	-1.468622e+001	2.985747e+001	-1.305381e+001	-1.136942e+002
4683535.529	-1.253334e+001	1.373802e+002	-1.472186e+001	2.469232e+001	-1.464327e+001	2.544665e+001	-1.303044e+001	-1.170979e+002
4707972.270	-1.275738e+001	1.345440e+002	-1.465762e+001	2.020148e+001	-1.457853e+001	2.100639e+001	-1.302707e+001	-1.205485e+002
4732409.012	-1.301670e+001	1.315339e+002	-1.458721e+001	1.594551e+001	-1.449931e+001	1.655438e+001	-1.302520e+001	-1.241274e+002
4756845.754	-1.334211e+001	1.285441e+002	-1.447725e+001	1.160810e+001	-1.438769e+001	1.218226e+001	-1.306069e+001	-1.280279e+002
4781282.496	-1.371216e+001	1.255558e+002	-1.434777e+001	7.254920e+000	-1.428100e+001	7.747924e+000	-1.311488e+001	-1.319735e+002
4805719.237	-1.410794e+001	1.228063e+002	-1.422888e+001	2.665036e+000	-1.416654e+001	3.192965e+000	-1.318307e+001	-1.358874e+002
4830155.979	-1.454236e+001	1.201539e+002	-1.411444e+001	-1.942065e+000	-1.403842e+001	-1.514848e+000	-1.329541e+001	-1.399570e+002
4854592.721	-1.502281e+001	1.176766e+002	-1.397795e+001	-6.738558e+000	-1.391571e+001	-6.378804e+000	-1.342205e+001	-1.439606e+002
4879029.463	-1.553594e+001	1.154056e+002	-1.386770e+001	-1.159426e+001	-1.379866e+001	-1.130760e+001	-1.357253e+001	-1.480392e+002
4903466.205	-1.607428e+001	1.132734e+002	-1.376310e+001	-1.657545e+001	-1.370190e+001	-1.620209e+001	-1.372570e+001	-1.521878e+002
4927902.946	-1.665004e+001	1.113787e+002	-1.366321e+001	-2.164008e+001	-1.360983e+001	-2.134881e+001	-1.390989e+001	-1.562245e+002
4952339.688	-1.725591e+001	1.094850e+002	-1.359609e+001	-2.675559e+001	-1.354001e+001	-2.638092e+001	-1.409001e+001	-1.603178e+002
4976776.430	-1.791176e+001	1.077504e+002	-1.353595e+001	-3.174926e+001	-1.346910e+001	-3.148328e+001	-1.429984e+001	-1.645445e+002
5001213.172	-1.863315e+001	1.064322e+002	-1.347618e+001	-3.686747e+001	-1.342373e+001	-3.660386e+001	-1.451687e+001	-1.687200e+002
5025649.913	-1.941513e+001	1.053214e+002	-1.343724e+001	-4.198416e+001	-1.337776e+001	-4.177498e+001	-1.474765e+001	-1.728437e+002
5050086.655	-2.029361e+001	1.045256e+002	-1.340064e+001	-4.702798e+001	-1.334740e+001	-4.678052e+001	-1.498982e+001	-1.772138e+002
5074523.397	-2.127117e+001	1.044762e+002	-1.335593e+001	-5.215228e+001	-1.332999e+001	-5.195718e+001	-1.524055e+001	1.784939e+002
5098960.139	-2.230988e+001	1.049401e+002	-1.335502e+001	-5.734153e+001	-1.332033e+001	-5.712119e+001	-1.552144e+001	1.742185e+002
5123396.880	-2.347644e+001	1.063879e+002	-1.335661e+001	-6.240734e+001	-1.332615e+001	-6.213825e+001	-1.580442e+001	1.696912e+002
5147833.622	-2.480564e+001	1.092656e+002	-1.335943e+001	-6.746150e+001	-1.334475e+001	-6.723943e+001	-1.608697e+001	1.652534e+002
5172270.364	-2.625386e+001	1.143257e+002	-1.338382e+001	-7.240422e+001	-1.337239e+001	-7.219710e+001	-1.637829e+001	1.607429e+002
5196707.106	-2.772205e+001	1.230121e+002	-1.340651e+001	-7.741268e+001	-1.339263e+001	-7.716618e+001	-1.668916e+001	1.560188e+002
5221143.847	-2.898284e+001	1.359457e+002	-1.344330e+001	-8.220052e+001	-1.342888e+001	-8.203700e+001	-1.699711e+001	1.511239e+002
5245580.589	-2.940110e+001	1.528982e+002	-1.348142e+001	-8.705879e+001	-1.346729e+001	-8.694111e+001	-1.734373e+001	1.461665e+002
5270017.331	-2.872647e+001	1.700414e+002	-1.350179e+001	-9.188508e+001	-1.350573e+001	-9.171391e+001	-1.769368e+001	1.410007e+002
5294454.073	-2.739861e+001	-1.779269e+002	-1.354895e+001	-9.674148e+001	-1.355028e+001	-9.646665e+001	-1.804146e+001	1.357003e+002
5318890.815	-2.579099e+001	-1.699169e+002	-1.359208e+001	-1.015108e+002	-1.360086e+001	-1.012779e+002	-1.838696e+001	1.304277e+002
5343327.556	-2.423184e+001	-1.651913e+002	-1.363643e+001	-1.062695e+002	-1.364120e+001	-1.059987e+002	-1.876252e+001	1.249104e+002
5367764.298	-2.285630e+001	-1.628591e+002	-1.368502e+001	-1.109393e+002	-1.370432e+001	-1.106515e+002	-1.914340e+001	1.191794e+002
5392201.040	-2.159970e+001	-1.618699e+002	-1.372964e+001	-1.155513e+002	-1.374879e+001	-1.153226e+002	-1.950734e+001	1.134777e+002
5416637.782	-2.051153e+001	-1.620805e+002	-1.377838e+001	-1.202814e+002	-1.381171e+001	-1.199123e+002	-1.986836e+001	1.073924e+002
5441074.523	-1.953349e+001	-1.627737e+002	-1.383895e+001	-1.248928e+002	-1.385798e+001	-1.245203e+002	-2.022118e+001	1.013128e+002
