!Agilent Technologies,E5061B,MY49101568,A.02.00
!Date: Wed Mar 01 12:21:31 2023
!Data & Calibration Information:
!Freq	S11:SOLT2(OFF)	S21:SOLT2(OFF)	S12:SOLT2(OFF)	S22:SOLT2(OFF)
# Hz S dB R 50
1800000.000	-9.844186e+000	-1.576170e+001	-2.394067e+001	-1.445330e+002	-2.390274e+001	-1.446931e+002	-1.034152e+001	2.022024e+001
1824436.742	-9.955035e+000	-2.000210e+001	-2.357221e+001	-1.485827e+002	-2.358624e+001	-1.487366e+002	-1.047412e+001	1.655792e+001
1848873.484	-1.007055e+001	-2.432017e+001	-2.320858e+001	-1.525509e+002	-2.322280e+001	-1.528689e+002	-1.062348e+001	1.276501e+001
1873310.225	-1.019859e+001	-2.871638e+001	-2.288036e+001	-1.566762e+002	-2.289602e+001	-1.567517e+002	-1.075538e+001	8.915545e+000
1897746.967	-1.032415e+001	-3.309853e+001	-2.252619e+001	-1.609159e+002	-2.255698e+001	-1.609709e+002	-1.089454e+001	5.038294e+000
1922183.709	-1.045032e+001	-3.760797e+001	-2.215016e+001	-1.650364e+002	-2.217321e+001	-1.650563e+002	-1.103417e+001	1.049571e+000
1946620.451	-1.057337e+001	-4.227947e+001	-2.180374e+001	-1.693323e+002	-2.182447e+001	-1.695654e+002	-1.116485e+001	-2.947420e+000
1971057.192	-1.073121e+001	-4.690283e+001	-2.140966e+001	-1.742211e+002	-2.144423e+001	-1.740681e+002	-1.130002e+001	-7.119325e+000
1995493.934	-1.086608e+001	-5.184883e+001	-2.101788e+001	-1.786013e+002	-2.106604e+001	-1.783601e+002	-1.142430e+001	-1.137949e+001
2019930.676	-1.102576e+001	-5.691971e+001	-2.059891e+001	1.769210e+002	-2.063252e+001	1.768604e+002	-1.157145e+001	-1.565563e+001
2044367.418	-1.119624e+001	-6.177817e+001	-2.022112e+001	1.716252e+002	-2.026173e+001	1.721238e+002	-1.169245e+001	-2.012463e+001
2068804.159	-1.134435e+001	-6.692114e+001	-1.990983e+001	1.667652e+002	-1.987404e+001	1.672776e+002	-1.181314e+001	-2.458404e+001
2093240.901	-1.153203e+001	-7.237868e+001	-1.945512e+001	1.621297e+002	-1.951277e+001	1.623285e+002	-1.192434e+001	-2.914938e+001
2117677.643	-1.171336e+001	-7.789488e+001	-1.909430e+001	1.570805e+002	-1.907486e+001	1.572352e+002	-1.204965e+001	-3.390835e+001
2142114.385	-1.194195e+001	-8.366965e+001	-1.861894e+001	1.519662e+002	-1.867009e+001	1.520627e+002	-1.215493e+001	-3.864140e+001
2166551.127	-1.215583e+001	-8.944287e+001	-1.823930e+001	1.465803e+002	-1.826117e+001	1.467767e+002	-1.225389e+001	-4.364760e+001
2190987.868	-1.241529e+001	-9.545822e+001	-1.781738e+001	1.408563e+002	-1.789013e+001	1.408789e+002	-1.236172e+001	-4.851607e+001
2215424.610	-1.267119e+001	-1.013437e+002	-1.745955e+001	1.347449e+002	-1.747164e+001	1.350315e+002	-1.247920e+001	-5.361044e+001
2239861.352	-1.296362e+001	-1.077331e+002	-1.708301e+001	1.288445e+002	-1.712751e+001	1.290854e+002	-1.253591e+001	-5.872526e+001
2264298.094	-1.325914e+001	-1.141033e+002	-1.673848e+001	1.226704e+002	-1.675203e+001	1.231295e+002	-1.261376e+001	-6.402868e+001
2288734.835	-1.354773e+001	-1.208316e+002	-1.640986e+001	1.164171e+002	-1.643261e+001	1.169236e+002	-1.266061e+001	-6.946246e+001
2313171.577	-1.388164e+001	-1.276280e+002	-1.608240e+001	1.102029e+002	-1.610960e+001	1.105949e+002	-1.270709e+001	-7.490455e+001
2337608.319	-1.417464e+001	-1.347474e+002	-1.581287e+001	1.037355e+002	-1.582978e+001	1.042411e+002	-1.271020e+001	-8.045665e+001
2362045.061	-1.454522e+001	-1.419470e+002	-1.550900e+001	9.714581e+001	-1.555972e+001	9.751600e+001	-1.274013e+001	-8.605495e+001
2386481.802	-1.484500e+001	-1.495157e+002	-1.528217e+001	9.059568e+001	-1.526636e+001	9.103357e+001	-1.274041e+001	-9.201763e+001
2410918.544	-1.514188e+001	-1.572190e+002	-1.509340e+001	8.383499e+001	-1.510778e+001	8.464502e+001	-1.263653e+001	-9.797686e+001
2435355.286	-1.544531e+001	-1.657226e+002	-1.486884e+001	7.738966e+001	-1.492063e+001	7.814412e+001	-1.255541e+001	-1.041420e+002
2459792.028	-1.575658e+001	-1.745268e+002	-1.467624e+001	7.076588e+001	-1.475678e+001	7.151923e+001	-1.247619e+001	-1.104200e+002
2484228.769	-1.599346e+001	1.765328e+002	-1.453652e+001	6.413345e+001	-1.453373e+001	6.469579e+001	-1.243250e+001	-1.169569e+002
2508665.511	-1.626154e+001	1.671689e+002	-1.437482e+001	5.725359e+001	-1.439158e+001	5.827148e+001	-1.232461e+001	-1.238263e+002
2533102.253	-1.648243e+001	1.576159e+002	-1.426252e+001	5.045037e+001	-1.420523e+001	5.139916e+001	-1.226208e+001	-1.307764e+002
2557538.995	-1.670104e+001	1.478084e+002	-1.413787e+001	4.351144e+001	-1.410343e+001	4.415539e+001	-1.219955e+001	-1.374134e+002
2581975.737	-1.679052e+001	1.379981e+002	-1.409433e+001	3.663574e+001	-1.403290e+001	3.709717e+001	-1.212639e+001	-1.441991e+002
2606412.478	-1.684195e+001	1.283871e+002	-1.409187e+001	2.957975e+001	-1.403150e+001	3.006814e+001	-1.203235e+001	-1.510122e+002
2630849.220	-1.682104e+001	1.187797e+002	-1.412106e+001	2.269583e+001	-1.406119e+001	2.317390e+001	-1.193009e+001	-1.578172e+002
2655285.962	-1.666864e+001	1.090207e+002	-1.419259e+001	1.622357e+001	-1.406690e+001	1.639882e+001	-1.186370e+001	-1.649260e+002
2679722.704	-1.652823e+001	9.889735e+001	-1.422598e+001	9.984631e+000	-1.415303e+001	1.026101e+001	-1.171981e+001	-1.720779e+002
2704159.445	-1.639455e+001	8.921256e+001	-1.425923e+001	3.537413e+000	-1.418762e+001	3.448689e+000	-1.169890e+001	-1.790966e+002
2728596.187	-1.629185e+001	8.015264e+001	-1.432378e+001	-3.280079e+000	-1.425754e+001	-2.884732e+000	-1.165179e+001	1.738338e+002
2753032.929	-1.608359e+001	7.148962e+001	-1.442822e+001	-9.513713e+000	-1.435427e+001	-9.379538e+000	-1.162332e+001	1.669959e+002
2777469.671	-1.586009e+001	6.356186e+001	-1.461429e+001	-1.599935e+001	-1.451982e+001	-1.593553e+001	-1.161700e+001	1.605055e+002
2801906.412	-1.565058e+001	5.560554e+001	-1.475719e+001	-2.226699e+001	-1.468966e+001	-2.216931e+001	-1.159933e+001	1.540300e+002
2826343.154	-1.541764e+001	4.792583e+001	-1.490234e+001	-2.810396e+001	-1.486192e+001	-2.827207e+001	-1.161384e+001	1.476200e+002
2850779.896	-1.519206e+001	4.092055e+001	-1.511804e+001	-3.414061e+001	-1.507213e+001	-3.390275e+001	-1.158674e+001	1.413324e+002
2875216.638	-1.493175e+001	3.409348e+001	-1.533477e+001	-3.973613e+001	-1.527013e+001	-3.970930e+001	-1.162123e+001	1.352577e+002
2899653.380	-1.467739e+001	2.740927e+001	-1.555530e+001	-4.503847e+001	-1.550068e+001	-4.523378e+001	-1.164044e+001	1.295126e+002
2924090.121	-1.446572e+001	2.111087e+001	-1.575914e+001	-5.042573e+001	-1.570460e+001	-5.040137e+001	-1.165967e+001	1.236666e+002
2948526.863	-1.424328e+001	1.507389e+001	-1.596569e+001	-5.551545e+001	-1.593772e+001	-5.551424e+001	-1.167906e+001	1.180723e+002
2972963.605	-1.401908e+001	9.329992e+000	-1.619692e+001	-6.034546e+001	-1.616281e+001	-6.056174e+001	-1.172134e+001	1.127079e+002
2997400.347	-1.381491e+001	3.748319e+000	-1.641937e+001	-6.520223e+001	-1.638953e+001	-6.539655e+001	-1.176061e+001	1.074249e+002
3021837.088	-1.361695e+001	-1.677012e+000	-1.661885e+001	-6.972366e+001	-1.659167e+001	-7.011202e+001	-1.180631e+001	1.022254e+002
3046273.830	-1.343956e+001	-6.813938e+000	-1.682015e+001	-7.437551e+001	-1.680885e+001	-7.452300e+001	-1.183740e+001	9.721464e+001
3070710.572	-1.324357e+001	-1.187101e+001	-1.702668e+001	-7.865394e+001	-1.701458e+001	-7.898747e+001	-1.188320e+001	9.236552e+001
3095147.314	-1.308531e+001	-1.673298e+001	-1.720383e+001	-8.292086e+001	-1.719214e+001	-8.321510e+001	-1.193587e+001	8.757593e+001
3119584.055	-1.291672e+001	-2.147932e+001	-1.735523e+001	-8.704365e+001	-1.735892e+001	-8.736995e+001	-1.198680e+001	8.286054e+001
3144020.797	-1.276516e+001	-2.602192e+001	-1.751334e+001	-9.129240e+001	-1.752624e+001	-9.159278e+001	-1.205770e+001	7.840099e+001
3168457.539	-1.262260e+001	-3.042232e+001	-1.767512e+001	-9.532675e+001	-1.767395e+001	-9.561958e+001	-1.212111e+001	7.394527e+001
3192894.281	-1.249166e+001	-3.480660e+001	-1.781096e+001	-9.929876e+001	-1.781952e+001	-9.966975e+001	-1.216875e+001	6.969642e+001
3217331.023	-1.236345e+001	-3.899475e+001	-1.793727e+001	-1.034092e+002	-1.796302e+001	-1.035508e+002	-1.223644e+001	6.551702e+001
3241767.764	-1.222993e+001	-4.303696e+001	-1.806740e+001	-1.072304e+002	-1.809833e+001	-1.074363e+002	-1.229924e+001	6.146649e+001
3266204.506	-1.211305e+001	-4.704105e+001	-1.817870e+001	-1.111025e+002	-1.822659e+001	-1.113390e+002	-1.235539e+001	5.747939e+001
3290641.248	-1.199305e+001	-5.093557e+001	-1.831257e+001	-1.148392e+002	-1.835364e+001	-1.150444e+002	-1.241416e+001	5.365472e+001
3315077.990	-1.187062e+001	-5.477099e+001	-1.840941e+001	-1.184596e+002	-1.844597e+001	-1.186441e+002	-1.246282e+001	4.976888e+001
3339514.731	-1.176721e+001	-5.857664e+001	-1.848567e+001	-1.220876e+002	-1.852761e+001	-1.222118e+002	-1.251637e+001	4.598996e+001
3363951.473	-1.166985e+001	-6.229512e+001	-1.853651e+001	-1.256765e+002	-1.861442e+001	-1.258706e+002	-1.257002e+001	4.228481e+001
3388388.215	-1.157222e+001	-6.591178e+001	-1.860089e+001	-1.293723e+002	-1.867303e+001	-1.295037e+002	-1.263530e+001	3.865910e+001
3412824.957	-1.148541e+001	-6.949721e+001	-1.864873e+001	-1.329790e+002	-1.872650e+001	-1.330431e+002	-1.269490e+001	3.511149e+001
3437261.698	-1.140278e+001	-7.298141e+001	-1.868795e+001	-1.366357e+002	-1.876814e+001	-1.366337e+002	-1.276186e+001	3.170298e+001
3461698.440	-1.132069e+001	-7.642887e+001	-1.872258e+001	-1.401957e+002	-1.879802e+001	-1.401568e+002	-1.281876e+001	2.835424e+001
3486135.182	-1.125340e+001	-7.984731e+001	-1.874835e+001	-1.438631e+002	-1.883445e+001	-1.437141e+002	-1.287748e+001	2.507784e+001
3510571.924	-1.117535e+001	-8.312578e+001	-1.877201e+001	-1.474143e+002	-1.886276e+001	-1.472292e+002	-1.293668e+001	2.183559e+001
3535008.666	-1.111481e+001	-8.640645e+001	-1.879292e+001	-1.509806e+002	-1.884440e+001	-1.508956e+002	-1.300791e+001	1.866185e+001
3559445.407	-1.104973e+001	-8.962509e+001	-1.879174e+001	-1.544407e+002	-1.887060e+001	-1.544200e+002	-1.304935e+001	1.563859e+001
3583882.149	-1.099314e+001	-9.272351e+001	-1.877986e+001	-1.580207e+002	-1.886226e+001	-1.578549e+002	-1.309671e+001	1.266420e+001
3608318.891	-1.092454e+001	-9.586325e+001	-1.875374e+001	-1.615539e+002	-1.883616e+001	-1.613367e+002	-1.313386e+001	9.645464e+000
3632755.633	-1.086961e+001	-9.891120e+001	-1.872694e+001	-1.651621e+002	-1.880462e+001	-1.648461e+002	-1.315603e+001	6.648701e+000
3657192.374	-1.080977e+001	-1.019524e+002	-1.866739e+001	-1.687616e+002	-1.875512e+001	-1.684701e+002	-1.320905e+001	3.759163e+000
3681629.116	-1.075967e+001	-1.049559e+002	-1.861203e+001	-1.725989e+002	-1.869901e+001	-1.721032e+002	-1.324308e+001	8.608522e-001
3706065.858	-1.070937e+001	-1.079363e+002	-1.854956e+001	-1.763322e+002	-1.862735e+001	-1.759575e+002	-1.328089e+001	-1.953394e+000
3730502.600	-1.066679e+001	-1.109104e+002	-1.847901e+001	1.797406e+002	-1.857354e+001	-1.797858e+002	-1.331647e+001	-4.718908e+000
3754939.341	-1.062152e+001	-1.137528e+002	-1.842631e+001	1.758267e+002	-1.850177e+001	1.762220e+002	-1.335660e+001	-7.475049e+000
3779376.083	-1.059218e+001	-1.165999e+002	-1.837158e+001	1.716001e+002	-1.845989e+001	1.721125e+002	-1.338732e+001	-1.012411e+001
3803812.825	-1.054071e+001	-1.194236e+002	-1.833068e+001	1.676525e+002	-1.842069e+001	1.682053e+002	-1.340521e+001	-1.273550e+001
3828249.567	-1.050454e+001	-1.221184e+002	-1.831436e+001	1.634134e+002	-1.837777e+001	1.639843e+002	-1.343181e+001	-1.517944e+001
3852686.308	-1.047209e+001	-1.248442e+002	-1.828534e+001	1.593945e+002	-1.835365e+001	1.599311e+002	-1.344055e+001	-1.770580e+001
3877123.050	-1.042854e+001	-1.275342e+002	-1.826692e+001	1.552644e+002	-1.834880e+001	1.558860e+002	-1.344210e+001	-2.007743e+001
3901559.792	-1.039068e+001	-1.300294e+002	-1.828298e+001	1.509571e+002	-1.835419e+001	1.516668e+002	-1.343205e+001	-2.244769e+001
3925996.534	-1.033062e+001	-1.326106e+002	-1.833672e+001	1.470619e+002	-1.840005e+001	1.476841e+002	-1.340324e+001	-2.472000e+001
3950433.276	-1.025256e+001	-1.351774e+002	-1.841732e+001	1.432157e+002	-1.848074e+001	1.438823e+002	-1.332772e+001	-2.699914e+001
3974870.017	-1.015843e+001	-1.377499e+002	-1.849917e+001	1.396707e+002	-1.855090e+001	1.405468e+002	-1.323681e+001	-2.946303e+001
3999306.759	-1.007121e+001	-1.405490e+002	-1.854492e+001	1.364841e+002	-1.860488e+001	1.371899e+002	-1.315477e+001	-3.203435e+001
4023743.501	-9.961837e+000	-1.434404e+002	-1.858251e+001	1.337669e+002	-1.864114e+001	1.344134e+002	-1.304219e+001	-3.485128e+001
4048180.243	-9.880816e+000	-1.465909e+002	-1.853904e+001	1.311598e+002	-1.860965e+001	1.317985e+002	-1.294382e+001	-3.779288e+001
4072616.984	-9.806233e+000	-1.497949e+002	-1.846270e+001	1.285571e+002	-1.850808e+001	1.291150e+002	-1.287132e+001	-4.092473e+001
4097053.726	-9.771144e+000	-1.530224e+002	-1.829296e+001	1.256021e+002	-1.837445e+001	1.264074e+002	-1.281235e+001	-4.412964e+001
4121490.468	-9.755325e+000	-1.563177e+002	-1.811413e+001	1.226049e+002	-1.818397e+001	1.234297e+002	-1.277167e+001	-4.740878e+001
4145927.210	-9.754757e+000	-1.596201e+002	-1.790756e+001	1.194231e+002	-1.795391e+001	1.204901e+002	-1.275503e+001	-5.076569e+001
4170363.951	-9.780256e+000	-1.629612e+002	-1.768224e+001	1.160729e+002	-1.773270e+001	1.169974e+002	-1.274744e+001	-5.395379e+001
4194800.693	-9.817993e+000	-1.662488e+002	-1.744938e+001	1.125470e+002	-1.746481e+001	1.135096e+002	-1.276772e+001	-5.724236e+001
4219237.435	-9.890659e+000	-1.694608e+002	-1.719141e+001	1.086901e+002	-1.723315e+001	1.095722e+002	-1.279447e+001	-6.030419e+001
4243674.177	-9.979906e+000	-1.726048e+002	-1.695841e+001	1.045797e+002	-1.697749e+001	1.056083e+002	-1.282879e+001	-6.350544e+001
4268110.919	-1.007991e+001	-1.756904e+002	-1.672392e+001	1.004359e+002	-1.672741e+001	1.013734e+002	-1.288977e+001	-6.655690e+001
4292547.660	-1.019657e+001	-1.786609e+002	-1.648671e+001	9.597060e+001	-1.650722e+001	9.685013e+001	-1.295505e+001	-6.947842e+001
4316984.402	-1.031834e+001	1.784502e+002	-1.628792e+001	9.151270e+001	-1.629697e+001	9.238826e+001	-1.300435e+001	-7.232661e+001
4341421.144	-1.045408e+001	1.756013e+002	-1.609062e+001	8.700078e+001	-1.609283e+001	8.790645e+001	-1.305863e+001	-7.519148e+001
4365857.886	-1.059007e+001	1.729322e+002	-1.591556e+001	8.224169e+001	-1.590719e+001	8.321340e+001	-1.311474e+001	-7.796933e+001
4390294.627	-1.074031e+001	1.702856e+002	-1.574001e+001	7.753822e+001	-1.573729e+001	7.844168e+001	-1.317886e+001	-8.070650e+001
4414731.369	-1.089100e+001	1.677709e+002	-1.558525e+001	7.271523e+001	-1.558486e+001	7.362413e+001	-1.322381e+001	-8.330704e+001
4439168.111	-1.103607e+001	1.652142e+002	-1.544798e+001	6.798025e+001	-1.543110e+001	6.875267e+001	-1.327243e+001	-8.597049e+001
4463604.853	-1.118259e+001	1.628831e+002	-1.532555e+001	6.305305e+001	-1.530607e+001	6.401676e+001	-1.330102e+001	-8.864185e+001
4488041.594	-1.133818e+001	1.605163e+002	-1.519753e+001	5.825005e+001	-1.516564e+001	5.922542e+001	-1.334351e+001	-9.129790e+001
4512478.336	-1.148574e+001	1.581179e+002	-1.508065e+001	5.342893e+001	-1.506803e+001	5.432285e+001	-1.336415e+001	-9.396518e+001
4536915.078	-1.162272e+001	1.558255e+002	-1.499308e+001	4.864726e+001	-1.496094e+001	4.950643e+001	-1.338834e+001	-9.661337e+001
4561351.820	-1.178234e+001	1.534761e+002	-1.490644e+001	4.383503e+001	-1.486032e+001	4.465622e+001	-1.340652e+001	-9.937351e+001
4585788.562	-1.193859e+001	1.512913e+002	-1.481193e+001	3.888055e+001	-1.478011e+001	3.973920e+001	-1.341261e+001	-1.020182e+002
4610225.303	-1.206131e+001	1.489192e+002	-1.476307e+001	3.406057e+001	-1.474264e+001	3.491114e+001	-1.339242e+001	-1.048006e+002
4634662.045	-1.219929e+001	1.465197e+002	-1.472626e+001	2.928636e+001	-1.468568e+001	3.022656e+001	-1.337623e+001	-1.077390e+002
4659098.787	-1.233874e+001	1.438554e+002	-1.470009e+001	2.474745e+001	-1.465425e+001	2.567304e+001	-1.333933e+001	-1.108479e+002
4683535.529	-1.250247e+001	1.410520e+002	-1.466174e+001	2.034136e+001	-1.460256e+001	2.122532e+001	-1.332012e+001	-1.141313e+002
4707972.270	-1.270649e+001	1.381033e+002	-1.461329e+001	1.619210e+001	-1.451810e+001	1.670452e+001	-1.332997e+001	-1.175706e+002
4732409.012	-1.295872e+001	1.352765e+002	-1.452513e+001	1.179711e+001	-1.442962e+001	1.236677e+001	-1.334214e+001	-1.212324e+002
4756845.754	-1.326165e+001	1.324018e+002	-1.440836e+001	7.504905e+000	-1.433070e+001	8.018374e+000	-1.336471e+001	-1.250520e+002
4781282.496	-1.359620e+001	1.296212e+002	-1.429148e+001	3.084919e+000	-1.422698e+001	3.540247e+000	-1.342617e+001	-1.288695e+002
4805719.237	-1.396824e+001	1.271564e+002	-1.415149e+001	-1.551726e+000	-1.408098e+001	-9.174505e-001	-1.352464e+001	-1.329004e+002
4830155.979	-1.437319e+001	1.247488e+002	-1.402497e+001	-6.245261e+000	-1.396244e+001	-5.639792e+000	-1.364332e+001	-1.368340e+002
4854592.721	-1.479333e+001	1.223079e+002	-1.391229e+001	-1.093170e+001	-1.384296e+001	-1.054001e+001	-1.378706e+001	-1.406786e+002
4879029.463	-1.524731e+001	1.203419e+002	-1.378395e+001	-1.590245e+001	-1.371863e+001	-1.544342e+001	-1.394658e+001	-1.445988e+002
4903466.205	-1.571868e+001	1.184045e+002	-1.367721e+001	-2.085339e+001	-1.361167e+001	-2.052869e+001	-1.412102e+001	-1.484403e+002
4927902.946	-1.621381e+001	1.166086e+002	-1.359500e+001	-2.592250e+001	-1.353046e+001	-2.558485e+001	-1.429946e+001	-1.523235e+002
4952339.688	-1.674821e+001	1.149587e+002	-1.351695e+001	-3.095661e+001	-1.345060e+001	-3.064078e+001	-1.451215e+001	-1.563051e+002
4976776.430	-1.731788e+001	1.135981e+002	-1.344044e+001	-3.607170e+001	-1.337943e+001	-3.573629e+001	-1.473184e+001	-1.602973e+002
5001213.172	-1.791814e+001	1.123091e+002	-1.337568e+001	-4.115851e+001	-1.332081e+001	-4.089728e+001	-1.495804e+001	-1.642469e+002
5025649.913	-1.857313e+001	1.113874e+002	-1.333027e+001	-4.635315e+001	-1.327584e+001	-4.598132e+001	-1.521001e+001	-1.683112e+002
5050086.655	-1.928346e+001	1.107302e+002	-1.328998e+001	-5.143601e+001	-1.324759e+001	-5.118502e+001	-1.545820e+001	-1.722038e+002
5074523.397	-2.006241e+001	1.106192e+002	-1.325175e+001	-5.655373e+001	-1.321340e+001	-5.635112e+001	-1.574599e+001	-1.763537e+002
5098960.139	-2.087841e+001	1.107981e+002	-1.324451e+001	-6.172632e+001	-1.320866e+001	-6.145448e+001	-1.602800e+001	1.795453e+002
5123396.880	-2.178652e+001	1.119580e+002	-1.324087e+001	-6.678056e+001	-1.321262e+001	-6.663826e+001	-1.632733e+001	1.755406e+002
5147833.622	-2.275155e+001	1.139998e+002	-1.323914e+001	-7.192961e+001	-1.322151e+001	-7.166175e+001	-1.662369e+001	1.712607e+002
5172270.364	-2.378387e+001	1.173632e+002	-1.324980e+001	-7.692548e+001	-1.323755e+001	-7.672227e+001	-1.695890e+001	1.670844e+002
5196707.106	-2.487188e+001	1.223261e+002	-1.328325e+001	-8.189378e+001	-1.326733e+001	-8.170644e+001	-1.727715e+001	1.626422e+002
5221143.847	-2.577316e+001	1.300108e+002	-1.330103e+001	-8.682413e+001	-1.328724e+001	-8.659693e+001	-1.764625e+001	1.580337e+002
5245580.589	-2.648557e+001	1.401891e+002	-1.332125e+001	-9.167671e+001	-1.331031e+001	-9.151960e+001	-1.802901e+001	1.533336e+002
5270017.331	-2.661011e+001	1.517766e+002	-1.335360e+001	-9.664445e+001	-1.334629e+001	-9.635979e+001	-1.839772e+001	1.485886e+002
5294454.073	-2.621677e+001	1.628846e+002	-1.338778e+001	-1.014779e+002	-1.338900e+001	-1.011764e+002	-1.880047e+001	1.437346e+002
5318890.815	-2.541206e+001	1.721694e+002	-1.343015e+001	-1.062687e+002	-1.342924e+001	-1.060330e+002	-1.923589e+001	1.388108e+002
5343327.556	-2.435539e+001	1.789190e+002	-1.346071e+001	-1.111468e+002	-1.346800e+001	-1.108108e+002	-1.969836e+001	1.336927e+002
5367764.298	-2.322090e+001	-1.763522e+002	-1.350449e+001	-1.158285e+002	-1.351356e+001	-1.155279e+002	-2.012084e+001	1.283458e+002
5392201.040	-2.213960e+001	-1.736161e+002	-1.355650e+001	-1.206337e+002	-1.355579e+001	-1.202224e+002	-2.058850e+001	1.228607e+002
5416637.782	-2.112272e+001	-1.720285e+002	-1.359710e+001	-1.253166e+002	-1.360240e+001	-1.249133e+002	-2.105313e+001	1.172577e+002
5441074.523	-2.016230e+001	-1.716510e+002	-1.363910e+001	-1.300128e+002	-1.366177e+001	-1.296895e+002	-2.151336e+001	1.116673e+002
