!Agilent Technologies,E5061B,MY49101568,A.02.00
!Date: Wed Mar 01 12:41:18 2023
!Data & Calibration Information:
!Freq	S11:SOLT2(OFF)	S21:SOLT2(OFF)	S12:SOLT2(OFF)	S22:SOLT2(OFF)
# Hz S dB R 50
1800000.000	-9.185589e+000	-1.580809e+001	-2.745384e+001	-1.272849e+002	-2.743591e+001	-1.274417e+002	-9.580209e+000	2.027541e+001
1824436.742	-9.258233e+000	-2.003411e+001	-2.709056e+001	-1.309130e+002	-2.706355e+001	-1.311680e+002	-9.680618e+000	1.654186e+001
1848873.484	-9.331877e+000	-2.436087e+001	-2.669573e+001	-1.346647e+002	-2.668867e+001	-1.348398e+002	-9.780283e+000	1.273829e+001
1873310.225	-9.406929e+000	-2.874727e+001	-2.629343e+001	-1.385103e+002	-2.630266e+001	-1.386432e+002	-9.876403e+000	8.893718e+000
1897746.967	-9.485702e+000	-3.321364e+001	-2.586137e+001	-1.424666e+002	-2.592117e+001	-1.424531e+002	-9.961898e+000	5.004105e+000
1922183.709	-9.562125e+000	-3.780805e+001	-2.544165e+001	-1.464751e+002	-2.551600e+001	-1.463464e+002	-1.004898e+001	9.746470e-001
1946620.451	-9.639304e+000	-4.250530e+001	-2.500091e+001	-1.506030e+002	-2.509832e+001	-1.503729e+002	-1.013097e+001	-3.125815e+000
1971057.192	-9.712952e+000	-4.732648e+001	-2.457971e+001	-1.546917e+002	-2.467386e+001	-1.544880e+002	-1.020965e+001	-7.320946e+000
1995493.934	-9.791197e+000	-5.227662e+001	-2.415095e+001	-1.588760e+002	-2.423310e+001	-1.586621e+002	-1.028587e+001	-1.161043e+001
2019930.676	-9.872245e+000	-5.737139e+001	-2.369998e+001	-1.632526e+002	-2.378141e+001	-1.629355e+002	-1.035793e+001	-1.596834e+001
2044367.418	-9.957014e+000	-6.260884e+001	-2.322725e+001	-1.677329e+002	-2.330701e+001	-1.674679e+002	-1.042270e+001	-2.048619e+001
2068804.159	-1.004829e+001	-6.798503e+001	-2.275361e+001	-1.723915e+002	-2.283325e+001	-1.721172e+002	-1.048579e+001	-2.507857e+001
2093240.901	-1.013911e+001	-7.350932e+001	-2.229525e+001	-1.770847e+002	-2.235043e+001	-1.769598e+002	-1.054476e+001	-2.974843e+001
2117677.643	-1.024461e+001	-7.924681e+001	-2.181021e+001	1.778932e+002	-2.186256e+001	1.780544e+002	-1.060134e+001	-3.453071e+001
2142114.385	-1.035940e+001	-8.518008e+001	-2.132717e+001	1.727331e+002	-2.137460e+001	1.729008e+002	-1.064714e+001	-3.943891e+001
2166551.127	-1.048410e+001	-9.128576e+001	-2.083696e+001	1.673583e+002	-2.088267e+001	1.675350e+002	-1.068932e+001	-4.446759e+001
2190987.868	-1.062139e+001	-9.762341e+001	-2.034908e+001	1.617687e+002	-2.039401e+001	1.619828e+002	-1.072861e+001	-4.960585e+001
2215424.610	-1.076842e+001	-1.041546e+002	-1.987925e+001	1.559941e+002	-1.989926e+001	1.560762e+002	-1.077142e+001	-5.487216e+001
2239861.352	-1.093055e+001	-1.109180e+002	-1.941833e+001	1.500554e+002	-1.943365e+001	1.501594e+002	-1.079877e+001	-6.023632e+001
2264298.094	-1.110663e+001	-1.179386e+002	-1.896472e+001	1.438840e+002	-1.897771e+001	1.440418e+002	-1.081856e+001	-6.572478e+001
2288734.835	-1.130029e+001	-1.251808e+002	-1.852357e+001	1.375622e+002	-1.853331e+001	1.377358e+002	-1.083344e+001	-7.131934e+001
2313171.577	-1.151213e+001	-1.326734e+002	-1.810571e+001	1.310405e+002	-1.810285e+001	1.312205e+002	-1.084505e+001	-7.700877e+001
2337608.319	-1.174010e+001	-1.403840e+002	-1.770461e+001	1.243513e+002	-1.769604e+001	1.245146e+002	-1.084782e+001	-8.280530e+001
2362045.061	-1.198014e+001	-1.483268e+002	-1.733443e+001	1.175178e+002	-1.731535e+001	1.176753e+002	-1.084236e+001	-8.866179e+001
2386481.802	-1.223306e+001	-1.564888e+002	-1.698868e+001	1.105220e+002	-1.696675e+001	1.107253e+002	-1.082501e+001	-9.464809e+001
2410918.544	-1.249017e+001	-1.648678e+002	-1.667418e+001	1.033605e+002	-1.664275e+001	1.036146e+002	-1.079858e+001	-1.007121e+002
2435355.286	-1.274944e+001	-1.734549e+002	-1.639305e+001	9.614279e+001	-1.635362e+001	9.642386e+001	-1.076210e+001	-1.068853e+002
2459792.028	-1.300354e+001	1.777503e+002	-1.614012e+001	8.883454e+001	-1.609566e+001	8.914341e+001	-1.071684e+001	-1.131375e+002
2484228.769	-1.325174e+001	1.687960e+002	-1.592532e+001	8.144077e+001	-1.588868e+001	8.200884e+001	-1.064637e+001	-1.195233e+002
2508665.511	-1.348179e+001	1.597088e+002	-1.574489e+001	7.403056e+001	-1.569968e+001	7.458590e+001	-1.058891e+001	-1.259669e+002
2533102.253	-1.369607e+001	1.505292e+002	-1.559528e+001	6.656479e+001	-1.555641e+001	6.722792e+001	-1.052010e+001	-1.324775e+002
2557538.995	-1.387781e+001	1.412932e+002	-1.548525e+001	5.911384e+001	-1.543595e+001	5.977582e+001	-1.045550e+001	-1.390733e+002
2581975.737	-1.402785e+001	1.320505e+002	-1.541097e+001	5.168860e+001	-1.535401e+001	5.232122e+001	-1.039204e+001	-1.457415e+002
2606412.478	-1.413664e+001	1.228529e+002	-1.537336e+001	4.431181e+001	-1.530553e+001	4.492215e+001	-1.033274e+001	-1.524520e+002
2630849.220	-1.421042e+001	1.137677e+002	-1.536525e+001	3.702858e+001	-1.529366e+001	3.755196e+001	-1.027742e+001	-1.592004e+002
2655285.962	-1.424762e+001	1.048024e+002	-1.539439e+001	2.982435e+001	-1.531434e+001	3.030563e+001	-1.022746e+001	-1.659564e+002
2679722.704	-1.425039e+001	9.600193e+001	-1.545172e+001	2.272173e+001	-1.537294e+001	2.313552e+001	-1.019006e+001	-1.727213e+002
2704159.445	-1.422176e+001	8.743173e+001	-1.553590e+001	1.573306e+001	-1.545307e+001	1.611117e+001	-1.015500e+001	-1.794318e+002
2728596.187	-1.416446e+001	7.909760e+001	-1.564129e+001	8.863174e+000	-1.556394e+001	9.228330e+000	-1.013471e+001	1.738937e+002
2753032.929	-1.408714e+001	7.103905e+001	-1.577382e+001	2.167460e+000	-1.569972e+001	2.455241e+000	-1.012564e+001	1.672739e+002
2777469.671	-1.398932e+001	6.323566e+001	-1.592222e+001	-4.397933e+000	-1.585190e+001	-4.124266e+000	-1.012656e+001	1.607775e+002
2801906.412	-1.387845e+001	5.572226e+001	-1.609158e+001	-1.076352e+001	-1.602669e+001	-1.054326e+001	-1.014392e+001	1.543740e+002
2826343.154	-1.375912e+001	4.849234e+001	-1.627539e+001	-1.699009e+001	-1.621698e+001	-1.680168e+001	-1.016743e+001	1.481025e+002
2850779.896	-1.362578e+001	4.154811e+001	-1.646970e+001	-2.302357e+001	-1.642022e+001	-2.289467e+001	-1.020097e+001	1.419689e+002
2875216.638	-1.349679e+001	3.487189e+001	-1.667103e+001	-2.896484e+001	-1.663231e+001	-2.878088e+001	-1.024671e+001	1.359719e+002
2899653.380	-1.335800e+001	2.847780e+001	-1.688498e+001	-3.463192e+001	-1.685620e+001	-3.450869e+001	-1.029855e+001	1.301330e+002
2924090.121	-1.321744e+001	2.232804e+001	-1.710453e+001	-4.011858e+001	-1.708227e+001	-4.004030e+001	-1.035627e+001	1.244610e+002
2948526.863	-1.307564e+001	1.641884e+001	-1.732704e+001	-4.543530e+001	-1.731027e+001	-4.540646e+001	-1.041952e+001	1.189327e+002
2972963.605	-1.293503e+001	1.073294e+001	-1.754985e+001	-5.059132e+001	-1.753747e+001	-5.060762e+001	-1.048710e+001	1.135543e+002
2997400.347	-1.279554e+001	5.252583e+000	-1.776988e+001	-5.558286e+001	-1.776918e+001	-5.562320e+001	-1.055673e+001	1.083232e+002
3021837.088	-1.265726e+001	-3.273787e-002	-1.798984e+001	-6.040528e+001	-1.799291e+001	-6.047265e+001	-1.062776e+001	1.032408e+002
3046273.830	-1.251950e+001	-5.145504e+000	-1.819997e+001	-6.506919e+001	-1.821052e+001	-6.519774e+001	-1.070082e+001	9.828854e+001
3070710.572	-1.238720e+001	-1.010001e+001	-1.840524e+001	-6.962405e+001	-1.841777e+001	-6.978540e+001	-1.077559e+001	9.345037e+001
3095147.314	-1.225946e+001	-1.489514e+001	-1.859887e+001	-7.407420e+001	-1.861874e+001	-7.425561e+001	-1.085046e+001	8.875311e+001
3119584.055	-1.213404e+001	-1.954777e+001	-1.878411e+001	-7.842042e+001	-1.880973e+001	-7.860417e+001	-1.092571e+001	8.417388e+001
3144020.797	-1.201059e+001	-2.405595e+001	-1.896589e+001	-8.260060e+001	-1.898541e+001	-8.290398e+001	-1.100425e+001	7.972009e+001
3168457.539	-1.189161e+001	-2.846286e+001	-1.912995e+001	-8.673179e+001	-1.915413e+001	-8.706428e+001	-1.107815e+001	7.536698e+001
3192894.281	-1.177607e+001	-3.274936e+001	-1.928344e+001	-9.078917e+001	-1.931296e+001	-9.111221e+001	-1.115204e+001	7.111940e+001
3217331.023	-1.166356e+001	-3.693129e+001	-1.942901e+001	-9.478159e+001	-1.946470e+001	-9.509458e+001	-1.122363e+001	6.696381e+001
3241767.764	-1.155478e+001	-4.101520e+001	-1.956190e+001	-9.869570e+001	-1.960245e+001	-9.900999e+001	-1.129465e+001	6.290907e+001
3266204.506	-1.144783e+001	-4.500805e+001	-1.968716e+001	-1.025503e+002	-1.973407e+001	-1.028487e+002	-1.136188e+001	5.894614e+001
3290641.248	-1.134211e+001	-4.892482e+001	-1.980325e+001	-1.062842e+002	-1.985026e+001	-1.065496e+002	-1.142455e+001	5.504607e+001
3315077.990	-1.123850e+001	-5.277919e+001	-1.989710e+001	-1.099203e+002	-1.994714e+001	-1.102139e+002	-1.148693e+001	5.120332e+001
3339514.731	-1.113985e+001	-5.658479e+001	-1.997096e+001	-1.135554e+002	-2.002217e+001	-1.138362e+002	-1.155149e+001	4.742027e+001
3363951.473	-1.104542e+001	-6.032783e+001	-2.002880e+001	-1.171577e+002	-2.008442e+001	-1.174418e+002	-1.161653e+001	4.369531e+001
3388388.215	-1.095811e+001	-6.401123e+001	-2.007260e+001	-1.207641e+002	-2.013202e+001	-1.210312e+002	-1.168098e+001	4.003488e+001
3412824.957	-1.087427e+001	-6.763313e+001	-2.010320e+001	-1.243378e+002	-2.016499e+001	-1.245912e+002	-1.174489e+001	3.644364e+001
3437261.698	-1.079435e+001	-7.119998e+001	-2.012016e+001	-1.279279e+002	-2.018283e+001	-1.281593e+002	-1.181004e+001	3.291477e+001
3461698.440	-1.072026e+001	-7.471889e+001	-2.012112e+001	-1.314911e+002	-2.018856e+001	-1.316837e+002	-1.187527e+001	2.943657e+001
3486135.182	-1.065138e+001	-7.818064e+001	-2.010731e+001	-1.350741e+002	-2.018040e+001	-1.352522e+002	-1.194047e+001	2.603653e+001
3510571.924	-1.058651e+001	-8.159152e+001	-2.008414e+001	-1.386886e+002	-2.015636e+001	-1.388517e+002	-1.200902e+001	2.268407e+001
3535008.666	-1.052674e+001	-8.493809e+001	-2.004727e+001	-1.423134e+002	-2.012325e+001	-1.423777e+002	-1.207116e+001	1.941413e+001
3559445.407	-1.046837e+001	-8.823396e+001	-1.999512e+001	-1.459140e+002	-2.007375e+001	-1.459497e+002	-1.213124e+001	1.619077e+001
3583882.149	-1.041206e+001	-9.148720e+001	-1.992543e+001	-1.495588e+002	-2.000887e+001	-1.495280e+002	-1.218874e+001	1.300335e+001
3608318.891	-1.035698e+001	-9.470787e+001	-1.983702e+001	-1.532143e+002	-1.992408e+001	-1.531392e+002	-1.224508e+001	9.848822e+000
3632755.633	-1.031255e+001	-9.792338e+001	-1.972193e+001	-1.571579e+002	-1.983022e+001	-1.566841e+002	-1.229340e+001	6.690031e+000
3657192.374	-1.026735e+001	-1.010903e+002	-1.960348e+001	-1.610694e+002	-1.972103e+001	-1.604061e+002	-1.234744e+001	3.603434e+000
3681629.116	-1.022732e+001	-1.042431e+002	-1.947367e+001	-1.651232e+002	-1.959816e+001	-1.642629e+002	-1.240677e+001	5.409981e-001
3706065.858	-1.018161e+001	-1.073785e+002	-1.934078e+001	-1.690548e+002	-1.946264e+001	-1.682313e+002	-1.246923e+001	-2.484478e+000
3730502.600	-1.014282e+001	-1.104972e+002	-1.921035e+001	-1.731342e+002	-1.932869e+001	-1.723068e+002	-1.253470e+001	-5.457379e+000
3754939.341	-1.011036e+001	-1.135863e+002	-1.907829e+001	-1.773080e+002	-1.919143e+001	-1.764460e+002	-1.259997e+001	-8.385878e+000
3779376.083	-1.008770e+001	-1.166712e+002	-1.893709e+001	1.784427e+002	-1.904929e+001	1.793250e+002	-1.266808e+001	-1.128472e+001
3803812.825	-1.007636e+001	-1.197504e+002	-1.878089e+001	1.740437e+002	-1.889111e+001	1.750042e+002	-1.274188e+001	-1.417946e+001
3828249.567	-1.007572e+001	-1.228096e+002	-1.862122e+001	1.695674e+002	-1.872090e+001	1.705536e+002	-1.282629e+001	-1.703569e+001
3852686.308	-1.009091e+001	-1.258255e+002	-1.845246e+001	1.649036e+002	-1.854845e+001	1.659245e+002	-1.292171e+001	-1.982166e+001
3877123.050	-1.011728e+001	-1.287862e+002	-1.828406e+001	1.601236e+002	-1.837471e+001	1.611464e+002	-1.302827e+001	-2.252734e+001
3901559.792	-1.015720e+001	-1.316624e+002	-1.811882e+001	1.551994e+002	-1.820409e+001	1.561603e+002	-1.314734e+001	-2.510902e+001
3925996.534	-1.021102e+001	-1.344399e+002	-1.795756e+001	1.500639e+002	-1.804112e+001	1.509794e+002	-1.327489e+001	-2.753383e+001
3950433.276	-1.028137e+001	-1.370724e+002	-1.780738e+001	1.446862e+002	-1.788741e+001	1.455828e+002	-1.341311e+001	-2.976814e+001
3974870.017	-1.036268e+001	-1.395291e+002	-1.767119e+001	1.390771e+002	-1.775221e+001	1.399636e+002	-1.355054e+001	-3.178243e+001
3999306.759	-1.044900e+001	-1.417465e+002	-1.756486e+001	1.332071e+002	-1.764072e+001	1.341196e+002	-1.368685e+001	-3.350706e+001
4023743.501	-1.052939e+001	-1.437386e+002	-1.749038e+001	1.271286e+002	-1.756302e+001	1.280533e+002	-1.380566e+001	-3.494286e+001
4048180.243	-1.059529e+001	-1.454842e+002	-1.745449e+001	1.208825e+002	-1.752770e+001	1.217928e+002	-1.389447e+001	-3.608084e+001
4072616.984	-1.063387e+001	-1.469648e+002	-1.747223e+001	1.144150e+002	-1.754109e+001	1.153219e+002	-1.394036e+001	-3.691195e+001
4097053.726	-1.062877e+001	-1.482530e+002	-1.755306e+001	1.078246e+002	-1.761723e+001	1.087094e+002	-1.392186e+001	-3.754440e+001
4121490.468	-1.056612e+001	-1.494123e+002	-1.771074e+001	1.011041e+002	-1.777682e+001	1.019992e+002	-1.381944e+001	-3.807452e+001
4145927.210	-1.044161e+001	-1.506032e+002	-1.795255e+001	9.442816e+001	-1.802505e+001	9.534727e+001	-1.363303e+001	-3.871121e+001
4170363.951	-1.024197e+001	-1.519520e+002	-1.831677e+001	8.791527e+001	-1.837784e+001	8.866436e+001	-1.336498e+001	-3.950497e+001
4194800.693	-9.984588e+000	-1.537078e+002	-1.879778e+001	8.183105e+001	-1.885458e+001	8.259489e+001	-1.302440e+001	-4.094007e+001
4219237.435	-9.704218e+000	-1.560084e+002	-1.936499e+001	7.659275e+001	-1.942178e+001	7.738721e+001	-1.266043e+001	-4.304060e+001
4243674.177	-9.435060e+000	-1.588407e+002	-1.997465e+001	7.243191e+001	-2.002656e+001	7.324485e+001	-1.231342e+001	-4.575181e+001
4268110.919	-9.201298e+000	-1.620584e+002	-2.055455e+001	6.923785e+001	-2.060146e+001	7.009442e+001	-1.200785e+001	-4.886863e+001
4292547.660	-9.005164e+000	-1.655044e+002	-2.108845e+001	6.683544e+001	-2.113017e+001	6.771869e+001	-1.174208e+001	-5.221704e+001
4316984.402	-8.844883e+000	-1.691697e+002	-2.156445e+001	6.528649e+001	-2.159274e+001	6.619813e+001	-1.150997e+001	-5.577348e+001
4341421.144	-8.731489e+000	-1.730007e+002	-2.189872e+001	6.457049e+001	-2.191289e+001	6.547108e+001	-1.132435e+001	-5.949918e+001
4365857.886	-8.674560e+000	-1.768590e+002	-2.202290e+001	6.401912e+001	-2.202198e+001	6.486945e+001	-1.119344e+001	-6.325470e+001
4390294.627	-8.656307e+000	1.794493e+002	-2.199727e+001	6.258787e+001	-2.199430e+001	6.334045e+001	-1.109862e+001	-6.679410e+001
4414731.369	-8.644842e+000	1.759528e+002	-2.198957e+001	6.012655e+001	-2.198690e+001	6.076668e+001	-1.100654e+001	-7.007659e+001
4439168.111	-8.609229e+000	1.724934e+002	-2.211814e+001	5.725203e+001	-2.211078e+001	5.811963e+001	-1.088057e+001	-7.333832e+001
4463604.853	-8.548049e+000	1.688222e+002	-2.240889e+001	5.525022e+001	-2.239058e+001	5.620975e+001	-1.071054e+001	-7.669003e+001
4488041.594	-8.492440e+000	1.647178e+002	-2.271618e+001	5.519900e+001	-2.266727e+001	5.615668e+001	-1.052345e+001	-8.047940e+001
4512478.336	-8.494714e+000	1.601629e+002	-2.271623e+001	5.701749e+001	-2.266447e+001	5.794815e+001	-1.036301e+001	-8.475735e+001
4536915.078	-8.595943e+000	1.554453e+002	-2.224521e+001	5.851022e+001	-2.218665e+001	5.941359e+001	-1.028225e+001	-8.933600e+001
4561351.820	-8.781468e+000	1.509968e+002	-2.153693e+001	5.744366e+001	-2.145957e+001	5.851267e+001	-1.028484e+001	-9.381722e+001
4585788.562	-8.995965e+000	1.469498e+002	-2.092846e+001	5.430627e+001	-2.081208e+001	5.530611e+001	-1.032606e+001	-9.790618e+001
4610225.303	-9.199789e+000	1.430882e+002	-2.049608e+001	5.053102e+001	-2.036449e+001	5.135373e+001	-1.035182e+001	-1.017162e+002
4634662.045	-9.398278e+000	1.391899e+002	-2.016494e+001	4.690227e+001	-2.004068e+001	4.753596e+001	-1.034825e+001	-1.054932e+002
4659098.787	-9.606935e+000	1.351620e+002	-1.986211e+001	4.356292e+001	-1.974941e+001	4.403984e+001	-1.033145e+001	-1.093913e+002
4683535.529	-9.839917e+000	1.309625e+002	-1.953863e+001	4.043317e+001	-1.944266e+001	4.085220e+001	-1.030938e+001	-1.134805e+002
4707972.270	-1.011515e+001	1.266228e+002	-1.917238e+001	3.738993e+001	-1.908761e+001	3.786469e+001	-1.029440e+001	-1.177837e+002
4732409.012	-1.045065e+001	1.221080e+002	-1.872181e+001	3.423150e+001	-1.864440e+001	3.472805e+001	-1.030597e+001	-1.223516e+002
4756845.754	-1.086179e+001	1.175942e+002	-1.820807e+001	3.052211e+001	-1.812712e+001	3.108713e+001	-1.036010e+001	-1.271097e+002
4781282.496	-1.134886e+001	1.132643e+002	-1.768267e+001	2.606390e+001	-1.759319e+001	2.665631e+001	-1.046540e+001	-1.318826e+002
4805719.237	-1.188637e+001	1.091754e+002	-1.720406e+001	2.104011e+001	-1.711391e+001	2.161859e+001	-1.060401e+001	-1.365610e+002
4830155.979	-1.246736e+001	1.052628e+002	-1.678102e+001	1.575984e+001	-1.669200e+001	1.627877e+001	-1.076271e+001	-1.411730e+002
4854592.721	-1.309616e+001	1.014990e+002	-1.639353e+001	1.029190e+001	-1.630302e+001	1.076368e+001	-1.094303e+001	-1.458022e+002
4879029.463	-1.378347e+001	9.790498e+001	-1.603188e+001	4.659984e+000	-1.595094e+001	5.126839e+000	-1.114320e+001	-1.504257e+002
4903466.205	-1.453499e+001	9.452065e+001	-1.569967e+001	-1.095645e+000	-1.562188e+001	-6.632876e-001	-1.137136e+001	-1.550550e+002
4927902.946	-1.535126e+001	9.141482e+001	-1.539756e+001	-7.014754e+000	-1.532388e+001	-6.601259e+000	-1.162656e+001	-1.596636e+002
4952339.688	-1.623251e+001	8.868383e+001	-1.512739e+001	-1.314015e+001	-1.505818e+001	-1.260389e+001	-1.190470e+001	-1.642581e+002
4976776.430	-1.718408e+001	8.623615e+001	-1.489171e+001	-1.921644e+001	-1.482887e+001	-1.873169e+001	-1.220641e+001	-1.687514e+002
5001213.172	-1.821158e+001	8.415421e+001	-1.468568e+001	-2.532966e+001	-1.462921e+001	-2.487430e+001	-1.252925e+001	-1.732016e+002
5025649.913	-1.932565e+001	8.249642e+001	-1.450798e+001	-3.147020e+001	-1.445894e+001	-3.103715e+001	-1.286881e+001	-1.775908e+002
5050086.655	-2.054583e+001	8.134465e+001	-1.435806e+001	-3.759744e+001	-1.431585e+001	-3.717420e+001	-1.322630e+001	1.780553e+002
5074523.397	-2.189946e+001	8.084888e+001	-1.422865e+001	-4.368708e+001	-1.419451e+001	-4.329056e+001	-1.359857e+001	1.737427e+002
5098960.139	-2.341132e+001	8.130583e+001	-1.412293e+001	-4.976853e+001	-1.409385e+001	-4.937144e+001	-1.398840e+001	1.694545e+002
5123396.880	-2.513589e+001	8.311171e+001	-1.403568e+001	-5.578296e+001	-1.401022e+001	-5.541829e+001	-1.439636e+001	1.652058e+002
5147833.622	-2.711620e+001	8.722285e+001	-1.396099e+001	-6.178027e+001	-1.394215e+001	-6.140933e+001	-1.482112e+001	1.609700e+002
5172270.364	-2.934567e+001	9.538300e+001	-1.390259e+001	-6.771583e+001	-1.388803e+001	-6.737304e+001	-1.526319e+001	1.567733e+002
5196707.106	-3.157704e+001	1.106983e+002	-1.385545e+001	-7.361722e+001	-1.384782e+001	-7.330611e+001	-1.572404e+001	1.526135e+002
5221143.847	-3.284498e+001	1.347947e+002	-1.382240e+001	-7.940466e+001	-1.381713e+001	-7.921197e+001	-1.620466e+001	1.485185e+002
5245580.589	-3.201053e+001	1.593404e+002	-1.379942e+001	-8.526556e+001	-1.379659e+001	-8.508126e+001	-1.670206e+001	1.444512e+002
5270017.331	-3.004024e+001	1.755412e+002	-1.378535e+001	-9.110176e+001	-1.378668e+001	-9.090216e+001	-1.721223e+001	1.404329e+002
5294454.073	-2.799575e+001	-1.755889e+002	-1.378142e+001	-9.687375e+001	-1.378651e+001	-9.668791e+001	-1.773817e+001	1.364597e+002
5318890.815	-2.619618e+001	-1.710569e+002	-1.378507e+001	-1.025987e+002	-1.379367e+001	-1.024310e+002	-1.827743e+001	1.325072e+002
5343327.556	-2.465485e+001	-1.689233e+002	-1.379057e+001	-1.083025e+002	-1.380080e+001	-1.081146e+002	-1.884075e+001	1.285464e+002
5367764.298	-2.333586e+001	-1.682935e+002	-1.379881e+001	-1.139687e+002	-1.381011e+001	-1.137622e+002	-1.942032e+001	1.246136e+002
5392201.040	-2.220414e+001	-1.686409e+002	-1.380839e+001	-1.196410e+002	-1.382222e+001	-1.194451e+002	-2.002648e+001	1.208128e+002
5416637.782	-2.123648e+001	-1.695925e+002	-1.382404e+001	-1.253107e+002	-1.383984e+001	-1.251074e+002	-2.064267e+001	1.171435e+002
5441074.523	-2.039638e+001	-1.709640e+002	-1.384385e+001	-1.309791e+002	-1.386140e+001	-1.307903e+002	-2.127387e+001	1.136453e+002
