!Agilent Technologies,E5061B,MY49101568,A.02.00
!Date: Wed Mar 01 12:40:17 2023
!Data & Calibration Information:
!Freq	S11:SOLT2(OFF)	S21:SOLT2(OFF)	S12:SOLT2(OFF)	S22:SOLT2(OFF)
# Hz S dB R 50
1800000.000	-9.566011e+000	-1.717459e+001	-2.462952e+001	-1.320578e+002	-2.462018e+001	-1.321339e+002	-1.008104e+001	1.888008e+001
1824436.742	-9.662566e+000	-2.150769e+001	-2.425361e+001	-1.359730e+002	-2.424523e+001	-1.359708e+002	-1.020315e+001	1.502345e+001
1848873.484	-9.760334e+000	-2.593358e+001	-2.385635e+001	-1.399293e+002	-2.386158e+001	-1.399545e+002	-1.032804e+001	1.109982e+001
1873310.225	-9.866567e+000	-3.042799e+001	-2.345298e+001	-1.440286e+002	-2.346265e+001	-1.440091e+002	-1.045280e+001	7.139425e+000
1897746.967	-9.972739e+000	-3.499865e+001	-2.304534e+001	-1.481153e+002	-2.305695e+001	-1.481706e+002	-1.057199e+001	3.118130e+000
1922183.709	-1.008368e+001	-3.970277e+001	-2.262961e+001	-1.523643e+002	-2.264118e+001	-1.524228e+002	-1.069198e+001	-1.041484e+000
1946620.451	-1.019726e+001	-4.453428e+001	-2.219421e+001	-1.567310e+002	-2.221410e+001	-1.567638e+002	-1.081050e+001	-5.280542e+000
1971057.192	-1.031935e+001	-4.949569e+001	-2.175899e+001	-1.612145e+002	-2.178209e+001	-1.612385e+002	-1.092783e+001	-9.624150e+000
1995493.934	-1.044897e+001	-5.458433e+001	-2.130781e+001	-1.658436e+002	-2.133812e+001	-1.658019e+002	-1.104712e+001	-1.405185e+001
2019930.676	-1.058913e+001	-5.980923e+001	-2.084855e+001	-1.705595e+002	-2.088698e+001	-1.705196e+002	-1.116216e+001	-1.856363e+001
2044367.418	-1.073980e+001	-6.518138e+001	-2.038563e+001	-1.754884e+002	-2.042325e+001	-1.753575e+002	-1.127705e+001	-2.324291e+001
2068804.159	-1.090254e+001	-7.069483e+001	-1.991896e+001	1.793959e+002	-1.996402e+001	1.795395e+002	-1.138942e+001	-2.796429e+001
2093240.901	-1.107644e+001	-7.634089e+001	-1.945894e+001	1.741831e+002	-1.950435e+001	1.743266e+002	-1.150077e+001	-3.276479e+001
2117677.643	-1.126639e+001	-8.217231e+001	-1.899662e+001	1.687731e+002	-1.904717e+001	1.689645e+002	-1.161060e+001	-3.766730e+001
2142114.385	-1.147158e+001	-8.818447e+001	-1.854540e+001	1.632164e+002	-1.859070e+001	1.634541e+002	-1.171185e+001	-4.266637e+001
2166551.127	-1.169448e+001	-9.436825e+001	-1.809368e+001	1.574874e+002	-1.814191e+001	1.577554e+002	-1.181119e+001	-4.779114e+001
2190987.868	-1.193961e+001	-1.007520e+002	-1.765377e+001	1.515404e+002	-1.769915e+001	1.518580e+002	-1.190824e+001	-5.300206e+001
2215424.610	-1.220283e+001	-1.073040e+002	-1.722614e+001	1.453964e+002	-1.727515e+001	1.457505e+002	-1.199979e+001	-5.830661e+001
2239861.352	-1.248486e+001	-1.140595e+002	-1.682275e+001	1.391470e+002	-1.687051e+001	1.395749e+002	-1.208175e+001	-6.370131e+001
2264298.094	-1.278738e+001	-1.210562e+002	-1.642891e+001	1.327737e+002	-1.647313e+001	1.332364e+002	-1.214937e+001	-6.920035e+001
2288734.835	-1.311286e+001	-1.282541e+002	-1.605178e+001	1.262284e+002	-1.609065e+001	1.267553e+002	-1.221323e+001	-7.479013e+001
2313171.577	-1.345656e+001	-1.356613e+002	-1.569916e+001	1.195795e+002	-1.573089e+001	1.201237e+002	-1.226661e+001	-8.044523e+001
2337608.319	-1.381754e+001	-1.432843e+002	-1.536751e+001	1.127882e+002	-1.539550e+001	1.133591e+002	-1.230455e+001	-8.619764e+001
2362045.061	-1.418715e+001	-1.511205e+002	-1.506179e+001	1.058898e+002	-1.508609e+001	1.064888e+002	-1.233047e+001	-9.200427e+001
2386481.802	-1.455943e+001	-1.591751e+002	-1.478693e+001	9.890007e+001	-1.480519e+001	9.950924e+001	-1.233643e+001	-9.792879e+001
2410918.544	-1.492606e+001	-1.674895e+002	-1.453978e+001	9.184322e+001	-1.454587e+001	9.247667e+001	-1.232598e+001	-1.039449e+002
2435355.286	-1.528163e+001	-1.760665e+002	-1.432047e+001	8.475897e+001	-1.431650e+001	8.537102e+001	-1.229572e+001	-1.100854e+002
2459792.028	-1.561597e+001	1.751029e+002	-1.412318e+001	7.762296e+001	-1.411472e+001	7.823352e+001	-1.225386e+001	-1.163461e+002
2484228.769	-1.592516e+001	1.660339e+002	-1.395907e+001	7.041779e+001	-1.393978e+001	7.103820e+001	-1.219562e+001	-1.227308e+002
2508665.511	-1.618962e+001	1.567840e+002	-1.382127e+001	6.322227e+001	-1.379611e+001	6.383723e+001	-1.212835e+001	-1.291995e+002
2533102.253	-1.640824e+001	1.473440e+002	-1.371613e+001	5.605327e+001	-1.367827e+001	5.660846e+001	-1.205252e+001	-1.357505e+002
2557538.995	-1.657117e+001	1.378132e+002	-1.363645e+001	4.887640e+001	-1.359398e+001	4.940372e+001	-1.197192e+001	-1.424376e+002
2581975.737	-1.666847e+001	1.282270e+002	-1.359013e+001	4.172521e+001	-1.353898e+001	4.220612e+001	-1.188691e+001	-1.491875e+002
2606412.478	-1.670660e+001	1.186677e+002	-1.357029e+001	3.462416e+001	-1.351193e+001	3.508504e+001	-1.180581e+001	-1.559932e+002
2630849.220	-1.668349e+001	1.092179e+002	-1.357766e+001	2.759095e+001	-1.351432e+001	2.797118e+001	-1.172679e+001	-1.628572e+002
2655285.962	-1.660521e+001	9.992241e+001	-1.361312e+001	2.065084e+001	-1.354633e+001	2.097593e+001	-1.165545e+001	-1.697319e+002
2679722.704	-1.647825e+001	9.085142e+001	-1.367560e+001	1.380996e+001	-1.360246e+001	1.407051e+001	-1.159213e+001	-1.766065e+002
2704159.445	-1.630932e+001	8.203258e+001	-1.375853e+001	7.054649e+000	-1.368376e+001	7.272597e+000	-1.153641e+001	1.765698e+002
2728596.187	-1.611546e+001	7.352340e+001	-1.386273e+001	4.613094e-001	-1.378946e+001	6.019603e-001	-1.149655e+001	1.697799e+002
2753032.929	-1.589805e+001	6.531382e+001	-1.398603e+001	-6.032154e+000	-1.391292e+001	-5.926490e+000	-1.146836e+001	1.630824e+002
2777469.671	-1.567080e+001	5.743443e+001	-1.412839e+001	-1.236842e+001	-1.405235e+001	-1.233024e+001	-1.145038e+001	1.564601e+002
2801906.412	-1.543573e+001	4.987891e+001	-1.428190e+001	-1.856219e+001	-1.421044e+001	-1.857409e+001	-1.144682e+001	1.499914e+002
2826343.154	-1.520097e+001	4.264714e+001	-1.444925e+001	-2.459506e+001	-1.438376e+001	-2.464911e+001	-1.145793e+001	1.436397e+002
2850779.896	-1.496708e+001	3.572255e+001	-1.462527e+001	-3.047664e+001	-1.456462e+001	-3.058584e+001	-1.147665e+001	1.374450e+002
2875216.638	-1.474108e+001	2.909902e+001	-1.481086e+001	-3.623662e+001	-1.475200e+001	-3.634190e+001	-1.150815e+001	1.313754e+002
2899653.380	-1.452024e+001	2.274253e+001	-1.499904e+001	-4.180262e+001	-1.494658e+001	-4.194731e+001	-1.154878e+001	1.254976e+002
2924090.121	-1.430752e+001	1.664248e+001	-1.519251e+001	-4.721468e+001	-1.514624e+001	-4.739113e+001	-1.159663e+001	1.197777e+002
2948526.863	-1.410298e+001	1.080121e+001	-1.538586e+001	-5.248112e+001	-1.534569e+001	-5.268677e+001	-1.165003e+001	1.142152e+002
2972963.605	-1.390728e+001	5.172639e+000	-1.557536e+001	-5.760824e+001	-1.554410e+001	-5.782969e+001	-1.171081e+001	1.088173e+002
2997400.347	-1.371955e+001	-2.489015e-001	-1.576298e+001	-6.258930e+001	-1.573960e+001	-6.281975e+001	-1.177395e+001	1.035585e+002
3021837.088	-1.353811e+001	-5.484020e+000	-1.594899e+001	-6.741578e+001	-1.593068e+001	-6.767548e+001	-1.184052e+001	9.844887e+001
3046273.830	-1.336613e+001	-1.055616e+001	-1.612248e+001	-7.213809e+001	-1.611161e+001	-7.238785e+001	-1.191058e+001	9.346262e+001
3070710.572	-1.320442e+001	-1.546748e+001	-1.628697e+001	-7.675246e+001	-1.628390e+001	-7.699574e+001	-1.198523e+001	8.860096e+001
3095147.314	-1.305114e+001	-2.022074e+001	-1.644134e+001	-8.127183e+001	-1.644506e+001	-8.152399e+001	-1.206297e+001	8.387424e+001
3119584.055	-1.290572e+001	-2.484179e+001	-1.659077e+001	-8.570875e+001	-1.660023e+001	-8.594645e+001	-1.214256e+001	7.927148e+001
3144020.797	-1.276795e+001	-2.933286e+001	-1.672639e+001	-9.003952e+001	-1.674204e+001	-9.028914e+001	-1.222283e+001	7.481105e+001
3168457.539	-1.263720e+001	-3.370872e+001	-1.685534e+001	-9.430301e+001	-1.687476e+001	-9.456417e+001	-1.230638e+001	7.043647e+001
3192894.281	-1.251224e+001	-3.798906e+001	-1.697106e+001	-9.852849e+001	-1.699625e+001	-9.876535e+001	-1.239006e+001	6.615676e+001
3217331.023	-1.239482e+001	-4.214906e+001	-1.707480e+001	-1.027023e+002	-1.710753e+001	-1.029058e+002	-1.247586e+001	6.199611e+001
3241767.764	-1.228590e+001	-4.621553e+001	-1.717323e+001	-1.068251e+002	-1.721108e+001	-1.070308e+002	-1.256376e+001	5.793784e+001
3266204.506	-1.218087e+001	-5.018685e+001	-1.726356e+001	-1.108992e+002	-1.730834e+001	-1.110570e+002	-1.264650e+001	5.397498e+001
3290641.248	-1.207735e+001	-5.408962e+001	-1.734276e+001	-1.148523e+002	-1.739140e+001	-1.149961e+002	-1.272731e+001	5.008151e+001
3315077.990	-1.197926e+001	-5.795789e+001	-1.739852e+001	-1.187368e+002	-1.745176e+001	-1.188563e+002	-1.280836e+001	4.619156e+001
3339514.731	-1.189147e+001	-6.177082e+001	-1.743429e+001	-1.226512e+002	-1.749347e+001	-1.227291e+002	-1.289837e+001	4.236221e+001
3363951.473	-1.181351e+001	-6.552205e+001	-1.745648e+001	-1.265926e+002	-1.751722e+001	-1.266409e+002	-1.299522e+001	3.860728e+001
3388388.215	-1.174455e+001	-6.921708e+001	-1.746379e+001	-1.305356e+002	-1.753192e+001	-1.305620e+002	-1.309703e+001	3.493195e+001
3412824.957	-1.168496e+001	-7.284932e+001	-1.746402e+001	-1.345152e+002	-1.753208e+001	-1.345010e+002	-1.320485e+001	3.133561e+001
3437261.698	-1.163655e+001	-7.641289e+001	-1.745299e+001	-1.385386e+002	-1.752239e+001	-1.384777e+002	-1.331970e+001	2.780654e+001
3461698.440	-1.159729e+001	-7.990638e+001	-1.743238e+001	-1.426188e+002	-1.750348e+001	-1.424880e+002	-1.343931e+001	2.439483e+001
3486135.182	-1.156657e+001	-8.333899e+001	-1.739731e+001	-1.466843e+002	-1.747560e+001	-1.465534e+002	-1.356665e+001	2.107185e+001
3510571.924	-1.154468e+001	-8.667147e+001	-1.736476e+001	-1.507978e+002	-1.744279e+001	-1.506317e+002	-1.369494e+001	1.786446e+001
3535008.666	-1.153021e+001	-8.991993e+001	-1.732513e+001	-1.549629e+002	-1.740370e+001	-1.547565e+002	-1.382688e+001	1.476632e+001
3559445.407	-1.151916e+001	-9.309344e+001	-1.727637e+001	-1.590998e+002	-1.735732e+001	-1.588604e+002	-1.395676e+001	1.175727e+001
3583882.149	-1.151129e+001	-9.620524e+001	-1.721698e+001	-1.632638e+002	-1.729529e+001	-1.629913e+002	-1.408765e+001	8.810586e+000
3608318.891	-1.151326e+001	-9.926525e+001	-1.713772e+001	-1.674884e+002	-1.721810e+001	-1.671636e+002	-1.422142e+001	5.920656e+000
3632755.633	-1.152109e+001	-1.022746e+002	-1.704610e+001	-1.718389e+002	-1.712466e+001	-1.714517e+002	-1.436773e+001	3.104061e+000
3657192.374	-1.153569e+001	-1.052058e+002	-1.694563e+001	-1.762623e+002	-1.702748e+001	-1.758550e+002	-1.452042e+001	4.198530e-001
3681629.116	-1.156169e+001	-1.080646e+002	-1.684194e+001	1.791520e+002	-1.692107e+001	1.796160e+002	-1.468145e+001	-2.135514e+000
3706065.858	-1.159507e+001	-1.108307e+002	-1.673807e+001	1.744452e+002	-1.681278e+001	1.749415e+002	-1.485063e+001	-4.530100e+000
3730502.600	-1.163719e+001	-1.134824e+002	-1.663899e+001	1.695974e+002	-1.670941e+001	1.701278e+002	-1.502028e+001	-6.724220e+000
3754939.341	-1.168637e+001	-1.160423e+002	-1.654153e+001	1.646550e+002	-1.661630e+001	1.651994e+002	-1.518581e+001	-8.709227e+000
3779376.083	-1.173892e+001	-1.184897e+002	-1.645409e+001	1.596625e+002	-1.652484e+001	1.602092e+002	-1.534276e+001	-1.055001e+001
3803812.825	-1.180269e+001	-1.208093e+002	-1.636619e+001	1.545192e+002	-1.643005e+001	1.551282e+002	-1.549963e+001	-1.222611e+001
3828249.567	-1.187609e+001	-1.229803e+002	-1.627263e+001	1.492290e+002	-1.633687e+001	1.498162e+002	-1.566074e+001	-1.363388e+001
3852686.308	-1.195090e+001	-1.249204e+002	-1.619983e+001	1.437686e+002	-1.626324e+001	1.443569e+002	-1.579701e+001	-1.473133e+001
3877123.050	-1.202103e+001	-1.266140e+002	-1.614262e+001	1.381158e+002	-1.620841e+001	1.387363e+002	-1.590899e+001	-1.553048e+001
3901559.792	-1.207490e+001	-1.280713e+002	-1.610837e+001	1.323499e+002	-1.617371e+001	1.329762e+002	-1.598083e+001	-1.604092e+001
3925996.534	-1.210494e+001	-1.292760e+002	-1.610210e+001	1.264099e+002	-1.616527e+001	1.270704e+002	-1.599786e+001	-1.630357e+001
3950433.276	-1.209676e+001	-1.302706e+002	-1.613254e+001	1.203570e+002	-1.619181e+001	1.210157e+002	-1.594255e+001	-1.638546e+001
3974870.017	-1.203865e+001	-1.311043e+002	-1.619970e+001	1.141804e+002	-1.625989e+001	1.148676e+002	-1.580859e+001	-1.642868e+001
3999306.759	-1.192255e+001	-1.318917e+002	-1.631193e+001	1.079776e+002	-1.637642e+001	1.086536e+002	-1.558745e+001	-1.659110e+001
4023743.501	-1.174632e+001	-1.327684e+002	-1.647362e+001	1.017630e+002	-1.653363e+001	1.024516e+002	-1.530069e+001	-1.704752e+001
4048180.243	-1.151634e+001	-1.338078e+002	-1.668699e+001	9.557510e+001	-1.674900e+001	9.627095e+001	-1.494955e+001	-1.787078e+001
4072616.984	-1.124024e+001	-1.351107e+002	-1.695390e+001	8.945966e+001	-1.701220e+001	9.015928e+001	-1.456154e+001	-1.912290e+001
4097053.726	-1.092814e+001	-1.367465e+002	-1.727917e+001	8.346031e+001	-1.734164e+001	8.416153e+001	-1.414760e+001	-2.084925e+001
4121490.468	-1.059683e+001	-1.387505e+002	-1.766479e+001	7.763452e+001	-1.772524e+001	7.840939e+001	-1.372878e+001	-2.306208e+001
4145927.210	-1.025717e+001	-1.411728e+002	-1.812185e+001	7.212889e+001	-1.818219e+001	7.290885e+001	-1.331178e+001	-2.569388e+001
4170363.951	-9.923757e+000	-1.439807e+002	-1.864681e+001	6.709420e+001	-1.871037e+001	6.776589e+001	-1.291166e+001	-2.869967e+001
4194800.693	-9.610548e+000	-1.471717e+002	-1.923381e+001	6.262235e+001	-1.930451e+001	6.338103e+001	-1.254441e+001	-3.216851e+001
4219237.435	-9.334866e+000	-1.507299e+002	-1.986178e+001	5.901495e+001	-1.993404e+001	5.980010e+001	-1.221968e+001	-3.593347e+001
4243674.177	-9.108810e+000	-1.545100e+002	-2.046634e+001	5.641753e+001	-2.055141e+001	5.724084e+001	-1.194836e+001	-3.991481e+001
4268110.919	-8.929824e+000	-1.583866e+002	-2.101104e+001	5.450557e+001	-2.109602e+001	5.545201e+001	-1.173036e+001	-4.393927e+001
4292547.660	-8.787473e+000	-1.623220e+002	-2.149090e+001	5.323164e+001	-2.157090e+001	5.431963e+001	-1.154635e+001	-4.796543e+001
4316984.402	-8.677466e+000	-1.663371e+002	-2.190392e+001	5.264745e+001	-2.196546e+001	5.385572e+001	-1.139091e+001	-5.203803e+001
4341421.144	-8.614441e+000	-1.704050e+002	-2.215960e+001	5.275033e+001	-2.220211e+001	5.396812e+001	-1.127622e+001	-5.611940e+001
4365857.886	-8.599386e+000	-1.743705e+002	-2.219589e+001	5.275453e+001	-2.221918e+001	5.394999e+001	-1.120424e+001	-6.008179e+001
4390294.627	-8.609200e+000	-1.781172e+002	-2.209990e+001	5.174092e+001	-2.212429e+001	5.286089e+001	-1.115044e+001	-6.377010e+001
4414731.369	-8.609458e+000	1.783220e+002	-2.204961e+001	4.960495e+001	-2.207653e+001	5.071895e+001	-1.107870e+001	-6.720527e+001
4439168.111	-8.579060e+000	1.747279e+002	-2.216471e+001	4.716303e+001	-2.218415e+001	4.840792e+001	-1.096256e+001	-7.065217e+001
4463604.853	-8.534310e+000	1.708312e+002	-2.242397e+001	4.583464e+001	-2.243213e+001	4.719418e+001	-1.080936e+001	-7.434616e+001
4488041.594	-8.511379e+000	1.664916e+002	-2.266001e+001	4.659178e+001	-2.264376e+001	4.795185e+001	-1.065195e+001	-7.849180e+001
4512478.336	-8.562710e+000	1.617637e+002	-2.255170e+001	4.911446e+001	-2.250919e+001	5.039943e+001	-1.054290e+001	-8.311657e+001
4536915.078	-8.725841e+000	1.570037e+002	-2.192392e+001	5.094014e+001	-2.188107e+001	5.207601e+001	-1.052744e+001	-8.792059e+001
4561351.820	-8.970508e+000	1.526800e+002	-2.108793e+001	4.970506e+001	-2.103810e+001	5.084528e+001	-1.059717e+001	-9.244092e+001
4585788.562	-9.224520e+000	1.488488e+002	-2.041241e+001	4.629941e+001	-2.035074e+001	4.741014e+001	-1.068297e+001	-9.647082e+001
4610225.303	-9.454833e+000	1.451849e+002	-1.994049e+001	4.238898e+001	-1.987032e+001	4.340126e+001	-1.073898e+001	-1.002580e+002
4634662.045	-9.673629e+000	1.414256e+002	-1.957742e+001	3.875229e+001	-1.950271e+001	3.968908e+001	-1.076089e+001	-1.041074e+002
4659098.787	-9.910474e+000	1.375038e+002	-1.923118e+001	3.545920e+001	-1.916093e+001	3.636437e+001	-1.076951e+001	-1.081291e+002
4683535.529	-1.017927e+001	1.333957e+002	-1.887058e+001	3.242908e+001	-1.879605e+001	3.327606e+001	-1.078071e+001	-1.123840e+002
4707972.270	-1.050523e+001	1.291329e+002	-1.843914e+001	2.952001e+001	-1.835431e+001	3.030198e+001	-1.081472e+001	-1.169026e+002
4732409.012	-1.091044e+001	1.248119e+002	-1.792294e+001	2.633975e+001	-1.783452e+001	2.704667e+001	-1.088896e+001	-1.216777e+002
4756845.754	-1.140989e+001	1.206104e+002	-1.733670e+001	2.253864e+001	-1.724564e+001	2.316315e+001	-1.102335e+001	-1.265844e+002
4781282.496	-1.199236e+001	1.168022e+002	-1.674687e+001	1.789320e+001	-1.666258e+001	1.841312e+001	-1.121913e+001	-1.314011e+002
4805719.237	-1.262413e+001	1.134523e+002	-1.621708e+001	1.262634e+001	-1.613958e+001	1.309170e+001	-1.145078e+001	-1.360695e+002
4830155.979	-1.329526e+001	1.104837e+002	-1.574562e+001	7.059512e+000	-1.567209e+001	7.502870e+000	-1.171040e+001	-1.406491e+002
4854592.721	-1.401092e+001	1.079012e+002	-1.532061e+001	1.296358e+000	-1.524885e+001	1.727946e+000	-1.199738e+001	-1.451656e+002
4879029.463	-1.477128e+001	1.057642e+002	-1.493177e+001	-4.613316e+000	-1.485589e+001	-4.235467e+000	-1.232150e+001	-1.496263e+002
4903466.205	-1.557601e+001	1.042256e+002	-1.457460e+001	-1.070678e+001	-1.450376e+001	-1.036431e+001	-1.268028e+001	-1.539672e+002
4927902.946	-1.640207e+001	1.033728e+002	-1.425613e+001	-1.695675e+001	-1.418755e+001	-1.663744e+001	-1.307437e+001	-1.581623e+002
4952339.688	-1.722981e+001	1.032599e+002	-1.397620e+001	-2.335629e+001	-1.391334e+001	-2.304948e+001	-1.349783e+001	-1.621480e+002
4976776.430	-1.803362e+001	1.038103e+002	-1.373813e+001	-2.977110e+001	-1.367970e+001	-2.950089e+001	-1.394446e+001	-1.659167e+002
5001213.172	-1.880007e+001	1.050119e+002	-1.353484e+001	-3.621276e+001	-1.348438e+001	-3.595761e+001	-1.440756e+001	-1.694729e+002
5025649.913	-1.950995e+001	1.067848e+002	-1.336762e+001	-4.263808e+001	-1.332141e+001	-4.240422e+001	-1.488532e+001	-1.728240e+002
5050086.655	-2.015261e+001	1.090305e+002	-1.322851e+001	-4.903723e+001	-1.318673e+001	-4.880943e+001	-1.537061e+001	-1.759800e+002
5074523.397	-2.072804e+001	1.116760e+002	-1.311364e+001	-5.541274e+001	-1.307932e+001	-5.517307e+001	-1.586682e+001	-1.789343e+002
5098960.139	-2.122875e+001	1.146035e+002	-1.302319e+001	-6.172004e+001	-1.298972e+001	-6.147981e+001	-1.637157e+001	1.782951e+002
5123396.880	-2.165774e+001	1.177840e+002	-1.294832e+001	-6.799659e+001	-1.291955e+001	-6.774570e+001	-1.688205e+001	1.757379e+002
5147833.622	-2.200991e+001	1.211735e+002	-1.289014e+001	-7.421800e+001	-1.286422e+001	-7.395037e+001	-1.739697e+001	1.733783e+002
5172270.364	-2.228879e+001	1.246544e+002	-1.284643e+001	-8.039699e+001	-1.282417e+001	-8.012888e+001	-1.791243e+001	1.712739e+002
5196707.106	-2.248419e+001	1.282037e+002	-1.281612e+001	-8.654887e+001	-1.279411e+001	-8.625377e+001	-1.842602e+001	1.693922e+002
5221143.847	-2.259952e+001	1.316945e+002	-1.279620e+001	-9.264997e+001	-1.277651e+001	-9.233868e+001	-1.892779e+001	1.677794e+002
5245580.589	-2.265354e+001	1.350784e+002	-1.278857e+001	-9.873825e+001	-1.277173e+001	-9.841855e+001	-1.940804e+001	1.664349e+002
5270017.331	-2.264142e+001	1.383098e+002	-1.279286e+001	-1.047802e+002	-1.277571e+001	-1.044469e+002	-1.985917e+001	1.653141e+002
5294454.073	-2.257755e+001	1.413420e+002	-1.280689e+001	-1.107854e+002	-1.279116e+001	-1.104402e+002	-2.027401e+001	1.643655e+002
5318890.815	-2.246382e+001	1.441924e+002	-1.282694e+001	-1.167478e+002	-1.281302e+001	-1.163858e+002	-2.065037e+001	1.635344e+002
5343327.556	-2.230302e+001	1.467681e+002	-1.285105e+001	-1.226893e+002	-1.283736e+001	-1.222890e+002	-2.099080e+001	1.628118e+002
5367764.298	-2.209901e+001	1.490207e+002	-1.287909e+001	-1.286148e+002	-1.286617e+001	-1.282132e+002	-2.128084e+001	1.622558e+002
5392201.040	-2.187536e+001	1.507943e+002	-1.291230e+001	-1.345774e+002	-1.290002e+001	-1.341397e+002	-2.151227e+001	1.617854e+002
5416637.782	-2.165362e+001	1.522460e+002	-1.295218e+001	-1.405277e+002	-1.294012e+001	-1.400813e+002	-2.167050e+001	1.612738e+002
5441074.523	-2.145492e+001	1.534235e+002	-1.300297e+001	-1.465057e+002	-1.298821e+001	-1.460375e+002	-2.174836e+001	1.606206e+002
