!Agilent Technologies,E5061B,MY49101568,A.02.00
!Date: Wed Mar 01 12:41:57 2023
!Data & Calibration Information:
!Freq	S11:SOLT2(OFF)	S21:SOLT2(OFF)	S12:SOLT2(OFF)	S22:SOLT2(OFF)
# Hz S dB R 50
1800000.000	-9.508147e+000	-1.638223e+001	-2.428311e+001	-1.341922e+002	-2.427613e+001	-1.342612e+002	-9.901758e+000	1.934951e+001
1824436.742	-9.616083e+000	-2.068557e+001	-2.390787e+001	-1.381295e+002	-2.390565e+001	-1.381714e+002	-1.003574e+001	1.555282e+001
1848873.484	-9.729619e+000	-2.509063e+001	-2.352341e+001	-1.422368e+002	-2.352577e+001	-1.422666e+002	-1.017286e+001	1.169549e+001
1873310.225	-9.848371e+000	-2.954989e+001	-2.312926e+001	-1.463632e+002	-2.313418e+001	-1.464019e+002	-1.030676e+001	7.799117e+000
1897746.967	-9.969567e+000	-3.408629e+001	-2.272615e+001	-1.505715e+002	-2.274690e+001	-1.506322e+002	-1.043768e+001	3.828640e+000
1922183.709	-1.009453e+001	-3.875958e+001	-2.231658e+001	-1.548726e+002	-2.233118e+001	-1.549511e+002	-1.057157e+001	-2.612175e-001
1946620.451	-1.022576e+001	-4.355871e+001	-2.189502e+001	-1.593345e+002	-2.191380e+001	-1.593514e+002	-1.070116e+001	-4.430963e+000
1971057.192	-1.036481e+001	-4.848341e+001	-2.146157e+001	-1.638838e+002	-2.148567e+001	-1.639159e+002	-1.083481e+001	-8.709482e+000
1995493.934	-1.051448e+001	-5.353449e+001	-2.102897e+001	-1.685567e+002	-2.105152e+001	-1.685347e+002	-1.097122e+001	-1.307595e+001
2019930.676	-1.067356e+001	-5.873395e+001	-2.058013e+001	-1.733997e+002	-2.060864e+001	-1.733059e+002	-1.110803e+001	-1.750668e+001
2044367.418	-1.084566e+001	-6.404728e+001	-2.012347e+001	-1.783781e+002	-2.015827e+001	-1.782854e+002	-1.123678e+001	-2.209638e+001
2068804.159	-1.102985e+001	-6.950564e+001	-1.967543e+001	1.764761e+002	-1.971228e+001	1.766140e+002	-1.136952e+001	-2.673568e+001
2093240.901	-1.122859e+001	-7.509179e+001	-1.922260e+001	1.712048e+002	-1.926299e+001	1.712966e+002	-1.150361e+001	-3.144060e+001
2117677.643	-1.144119e+001	-8.085328e+001	-1.878045e+001	1.657350e+002	-1.882318e+001	1.659104e+002	-1.163190e+001	-3.625574e+001
2142114.385	-1.167145e+001	-8.679995e+001	-1.834023e+001	1.601329e+002	-1.838277e+001	1.603550e+002	-1.175333e+001	-4.117855e+001
2166551.127	-1.192190e+001	-9.291903e+001	-1.790549e+001	1.543615e+002	-1.794695e+001	1.546145e+002	-1.187393e+001	-4.620824e+001
2190987.868	-1.219057e+001	-9.921347e+001	-1.747614e+001	1.483936e+002	-1.751941e+001	1.486960e+002	-1.199466e+001	-5.134485e+001
2215424.610	-1.248190e+001	-1.056729e+002	-1.707050e+001	1.422363e+002	-1.711211e+001	1.426272e+002	-1.210553e+001	-5.655642e+001
2239861.352	-1.278997e+001	-1.123441e+002	-1.667829e+001	1.359967e+002	-1.671936e+001	1.364196e+002	-1.220510e+001	-6.187347e+001
2264298.094	-1.311960e+001	-1.192429e+002	-1.630055e+001	1.296158e+002	-1.633996e+001	1.300929e+002	-1.229513e+001	-6.730730e+001
2288734.835	-1.346928e+001	-1.263600e+002	-1.594015e+001	1.231182e+002	-1.597592e+001	1.236421e+002	-1.237873e+001	-7.284612e+001
2313171.577	-1.383888e+001	-1.336836e+002	-1.559839e+001	1.164880e+002	-1.562930e+001	1.170370e+002	-1.244557e+001	-7.848500e+001
2337608.319	-1.422374e+001	-1.412526e+002	-1.528166e+001	1.097187e+002	-1.530521e+001	1.103167e+002	-1.250224e+001	-8.422109e+001
2362045.061	-1.461704e+001	-1.490238e+002	-1.498665e+001	1.028981e+002	-1.500927e+001	1.034810e+002	-1.254259e+001	-9.003298e+001
2386481.802	-1.500983e+001	-1.570627e+002	-1.471950e+001	9.595883e+001	-1.473502e+001	9.656740e+001	-1.256361e+001	-9.596374e+001
2410918.544	-1.539720e+001	-1.653873e+002	-1.448265e+001	8.896120e+001	-1.448660e+001	8.958868e+001	-1.256404e+001	-1.020374e+002
2435355.286	-1.576785e+001	-1.740046e+002	-1.426465e+001	8.192971e+001	-1.426281e+001	8.255841e+001	-1.254798e+001	-1.082300e+002
2459792.028	-1.611924e+001	1.770877e+002	-1.407612e+001	7.484773e+001	-1.406508e+001	7.546130e+001	-1.251447e+001	-1.145627e+002
2484228.769	-1.643516e+001	1.678886e+002	-1.391302e+001	6.768693e+001	-1.389480e+001	6.833147e+001	-1.247050e+001	-1.210468e+002
2508665.511	-1.670409e+001	1.584624e+002	-1.377794e+001	6.056168e+001	-1.375226e+001	6.118026e+001	-1.241096e+001	-1.276314e+002
2533102.253	-1.691843e+001	1.488278e+002	-1.367039e+001	5.346467e+001	-1.363972e+001	5.401350e+001	-1.234463e+001	-1.343251e+002
2557538.995	-1.706800e+001	1.390664e+002	-1.359192e+001	4.632029e+001	-1.355123e+001	4.684900e+001	-1.226952e+001	-1.411157e+002
2581975.737	-1.715301e+001	1.292580e+002	-1.354278e+001	3.921933e+001	-1.349379e+001	3.971385e+001	-1.219277e+001	-1.480044e+002
2606412.478	-1.716549e+001	1.194814e+002	-1.352093e+001	3.217235e+001	-1.346435e+001	3.262334e+001	-1.211599e+001	-1.549501e+002
2630849.220	-1.711690e+001	1.097984e+002	-1.352487e+001	2.518169e+001	-1.346467e+001	2.557371e+001	-1.204057e+001	-1.619503e+002
2655285.962	-1.700758e+001	1.003241e+002	-1.355474e+001	1.826799e+001	-1.348741e+001	1.860428e+001	-1.197077e+001	-1.689443e+002
2679722.704	-1.684661e+001	9.107486e+001	-1.361315e+001	1.144412e+001	-1.354222e+001	1.172872e+001	-1.191090e+001	-1.759499e+002
2704159.445	-1.664160e+001	8.214253e+001	-1.369111e+001	4.735041e+000	-1.361935e+001	4.962272e+000	-1.185499e+001	1.770981e+002
2728596.187	-1.641713e+001	7.352146e+001	-1.379168e+001	-1.850934e+000	-1.371736e+001	-1.698068e+000	-1.181169e+001	1.701980e+002
2753032.929	-1.616935e+001	6.523943e+001	-1.390857e+001	-8.328181e+000	-1.383472e+001	-8.210338e+000	-1.177941e+001	1.633868e+002
2777469.671	-1.591443e+001	5.731599e+001	-1.404107e+001	-1.465459e+001	-1.396815e+001	-1.461217e+001	-1.176029e+001	1.566896e+002
2801906.412	-1.565413e+001	4.973072e+001	-1.419008e+001	-2.083888e+001	-1.412034e+001	-2.084422e+001	-1.175127e+001	1.501011e+002
2826343.154	-1.539586e+001	4.250036e+001	-1.434795e+001	-2.688989e+001	-1.428279e+001	-2.693336e+001	-1.175699e+001	1.436782e+002
2850779.896	-1.514345e+001	3.556202e+001	-1.451864e+001	-3.277392e+001	-1.445738e+001	-3.286786e+001	-1.176943e+001	1.373985e+002
2875216.638	-1.490200e+001	2.894784e+001	-1.469298e+001	-3.853818e+001	-1.463690e+001	-3.862967e+001	-1.179537e+001	1.312857e+002
2899653.380	-1.466726e+001	2.260698e+001	-1.487566e+001	-4.411804e+001	-1.482565e+001	-4.425701e+001	-1.182854e+001	1.253595e+002
2924090.121	-1.444333e+001	1.653338e+001	-1.505871e+001	-4.955007e+001	-1.501558e+001	-4.971420e+001	-1.186999e+001	1.195946e+002
2948526.863	-1.422952e+001	1.070230e+001	-1.524299e+001	-5.484728e+001	-1.520605e+001	-5.504945e+001	-1.191912e+001	1.140004e+002
2972963.605	-1.402532e+001	5.101723e+000	-1.542741e+001	-5.999110e+001	-1.539694e+001	-6.021093e+001	-1.197091e+001	1.085704e+002
2997400.347	-1.383155e+001	-3.041232e-001	-1.560628e+001	-6.501157e+001	-1.558578e+001	-6.524022e+001	-1.202850e+001	1.032948e+002
3021837.088	-1.364844e+001	-5.515138e+000	-1.578104e+001	-6.989059e+001	-1.576588e+001	-7.013647e+001	-1.209027e+001	9.814708e+001
3046273.830	-1.347351e+001	-1.056700e+001	-1.594796e+001	-7.465094e+001	-1.593850e+001	-7.489819e+001	-1.215511e+001	9.315506e+001
3070710.572	-1.331099e+001	-1.545890e+001	-1.610372e+001	-7.931433e+001	-1.610250e+001	-7.957214e+001	-1.222593e+001	8.828511e+001
3095147.314	-1.316011e+001	-2.019978e+001	-1.625279e+001	-8.389826e+001	-1.625945e+001	-8.414664e+001	-1.229978e+001	8.356783e+001
3119584.055	-1.301511e+001	-2.479428e+001	-1.639176e+001	-8.838721e+001	-1.640490e+001	-8.865031e+001	-1.237769e+001	7.897857e+001
3144020.797	-1.288120e+001	-2.926200e+001	-1.652486e+001	-9.278789e+001	-1.654112e+001	-9.306183e+001	-1.245756e+001	7.452657e+001
3168457.539	-1.275457e+001	-3.361647e+001	-1.664580e+001	-9.714169e+001	-1.666705e+001	-9.739887e+001	-1.253897e+001	7.018353e+001
3192894.281	-1.263499e+001	-3.786412e+001	-1.675397e+001	-1.014314e+002	-1.678333e+001	-1.016927e+002	-1.262374e+001	6.593563e+001
3217331.023	-1.252438e+001	-4.200362e+001	-1.685474e+001	-1.056991e+002	-1.688917e+001	-1.059325e+002	-1.271104e+001	6.181345e+001
3241767.764	-1.242190e+001	-4.603145e+001	-1.695098e+001	-1.099209e+002	-1.698793e+001	-1.101346e+002	-1.279899e+001	5.780199e+001
3266204.506	-1.232257e+001	-4.997824e+001	-1.703936e+001	-1.140690e+002	-1.708210e+001	-1.142547e+002	-1.288524e+001	5.388902e+001
3290641.248	-1.222542e+001	-5.384680e+001	-1.711435e+001	-1.181074e+002	-1.716258e+001	-1.182839e+002	-1.296610e+001	5.003298e+001
3315077.990	-1.213655e+001	-5.769236e+001	-1.716430e+001	-1.221135e+002	-1.721699e+001	-1.222571e+002	-1.305428e+001	4.620225e+001
3339514.731	-1.205834e+001	-6.148010e+001	-1.719860e+001	-1.261286e+002	-1.725410e+001	-1.262483e+002	-1.315069e+001	4.244649e+001
3363951.473	-1.199079e+001	-6.520009e+001	-1.721842e+001	-1.301786e+002	-1.728192e+001	-1.302731e+002	-1.325547e+001	3.876914e+001
3388388.215	-1.193371e+001	-6.884743e+001	-1.722776e+001	-1.342550e+002	-1.729386e+001	-1.343202e+002	-1.336793e+001	3.519221e+001
3412824.957	-1.188732e+001	-7.243149e+001	-1.722852e+001	-1.383761e+002	-1.729430e+001	-1.384102e+002	-1.348629e+001	3.170052e+001
3437261.698	-1.184959e+001	-7.593990e+001	-1.721738e+001	-1.425104e+002	-1.728938e+001	-1.425146e+002	-1.361038e+001	2.831640e+001
3461698.440	-1.182310e+001	-7.937234e+001	-1.720033e+001	-1.467005e+002	-1.727519e+001	-1.466789e+002	-1.373972e+001	2.503720e+001
3486135.182	-1.180639e+001	-8.270394e+001	-1.717926e+001	-1.509335e+002	-1.725218e+001	-1.508846e+002	-1.388055e+001	2.189699e+001
3510571.924	-1.179818e+001	-8.595262e+001	-1.715358e+001	-1.552095e+002	-1.722811e+001	-1.550956e+002	-1.401787e+001	1.886976e+001
3535008.666	-1.179433e+001	-8.909517e+001	-1.712162e+001	-1.594884e+002	-1.720031e+001	-1.593359e+002	-1.415707e+001	1.598046e+001
3559445.407	-1.179491e+001	-9.215001e+001	-1.708797e+001	-1.637656e+002	-1.716646e+001	-1.635744e+002	-1.429207e+001	1.318728e+001
3583882.149	-1.180040e+001	-9.514408e+001	-1.703691e+001	-1.680642e+002	-1.711600e+001	-1.678312e+002	-1.442956e+001	1.047531e+001
3608318.891	-1.181098e+001	-9.805765e+001	-1.697588e+001	-1.724139e+002	-1.705262e+001	-1.721400e+002	-1.457181e+001	7.838612e+000
3632755.633	-1.183016e+001	-1.008982e+002	-1.690418e+001	-1.769084e+002	-1.698092e+001	-1.765621e+002	-1.471835e+001	5.332867e+000
3657192.374	-1.185366e+001	-1.036437e+002	-1.682350e+001	1.785257e+002	-1.689863e+001	1.789187e+002	-1.487088e+001	2.978676e+000
3681629.116	-1.188566e+001	-1.063046e+002	-1.673866e+001	1.738317e+002	-1.681046e+001	1.742699e+002	-1.502993e+001	7.775722e-001
3706065.858	-1.192248e+001	-1.088510e+002	-1.665540e+001	1.690042e+002	-1.672521e+001	1.694608e+002	-1.518803e+001	-1.214140e+000
3730502.600	-1.196411e+001	-1.112570e+002	-1.657894e+001	1.640520e+002	-1.664862e+001	1.645290e+002	-1.533694e+001	-2.967900e+000
3754939.341	-1.200332e+001	-1.135374e+002	-1.651530e+001	1.590010e+002	-1.658356e+001	1.595307e+002	-1.546573e+001	-4.534457e+000
3779376.083	-1.204255e+001	-1.157062e+002	-1.645751e+001	1.539112e+002	-1.652484e+001	1.544483e+002	-1.557970e+001	-5.932212e+000
3803812.825	-1.208558e+001	-1.177356e+002	-1.639925e+001	1.486894e+002	-1.646316e+001	1.492485e+002	-1.568179e+001	-7.165335e+000
3828249.567	-1.212649e+001	-1.196089e+002	-1.634678e+001	1.433446e+002	-1.641016e+001	1.439381e+002	-1.576159e+001	-8.205620e+000
3852686.308	-1.215924e+001	-1.212571e+002	-1.631314e+001	1.378449e+002	-1.637231e+001	1.384473e+002	-1.581271e+001	-8.985864e+000
3877123.050	-1.217261e+001	-1.227119e+002	-1.630029e+001	1.321974e+002	-1.635724e+001	1.328376e+002	-1.582104e+001	-9.589470e+000
3901559.792	-1.215947e+001	-1.240017e+002	-1.630895e+001	1.264852e+002	-1.636312e+001	1.270965e+002	-1.577797e+001	-1.005857e+001
3925996.534	-1.211465e+001	-1.251320e+002	-1.634575e+001	1.206190e+002	-1.639919e+001	1.212929e+002	-1.567388e+001	-1.048822e+001
3950433.276	-1.202705e+001	-1.261850e+002	-1.641387e+001	1.146746e+002	-1.646681e+001	1.153606e+002	-1.550977e+001	-1.092547e+001
3974870.017	-1.188868e+001	-1.272073e+002	-1.652686e+001	1.086746e+002	-1.657626e+001	1.094044e+002	-1.527937e+001	-1.151166e+001
3999306.759	-1.170202e+001	-1.283128e+002	-1.668018e+001	1.026687e+002	-1.672257e+001	1.034087e+002	-1.499836e+001	-1.234726e+001
4023743.501	-1.147602e+001	-1.295857e+002	-1.686844e+001	9.668342e+001	-1.691250e+001	9.744849e+001	-1.467193e+001	-1.349748e+001
4048180.243	-1.121064e+001	-1.310817e+002	-1.710571e+001	9.074471e+001	-1.715006e+001	9.154380e+001	-1.431524e+001	-1.502867e+001
4072616.984	-1.091969e+001	-1.328636e+002	-1.739085e+001	8.493004e+001	-1.743375e+001	8.574530e+001	-1.394476e+001	-1.692209e+001
4097053.726	-1.061068e+001	-1.349480e+002	-1.772823e+001	7.924068e+001	-1.776984e+001	8.007759e+001	-1.356668e+001	-1.918889e+001
4121490.468	-1.029400e+001	-1.373577e+002	-1.811943e+001	7.374804e+001	-1.815961e+001	7.460507e+001	-1.319401e+001	-2.181130e+001
4145927.210	-9.982111e+000	-1.400940e+002	-1.856596e+001	6.855899e+001	-1.861102e+001	6.943181e+001	-1.283079e+001	-2.477151e+001
4170363.951	-9.678975e+000	-1.431359e+002	-1.908064e+001	6.376721e+001	-1.911489e+001	6.458994e+001	-1.249040e+001	-2.798624e+001
4194800.693	-9.400310e+000	-1.465182e+002	-1.965178e+001	5.960253e+001	-1.968490e+001	6.039899e+001	-1.217394e+001	-3.154998e+001
4219237.435	-9.155795e+000	-1.501659e+002	-2.025262e+001	5.623276e+001	-2.029081e+001	5.701401e+001	-1.189569e+001	-3.536481e+001
4243674.177	-8.957368e+000	-1.540031e+002	-2.083036e+001	5.378285e+001	-2.088408e+001	5.456455e+001	-1.166391e+001	-3.933930e+001
4268110.919	-8.801643e+000	-1.579078e+002	-2.135000e+001	5.202057e+001	-2.141009e+001	5.295346e+001	-1.147776e+001	-4.335674e+001
4292547.660	-8.680035e+000	-1.618691e+002	-2.180051e+001	5.090156e+001	-2.186038e+001	5.191629e+001	-1.132064e+001	-4.736065e+001
4316984.402	-8.590836e+000	-1.658759e+002	-2.217032e+001	5.043623e+001	-2.221638e+001	5.152682e+001	-1.119472e+001	-5.139795e+001
4341421.144	-8.544704e+000	-1.699243e+002	-2.238774e+001	5.058430e+001	-2.241683e+001	5.169130e+001	-1.110361e+001	-5.542924e+001
4365857.886	-8.540807e+000	-1.738375e+002	-2.238932e+001	5.045551e+001	-2.241710e+001	5.159820e+001	-1.104752e+001	-5.933041e+001
4390294.627	-8.556746e+000	-1.775507e+002	-2.227847e+001	4.935483e+001	-2.230097e+001	5.051240e+001	-1.100785e+001	-6.297611e+001
4414731.369	-8.559078e+000	1.788916e+002	-2.222611e+001	4.719152e+001	-2.224872e+001	4.838692e+001	-1.094523e+001	-6.640710e+001
4439168.111	-8.535211e+000	1.752598e+002	-2.233466e+001	4.486208e+001	-2.233725e+001	4.619508e+001	-1.084361e+001	-6.989205e+001
4463604.853	-8.500617e+000	1.713295e+002	-2.257396e+001	4.365722e+001	-2.256373e+001	4.498793e+001	-1.070759e+001	-7.359728e+001
4488041.594	-8.494878e+000	1.669786e+002	-2.276610e+001	4.444175e+001	-2.274783e+001	4.574182e+001	-1.057072e+001	-7.775201e+001
4512478.336	-8.564003e+000	1.622830e+002	-2.261671e+001	4.690088e+001	-2.258165e+001	4.812452e+001	-1.048742e+001	-8.236214e+001
4536915.078	-8.742210e+000	1.576031e+002	-2.196413e+001	4.847993e+001	-2.192187e+001	4.971227e+001	-1.049623e+001	-8.712619e+001
4561351.820	-8.996863e+000	1.533731e+002	-2.111802e+001	4.716227e+001	-2.106541e+001	4.829562e+001	-1.058901e+001	-9.155676e+001
4585788.562	-9.255793e+000	1.496346e+002	-2.043221e+001	4.360911e+001	-2.037288e+001	4.473710e+001	-1.068952e+001	-9.550922e+001
4610225.303	-9.487237e+000	1.460470e+002	-1.996091e+001	3.962824e+001	-1.988672e+001	4.070854e+001	-1.075545e+001	-9.924928e+001
4634662.045	-9.711513e+000	1.423329e+002	-1.958833e+001	3.597769e+001	-1.951691e+001	3.695267e+001	-1.078901e+001	-1.030575e+002
4659098.787	-9.953284e+000	1.384701e+002	-1.924043e+001	3.263506e+001	-1.916077e+001	3.357061e+001	-1.081442e+001	-1.070672e+002
4683535.529	-1.023493e+001	1.344223e+002	-1.885174e+001	2.957635e+001	-1.877106e+001	3.045671e+001	-1.084633e+001	-1.113240e+002
4707972.270	-1.057947e+001	1.302930e+002	-1.839613e+001	2.650547e+001	-1.831719e+001	2.741476e+001	-1.090369e+001	-1.158234e+002
4732409.012	-1.100432e+001	1.261410e+002	-1.785909e+001	2.314690e+001	-1.777297e+001	2.404102e+001	-1.100962e+001	-1.205738e+002
4756845.754	-1.152109e+001	1.222080e+002	-1.726035e+001	1.916751e+001	-1.716509e+001	1.995497e+001	-1.118474e+001	-1.253940e+002
4781282.496	-1.210732e+001	1.187368e+002	-1.667329e+001	1.433160e+001	-1.656569e+001	1.501015e+001	-1.141971e+001	-1.300873e+002
4805719.237	-1.273383e+001	1.157395e+002	-1.614661e+001	8.947954e+000	-1.603235e+001	9.471523e+000	-1.169450e+001	-1.345793e+002
4830155.979	-1.339069e+001	1.131484e+002	-1.567940e+001	3.302199e+000	-1.556395e+001	3.666641e+000	-1.199356e+001	-1.389246e+002
4854592.721	-1.408996e+001	1.110439e+002	-1.524316e+001	-2.580697e+000	-1.514785e+001	-2.307974e+000	-1.231693e+001	-1.431474e+002
4879029.463	-1.481795e+001	1.095041e+002	-1.484578e+001	-8.660559e+000	-1.476307e+001	-8.421842e+000	-1.267538e+001	-1.472842e+002
4903466.205	-1.555685e+001	1.086131e+002	-1.448606e+001	-1.493416e+001	-1.441744e+001	-1.473906e+001	-1.306960e+001	-1.512234e+002
4927902.946	-1.628261e+001	1.084106e+002	-1.417000e+001	-2.134835e+001	-1.411092e+001	-2.116937e+001	-1.349428e+001	-1.549430e+002
4952339.688	-1.695828e+001	1.088204e+002	-1.390050e+001	-2.790614e+001	-1.384733e+001	-2.770351e+001	-1.393881e+001	-1.584032e+002
4976776.430	-1.757368e+001	1.097381e+002	-1.367324e+001	-3.449157e+001	-1.362650e+001	-3.426923e+001	-1.439793e+001	-1.615700e+002
5001213.172	-1.811998e+001	1.109731e+002	-1.348468e+001	-4.107095e+001	-1.344279e+001	-4.083772e+001	-1.486187e+001	-1.644843e+002
5025649.913	-1.859348e+001	1.123793e+002	-1.332899e+001	-4.761163e+001	-1.329215e+001	-4.736814e+001	-1.532491e+001	-1.671387e+002
5050086.655	-1.901032e+001	1.138484e+002	-1.320454e+001	-5.411936e+001	-1.316911e+001	-5.387503e+001	-1.578765e+001	-1.695569e+002
5074523.397	-1.938054e+001	1.153159e+002	-1.310263e+001	-6.056467e+001	-1.307037e+001	-6.031996e+001	-1.624120e+001	-1.717498e+002
5098960.139	-1.971017e+001	1.167589e+002	-1.302265e+001	-6.695587e+001	-1.299113e+001	-6.671766e+001	-1.668642e+001	-1.737175e+002
5123396.880	-2.001443e+001	1.181640e+002	-1.296156e+001	-7.328985e+001	-1.293103e+001	-7.305848e+001	-1.711344e+001	-1.754798e+002
5147833.622	-2.030054e+001	1.195404e+002	-1.291627e+001	-7.959064e+001	-1.288846e+001	-7.935600e+001	-1.752472e+001	-1.770433e+002
5172270.364	-2.056479e+001	1.209370e+002	-1.288328e+001	-8.584554e+001	-1.285593e+001	-8.561303e+001	-1.791244e+001	-1.784008e+002
5196707.106	-2.082366e+001	1.223581e+002	-1.286218e+001	-9.206161e+001	-1.283874e+001	-9.183600e+001	-1.826677e+001	-1.795887e+002
5221143.847	-2.106881e+001	1.238292e+002	-1.285590e+001	-9.820291e+001	-1.283316e+001	-9.801664e+001	-1.858448e+001	1.793544e+002
5245580.589	-2.130299e+001	1.253062e+002	-1.286040e+001	-1.043553e+002	-1.283997e+001	-1.041736e+002	-1.885750e+001	1.784026e+002
5270017.331	-2.152781e+001	1.268816e+002	-1.287618e+001	-1.104811e+002	-1.285839e+001	-1.102828e+002	-1.908467e+001	1.774324e+002
5294454.073	-2.175397e+001	1.285360e+002	-1.290360e+001	-1.165591e+002	-1.288618e+001	-1.163579e+002	-1.926725e+001	1.764145e+002
5318890.815	-2.196184e+001	1.304014e+002	-1.293650e+001	-1.225897e+002	-1.292163e+001	-1.223816e+002	-1.940727e+001	1.752540e+002
5343327.556	-2.214545e+001	1.323826e+002	-1.297503e+001	-1.285984e+002	-1.296068e+001	-1.283872e+002	-1.951867e+001	1.740254e+002
5367764.298	-2.229857e+001	1.344481e+002	-1.301795e+001	-1.346003e+002	-1.300340e+001	-1.343858e+002	-1.958925e+001	1.726625e+002
5392201.040	-2.242651e+001	1.364957e+002	-1.306757e+001	-1.406330e+002	-1.305333e+001	-1.404118e+002	-1.961329e+001	1.711740e+002
5416637.782	-2.255247e+001	1.385399e+002	-1.312648e+001	-1.466565e+002	-1.311395e+001	-1.464486e+002	-1.959270e+001	1.693960e+002
5441074.523	-2.267513e+001	1.406419e+002	-1.319497e+001	-1.527071e+002	-1.318238e+001	-1.524832e+002	-1.953656e+001	1.673235e+002
