!Agilent Technologies,E5061B,MY49101568,A.02.00
!Date: Wed Mar 01 12:22:56 2023
!Data & Calibration Information:
!Freq	S11:SOLT2(OFF)	S21:SOLT2(OFF)	S12:SOLT2(OFF)	S22:SOLT2(OFF)
# Hz S dB R 50
1800000.000	-1.014778e+001	-1.630650e+001	-2.243062e+001	-1.480055e+002	-2.242202e+001	-1.479664e+002	-1.069987e+001	1.959150e+001
1824436.742	-1.027333e+001	-2.064764e+001	-2.204218e+001	-1.517922e+002	-2.206448e+001	-1.519268e+002	-1.086095e+001	1.583598e+001
1848873.484	-1.042044e+001	-2.491532e+001	-2.173195e+001	-1.560306e+002	-2.176515e+001	-1.560130e+002	-1.102218e+001	1.198147e+001
1873310.225	-1.056324e+001	-2.926817e+001	-2.138414e+001	-1.602244e+002	-2.140373e+001	-1.600774e+002	-1.118201e+001	8.148574e+000
1897746.967	-1.072176e+001	-3.368469e+001	-2.101454e+001	-1.645888e+002	-2.103667e+001	-1.645402e+002	-1.134907e+001	4.265423e+000
1922183.709	-1.086895e+001	-3.821732e+001	-2.068115e+001	-1.687685e+002	-2.069069e+001	-1.688717e+002	-1.151148e+001	3.273885e-001
1946620.451	-1.104213e+001	-4.284981e+001	-2.027162e+001	-1.733659e+002	-2.032798e+001	-1.735100e+002	-1.167827e+001	-3.718291e+000
1971057.192	-1.120751e+001	-4.754387e+001	-1.995428e+001	-1.781389e+002	-1.997037e+001	-1.779413e+002	-1.183445e+001	-7.857535e+000
1995493.934	-1.139591e+001	-5.240680e+001	-1.953469e+001	1.772922e+002	-1.959336e+001	1.774188e+002	-1.200347e+001	-1.215441e+001
2019930.676	-1.159909e+001	-5.726824e+001	-1.918963e+001	1.724680e+002	-1.919872e+001	1.727087e+002	-1.217190e+001	-1.641484e+001
2044367.418	-1.179884e+001	-6.222781e+001	-1.880902e+001	1.673510e+002	-1.887077e+001	1.678607e+002	-1.231309e+001	-2.077542e+001
2068804.159	-1.202601e+001	-6.741747e+001	-1.841429e+001	1.624565e+002	-1.853574e+001	1.627303e+002	-1.244664e+001	-2.510458e+001
2093240.901	-1.223735e+001	-7.273948e+001	-1.806476e+001	1.575833e+002	-1.814595e+001	1.577662e+002	-1.259692e+001	-2.975479e+001
2117677.643	-1.248332e+001	-7.825771e+001	-1.767432e+001	1.525489e+002	-1.775182e+001	1.525783e+002	-1.275401e+001	-3.441741e+001
2142114.385	-1.273846e+001	-8.380104e+001	-1.731232e+001	1.472744e+002	-1.733140e+001	1.475631e+002	-1.290578e+001	-3.931921e+001
2166551.127	-1.303865e+001	-8.934131e+001	-1.693298e+001	1.414912e+002	-1.697981e+001	1.418412e+002	-1.303128e+001	-4.405892e+001
2190987.868	-1.333475e+001	-9.512639e+001	-1.658835e+001	1.359288e+002	-1.660786e+001	1.360304e+002	-1.317019e+001	-4.901137e+001
2215424.610	-1.363795e+001	-1.010623e+002	-1.624619e+001	1.301291e+002	-1.625790e+001	1.299443e+002	-1.331317e+001	-5.375601e+001
2239861.352	-1.404395e+001	-1.070931e+002	-1.587719e+001	1.239116e+002	-1.593213e+001	1.242610e+002	-1.338962e+001	-5.914407e+001
2264298.094	-1.437131e+001	-1.132332e+002	-1.555506e+001	1.177733e+002	-1.560950e+001	1.182695e+002	-1.348614e+001	-6.425033e+001
2288734.835	-1.474174e+001	-1.195897e+002	-1.528182e+001	1.115643e+002	-1.530126e+001	1.119043e+002	-1.356723e+001	-6.946902e+001
2313171.577	-1.512662e+001	-1.260043e+002	-1.499217e+001	1.051622e+002	-1.504025e+001	1.056651e+002	-1.359984e+001	-7.485051e+001
2337608.319	-1.548764e+001	-1.331706e+002	-1.474480e+001	9.905976e+001	-1.477597e+001	9.928846e+001	-1.362918e+001	-8.037933e+001
2362045.061	-1.589397e+001	-1.401973e+002	-1.450897e+001	9.254126e+001	-1.452645e+001	9.305525e+001	-1.362537e+001	-8.619296e+001
2386481.802	-1.622316e+001	-1.474404e+002	-1.431124e+001	8.600821e+001	-1.435560e+001	8.641646e+001	-1.359761e+001	-9.183969e+001
2410918.544	-1.656629e+001	-1.544196e+002	-1.416742e+001	7.899166e+001	-1.413809e+001	7.979914e+001	-1.355517e+001	-9.782981e+001
2435355.286	-1.683811e+001	-1.632283e+002	-1.403629e+001	7.291519e+001	-1.397166e+001	7.360101e+001	-1.346901e+001	-1.042801e+002
2459792.028	-1.719666e+001	-1.725485e+002	-1.383851e+001	6.670957e+001	-1.381981e+001	6.744530e+001	-1.334960e+001	-1.109913e+002
2484228.769	-1.751023e+001	1.775125e+002	-1.366143e+001	6.041978e+001	-1.364692e+001	6.113388e+001	-1.324593e+001	-1.178311e+002
2508665.511	-1.782945e+001	1.674450e+002	-1.350622e+001	5.400374e+001	-1.349952e+001	5.443235e+001	-1.317732e+001	-1.247811e+002
2533102.253	-1.810260e+001	1.576139e+002	-1.337009e+001	4.708793e+001	-1.333732e+001	4.785259e+001	-1.308605e+001	-1.318797e+002
2557538.995	-1.829248e+001	1.474011e+002	-1.329292e+001	4.026647e+001	-1.324851e+001	4.074112e+001	-1.301880e+001	-1.386283e+002
2581975.737	-1.840569e+001	1.374226e+002	-1.323796e+001	3.335565e+001	-1.316078e+001	3.377763e+001	-1.295253e+001	-1.456772e+002
2606412.478	-1.845414e+001	1.271327e+002	-1.320756e+001	2.652864e+001	-1.317507e+001	2.692366e+001	-1.283894e+001	-1.525253e+002
2630849.220	-1.828782e+001	1.169615e+002	-1.327814e+001	1.986595e+001	-1.322186e+001	2.022870e+001	-1.269776e+001	-1.595790e+002
2655285.962	-1.814033e+001	1.064238e+002	-1.329350e+001	1.336500e+001	-1.326170e+001	1.371589e+001	-1.260462e+001	-1.667501e+002
2679722.704	-1.777167e+001	9.633185e+001	-1.340480e+001	7.283285e+000	-1.332703e+001	7.649057e+000	-1.244016e+001	-1.741006e+002
2704159.445	-1.757480e+001	8.648347e+001	-1.346421e+001	8.106963e-001	-1.331813e+001	9.304155e-001	-1.244637e+001	1.785520e+002
2728596.187	-1.731783e+001	7.674314e+001	-1.351799e+001	-5.384321e+000	-1.342659e+001	-5.225062e+000	-1.233418e+001	1.713619e+002
2753032.929	-1.700296e+001	6.808749e+001	-1.363487e+001	-1.174988e+001	-1.354328e+001	-1.182937e+001	-1.231751e+001	1.646749e+002
2777469.671	-1.673275e+001	5.957642e+001	-1.374783e+001	-1.800134e+001	-1.365090e+001	-1.812021e+001	-1.229405e+001	1.578236e+002
2801906.412	-1.639602e+001	5.150283e+001	-1.391010e+001	-2.382542e+001	-1.384532e+001	-2.417453e+001	-1.224547e+001	1.512843e+002
2826343.154	-1.611387e+001	4.406274e+001	-1.407056e+001	-2.997089e+001	-1.402697e+001	-2.994121e+001	-1.222666e+001	1.447449e+002
2850779.896	-1.580049e+001	3.682109e+001	-1.424837e+001	-3.557267e+001	-1.421215e+001	-3.571396e+001	-1.222403e+001	1.385047e+002
2875216.638	-1.549899e+001	3.020602e+001	-1.446180e+001	-4.125312e+001	-1.441212e+001	-4.118828e+001	-1.219974e+001	1.322907e+002
2899653.380	-1.518519e+001	2.369809e+001	-1.467603e+001	-4.633981e+001	-1.462758e+001	-4.657710e+001	-1.220509e+001	1.263506e+002
2924090.121	-1.491100e+001	1.753668e+001	-1.489286e+001	-5.161386e+001	-1.483125e+001	-5.183856e+001	-1.220881e+001	1.205307e+002
2948526.863	-1.464453e+001	1.155382e+001	-1.510162e+001	-5.665954e+001	-1.504700e+001	-5.686416e+001	-1.222189e+001	1.149190e+002
2972963.605	-1.439162e+001	5.854371e+000	-1.531625e+001	-6.153175e+001	-1.527493e+001	-6.170525e+001	-1.224007e+001	1.094483e+002
2997400.347	-1.415786e+001	2.983267e-001	-1.549644e+001	-6.626297e+001	-1.548070e+001	-6.649828e+001	-1.226415e+001	1.041037e+002
3021837.088	-1.392530e+001	-5.030137e+000	-1.569412e+001	-7.081885e+001	-1.568249e+001	-7.095478e+001	-1.229737e+001	9.889823e+001
3046273.830	-1.370328e+001	-1.008084e+001	-1.590912e+001	-7.525883e+001	-1.588012e+001	-7.543086e+001	-1.231554e+001	9.384834e+001
3070710.572	-1.350597e+001	-1.510044e+001	-1.606604e+001	-7.953340e+001	-1.605924e+001	-7.972560e+001	-1.234752e+001	8.889542e+001
3095147.314	-1.330855e+001	-1.986998e+001	-1.625006e+001	-8.367385e+001	-1.624231e+001	-8.400533e+001	-1.238807e+001	8.409019e+001
3119584.055	-1.313569e+001	-2.459881e+001	-1.639112e+001	-8.776847e+001	-1.640256e+001	-8.800636e+001	-1.241917e+001	7.933924e+001
3144020.797	-1.298266e+001	-2.912607e+001	-1.652667e+001	-9.202159e+001	-1.653580e+001	-9.208173e+001	-1.247720e+001	7.472791e+001
3168457.539	-1.280836e+001	-3.353236e+001	-1.667482e+001	-9.587468e+001	-1.668708e+001	-9.616804e+001	-1.254718e+001	7.033892e+001
3192894.281	-1.267156e+001	-3.783550e+001	-1.678294e+001	-9.980543e+001	-1.681260e+001	-1.001236e+002	-1.258954e+001	6.601886e+001
3217331.023	-1.253073e+001	-4.196555e+001	-1.692500e+001	-1.038175e+002	-1.694331e+001	-1.040200e+002	-1.265407e+001	6.180556e+001
3241767.764	-1.239351e+001	-4.601298e+001	-1.703249e+001	-1.076790e+002	-1.706120e+001	-1.079176e+002	-1.270462e+001	5.777144e+001
3266204.506	-1.227008e+001	-5.001960e+001	-1.714138e+001	-1.114050e+002	-1.717856e+001	-1.117717e+002	-1.277211e+001	5.375427e+001
3290641.248	-1.215138e+001	-5.387262e+001	-1.723961e+001	-1.152597e+002	-1.727422e+001	-1.154500e+002	-1.281289e+001	4.986012e+001
3315077.990	-1.202558e+001	-5.773543e+001	-1.732571e+001	-1.189521e+002	-1.737847e+001	-1.190249e+002	-1.286855e+001	4.598465e+001
3339514.731	-1.191300e+001	-6.146919e+001	-1.738049e+001	-1.224713e+002	-1.745179e+001	-1.226435e+002	-1.292299e+001	4.214342e+001
3363951.473	-1.180739e+001	-6.529355e+001	-1.742338e+001	-1.262352e+002	-1.749155e+001	-1.263020e+002	-1.298015e+001	3.844166e+001
3388388.215	-1.172179e+001	-6.888270e+001	-1.748238e+001	-1.299116e+002	-1.754336e+001	-1.298984e+002	-1.305794e+001	3.477204e+001
3412824.957	-1.164183e+001	-7.243160e+001	-1.751376e+001	-1.334789e+002	-1.757330e+001	-1.335190e+002	-1.311256e+001	3.117721e+001
3437261.698	-1.156397e+001	-7.597818e+001	-1.754291e+001	-1.370970e+002	-1.760368e+001	-1.372330e+002	-1.319512e+001	2.773977e+001
3461698.440	-1.148889e+001	-7.939101e+001	-1.755698e+001	-1.407834e+002	-1.763429e+001	-1.408382e+002	-1.326273e+001	2.436531e+001
3486135.182	-1.142793e+001	-8.282318e+001	-1.757887e+001	-1.445500e+002	-1.765427e+001	-1.444075e+002	-1.333230e+001	2.100764e+001
3510571.924	-1.136354e+001	-8.613856e+001	-1.758293e+001	-1.482054e+002	-1.765797e+001	-1.481155e+002	-1.340723e+001	1.782017e+001
3535008.666	-1.131049e+001	-8.939628e+001	-1.758086e+001	-1.517392e+002	-1.766041e+001	-1.517255e+002	-1.347912e+001	1.472754e+001
3559445.407	-1.126568e+001	-9.254157e+001	-1.759151e+001	-1.554803e+002	-1.766279e+001	-1.552899e+002	-1.354078e+001	1.173913e+001
3583882.149	-1.120977e+001	-9.567697e+001	-1.757004e+001	-1.590761e+002	-1.765184e+001	-1.590079e+002	-1.360124e+001	8.746424e+000
3608318.891	-1.115818e+001	-9.874788e+001	-1.754221e+001	-1.627274e+002	-1.762003e+001	-1.625735e+002	-1.364521e+001	5.793333e+000
3632755.633	-1.111386e+001	-1.018016e+002	-1.749810e+001	-1.664378e+002	-1.758308e+001	-1.661296e+002	-1.369709e+001	2.828289e+000
3657192.374	-1.106807e+001	-1.048401e+002	-1.745285e+001	-1.701967e+002	-1.753798e+001	-1.698749e+002	-1.374773e+001	2.358800e-002
3681629.116	-1.104013e+001	-1.078147e+002	-1.739290e+001	-1.740991e+002	-1.745560e+001	-1.736015e+002	-1.381416e+001	-2.941776e+000
3706065.858	-1.100310e+001	-1.107968e+002	-1.731172e+001	-1.779241e+002	-1.738679e+001	-1.774878e+002	-1.386200e+001	-5.722261e+000
3730502.600	-1.097410e+001	-1.136669e+002	-1.725253e+001	1.781277e+002	-1.734365e+001	1.784760e+002	-1.391604e+001	-8.249738e+000
3754939.341	-1.095158e+001	-1.164594e+002	-1.720632e+001	1.739193e+002	-1.727964e+001	1.743684e+002	-1.397344e+001	-1.090256e+001
3779376.083	-1.093581e+001	-1.192479e+002	-1.715421e+001	1.697030e+002	-1.724310e+001	1.701386e+002	-1.403362e+001	-1.338825e+001
3803812.825	-1.092553e+001	-1.218371e+002	-1.714566e+001	1.653423e+002	-1.719769e+001	1.659867e+002	-1.407784e+001	-1.585976e+001
3828249.567	-1.091010e+001	-1.245083e+002	-1.710263e+001	1.611925e+002	-1.719379e+001	1.618226e+002	-1.409111e+001	-1.815330e+001
3852686.308	-1.088463e+001	-1.270583e+002	-1.710128e+001	1.568732e+002	-1.718827e+001	1.575580e+002	-1.411922e+001	-2.039033e+001
3877123.050	-1.085679e+001	-1.294555e+002	-1.713175e+001	1.526526e+002	-1.719988e+001	1.532589e+002	-1.412916e+001	-2.250395e+001
3901559.792	-1.082186e+001	-1.317841e+002	-1.718895e+001	1.483971e+002	-1.723831e+001	1.489576e+002	-1.412033e+001	-2.452953e+001
3925996.534	-1.076104e+001	-1.341148e+002	-1.728904e+001	1.441838e+002	-1.731635e+001	1.448215e+002	-1.407526e+001	-2.647412e+001
3950433.276	-1.067911e+001	-1.365095e+002	-1.737764e+001	1.404039e+002	-1.741331e+001	1.411299e+002	-1.398257e+001	-2.868398e+001
3974870.017	-1.057642e+001	-1.389813e+002	-1.747928e+001	1.369664e+002	-1.755738e+001	1.377873e+002	-1.384992e+001	-3.094469e+001
3999306.759	-1.044969e+001	-1.416802e+002	-1.758406e+001	1.341112e+002	-1.760542e+001	1.346697e+002	-1.373534e+001	-3.345560e+001
4023743.501	-1.034751e+001	-1.445633e+002	-1.762236e+001	1.312546e+002	-1.768207e+001	1.320493e+002	-1.358196e+001	-3.621504e+001
4048180.243	-1.023947e+001	-1.476523e+002	-1.761443e+001	1.288101e+002	-1.767142e+001	1.295311e+002	-1.346139e+001	-3.925800e+001
4072616.984	-1.016459e+001	-1.509354e+002	-1.752892e+001	1.263959e+002	-1.758829e+001	1.269135e+002	-1.336045e+001	-4.244640e+001
4097053.726	-1.011674e+001	-1.542458e+002	-1.738818e+001	1.237153e+002	-1.743080e+001	1.244415e+002	-1.329437e+001	-4.584948e+001
4121490.468	-1.009341e+001	-1.576754e+002	-1.720260e+001	1.210018e+002	-1.722431e+001	1.217229e+002	-1.325333e+001	-4.931148e+001
4145927.210	-1.011684e+001	-1.610668e+002	-1.697769e+001	1.177684e+002	-1.704629e+001	1.187387e+002	-1.321901e+001	-5.261697e+001
4170363.951	-1.014713e+001	-1.644159e+002	-1.674849e+001	1.145824e+002	-1.678013e+001	1.153602e+002	-1.323824e+001	-5.598555e+001
4194800.693	-1.021401e+001	-1.677498e+002	-1.648920e+001	1.111120e+002	-1.652568e+001	1.118815e+002	-1.325410e+001	-5.941977e+001
4219237.435	-1.031777e+001	-1.709860e+002	-1.623946e+001	1.070923e+002	-1.626578e+001	1.079372e+002	-1.331437e+001	-6.261283e+001
4243674.177	-1.043837e+001	-1.741609e+002	-1.598067e+001	1.029847e+002	-1.600906e+001	1.039169e+002	-1.337216e+001	-6.581179e+001
4268110.919	-1.055470e+001	-1.771415e+002	-1.575910e+001	9.871259e+001	-1.575891e+001	9.969896e+001	-1.345621e+001	-6.895571e+001
4292547.660	-1.070846e+001	1.799674e+002	-1.553505e+001	9.434171e+001	-1.552274e+001	9.530592e+001	-1.353160e+001	-7.189922e+001
4316984.402	-1.086188e+001	1.771262e+002	-1.532293e+001	8.991919e+001	-1.533295e+001	9.075279e+001	-1.361277e+001	-7.472835e+001
4341421.144	-1.102236e+001	1.745079e+002	-1.513566e+001	8.522838e+001	-1.512804e+001	8.609722e+001	-1.370422e+001	-7.751088e+001
4365857.886	-1.121566e+001	1.719222e+002	-1.493955e+001	8.054085e+001	-1.494234e+001	8.139430e+001	-1.378676e+001	-8.015131e+001
4390294.627	-1.137791e+001	1.695567e+002	-1.478941e+001	7.574729e+001	-1.477948e+001	7.649416e+001	-1.387312e+001	-8.270870e+001
4414731.369	-1.155260e+001	1.673167e+002	-1.464583e+001	7.085297e+001	-1.462960e+001	7.169498e+001	-1.394630e+001	-8.530547e+001
4439168.111	-1.172624e+001	1.651824e+002	-1.451229e+001	6.590441e+001	-1.450471e+001	6.685801e+001	-1.400230e+001	-8.772377e+001
4463604.853	-1.188342e+001	1.630613e+002	-1.441008e+001	6.111811e+001	-1.438101e+001	6.197529e+001	-1.406348e+001	-9.025577e+001
4488041.594	-1.204181e+001	1.610659e+002	-1.430694e+001	5.622955e+001	-1.428281e+001	5.712901e+001	-1.409724e+001	-9.268934e+001
4512478.336	-1.218209e+001	1.589175e+002	-1.422735e+001	5.150478e+001	-1.419477e+001	5.231100e+001	-1.411838e+001	-9.508145e+001
4536915.078	-1.231776e+001	1.568239e+002	-1.414853e+001	4.674936e+001	-1.410147e+001	4.758163e+001	-1.414177e+001	-9.773588e+001
4561351.820	-1.246757e+001	1.548236e+002	-1.406888e+001	4.191647e+001	-1.402817e+001	4.269011e+001	-1.415100e+001	-1.002886e+002
4585788.562	-1.259005e+001	1.529421e+002	-1.401764e+001	3.697279e+001	-1.396486e+001	3.773006e+001	-1.416536e+001	-1.027810e+002
4610225.303	-1.271966e+001	1.508102e+002	-1.397147e+001	3.223774e+001	-1.392665e+001	3.305894e+001	-1.414090e+001	-1.055141e+002
4634662.045	-1.281245e+001	1.484807e+002	-1.397012e+001	2.758274e+001	-1.392910e+001	2.839411e+001	-1.407665e+001	-1.081864e+002
4659098.787	-1.294085e+001	1.459375e+002	-1.395253e+001	2.320383e+001	-1.389483e+001	2.391926e+001	-1.404306e+001	-1.113735e+002
4683535.529	-1.312146e+001	1.432628e+002	-1.390318e+001	1.892251e+001	-1.386824e+001	1.958053e+001	-1.399624e+001	-1.146036e+002
4707972.270	-1.332829e+001	1.404626e+002	-1.385167e+001	1.474732e+001	-1.381931e+001	1.530587e+001	-1.397306e+001	-1.181728e+002
4732409.012	-1.356914e+001	1.376616e+002	-1.378434e+001	1.057356e+001	-1.374488e+001	1.122124e+001	-1.396641e+001	-1.219959e+002
4756845.754	-1.387240e+001	1.349299e+002	-1.369806e+001	6.356154e+000	-1.363306e+001	6.864807e+000	-1.402129e+001	-1.259254e+002
4781282.496	-1.421264e+001	1.323973e+002	-1.358034e+001	2.009127e+000	-1.351108e+001	2.579207e+000	-1.410117e+001	-1.299991e+002
4805719.237	-1.462705e+001	1.300071e+002	-1.344225e+001	-2.341327e+000	-1.339285e+001	-1.934226e+000	-1.420247e+001	-1.339556e+002
4830155.979	-1.503545e+001	1.278725e+002	-1.331674e+001	-6.952592e+000	-1.325845e+001	-6.567632e+000	-1.435030e+001	-1.379761e+002
4854592.721	-1.548344e+001	1.259596e+002	-1.319237e+001	-1.163385e+001	-1.313246e+001	-1.124676e+001	-1.451578e+001	-1.420978e+002
4879029.463	-1.594044e+001	1.244019e+002	-1.307732e+001	-1.652810e+001	-1.301691e+001	-1.610118e+001	-1.469571e+001	-1.461732e+002
4903466.205	-1.642667e+001	1.229731e+002	-1.296865e+001	-2.146983e+001	-1.290239e+001	-2.108537e+001	-1.491049e+001	-1.501289e+002
4927902.946	-1.693197e+001	1.217270e+002	-1.287861e+001	-2.637565e+001	-1.282374e+001	-2.605829e+001	-1.511337e+001	-1.540843e+002
4952339.688	-1.743911e+001	1.206415e+002	-1.280027e+001	-3.146116e+001	-1.274351e+001	-3.108602e+001	-1.535333e+001	-1.580552e+002
4976776.430	-1.798560e+001	1.198694e+002	-1.273420e+001	-3.647678e+001	-1.268093e+001	-3.612845e+001	-1.559601e+001	-1.621139e+002
5001213.172	-1.855396e+001	1.194508e+002	-1.267330e+001	-4.160504e+001	-1.263106e+001	-4.122826e+001	-1.587176e+001	-1.661198e+002
5025649.913	-1.919295e+001	1.192502e+002	-1.262359e+001	-4.655056e+001	-1.258387e+001	-4.628437e+001	-1.615278e+001	-1.702721e+002
5050086.655	-1.986375e+001	1.194902e+002	-1.258405e+001	-5.159848e+001	-1.255069e+001	-5.133977e+001	-1.644043e+001	-1.743942e+002
5074523.397	-2.053613e+001	1.204316e+002	-1.255759e+001	-5.674185e+001	-1.252819e+001	-5.643905e+001	-1.676668e+001	-1.785351e+002
5098960.139	-2.125303e+001	1.217837e+002	-1.254332e+001	-6.180942e+001	-1.251738e+001	-6.154099e+001	-1.710171e+001	1.773373e+002
5123396.880	-2.197503e+001	1.237697e+002	-1.254419e+001	-6.687774e+001	-1.252172e+001	-6.659522e+001	-1.744079e+001	1.731071e+002
5147833.622	-2.274322e+001	1.269871e+002	-1.255531e+001	-7.186427e+001	-1.253660e+001	-7.158471e+001	-1.779788e+001	1.687115e+002
5172270.364	-2.348674e+001	1.313872e+002	-1.258029e+001	-7.678715e+001	-1.255672e+001	-7.651940e+001	-1.814187e+001	1.642454e+002
5196707.106	-2.413317e+001	1.371668e+002	-1.260275e+001	-8.171654e+001	-1.258898e+001	-8.140403e+001	-1.851651e+001	1.596520e+002
5221143.847	-2.455761e+001	1.447259e+002	-1.262473e+001	-8.651773e+001	-1.262022e+001	-8.621563e+001	-1.890417e+001	1.548135e+002
5245580.589	-2.469793e+001	1.531214e+002	-1.264711e+001	-9.134878e+001	-1.265466e+001	-9.108131e+001	-1.934393e+001	1.498884e+002
5270017.331	-2.446498e+001	1.615024e+002	-1.267725e+001	-9.611789e+001	-1.268148e+001	-9.584254e+001	-1.979486e+001	1.447009e+002
5294454.073	-2.397340e+001	1.687288e+002	-1.271843e+001	-1.008854e+002	-1.271919e+001	-1.005591e+002	-2.025690e+001	1.394683e+002
5318890.815	-2.321004e+001	1.748993e+002	-1.275582e+001	-1.055781e+002	-1.274622e+001	-1.052887e+002	-2.076609e+001	1.338937e+002
5343327.556	-2.232971e+001	1.794164e+002	-1.278631e+001	-1.102986e+002	-1.279833e+001	-1.099931e+002	-2.125435e+001	1.281912e+002
5367764.298	-2.146954e+001	-1.776642e+002	-1.283802e+001	-1.149934e+002	-1.283490e+001	-1.146866e+002	-2.178382e+001	1.223093e+002
5392201.040	-2.057851e+001	-1.758603e+002	-1.286597e+001	-1.197305e+002	-1.288110e+001	-1.192983e+002	-2.229212e+001	1.159652e+002
5416637.782	-1.974366e+001	-1.748690e+002	-1.291722e+001	-1.243521e+002	-1.292149e+001	-1.239111e+002	-2.282251e+001	1.094392e+002
5441074.523	-1.895317e+001	-1.746795e+002	-1.295168e+001	-1.289159e+002	-1.297335e+001	-1.284822e+002	-2.332507e+001	1.026214e+002
