!Agilent Technologies,E5061B,MY49101568,A.02.00
!Date: Wed Mar 01 12:42:37 2023
!Data & Calibration Information:
!Freq	S11:SOLT2(OFF)	S21:SOLT2(OFF)	S12:SOLT2(OFF)	S22:SOLT2(OFF)
# Hz S dB R 50
1800000.000	-9.075166e+000	-1.534884e+001	-2.725269e+001	-1.279577e+002	-2.730722e+001	-1.279009e+002	-9.386738e+000	2.050934e+001
1824436.742	-9.151743e+000	-1.957831e+001	-2.688188e+001	-1.316225e+002	-2.694194e+001	-1.316000e+002	-9.490548e+000	1.679000e+001
1848873.484	-9.235036e+000	-2.389221e+001	-2.649354e+001	-1.355003e+002	-2.656409e+001	-1.353554e+002	-9.595620e+000	1.301671e+001
1873310.225	-9.317395e+000	-2.826512e+001	-2.610377e+001	-1.393296e+002	-2.617820e+001	-1.391744e+002	-9.695887e+000	9.207105e+000
1897746.967	-9.399356e+000	-3.273026e+001	-2.567936e+001	-1.432429e+002	-2.578423e+001	-1.431008e+002	-9.790579e+000	5.319762e+000
1922183.709	-9.482614e+000	-3.731074e+001	-2.527141e+001	-1.473020e+002	-2.537038e+001	-1.470889e+002	-9.885159e+000	1.329962e+000
1946620.451	-9.565458e+000	-4.200717e+001	-2.483924e+001	-1.513929e+002	-2.495504e+001	-1.511477e+002	-9.974316e+000	-2.743227e+000
1971057.192	-9.652293e+000	-4.683951e+001	-2.440308e+001	-1.556463e+002	-2.451401e+001	-1.553377e+002	-1.006090e+001	-6.909988e+000
1995493.934	-9.745327e+000	-5.179941e+001	-2.394185e+001	-1.600164e+002	-2.406520e+001	-1.595986e+002	-1.014823e+001	-1.118532e+001
2019930.676	-9.841942e+000	-5.689828e+001	-2.347719e+001	-1.645004e+002	-2.360284e+001	-1.640372e+002	-1.022980e+001	-1.553478e+001
2044367.418	-9.942661e+000	-6.213523e+001	-2.300789e+001	-1.690683e+002	-2.313063e+001	-1.685245e+002	-1.030598e+001	-2.002999e+001
2068804.159	-1.005107e+001	-6.752492e+001	-2.253171e+001	-1.738649e+002	-2.265651e+001	-1.733033e+002	-1.037851e+001	-2.458662e+001
2093240.901	-1.017161e+001	-7.305789e+001	-2.201986e+001	-1.788823e+002	-2.216059e+001	-1.782975e+002	-1.045563e+001	-2.923561e+001
2117677.643	-1.029525e+001	-7.879641e+001	-2.153829e+001	1.760258e+002	-2.167443e+001	1.766938e+002	-1.052307e+001	-3.398952e+001
2142114.385	-1.042991e+001	-8.471840e+001	-2.105727e+001	1.707361e+002	-2.119533e+001	1.715147e+002	-1.057998e+001	-3.885050e+001
2166551.127	-1.057107e+001	-9.083644e+001	-2.057665e+001	1.653650e+002	-2.070775e+001	1.661070e+002	-1.063491e+001	-4.386528e+001
2190987.868	-1.072610e+001	-9.717358e+001	-2.010057e+001	1.597193e+002	-2.022744e+001	1.605286e+002	-1.068742e+001	-4.898769e+001
2215424.610	-1.088212e+001	-1.037193e+002	-1.965442e+001	1.540480e+002	-1.974697e+001	1.547107e+002	-1.073697e+001	-5.422348e+001
2239861.352	-1.106223e+001	-1.104890e+002	-1.921053e+001	1.481140e+002	-1.928852e+001	1.487338e+002	-1.077637e+001	-5.957891e+001
2264298.094	-1.125583e+001	-1.175159e+002	-1.876862e+001	1.419869e+002	-1.883949e+001	1.426243e+002	-1.080958e+001	-6.506258e+001
2288734.835	-1.146766e+001	-1.247796e+002	-1.834082e+001	1.356865e+002	-1.839952e+001	1.363111e+002	-1.083677e+001	-7.065337e+001
2313171.577	-1.169718e+001	-1.322950e+002	-1.793047e+001	1.291720e+002	-1.798257e+001	1.298220e+002	-1.085923e+001	-7.634103e+001
2337608.319	-1.194164e+001	-1.400342e+002	-1.754465e+001	1.224962e+002	-1.758091e+001	1.231460e+002	-1.087467e+001	-8.212871e+001
2362045.061	-1.218110e+001	-1.480143e+002	-1.719704e+001	1.158463e+002	-1.719790e+001	1.161935e+002	-1.089164e+001	-8.799917e+001
2386481.802	-1.244491e+001	-1.562319e+002	-1.686018e+001	1.088652e+002	-1.685359e+001	1.092493e+002	-1.088618e+001	-9.399149e+001
2410918.544	-1.271408e+001	-1.646820e+002	-1.655193e+001	1.017586e+002	-1.654043e+001	1.021537e+002	-1.087201e+001	-1.000846e+002
2435355.286	-1.298480e+001	-1.733489e+002	-1.627593e+001	9.456650e+001	-1.625174e+001	9.496280e+001	-1.084775e+001	-1.062907e+002
2459792.028	-1.325083e+001	1.777962e+002	-1.603434e+001	8.727934e+001	-1.599370e+001	8.765834e+001	-1.081674e+001	-1.125928e+002
2484228.769	-1.349546e+001	1.687417e+002	-1.582647e+001	7.993410e+001	-1.575558e+001	8.010585e+001	-1.079497e+001	-1.190105e+002
2508665.511	-1.372681e+001	1.595566e+002	-1.564853e+001	7.255388e+001	-1.556299e+001	7.262750e+001	-1.075376e+001	-1.255062e+002
2533102.253	-1.393331e+001	1.502803e+002	-1.551180e+001	6.517737e+001	-1.541451e+001	6.522170e+001	-1.069867e+001	-1.320798e+002
2557538.995	-1.410911e+001	1.409523e+002	-1.540191e+001	5.777037e+001	-1.529928e+001	5.782723e+001	-1.063994e+001	-1.387425e+002
2581975.737	-1.424727e+001	1.316052e+002	-1.532973e+001	5.037360e+001	-1.521982e+001	5.043597e+001	-1.057953e+001	-1.454764e+002
2606412.478	-1.434271e+001	1.223256e+002	-1.529006e+001	4.304016e+001	-1.517476e+001	4.306971e+001	-1.052202e+001	-1.522642e+002
2630849.220	-1.440135e+001	1.131330e+002	-1.528708e+001	3.577183e+001	-1.516095e+001	3.575624e+001	-1.047012e+001	-1.590784e+002
2655285.962	-1.441709e+001	1.041088e+002	-1.531111e+001	2.858228e+001	-1.518258e+001	2.853422e+001	-1.041963e+001	-1.659076e+002
2679722.704	-1.439921e+001	9.527765e+001	-1.536905e+001	2.151025e+001	-1.523809e+001	2.144212e+001	-1.037868e+001	-1.727346e+002
2704159.445	-1.434792e+001	8.666697e+001	-1.545122e+001	1.455632e+001	-1.532173e+001	1.449627e+001	-1.034119e+001	-1.795212e+002
2728596.187	-1.426847e+001	7.831461e+001	-1.555947e+001	7.712527e+000	-1.542906e+001	7.648115e+000	-1.031451e+001	1.737416e+002
2753032.929	-1.417014e+001	7.025615e+001	-1.568934e+001	1.075177e+000	-1.556236e+001	9.458761e-001	-1.030080e+001	1.670663e+002
2777469.671	-1.405152e+001	6.248154e+001	-1.583514e+001	-5.452208e+000	-1.571632e+001	-5.602348e+000	-1.029801e+001	1.605153e+002
2801906.412	-1.392267e+001	5.498486e+001	-1.600644e+001	-1.179414e+001	-1.588426e+001	-1.202324e+001	-1.030787e+001	1.540435e+002
2826343.154	-1.378565e+001	4.781318e+001	-1.618394e+001	-1.799262e+001	-1.607219e+001	-1.824491e+001	-1.032435e+001	1.477327e+002
2850779.896	-1.364406e+001	4.090338e+001	-1.637630e+001	-2.399223e+001	-1.627342e+001	-2.428824e+001	-1.035122e+001	1.415516e+002
2875216.638	-1.349961e+001	3.426994e+001	-1.657993e+001	-2.990765e+001	-1.649465e+001	-3.007442e+001	-1.038083e+001	1.355281e+002
2899653.380	-1.335331e+001	2.791525e+001	-1.678913e+001	-3.556892e+001	-1.671226e+001	-3.578324e+001	-1.042564e+001	1.296633e+002
2924090.121	-1.320669e+001	2.180747e+001	-1.700254e+001	-4.107047e+001	-1.693270e+001	-4.132464e+001	-1.047745e+001	1.239546e+002
2948526.863	-1.306158e+001	1.593563e+001	-1.721712e+001	-4.641910e+001	-1.715821e+001	-4.669251e+001	-1.053461e+001	1.184078e+002
2972963.605	-1.291741e+001	1.028160e+001	-1.743311e+001	-5.159440e+001	-1.738218e+001	-5.188824e+001	-1.059605e+001	1.130085e+002
2997400.347	-1.277653e+001	4.838809e+000	-1.764660e+001	-5.661473e+001	-1.760340e+001	-5.693171e+001	-1.065945e+001	1.077575e+002
3021837.088	-1.263685e+001	-4.141122e-001	-1.785772e+001	-6.147474e+001	-1.782243e+001	-6.181355e+001	-1.072585e+001	1.026508e+002
3046273.830	-1.250125e+001	-5.500717e+000	-1.805703e+001	-6.620037e+001	-1.803566e+001	-6.654562e+001	-1.079348e+001	9.768480e+001
3070710.572	-1.237136e+001	-1.042498e+001	-1.825146e+001	-7.082081e+001	-1.823870e+001	-7.113414e+001	-1.086121e+001	9.284687e+001
3095147.314	-1.224278e+001	-1.519641e+001	-1.843755e+001	-7.530684e+001	-1.843173e+001	-7.563146e+001	-1.093292e+001	8.813745e+001
3119584.055	-1.212015e+001	-1.982585e+001	-1.861292e+001	-7.970980e+001	-1.861890e+001	-8.000987e+001	-1.100387e+001	8.355650e+001
3144020.797	-1.200035e+001	-2.433644e+001	-1.877646e+001	-8.399408e+001	-1.879297e+001	-8.429742e+001	-1.107630e+001	7.912291e+001
3168457.539	-1.188545e+001	-2.871426e+001	-1.893233e+001	-8.818243e+001	-1.895815e+001	-8.848571e+001	-1.114661e+001	7.477368e+001
3192894.281	-1.177178e+001	-3.299396e+001	-1.908192e+001	-9.230888e+001	-1.911168e+001	-9.259782e+001	-1.121664e+001	7.052368e+001
3217331.023	-1.166420e+001	-3.716555e+001	-1.921527e+001	-9.635918e+001	-1.925694e+001	-9.659915e+001	-1.128625e+001	6.638052e+001
3241767.764	-1.155898e+001	-4.123492e+001	-1.934019e+001	-1.003323e+002	-1.939240e+001	-1.005553e+002	-1.135299e+001	6.233554e+001
3266204.506	-1.145712e+001	-4.521030e+001	-1.946181e+001	-1.042405e+002	-1.951714e+001	-1.044388e+002	-1.141763e+001	5.837487e+001
3290641.248	-1.135526e+001	-4.911270e+001	-1.956755e+001	-1.080170e+002	-1.963274e+001	-1.081895e+002	-1.147803e+001	5.449925e+001
3315077.990	-1.125729e+001	-5.296202e+001	-1.965333e+001	-1.117561e+002	-1.972422e+001	-1.118624e+002	-1.153990e+001	5.066455e+001
3339514.731	-1.116420e+001	-5.675484e+001	-1.971938e+001	-1.154482e+002	-1.979922e+001	-1.155125e+002	-1.159924e+001	4.689118e+001
3363951.473	-1.107525e+001	-6.048898e+001	-1.977098e+001	-1.191652e+002	-1.985821e+001	-1.191389e+002	-1.166292e+001	4.318442e+001
3388388.215	-1.099147e+001	-6.415741e+001	-1.981404e+001	-1.228125e+002	-1.990627e+001	-1.227667e+002	-1.172609e+001	3.954309e+001
3412824.957	-1.091307e+001	-6.776970e+001	-1.983900e+001	-1.264702e+002	-1.993530e+001	-1.263708e+002	-1.179070e+001	3.596959e+001
3437261.698	-1.083963e+001	-7.132708e+001	-1.985230e+001	-1.301090e+002	-1.995047e+001	-1.299846e+002	-1.185606e+001	3.245390e+001
3461698.440	-1.077114e+001	-7.482710e+001	-1.985212e+001	-1.337433e+002	-1.995246e+001	-1.335850e+002	-1.192209e+001	2.900816e+001
3486135.182	-1.070874e+001	-7.826935e+001	-1.983791e+001	-1.374355e+002	-1.994454e+001	-1.372085e+002	-1.199278e+001	2.563270e+001
3510571.924	-1.065221e+001	-8.166146e+001	-1.980997e+001	-1.411259e+002	-1.992138e+001	-1.408488e+002	-1.206164e+001	2.232117e+001
3535008.666	-1.059723e+001	-8.499115e+001	-1.977702e+001	-1.448214e+002	-1.988770e+001	-1.444887e+002	-1.212912e+001	1.907055e+001
3559445.407	-1.054528e+001	-8.827270e+001	-1.972364e+001	-1.484785e+002	-1.983896e+001	-1.481244e+002	-1.219314e+001	1.589042e+001
3583882.149	-1.049524e+001	-9.150799e+001	-1.965666e+001	-1.521696e+002	-1.977250e+001	-1.517574e+002	-1.225706e+001	1.273457e+001
3608318.891	-1.044896e+001	-9.471320e+001	-1.957069e+001	-1.559238e+002	-1.968644e+001	-1.554799e+002	-1.232130e+001	9.617456e+000
3632755.633	-1.040517e+001	-9.789387e+001	-1.946495e+001	-1.598326e+002	-1.958481e+001	-1.592339e+002	-1.238675e+001	6.522709e+000
3657192.374	-1.036602e+001	-1.010321e+002	-1.935007e+001	-1.638031e+002	-1.947163e+001	-1.631297e+002	-1.245692e+001	3.471359e+000
3681629.116	-1.032910e+001	-1.041585e+002	-1.922599e+001	-1.678193e+002	-1.934736e+001	-1.671065e+002	-1.252781e+001	4.863527e-001
3706065.858	-1.029981e+001	-1.072574e+002	-1.909164e+001	-1.719935e+002	-1.921527e+001	-1.712060e+002	-1.260190e+001	-2.463992e+000
3730502.600	-1.027520e+001	-1.103340e+002	-1.895847e+001	-1.762461e+002	-1.907966e+001	-1.754199e+002	-1.268009e+001	-5.355001e+000
3754939.341	-1.025602e+001	-1.133878e+002	-1.882423e+001	1.794644e+002	-1.894316e+001	-1.797298e+002	-1.276049e+001	-8.179420e+000
3779376.083	-1.024276e+001	-1.164058e+002	-1.868788e+001	1.750952e+002	-1.880180e+001	1.758958e+002	-1.284281e+001	-1.096748e+001
3803812.825	-1.024149e+001	-1.194200e+002	-1.854183e+001	1.706040e+002	-1.865798e+001	1.714230e+002	-1.293021e+001	-1.371521e+001
3828249.567	-1.025661e+001	-1.223972e+002	-1.838174e+001	1.659483e+002	-1.849192e+001	1.668300e+002	-1.302673e+001	-1.643329e+001
3852686.308	-1.028694e+001	-1.252972e+002	-1.822445e+001	1.610816e+002	-1.833020e+001	1.620565e+002	-1.313636e+001	-1.904811e+001
3877123.050	-1.032979e+001	-1.281003e+002	-1.806894e+001	1.560440e+002	-1.817049e+001	1.571143e+002	-1.325417e+001	-2.153868e+001
3901559.792	-1.038180e+001	-1.308166e+002	-1.791856e+001	1.509073e+002	-1.801411e+001	1.519801e+002	-1.338087e+001	-2.389025e+001
3925996.534	-1.044552e+001	-1.333721e+002	-1.778140e+001	1.455483e+002	-1.786972e+001	1.466210e+002	-1.351501e+001	-2.603663e+001
3950433.276	-1.052045e+001	-1.357700e+002	-1.765394e+001	1.399561e+002	-1.773830e+001	1.410808e+002	-1.364791e+001	-2.797255e+001
3974870.017	-1.060068e+001	-1.379332e+002	-1.755156e+001	1.340946e+002	-1.763456e+001	1.352953e+002	-1.377536e+001	-2.963206e+001
3999306.759	-1.067356e+001	-1.398487e+002	-1.748339e+001	1.280186e+002	-1.756234e+001	1.293046e+002	-1.388393e+001	-3.100083e+001
4023743.501	-1.072853e+001	-1.415572e+002	-1.745094e+001	1.218151e+002	-1.752411e+001	1.231900e+002	-1.396121e+001	-3.213276e+001
4048180.243	-1.075288e+001	-1.430915e+002	-1.745923e+001	1.155485e+002	-1.752616e+001	1.168753e+002	-1.399700e+001	-3.301340e+001
4072616.984	-1.074010e+001	-1.444480e+002	-1.752054e+001	1.091496e+002	-1.758855e+001	1.104246e+002	-1.397222e+001	-3.370019e+001
4097053.726	-1.067770e+001	-1.456887e+002	-1.764518e+001	1.026502e+002	-1.771379e+001	1.038981e+002	-1.387606e+001	-3.431693e+001
4121490.468	-1.055596e+001	-1.469036e+002	-1.785103e+001	9.604087e+001	-1.791067e+001	9.737225e+001	-1.370666e+001	-3.503573e+001
4145927.210	-1.037750e+001	-1.483021e+002	-1.813115e+001	8.961014e+001	-1.819586e+001	9.097197e+001	-1.346144e+001	-3.600876e+001
4170363.951	-1.015164e+001	-1.500081e+002	-1.850008e+001	8.355923e+001	-1.857619e+001	8.478010e+001	-1.315804e+001	-3.730673e+001
4194800.693	-9.881383e+000	-1.520681e+002	-1.898528e+001	7.776536e+001	-1.905744e+001	7.909839e+001	-1.281331e+001	-3.916719e+001
4219237.435	-9.599903e+000	-1.546483e+002	-1.955548e+001	7.283074e+001	-1.961563e+001	7.422130e+001	-1.246451e+001	-4.160805e+001
4243674.177	-9.338645e+000	-1.577024e+002	-2.016121e+001	6.892663e+001	-2.018341e+001	7.031641e+001	-1.214535e+001	-4.453474e+001
4268110.919	-9.116597e+000	-1.610866e+002	-2.073871e+001	6.600508e+001	-2.073367e+001	6.728046e+001	-1.186308e+001	-4.777947e+001
4292547.660	-8.934678e+000	-1.646782e+002	-2.126105e+001	6.389593e+001	-2.123881e+001	6.496022e+001	-1.161906e+001	-5.121594e+001
4316984.402	-8.790285e+000	-1.684230e+002	-2.170924e+001	6.252012e+001	-2.169868e+001	6.349639e+001	-1.140232e+001	-5.483581e+001
4341421.144	-8.692689e+000	-1.723123e+002	-2.201540e+001	6.194373e+001	-2.201925e+001	6.287578e+001	-1.122786e+001	-5.862178e+001
4365857.886	-8.647597e+000	-1.761823e+002	-2.211420e+001	6.141364e+001	-2.212364e+001	6.239276e+001	-1.110929e+001	-6.240895e+001
4390294.627	-8.634276e+000	-1.798967e+002	-2.209411e+001	6.002446e+001	-2.207091e+001	6.103557e+001	-1.102919e+001	-6.598916e+001
4414731.369	-8.625498e+000	1.765705e+002	-2.207739e+001	5.766960e+001	-2.203831e+001	5.858057e+001	-1.094697e+001	-6.930697e+001
4439168.111	-8.596301e+000	1.730503e+002	-2.219639e+001	5.501840e+001	-2.214660e+001	5.576690e+001	-1.083067e+001	-7.254210e+001
4463604.853	-8.545034e+000	1.693281e+002	-2.245831e+001	5.314753e+001	-2.241740e+001	5.386124e+001	-1.066919e+001	-7.594772e+001
4488041.594	-8.502960e+000	1.651832e+002	-2.272444e+001	5.315356e+001	-2.269504e+001	5.383281e+001	-1.049072e+001	-7.977394e+001
4512478.336	-8.520008e+000	1.606229e+002	-2.269773e+001	5.489939e+001	-2.267194e+001	5.563977e+001	-1.034755e+001	-8.409605e+001
4536915.078	-8.634066e+000	1.559136e+002	-2.220754e+001	5.634220e+001	-2.216505e+001	5.711750e+001	-1.028876e+001	-8.870381e+001
4561351.820	-8.832251e+000	1.514940e+002	-2.148824e+001	5.525108e+001	-2.142653e+001	5.595537e+001	-1.031142e+001	-9.312351e+001
4585788.562	-9.057240e+000	1.474982e+002	-2.086670e+001	5.201785e+001	-2.079518e+001	5.269824e+001	-1.036247e+001	-9.715943e+001
4610225.303	-9.269098e+000	1.436761e+002	-2.042353e+001	4.819059e+001	-2.034535e+001	4.880008e+001	-1.039433e+001	-1.009618e+002
4634662.045	-9.473067e+000	1.398218e+002	-2.008891e+001	4.451560e+001	-2.000100e+001	4.497378e+001	-1.040527e+001	-1.047456e+002
4659098.787	-9.689434e+000	1.358165e+002	-1.977845e+001	4.113779e+001	-1.968546e+001	4.153202e+001	-1.040012e+001	-1.086801e+002
4683535.529	-9.932400e+000	1.316449e+002	-1.945118e+001	3.801967e+001	-1.935290e+001	3.834756e+001	-1.039275e+001	-1.128141e+002
4707972.270	-1.022005e+001	1.273038e+002	-1.906901e+001	3.503951e+001	-1.896582e+001	3.527548e+001	-1.039831e+001	-1.171645e+002
4732409.012	-1.057316e+001	1.228286e+002	-1.860109e+001	3.185099e+001	-1.849870e+001	3.208134e+001	-1.043314e+001	-1.217756e+002
4756845.754	-1.101197e+001	1.183909e+002	-1.806006e+001	2.807957e+001	-1.796070e+001	2.826316e+001	-1.051766e+001	-1.265325e+002
4781282.496	-1.152455e+001	1.141960e+002	-1.751464e+001	2.351767e+001	-1.742162e+001	2.359746e+001	-1.065456e+001	-1.312497e+002
4805719.237	-1.208817e+001	1.103117e+002	-1.702296e+001	1.834453e+001	-1.693897e+001	1.842479e+001	-1.082230e+001	-1.358619e+002
4830155.979	-1.268809e+001	1.066655e+002	-1.659159e+001	1.288988e+001	-1.650738e+001	1.302378e+001	-1.100657e+001	-1.404464e+002
4854592.721	-1.333645e+001	1.032088e+002	-1.620057e+001	7.297270e+000	-1.611724e+001	7.451300e+000	-1.121418e+001	-1.450131e+002
4879029.463	-1.404062e+001	9.996286e+001	-1.583835e+001	1.566595e+000	-1.575905e+001	1.725398e+000	-1.144420e+001	-1.495632e+002
4903466.205	-1.479943e+001	9.699950e+001	-1.550723e+001	-4.292316e+000	-1.542506e+001	-4.135635e+000	-1.170384e+001	-1.541120e+002
4927902.946	-1.561944e+001	9.438624e+001	-1.520545e+001	-1.030751e+001	-1.512473e+001	-1.016875e+001	-1.199266e+001	-1.586029e+002
4952339.688	-1.649524e+001	9.219018e+001	-1.493605e+001	-1.645986e+001	-1.486025e+001	-1.620379e+001	-1.229993e+001	-1.630771e+002
4976776.430	-1.742452e+001	9.048466e+001	-1.470040e+001	-2.266346e+001	-1.462979e+001	-2.243035e+001	-1.263605e+001	-1.673894e+002
5001213.172	-1.840985e+001	8.922552e+001	-1.449814e+001	-2.887565e+001	-1.443441e+001	-2.868409e+001	-1.299309e+001	-1.715995e+002
5025649.913	-1.945239e+001	8.852024e+001	-1.432365e+001	-3.508838e+001	-1.426918e+001	-3.493603e+001	-1.336433e+001	-1.757400e+002
5050086.655	-2.056174e+001	8.849275e+001	-1.417625e+001	-4.132398e+001	-1.412923e+001	-4.116905e+001	-1.375249e+001	-1.798074e+002
5074523.397	-2.174626e+001	8.926065e+001	-1.405325e+001	-4.752852e+001	-1.401284e+001	-4.737412e+001	-1.415547e+001	1.761946e+002
5098960.139	-2.300051e+001	9.107258e+001	-1.395048e+001	-5.369747e+001	-1.391509e+001	-5.353952e+001	-1.457603e+001	1.722454e+002
5123396.880	-2.433253e+001	9.425946e+001	-1.386243e+001	-5.983171e+001	-1.383672e+001	-5.966473e+001	-1.501143e+001	1.683830e+002
5147833.622	-2.569705e+001	9.942322e+001	-1.379445e+001	-6.593665e+001	-1.377313e+001	-6.575979e+001	-1.546492e+001	1.645809e+002
5172270.364	-2.702509e+001	1.070359e+002	-1.373784e+001	-7.200892e+001	-1.372244e+001	-7.180871e+001	-1.593397e+001	1.608552e+002
5196707.106	-2.811636e+001	1.176473e+002	-1.369752e+001	-7.805151e+001	-1.368417e+001	-7.782187e+001	-1.642035e+001	1.572068e+002
5221143.847	-2.870299e+001	1.305969e+002	-1.366636e+001	-8.403627e+001	-1.365690e+001	-8.381419e+001	-1.692087e+001	1.536813e+002
5245580.589	-2.864045e+001	1.441268e+002	-1.364762e+001	-9.000827e+001	-1.364033e+001	-8.977098e+001	-1.743592e+001	1.502544e+002
5270017.331	-2.799873e+001	1.559750e+002	-1.364094e+001	-9.594801e+001	-1.363423e+001	-9.569215e+001	-1.796125e+001	1.469506e+002
5294454.073	-2.702033e+001	1.650352e+002	-1.364143e+001	-1.018416e+002	-1.363812e+001	-1.015885e+002	-1.849232e+001	1.437619e+002
5318890.815	-2.592055e+001	1.714400e+002	-1.365043e+001	-1.076840e+002	-1.364994e+001	-1.074302e+002	-1.903045e+001	1.406768e+002
5343327.556	-2.481993e+001	1.757073e+002	-1.366242e+001	-1.134864e+002	-1.366372e+001	-1.132196e+002	-1.957898e+001	1.376562e+002
5367764.298	-2.378511e+001	1.782222e+002	-1.367613e+001	-1.192993e+002	-1.367857e+001	-1.190143e+002	-2.014535e+001	1.347927e+002
5392201.040	-2.284596e+001	1.795862e+002	-1.369350e+001	-1.250911e+002	-1.369782e+001	-1.248090e+002	-2.071245e+001	1.321612e+002
5416637.782	-2.201234e+001	-1.799683e+002	-1.371620e+001	-1.309017e+002	-1.372273e+001	-1.306004e+002	-2.127078e+001	1.297632e+002
5441074.523	-2.127741e+001	1.799229e+002	-1.374494e+001	-1.367135e+002	-1.375190e+001	-1.364031e+002	-2.180939e+001	1.276022e+002
