!Agilent Technologies,E5061B,MY49101568,A.02.00
!Date: Wed Mar 01 12:24:16 2023
!Data & Calibration Information:
!Freq	S11:SOLT2(OFF)	S21:SOLT2(OFF)	S12:SOLT2(OFF)	S22:SOLT2(OFF)
# Hz S dB R 50
1800000.000	-1.568887e+001	-6.587819e+000	-1.284919e+001	-1.773154e+002	-1.283749e+001	-1.774770e+002	-1.788249e+001	3.641226e+001
1824436.742	-1.591323e+001	-6.786514e+000	-1.273576e+001	1.764228e+002	-1.272521e+001	1.766214e+002	-1.798322e+001	3.698839e+001
1848873.484	-1.607654e+001	-7.288547e+000	-1.265128e+001	1.704791e+002	-1.259146e+001	1.705562e+002	-1.804416e+001	3.809604e+001
1873310.225	-1.617050e+001	-7.440683e+000	-1.255229e+001	1.643173e+002	-1.252607e+001	1.647005e+002	-1.792832e+001	3.826445e+001
1897746.967	-1.624394e+001	-7.988897e+000	-1.246534e+001	1.585872e+002	-1.244016e+001	1.585415e+002	-1.775576e+001	3.856753e+001
1922183.709	-1.619620e+001	-8.577754e+000	-1.238822e+001	1.525553e+002	-1.240965e+001	1.526315e+002	-1.750576e+001	3.750136e+001
1946620.451	-1.612454e+001	-9.845571e+000	-1.233740e+001	1.469396e+002	-1.230068e+001	1.470290e+002	-1.737831e+001	3.639875e+001
1971057.192	-1.597109e+001	-1.159639e+001	-1.232631e+001	1.411905e+002	-1.232965e+001	1.410272e+002	-1.701847e+001	3.413781e+001
1995493.934	-1.583869e+001	-1.344251e+001	-1.228582e+001	1.353886e+002	-1.229656e+001	1.356839e+002	-1.687208e+001	3.139957e+001
2019930.676	-1.564319e+001	-1.586657e+001	-1.228691e+001	1.297700e+002	-1.225871e+001	1.301437e+002	-1.668448e+001	2.853709e+001
2044367.418	-1.558311e+001	-1.922750e+001	-1.228381e+001	1.250007e+002	-1.222914e+001	1.248453e+002	-1.654752e+001	2.505004e+001
2068804.159	-1.551603e+001	-2.202586e+001	-1.221201e+001	1.196538e+002	-1.221101e+001	1.200151e+002	-1.651355e+001	2.088552e+001
2093240.901	-1.553270e+001	-2.496376e+001	-1.211792e+001	1.149203e+002	-1.213134e+001	1.149886e+002	-1.648650e+001	1.712962e+001
2117677.643	-1.546267e+001	-2.827277e+001	-1.205158e+001	1.097165e+002	-1.205893e+001	1.099568e+002	-1.645622e+001	1.306684e+001
2142114.385	-1.540797e+001	-3.197360e+001	-1.200946e+001	1.046116e+002	-1.200730e+001	1.047255e+002	-1.639067e+001	8.850164e+000
2166551.127	-1.530631e+001	-3.559643e+001	-1.193498e+001	9.927042e+001	-1.194238e+001	9.939842e+001	-1.631208e+001	4.431258e+000
2190987.868	-1.526729e+001	-3.966805e+001	-1.187340e+001	9.404226e+001	-1.187694e+001	9.425302e+001	-1.630597e+001	-4.780352e-001
2215424.610	-1.537274e+001	-4.403303e+001	-1.179529e+001	8.936477e+001	-1.185790e+001	8.942424e+001	-1.631182e+001	-6.111270e+000
2239861.352	-1.539711e+001	-4.906550e+001	-1.176517e+001	8.424670e+001	-1.172994e+001	8.464838e+001	-1.648252e+001	-1.150204e+001
2264298.094	-1.553378e+001	-5.370147e+001	-1.166603e+001	7.948413e+001	-1.166711e+001	7.969295e+001	-1.654005e+001	-1.729731e+001
2288734.835	-1.573944e+001	-5.814138e+001	-1.153299e+001	7.462351e+001	-1.156276e+001	7.495048e+001	-1.670614e+001	-2.362539e+001
2313171.577	-1.591847e+001	-6.309062e+001	-1.143179e+001	6.957082e+001	-1.142813e+001	6.995572e+001	-1.691325e+001	-2.965396e+001
2337608.319	-1.622481e+001	-6.805097e+001	-1.128024e+001	6.472382e+001	-1.128517e+001	6.510187e+001	-1.712172e+001	-3.607006e+001
2362045.061	-1.649782e+001	-7.289132e+001	-1.115648e+001	5.961434e+001	-1.116719e+001	5.983731e+001	-1.728775e+001	-4.275165e+001
2386481.802	-1.685573e+001	-7.800069e+001	-1.100608e+001	5.449099e+001	-1.102565e+001	5.469866e+001	-1.753765e+001	-4.993963e+001
2410918.544	-1.720580e+001	-8.288735e+001	-1.085193e+001	4.904800e+001	-1.085428e+001	4.936977e+001	-1.780634e+001	-5.686998e+001
2435355.286	-1.768711e+001	-8.822796e+001	-1.071519e+001	4.369308e+001	-1.069553e+001	4.399051e+001	-1.811458e+001	-6.463859e+001
2459792.028	-1.821948e+001	-9.342966e+001	-1.056618e+001	3.814935e+001	-1.057982e+001	3.845938e+001	-1.833660e+001	-7.275668e+001
2484228.769	-1.877079e+001	-9.906566e+001	-1.043559e+001	3.240478e+001	-1.045683e+001	3.288373e+001	-1.861574e+001	-8.143930e+001
2508665.511	-1.942168e+001	-1.049685e+002	-1.032631e+001	2.660673e+001	-1.032579e+001	2.700032e+001	-1.891029e+001	-9.003206e+001
2533102.253	-2.021729e+001	-1.113164e+002	-1.023607e+001	2.093672e+001	-1.023490e+001	2.128568e+001	-1.919007e+001	-9.944412e+001
2557538.995	-2.122173e+001	-1.175857e+002	-1.014673e+001	1.501971e+001	-1.012897e+001	1.539645e+001	-1.948166e+001	-1.091734e+002
2581975.737	-2.243816e+001	-1.244762e+002	-1.008902e+001	9.198021e+000	-1.006981e+001	9.486270e+000	-1.972331e+001	-1.193517e+002
2606412.478	-2.373352e+001	-1.322835e+002	-1.005478e+001	3.220631e+000	-1.004158e+001	3.590102e+000	-1.985581e+001	-1.296345e+002
2630849.220	-2.558938e+001	-1.407780e+002	-1.002257e+001	-2.605760e+000	-1.002154e+001	-2.316688e+000	-2.005699e+001	-1.408697e+002
2655285.962	-2.804480e+001	-1.502599e+002	-1.001183e+001	-8.381816e+000	-1.002596e+001	-8.271886e+000	-2.013667e+001	-1.516020e+002
2679722.704	-3.117265e+001	-1.655427e+002	-1.004720e+001	-1.427880e+001	-1.001165e+001	-1.396363e+001	-2.029332e+001	-1.631788e+002
2704159.445	-3.621249e+001	1.726096e+002	-1.003906e+001	-2.001141e+001	-1.000639e+001	-1.974589e+001	-2.036945e+001	-1.749257e+002
2728596.187	-3.963492e+001	1.112677e+002	-1.009675e+001	-2.574071e+001	-1.005770e+001	-2.554242e+001	-2.037089e+001	1.745684e+002
2753032.929	-3.567414e+001	5.539049e+001	-1.010782e+001	-3.149371e+001	-1.009050e+001	-3.140695e+001	-2.037618e+001	1.641813e+002
2777469.671	-3.122562e+001	3.696952e+001	-1.020532e+001	-3.716543e+001	-1.017185e+001	-3.705645e+001	-2.030626e+001	1.541824e+002
2801906.412	-2.849178e+001	2.599767e+001	-1.028294e+001	-4.296164e+001	-1.025426e+001	-4.256070e+001	-2.021692e+001	1.442667e+002
2826343.154	-2.620185e+001	1.682719e+001	-1.036827e+001	-4.837362e+001	-1.033526e+001	-4.826953e+001	-2.017038e+001	1.351906e+002
2850779.896	-2.443910e+001	8.917454e+000	-1.046803e+001	-5.373263e+001	-1.045274e+001	-5.355688e+001	-2.001922e+001	1.264324e+002
2875216.638	-2.311023e+001	2.996508e+000	-1.060093e+001	-5.909788e+001	-1.057337e+001	-5.889697e+001	-1.994462e+001	1.185092e+002
2899653.380	-2.195161e+001	-3.183602e+000	-1.072343e+001	-6.416291e+001	-1.070181e+001	-6.416706e+001	-1.985800e+001	1.111613e+002
2924090.121	-2.099981e+001	-8.953553e+000	-1.083687e+001	-6.926559e+001	-1.081445e+001	-6.914784e+001	-1.975899e+001	1.034524e+002
2948526.863	-2.020596e+001	-1.435587e+001	-1.096587e+001	-7.420226e+001	-1.093942e+001	-7.413789e+001	-1.969004e+001	9.643552e+001
2972963.605	-1.953457e+001	-1.950174e+001	-1.106492e+001	-7.906646e+001	-1.106058e+001	-7.894954e+001	-1.963701e+001	8.959279e+001
2997400.347	-1.893347e+001	-2.469335e+001	-1.118673e+001	-8.378195e+001	-1.117014e+001	-8.369399e+001	-1.956217e+001	8.313147e+001
3021837.088	-1.842710e+001	-2.941639e+001	-1.129338e+001	-8.851311e+001	-1.129254e+001	-8.835689e+001	-1.952024e+001	7.708928e+001
3046273.830	-1.794740e+001	-3.430476e+001	-1.138530e+001	-9.298102e+001	-1.139221e+001	-9.285279e+001	-1.952928e+001	7.108507e+001
3070710.572	-1.752258e+001	-3.889932e+001	-1.149436e+001	-9.733581e+001	-1.148775e+001	-9.736379e+001	-1.952328e+001	6.504491e+001
3095147.314	-1.719247e+001	-4.347807e+001	-1.156286e+001	-1.017861e+002	-1.156291e+001	-1.017702e+002	-1.958306e+001	5.914448e+001
3119584.055	-1.688911e+001	-4.811015e+001	-1.161950e+001	-1.061813e+002	-1.162563e+001	-1.061530e+002	-1.964073e+001	5.346725e+001
3144020.797	-1.664170e+001	-5.239146e+001	-1.167271e+001	-1.105545e+002	-1.167210e+001	-1.105694e+002	-1.978138e+001	4.794148e+001
3168457.539	-1.644128e+001	-5.684606e+001	-1.171608e+001	-1.149946e+002	-1.170886e+001	-1.149519e+002	-1.994441e+001	4.248608e+001
3192894.281	-1.629290e+001	-6.102280e+001	-1.173930e+001	-1.194960e+002	-1.175685e+001	-1.194808e+002	-2.021155e+001	3.744105e+001
3217331.023	-1.618005e+001	-6.511993e+001	-1.177049e+001	-1.239554e+002	-1.179484e+001	-1.239708e+002	-2.044981e+001	3.298415e+001
3241767.764	-1.609281e+001	-6.896664e+001	-1.180420e+001	-1.285516e+002	-1.182035e+001	-1.285123e+002	-2.081334e+001	2.854177e+001
3266204.506	-1.603522e+001	-7.268472e+001	-1.183391e+001	-1.330791e+002	-1.185413e+001	-1.329602e+002	-2.114564e+001	2.438386e+001
3290641.248	-1.597390e+001	-7.625257e+001	-1.186954e+001	-1.374833e+002	-1.189511e+001	-1.374400e+002	-2.148030e+001	2.091737e+001
3315077.990	-1.595879e+001	-7.988173e+001	-1.188514e+001	-1.419081e+002	-1.191341e+001	-1.418297e+002	-2.184900e+001	1.687126e+001
3339514.731	-1.597415e+001	-8.338478e+001	-1.188525e+001	-1.463750e+002	-1.190670e+001	-1.463927e+002	-2.234605e+001	1.303858e+001
3363951.473	-1.604203e+001	-8.671089e+001	-1.189914e+001	-1.511049e+002	-1.190977e+001	-1.510210e+002	-2.296441e+001	9.807914e+000
3388388.215	-1.614058e+001	-8.980242e+001	-1.189486e+001	-1.558662e+002	-1.191640e+001	-1.557403e+002	-2.364129e+001	7.526936e+000
3412824.957	-1.627642e+001	-9.262352e+001	-1.191021e+001	-1.607049e+002	-1.194153e+001	-1.605710e+002	-2.440570e+001	6.391362e+000
3437261.698	-1.641807e+001	-9.517660e+001	-1.193346e+001	-1.654912e+002	-1.194939e+001	-1.653148e+002	-2.519686e+001	5.907815e+000
3461698.440	-1.660022e+001	-9.717358e+001	-1.198061e+001	-1.704660e+002	-1.200423e+001	-1.702926e+002	-2.603530e+001	8.084875e+000
3486135.182	-1.678573e+001	-9.882091e+001	-1.202990e+001	-1.754120e+002	-1.205629e+001	-1.751882e+002	-2.672361e+001	1.154087e+001
3510571.924	-1.693916e+001	-1.002188e+002	-1.210087e+001	1.797535e+002	-1.213114e+001	1.798944e+002	-2.716525e+001	1.751512e+001
3535008.666	-1.706124e+001	-1.010766e+002	-1.219427e+001	1.749273e+002	-1.221318e+001	1.750089e+002	-2.723867e+001	2.386686e+001
3559445.407	-1.715121e+001	-1.016000e+002	-1.228464e+001	1.701178e+002	-1.231147e+001	1.703107e+002	-2.687186e+001	2.957116e+001
3583882.149	-1.719938e+001	-1.020826e+002	-1.239789e+001	1.655306e+002	-1.242192e+001	1.656483e+002	-2.626004e+001	3.442182e+001
3608318.891	-1.719815e+001	-1.023353e+002	-1.249017e+001	1.609010e+002	-1.252641e+001	1.609936e+002	-2.549262e+001	3.750755e+001
3632755.633	-1.717466e+001	-1.022997e+002	-1.260162e+001	1.561190e+002	-1.262123e+001	1.564507e+002	-2.473180e+001	3.911268e+001
3657192.374	-1.710025e+001	-1.023686e+002	-1.269593e+001	1.514958e+002	-1.272863e+001	1.518087e+002	-2.388744e+001	4.020630e+001
3681629.116	-1.696694e+001	-1.023278e+002	-1.280287e+001	1.469387e+002	-1.283623e+001	1.472552e+002	-2.309410e+001	4.009994e+001
3706065.858	-1.676141e+001	-1.023127e+002	-1.293931e+001	1.423049e+002	-1.296766e+001	1.425839e+002	-2.224677e+001	3.923412e+001
3730502.600	-1.648853e+001	-1.022922e+002	-1.308800e+001	1.376387e+002	-1.313294e+001	1.380554e+002	-2.137647e+001	3.732791e+001
3754939.341	-1.614824e+001	-1.024192e+002	-1.326931e+001	1.330351e+002	-1.328846e+001	1.334310e+002	-2.062330e+001	3.515186e+001
3779376.083	-1.576252e+001	-1.032481e+002	-1.346330e+001	1.287360e+002	-1.349271e+001	1.290327e+002	-1.985776e+001	3.201272e+001
3803812.825	-1.533446e+001	-1.044460e+002	-1.368825e+001	1.245289e+002	-1.371328e+001	1.249288e+002	-1.922617e+001	2.817888e+001
3828249.567	-1.494256e+001	-1.060171e+002	-1.387950e+001	1.205876e+002	-1.391167e+001	1.209435e+002	-1.868515e+001	2.437053e+001
3852686.308	-1.454014e+001	-1.080607e+002	-1.411376e+001	1.168254e+002	-1.413823e+001	1.172058e+002	-1.818926e+001	2.027175e+001
3877123.050	-1.414590e+001	-1.103426e+002	-1.433951e+001	1.132770e+002	-1.440327e+001	1.136060e+002	-1.768376e+001	1.569351e+001
3901559.792	-1.374509e+001	-1.130242e+002	-1.462592e+001	1.100293e+002	-1.464815e+001	1.103892e+002	-1.728230e+001	1.112143e+001
3925996.534	-1.339970e+001	-1.163077e+002	-1.485478e+001	1.075142e+002	-1.488532e+001	1.078038e+002	-1.697699e+001	6.044319e+000
3950433.276	-1.310940e+001	-1.199325e+002	-1.504586e+001	1.054208e+002	-1.508236e+001	1.055896e+002	-1.674106e+001	8.948321e-001
3974870.017	-1.292437e+001	-1.237456e+002	-1.512294e+001	1.036413e+002	-1.518157e+001	1.039425e+002	-1.662433e+001	-4.387841e+000
3999306.759	-1.281794e+001	-1.276402e+002	-1.509000e+001	1.020890e+002	-1.515655e+001	1.023499e+002	-1.664379e+001	-9.381723e+000
4023743.501	-1.278561e+001	-1.312800e+002	-1.497297e+001	1.002829e+002	-1.501890e+001	1.006651e+002	-1.674728e+001	-1.405772e+001
4048180.243	-1.284316e+001	-1.345636e+002	-1.474559e+001	9.794806e+001	-1.481708e+001	9.840875e+001	-1.690774e+001	-1.798135e+001
4072616.984	-1.293466e+001	-1.374358e+002	-1.448621e+001	9.504497e+001	-1.456741e+001	9.560464e+001	-1.711206e+001	-2.118131e+001
4097053.726	-1.303917e+001	-1.397643e+002	-1.422094e+001	9.155226e+001	-1.429788e+001	9.215153e+001	-1.731165e+001	-2.367399e+001
4121490.468	-1.311102e+001	-1.416969e+002	-1.400136e+001	8.767953e+001	-1.406977e+001	8.843293e+001	-1.745037e+001	-2.572049e+001
4145927.210	-1.319841e+001	-1.433302e+002	-1.377527e+001	8.360962e+001	-1.384009e+001	8.424179e+001	-1.757134e+001	-2.709950e+001
4170363.951	-1.322506e+001	-1.446798e+002	-1.359547e+001	7.932692e+001	-1.364579e+001	7.996914e+001	-1.763810e+001	-2.827764e+001
4194800.693	-1.320623e+001	-1.458820e+002	-1.344030e+001	7.493804e+001	-1.347054e+001	7.544979e+001	-1.762930e+001	-2.938375e+001
4219237.435	-1.316708e+001	-1.468956e+002	-1.330202e+001	7.026162e+001	-1.335820e+001	7.086586e+001	-1.751929e+001	-3.055536e+001
4243674.177	-1.306942e+001	-1.480143e+002	-1.319243e+001	6.571657e+001	-1.323643e+001	6.639795e+001	-1.740694e+001	-3.175869e+001
4268110.919	-1.293071e+001	-1.492580e+002	-1.312248e+001	6.107290e+001	-1.316350e+001	6.170665e+001	-1.722509e+001	-3.307955e+001
4292547.660	-1.276314e+001	-1.505910e+002	-1.305717e+001	5.650362e+001	-1.311195e+001	5.714658e+001	-1.699495e+001	-3.477648e+001
4316984.402	-1.259197e+001	-1.521863e+002	-1.300407e+001	5.191311e+001	-1.305443e+001	5.257264e+001	-1.680646e+001	-3.657826e+001
4341421.144	-1.240515e+001	-1.540006e+002	-1.297328e+001	4.744137e+001	-1.301179e+001	4.813467e+001	-1.658963e+001	-3.881771e+001
4365857.886	-1.222067e+001	-1.559353e+002	-1.293778e+001	4.303790e+001	-1.298213e+001	4.373802e+001	-1.636801e+001	-4.113376e+001
4390294.627	-1.203482e+001	-1.580444e+002	-1.291973e+001	3.861112e+001	-1.295875e+001	3.939864e+001	-1.615413e+001	-4.369151e+001
4414731.369	-1.185358e+001	-1.603352e+002	-1.289881e+001	3.425479e+001	-1.293182e+001	3.497312e+001	-1.594782e+001	-4.623039e+001
4439168.111	-1.167744e+001	-1.627570e+002	-1.289234e+001	2.982817e+001	-1.290853e+001	3.067209e+001	-1.575181e+001	-4.894455e+001
4463604.853	-1.155782e+001	-1.653551e+002	-1.285807e+001	2.577780e+001	-1.289629e+001	2.657814e+001	-1.560495e+001	-5.207490e+001
4488041.594	-1.143061e+001	-1.679381e+002	-1.283469e+001	2.159993e+001	-1.285533e+001	2.247032e+001	-1.546391e+001	-5.502004e+001
4512478.336	-1.132070e+001	-1.706650e+002	-1.280803e+001	1.743318e+001	-1.281753e+001	1.834717e+001	-1.533214e+001	-5.810308e+001
4536915.078	-1.122900e+001	-1.733261e+002	-1.276211e+001	1.330775e+001	-1.277899e+001	1.419579e+001	-1.523729e+001	-6.118016e+001
4561351.820	-1.115152e+001	-1.760664e+002	-1.271695e+001	9.158933e+000	-1.273932e+001	9.996813e+000	-1.512620e+001	-6.431238e+001
4585788.562	-1.109626e+001	-1.789881e+002	-1.268858e+001	4.990451e+000	-1.269400e+001	5.921119e+000	-1.505216e+001	-6.754125e+001
4610225.303	-1.105914e+001	1.781459e+002	-1.264232e+001	9.749038e-001	-1.263691e+001	1.836437e+000	-1.498535e+001	-7.072200e+001
4634662.045	-1.104284e+001	1.752520e+002	-1.259745e+001	-3.159688e+000	-1.258067e+001	-2.178104e+000	-1.496720e+001	-7.408464e+001
4659098.787	-1.104945e+001	1.724891e+002	-1.250902e+001	-7.223838e+000	-1.249922e+001	-6.303696e+000	-1.495614e+001	-7.728929e+001
4683535.529	-1.107169e+001	1.697823e+002	-1.242421e+001	-1.139044e+001	-1.240908e+001	-1.050276e+001	-1.496520e+001	-8.024986e+001
4707972.270	-1.110236e+001	1.670874e+002	-1.232497e+001	-1.564804e+001	-1.230797e+001	-1.474000e+001	-1.499252e+001	-8.324521e+001
4732409.012	-1.113491e+001	1.642918e+002	-1.225676e+001	-2.001021e+001	-1.221660e+001	-1.917650e+001	-1.501714e+001	-8.614307e+001
4756845.754	-1.118462e+001	1.616306e+002	-1.216476e+001	-2.443584e+001	-1.213717e+001	-2.362211e+001	-1.503098e+001	-8.915707e+001
4781282.496	-1.124399e+001	1.588988e+002	-1.207372e+001	-2.890128e+001	-1.205139e+001	-2.813364e+001	-1.505587e+001	-9.206957e+001
4805719.237	-1.131099e+001	1.561779e+002	-1.199656e+001	-3.352179e+001	-1.196599e+001	-3.264592e+001	-1.509340e+001	-9.494731e+001
4830155.979	-1.140097e+001	1.533883e+002	-1.193299e+001	-3.803682e+001	-1.188983e+001	-3.725771e+001	-1.512964e+001	-9.776587e+001
4854592.721	-1.151055e+001	1.505886e+002	-1.187226e+001	-4.266835e+001	-1.182215e+001	-4.189033e+001	-1.517299e+001	-1.007437e+002
4879029.463	-1.164250e+001	1.478506e+002	-1.180638e+001	-4.726568e+001	-1.176822e+001	-4.647773e+001	-1.523626e+001	-1.037473e+002
4903466.205	-1.179769e+001	1.451681e+002	-1.174671e+001	-5.190313e+001	-1.170121e+001	-5.117499e+001	-1.531090e+001	-1.066864e+002
4927902.946	-1.197209e+001	1.423993e+002	-1.170561e+001	-5.656608e+001	-1.165552e+001	-5.583046e+001	-1.538642e+001	-1.096589e+002
4952339.688	-1.218099e+001	1.397215e+002	-1.166426e+001	-6.122108e+001	-1.161473e+001	-6.056097e+001	-1.547952e+001	-1.126028e+002
4976776.430	-1.240229e+001	1.371603e+002	-1.161854e+001	-6.592446e+001	-1.157344e+001	-6.524826e+001	-1.558540e+001	-1.155153e+002
5001213.172	-1.265178e+001	1.346441e+002	-1.158633e+001	-7.065639e+001	-1.152079e+001	-6.999271e+001	-1.570163e+001	-1.183523e+002
5025649.913	-1.293647e+001	1.323021e+002	-1.155086e+001	-7.531838e+001	-1.149751e+001	-7.466266e+001	-1.583638e+001	-1.213179e+002
5050086.655	-1.323304e+001	1.300282e+002	-1.152682e+001	-8.007335e+001	-1.145961e+001	-7.941233e+001	-1.597377e+001	-1.240582e+002
5074523.397	-1.356039e+001	1.279441e+002	-1.149745e+001	-8.475939e+001	-1.144557e+001	-8.417704e+001	-1.613024e+001	-1.269392e+002
5098960.139	-1.390952e+001	1.260418e+002	-1.147426e+001	-8.945805e+001	-1.141585e+001	-8.893733e+001	-1.629225e+001	-1.295628e+002
5123396.880	-1.428590e+001	1.242750e+002	-1.146276e+001	-9.426082e+001	-1.139797e+001	-9.367435e+001	-1.646363e+001	-1.323081e+002
5147833.622	-1.466828e+001	1.228355e+002	-1.144680e+001	-9.898300e+001	-1.139103e+001	-9.849386e+001	-1.662668e+001	-1.349387e+002
5172270.364	-1.507906e+001	1.215960e+002	-1.143978e+001	-1.037034e+002	-1.138369e+001	-1.032337e+002	-1.682409e+001	-1.376793e+002
5196707.106	-1.552171e+001	1.205640e+002	-1.144500e+001	-1.084250e+002	-1.139806e+001	-1.079935e+002	-1.700780e+001	-1.404071e+002
5221143.847	-1.596390e+001	1.198751e+002	-1.145684e+001	-1.131373e+002	-1.139954e+001	-1.127181e+002	-1.722320e+001	-1.428747e+002
5245580.589	-1.639967e+001	1.196298e+002	-1.144738e+001	-1.177855e+002	-1.140700e+001	-1.174154e+002	-1.744416e+001	-1.455075e+002
5270017.331	-1.684595e+001	1.197993e+002	-1.146147e+001	-1.224741e+002	-1.141280e+001	-1.220863e+002	-1.768387e+001	-1.479778e+002
5294454.073	-1.728103e+001	1.203140e+002	-1.147271e+001	-1.271669e+002	-1.142625e+001	-1.267601e+002	-1.791534e+001	-1.503946e+002
5318890.815	-1.767502e+001	1.211627e+002	-1.147956e+001	-1.318330e+002	-1.143549e+001	-1.314925e+002	-1.815462e+001	-1.527412e+002
5343327.556	-1.804019e+001	1.223654e+002	-1.149416e+001	-1.365094e+002	-1.145820e+001	-1.361528e+002	-1.838984e+001	-1.550395e+002
5367764.298	-1.834494e+001	1.239817e+002	-1.150521e+001	-1.412162e+002	-1.146042e+001	-1.408429e+002	-1.864353e+001	-1.572249e+002
5392201.040	-1.859869e+001	1.256615e+002	-1.151782e+001	-1.458824e+002	-1.149006e+001	-1.455479e+002	-1.887450e+001	-1.595632e+002
5416637.782	-1.881483e+001	1.275221e+002	-1.154288e+001	-1.505570e+002	-1.150921e+001	-1.502316e+002	-1.912329e+001	-1.615911e+002
5441074.523	-1.895512e+001	1.294581e+002	-1.156392e+001	-1.553008e+002	-1.152807e+001	-1.549413e+002	-1.935029e+001	-1.638491e+002
