!Agilent Technologies,E5061B,MY49101568,A.02.00
!Date: Wed Mar 01 12:37:45 2023
!Data & Calibration Information:
!Freq	S11:SOLT2(OFF)	S21:SOLT2(OFF)	S12:SOLT2(OFF)	S22:SOLT2(OFF)
# Hz S dB R 50
1800000.000	-9.667547e+000	-2.251959e+001	-2.092431e+001	-1.235866e+002	-2.106520e+001	-1.232222e+002	-1.011998e+001	1.230429e+001
1824436.742	-9.797896e+000	-2.722729e+001	-2.047968e+001	-1.278666e+002	-2.060745e+001	-1.275011e+002	-1.027450e+001	8.070045e+000
1848873.484	-9.936294e+000	-3.206654e+001	-2.002045e+001	-1.322990e+002	-2.013779e+001	-1.319377e+002	-1.043815e+001	3.734349e+000
1873310.225	-1.009023e+001	-3.700189e+001	-1.954275e+001	-1.369154e+002	-1.966056e+001	-1.365269e+002	-1.060525e+001	-6.645703e-001
1897746.967	-1.024770e+001	-4.205742e+001	-1.907348e+001	-1.415372e+002	-1.915772e+001	-1.413327e+002	-1.078055e+001	-5.199505e+000
1922183.709	-1.042811e+001	-4.731691e+001	-1.857492e+001	-1.464435e+002	-1.866613e+001	-1.461540e+002	-1.095549e+001	-9.849927e+000
1946620.451	-1.062760e+001	-5.275346e+001	-1.805778e+001	-1.515798e+002	-1.816432e+001	-1.511597e+002	-1.113802e+001	-1.465382e+001
1971057.192	-1.084843e+001	-5.836035e+001	-1.754726e+001	-1.568525e+002	-1.765678e+001	-1.564050e+002	-1.133626e+001	-1.958622e+001
1995493.934	-1.108714e+001	-6.412946e+001	-1.704025e+001	-1.622790e+002	-1.710843e+001	-1.620279e+002	-1.156995e+001	-2.470668e+001
2019930.676	-1.137647e+001	-7.011524e+001	-1.652566e+001	-1.680837e+002	-1.659592e+001	-1.676935e+002	-1.180372e+001	-2.979677e+001
2044367.418	-1.168630e+001	-7.622809e+001	-1.601859e+001	-1.740137e+002	-1.607499e+001	-1.736581e+002	-1.205092e+001	-3.512833e+001
2068804.159	-1.203334e+001	-8.248149e+001	-1.553641e+001	1.799082e+002	-1.557129e+001	-1.799003e+002	-1.232477e+001	-4.043687e+001
2093240.901	-1.241179e+001	-8.880695e+001	-1.508353e+001	1.736635e+002	-1.504483e+001	1.732073e+002	-1.267779e+001	-4.579718e+001
2117677.643	-1.283117e+001	-9.531245e+001	-1.464794e+001	1.672241e+002	-1.462746e+001	1.668825e+002	-1.294382e+001	-5.105292e+001
2142114.385	-1.330349e+001	-1.019937e+002	-1.422921e+001	1.606220e+002	-1.423191e+001	1.606061e+002	-1.318946e+001	-5.639038e+001
2166551.127	-1.380893e+001	-1.089177e+002	-1.382356e+001	1.539843e+002	-1.382990e+001	1.540633e+002	-1.346096e+001	-6.183239e+001
2190987.868	-1.436944e+001	-1.159323e+002	-1.344583e+001	1.471794e+002	-1.345254e+001	1.472328e+002	-1.375199e+001	-6.721782e+001
2215424.610	-1.491735e+001	-1.231009e+002	-1.312499e+001	1.404882e+002	-1.313069e+001	1.407346e+002	-1.396551e+001	-7.262090e+001
2239861.352	-1.556411e+001	-1.303242e+002	-1.281112e+001	1.334739e+002	-1.281290e+001	1.337276e+002	-1.423204e+001	-7.794977e+001
2264298.094	-1.625176e+001	-1.378133e+002	-1.251787e+001	1.263955e+002	-1.251730e+001	1.266623e+002	-1.447946e+001	-8.326434e+001
2288734.835	-1.699057e+001	-1.453915e+002	-1.225748e+001	1.192775e+002	-1.224802e+001	1.195266e+002	-1.470842e+001	-8.854602e+001
2313171.577	-1.775595e+001	-1.531912e+002	-1.202149e+001	1.121316e+002	-1.200966e+001	1.123229e+002	-1.490540e+001	-9.379904e+001
2337608.319	-1.854353e+001	-1.611220e+002	-1.181912e+001	1.049439e+002	-1.180026e+001	1.051098e+002	-1.506726e+001	-9.903871e+001
2362045.061	-1.930665e+001	-1.692486e+002	-1.164384e+001	9.782880e+001	-1.161745e+001	9.782949e+001	-1.519906e+001	-1.042675e+002
2386481.802	-2.006437e+001	-1.776803e+002	-1.149176e+001	9.067144e+001	-1.146218e+001	9.070277e+001	-1.525012e+001	-1.096977e+002
2410918.544	-2.076568e+001	1.735199e+002	-1.136191e+001	8.355770e+001	-1.132859e+001	8.360929e+001	-1.525784e+001	-1.152623e+002
2435355.286	-2.139485e+001	1.642809e+002	-1.125013e+001	7.647039e+001	-1.121125e+001	7.650779e+001	-1.522898e+001	-1.210170e+002
2459792.028	-2.192121e+001	1.545928e+002	-1.115649e+001	6.942687e+001	-1.111197e+001	6.939101e+001	-1.517106e+001	-1.269806e+002
2484228.769	-2.224770e+001	1.443279e+002	-1.108539e+001	6.247557e+001	-1.103099e+001	6.232652e+001	-1.508050e+001	-1.331646e+002
2508665.511	-2.245798e+001	1.339035e+002	-1.103015e+001	5.551409e+001	-1.097043e+001	5.535395e+001	-1.495150e+001	-1.396099e+002
2533102.253	-2.249062e+001	1.233896e+002	-1.099325e+001	4.860599e+001	-1.093217e+001	4.848357e+001	-1.478905e+001	-1.462709e+002
2557538.995	-2.237751e+001	1.129955e+002	-1.097344e+001	4.169373e+001	-1.091001e+001	4.158416e+001	-1.462630e+001	-1.530877e+002
2581975.737	-2.210667e+001	1.029206e+002	-1.097475e+001	3.484870e+001	-1.090791e+001	3.475258e+001	-1.445247e+001	-1.600454e+002
2606412.478	-2.170977e+001	9.318992e+001	-1.099658e+001	2.805261e+001	-1.092311e+001	2.797466e+001	-1.428228e+001	-1.671052e+002
2630849.220	-2.121810e+001	8.401022e+001	-1.103628e+001	2.134961e+001	-1.096299e+001	2.126791e+001	-1.410804e+001	-1.742459e+002
2655285.962	-2.067171e+001	7.527310e+001	-1.109742e+001	1.470685e+001	-1.102418e+001	1.462963e+001	-1.394233e+001	1.785745e+002
2679722.704	-2.009473e+001	6.695542e+001	-1.117624e+001	8.172481e+000	-1.110298e+001	8.074216e+000	-1.379114e+001	1.714319e+002
2704159.445	-1.950807e+001	5.905680e+001	-1.127159e+001	1.737585e+000	-1.119595e+001	1.627198e+000	-1.365377e+001	1.643033e+002
2728596.187	-1.893929e+001	5.152380e+001	-1.137840e+001	-4.587612e+000	-1.130671e+001	-4.723542e+000	-1.353577e+001	1.572036e+002
2753032.929	-1.838336e+001	4.428729e+001	-1.149865e+001	-1.080339e+001	-1.142899e+001	-1.095297e+001	-1.343206e+001	1.501970e+002
2777469.671	-1.785833e+001	3.739116e+001	-1.163101e+001	-1.688051e+001	-1.156305e+001	-1.704902e+001	-1.334586e+001	1.433214e+002
2801906.412	-1.737188e+001	3.076164e+001	-1.177192e+001	-2.284530e+001	-1.171209e+001	-2.301269e+001	-1.328387e+001	1.365687e+002
2826343.154	-1.691524e+001	2.436673e+001	-1.192162e+001	-2.867179e+001	-1.186579e+001	-2.884964e+001	-1.323872e+001	1.299730e+002
2850779.896	-1.649186e+001	1.824574e+001	-1.207413e+001	-3.436806e+001	-1.202524e+001	-3.454405e+001	-1.321126e+001	1.235337e+002
2875216.638	-1.610717e+001	1.228798e+001	-1.222990e+001	-3.997044e+001	-1.218906e+001	-4.010942e+001	-1.320038e+001	1.172545e+002
2899653.380	-1.574860e+001	6.561701e+000	-1.238751e+001	-4.539152e+001	-1.235320e+001	-4.556251e+001	-1.320870e+001	1.111465e+002
2924090.121	-1.541930e+001	1.025388e+000	-1.254344e+001	-5.068880e+001	-1.251620e+001	-5.088633e+001	-1.323185e+001	1.052144e+002
2948526.863	-1.511792e+001	-4.314871e+000	-1.270042e+001	-5.587192e+001	-1.267790e+001	-5.603294e+001	-1.325788e+001	9.943510e+001
2972963.605	-1.483658e+001	-9.517554e+000	-1.284920e+001	-6.090701e+001	-1.283598e+001	-6.108258e+001	-1.329813e+001	9.383820e+001
2997400.347	-1.458262e+001	-1.455810e+001	-1.299382e+001	-6.586084e+001	-1.298941e+001	-6.600321e+001	-1.334803e+001	8.838774e+001
3021837.088	-1.434567e+001	-1.947526e+001	-1.312928e+001	-7.068390e+001	-1.313455e+001	-7.079555e+001	-1.340142e+001	8.306933e+001
3046273.830	-1.412567e+001	-2.428187e+001	-1.325467e+001	-7.538084e+001	-1.326740e+001	-7.549052e+001	-1.346364e+001	7.785720e+001
3070710.572	-1.392642e+001	-2.897409e+001	-1.336464e+001	-8.002813e+001	-1.338665e+001	-8.011930e+001	-1.354062e+001	7.274693e+001
3095147.314	-1.374917e+001	-3.356716e+001	-1.346544e+001	-8.462123e+001	-1.349297e+001	-8.468327e+001	-1.363106e+001	6.775323e+001
3119584.055	-1.358862e+001	-3.805322e+001	-1.355498e+001	-8.916491e+001	-1.359016e+001	-8.918489e+001	-1.372614e+001	6.291326e+001
3144020.797	-1.346618e+001	-4.250261e+001	-1.362041e+001	-9.381149e+001	-1.367488e+001	-9.365321e+001	-1.383549e+001	5.818899e+001
3168457.539	-1.334094e+001	-4.683790e+001	-1.368015e+001	-9.831236e+001	-1.374622e+001	-9.807149e+001	-1.395219e+001	5.351663e+001
3192894.281	-1.323494e+001	-5.109754e+001	-1.372788e+001	-1.028216e+002	-1.380377e+001	-1.024640e+002	-1.407887e+001	4.894725e+001
3217331.023	-1.315351e+001	-5.529100e+001	-1.376006e+001	-1.073923e+002	-1.384991e+001	-1.068448e+002	-1.421791e+001	4.447616e+001
3241767.764	-1.308534e+001	-5.938161e+001	-1.378827e+001	-1.119380e+002	-1.389051e+001	-1.112360e+002	-1.437231e+001	4.013755e+001
3266204.506	-1.302740e+001	-6.334928e+001	-1.381541e+001	-1.164673e+002	-1.392820e+001	-1.156126e+002	-1.453120e+001	3.595244e+001
3290641.248	-1.298500e+001	-6.725506e+001	-1.383259e+001	-1.209931e+002	-1.395792e+001	-1.198850e+002	-1.468023e+001	3.184682e+001
3315077.990	-1.294274e+001	-7.118305e+001	-1.382322e+001	-1.253909e+002	-1.395630e+001	-1.240953e+002	-1.483814e+001	2.760471e+001
3339514.731	-1.291411e+001	-7.514481e+001	-1.378617e+001	-1.298016e+002	-1.392587e+001	-1.283885e+002	-1.503039e+001	2.331622e+001
3363951.473	-1.290842e+001	-7.904849e+001	-1.374182e+001	-1.342691e+002	-1.387973e+001	-1.327989e+002	-1.526329e+001	1.908933e+001
3388388.215	-1.291453e+001	-8.286614e+001	-1.369537e+001	-1.387308e+002	-1.382458e+001	-1.373275e+002	-1.552962e+001	1.497987e+001
3412824.957	-1.294171e+001	-8.658877e+001	-1.364259e+001	-1.432333e+002	-1.376267e+001	-1.419470e+002	-1.583103e+001	1.099000e+001
3437261.698	-1.300275e+001	-9.020553e+001	-1.358762e+001	-1.479039e+002	-1.369663e+001	-1.466896e+002	-1.617666e+001	7.171641e+000
3461698.440	-1.310066e+001	-9.369581e+001	-1.353017e+001	-1.527551e+002	-1.362903e+001	-1.515506e+002	-1.656817e+001	3.581409e+000
3486135.182	-1.321799e+001	-9.706694e+001	-1.346913e+001	-1.576277e+002	-1.356192e+001	-1.565184e+002	-1.700723e+001	2.608710e-001
3510571.924	-1.336614e+001	-1.001962e+002	-1.342018e+001	-1.626360e+002	-1.350203e+001	-1.615859e+002	-1.748862e+001	-2.672212e+000
3535008.666	-1.353604e+001	-1.030782e+002	-1.337817e+001	-1.677105e+002	-1.345505e+001	-1.667213e+002	-1.800264e+001	-5.086173e+000
3559445.407	-1.371931e+001	-1.057085e+002	-1.334378e+001	-1.728247e+002	-1.341470e+001	-1.718991e+002	-1.854317e+001	-6.991949e+000
3583882.149	-1.391822e+001	-1.081106e+002	-1.331039e+001	-1.779876e+002	-1.337173e+001	-1.770984e+002	-1.910918e+001	-8.447219e+000
3608318.891	-1.413248e+001	-1.102525e+002	-1.327211e+001	1.767858e+002	-1.332861e+001	1.776175e+002	-1.970903e+001	-9.227717e+000
3632755.633	-1.435697e+001	-1.121277e+002	-1.323312e+001	1.714319e+002	-1.328313e+001	1.721553e+002	-2.035326e+001	-9.094569e+000
3657192.374	-1.459823e+001	-1.136001e+002	-1.319982e+001	1.659519e+002	-1.324544e+001	1.666576e+002	-2.097345e+001	-7.991182e+000
3681629.116	-1.485186e+001	-1.145787e+002	-1.317373e+001	1.602526e+002	-1.321234e+001	1.609960e+002	-2.156210e+001	-5.546378e+000
3706065.858	-1.509207e+001	-1.149973e+002	-1.316614e+001	1.543755e+002	-1.319778e+001	1.551660e+002	-2.200706e+001	-1.557556e+000
3730502.600	-1.528138e+001	-1.149640e+002	-1.318028e+001	1.484844e+002	-1.321127e+001	1.492012e+002	-2.218631e+001	3.680016e+000
3754939.341	-1.540236e+001	-1.144513e+002	-1.322211e+001	1.425234e+002	-1.325779e+001	1.431651e+002	-2.201021e+001	9.231652e+000
3779376.083	-1.543199e+001	-1.136042e+002	-1.329193e+001	1.365533e+002	-1.332656e+001	1.371080e+002	-2.152793e+001	1.400976e+001
3803812.825	-1.536932e+001	-1.125796e+002	-1.338176e+001	1.305396e+002	-1.342223e+001	1.310057e+002	-2.083020e+001	1.756346e+001
3828249.567	-1.519802e+001	-1.113947e+002	-1.350266e+001	1.244111e+002	-1.354364e+001	1.248553e+002	-2.000754e+001	1.971217e+001
3852686.308	-1.490327e+001	-1.103752e+002	-1.366011e+001	1.182560e+002	-1.370297e+001	1.186788e+002	-1.911875e+001	2.042353e+001
3877123.050	-1.450175e+001	-1.097833e+002	-1.386277e+001	1.120930e+002	-1.390275e+001	1.125409e+002	-1.823357e+001	1.984641e+001
3901559.792	-1.404369e+001	-1.097957e+002	-1.408707e+001	1.060702e+002	-1.413750e+001	1.064432e+002	-1.739703e+001	1.829071e+001
3925996.534	-1.354871e+001	-1.104040e+002	-1.434022e+001	1.001335e+002	-1.440705e+001	1.004438e+002	-1.662123e+001	1.595563e+001
3950433.276	-1.303528e+001	-1.115861e+002	-1.462371e+001	9.428971e+001	-1.471677e+001	9.451675e+001	-1.590152e+001	1.303468e+001
3974870.017	-1.252003e+001	-1.133064e+002	-1.494109e+001	8.855239e+001	-1.504819e+001	8.879942e+001	-1.527080e+001	9.697655e+000
3999306.759	-1.202760e+001	-1.154903e+002	-1.528394e+001	8.300297e+001	-1.541619e+001	8.322318e+001	-1.469495e+001	6.039217e+000
4023743.501	-1.155659e+001	-1.180624e+002	-1.565590e+001	7.760401e+001	-1.581418e+001	7.779335e+001	-1.417780e+001	2.177033e+000
4048180.243	-1.111143e+001	-1.209766e+002	-1.606261e+001	7.237564e+001	-1.622186e+001	7.263280e+001	-1.372898e+001	-1.806955e+000
4072616.984	-1.070116e+001	-1.241557e+002	-1.649726e+001	6.733716e+001	-1.665118e+001	6.771353e+001	-1.332899e+001	-5.905088e+000
4097053.726	-1.032041e+001	-1.275717e+002	-1.696949e+001	6.253049e+001	-1.710548e+001	6.306382e+001	-1.297586e+001	-1.006473e+001
4121490.468	-9.975395e+000	-1.311861e+002	-1.747259e+001	5.799567e+001	-1.759231e+001	5.867042e+001	-1.265359e+001	-1.431197e+001
4145927.210	-9.661061e+000	-1.349620e+002	-1.801276e+001	5.376114e+001	-1.811749e+001	5.458217e+001	-1.236098e+001	-1.861285e+001
4170363.951	-9.389013e+000	-1.388878e+002	-1.858119e+001	5.009779e+001	-1.865500e+001	5.097327e+001	-1.210925e+001	-2.292386e+001
4194800.693	-9.145146e+000	-1.429899e+002	-1.920311e+001	4.689818e+001	-1.926793e+001	4.784867e+001	-1.187463e+001	-2.740002e+001
4219237.435	-8.943537e+000	-1.472261e+002	-1.984662e+001	4.452330e+001	-1.989102e+001	4.548981e+001	-1.167755e+001	-3.192335e+001
4243674.177	-8.789704e+000	-1.515149e+002	-2.045379e+001	4.307449e+001	-2.048633e+001	4.401003e+001	-1.152074e+001	-3.643087e+001
4268110.919	-8.679733e+000	-1.557898e+002	-2.098126e+001	4.242902e+001	-2.100221e+001	4.328934e+001	-1.139877e+001	-4.087820e+001
4292547.660	-8.602942e+000	-1.600142e+002	-2.141012e+001	4.231624e+001	-2.143546e+001	4.313177e+001	-1.130025e+001	-4.523582e+001
4316984.402	-8.558616e+000	-1.642279e+002	-2.173195e+001	4.275419e+001	-2.177093e+001	4.358002e+001	-1.122290e+001	-4.957989e+001
4341421.144	-8.551759e+000	-1.683876e+002	-2.188279e+001	4.363694e+001	-2.192770e+001	4.455265e+001	-1.117954e+001	-5.385918e+001
4365857.886	-8.581124e+000	-1.723942e+002	-2.183339e+001	4.420007e+001	-2.186338e+001	4.515919e+001	-1.116943e+001	-5.793841e+001
4390294.627	-8.621124e+000	-1.761719e+002	-2.167660e+001	4.363323e+001	-2.168605e+001	4.463192e+001	-1.116442e+001	-6.173338e+001
4414731.369	-8.646404e+000	-1.798149e+002	-2.157004e+001	4.207312e+001	-2.156904e+001	4.301309e+001	-1.112861e+001	-6.530408e+001
4439168.111	-8.643702e+000	1.764491e+002	-2.161372e+001	4.031373e+001	-2.160162e+001	4.122239e+001	-1.104584e+001	-6.893215e+001
4463604.853	-8.635498e+000	1.723942e+002	-2.177257e+001	3.964614e+001	-2.176533e+001	4.054993e+001	-1.092621e+001	-7.289576e+001
4488041.594	-8.662456e+000	1.678672e+002	-2.186906e+001	4.097192e+001	-2.186277e+001	4.184148e+001	-1.081575e+001	-7.736417e+001
4512478.336	-8.782349e+000	1.630008e+002	-2.159167e+001	4.377988e+001	-2.157545e+001	4.470186e+001	-1.077396e+001	-8.233100e+001
4536915.078	-9.035654e+000	1.582290e+002	-2.078560e+001	4.544170e+001	-2.075263e+001	4.633991e+001	-1.085242e+001	-8.741904e+001
4561351.820	-9.381380e+000	1.541299e+002	-1.979413e+001	4.373314e+001	-1.975832e+001	4.454272e+001	-1.103262e+001	-9.199712e+001
4585788.562	-9.712507e+000	1.507867e+002	-1.903166e+001	3.949448e+001	-1.898763e+001	4.024546e+001	-1.121849e+001	-9.582973e+001
4610225.303	-9.979634e+000	1.476379e+002	-1.855495e+001	3.485761e+001	-1.850209e+001	3.560175e+001	-1.133319e+001	-9.936216e+001
4634662.045	-1.021654e+001	1.442549e+002	-1.821850e+001	3.089151e+001	-1.816343e+001	3.161314e+001	-1.138922e+001	-1.030722e+002
4659098.787	-1.048086e+001	1.405408e+002	-1.788993e+001	2.758779e+001	-1.782387e+001	2.824506e+001	-1.143585e+001	-1.071411e+002
4683535.529	-1.080152e+001	1.366001e+002	-1.750630e+001	2.466273e+001	-1.742827e+001	2.525102e+001	-1.150150e+001	-1.115805e+002
4707972.270	-1.121696e+001	1.326113e+002	-1.701601e+001	2.170548e+001	-1.695326e+001	2.236356e+001	-1.160541e+001	-1.163574e+002
4732409.012	-1.173895e+001	1.287154e+002	-1.643826e+001	1.843566e+001	-1.637385e+001	1.915599e+001	-1.177981e+001	-1.214466e+002
4756845.754	-1.237672e+001	1.252739e+002	-1.579664e+001	1.440444e+001	-1.570852e+001	1.515761e+001	-1.205620e+001	-1.266511e+002
4781282.496	-1.310150e+001	1.226505e+002	-1.515969e+001	9.432980e+000	-1.504140e+001	1.016212e+001	-1.243574e+001	-1.316399e+002
4805719.237	-1.387033e+001	1.209117e+002	-1.457742e+001	3.857488e+000	-1.444433e+001	4.333468e+000	-1.289050e+001	-1.361851e+002
4830155.979	-1.464219e+001	1.200923e+002	-1.406535e+001	-2.130988e+000	-1.393418e+001	-1.913274e+000	-1.338863e+001	-1.403280e+002
4854592.721	-1.540233e+001	1.203124e+002	-1.360016e+001	-8.409057e+000	-1.349328e+001	-8.335942e+000	-1.392581e+001	-1.441171e+002
4879029.463	-1.609521e+001	1.216007e+002	-1.318484e+001	-1.495066e+001	-1.310669e+001	-1.494773e+001	-1.450633e+001	-1.474715e+002
4903466.205	-1.664112e+001	1.238138e+002	-1.282989e+001	-2.171743e+001	-1.277658e+001	-2.168369e+001	-1.512294e+001	-1.502897e+002
4927902.946	-1.700334e+001	1.264145e+002	-1.253905e+001	-2.859896e+001	-1.249933e+001	-2.851927e+001	-1.575420e+001	-1.525034e+002
4952339.688	-1.717950e+001	1.288583e+002	-1.230507e+001	-3.555109e+001	-1.227914e+001	-3.532928e+001	-1.636815e+001	-1.541393e+002
4976776.430	-1.722487e+001	1.307633e+002	-1.212298e+001	-4.242112e+001	-1.210147e+001	-4.212982e+001	-1.695556e+001	-1.551325e+002
5001213.172	-1.719349e+001	1.319713e+002	-1.198269e+001	-4.920225e+001	-1.196247e+001	-4.887038e+001	-1.749612e+001	-1.556311e+002
5025649.913	-1.713129e+001	1.325161e+002	-1.187599e+001	-5.590368e+001	-1.185571e+001	-5.552404e+001	-1.797054e+001	-1.556912e+002
5050086.655	-1.707774e+001	1.324922e+002	-1.179837e+001	-6.249488e+001	-1.177471e+001	-6.209592e+001	-1.837427e+001	-1.554290e+002
5074523.397	-1.704517e+001	1.320580e+002	-1.174108e+001	-6.899346e+001	-1.171633e+001	-6.859246e+001	-1.869575e+001	-1.549351e+002
5098960.139	-1.704035e+001	1.313233e+002	-1.170031e+001	-7.541188e+001	-1.167175e+001	-7.497987e+001	-1.894511e+001	-1.544137e+002
5123396.880	-1.707551e+001	1.303765e+002	-1.167493e+001	-8.174811e+001	-1.164449e+001	-8.130338e+001	-1.911173e+001	-1.538766e+002
5147833.622	-1.714611e+001	1.293241e+002	-1.166179e+001	-8.801270e+001	-1.162904e+001	-8.757938e+001	-1.920393e+001	-1.534301e+002
5172270.364	-1.724585e+001	1.281958e+002	-1.165660e+001	-9.422229e+001	-1.162305e+001	-9.379468e+001	-1.922911e+001	-1.531536e+002
5196707.106	-1.737801e+001	1.270611e+002	-1.166285e+001	-1.003940e+002	-1.162767e+001	-9.997787e+001	-1.918842e+001	-1.531167e+002
5221143.847	-1.753031e+001	1.257865e+002	-1.168244e+001	-1.065665e+002	-1.164228e+001	-1.061268e+002	-1.909947e+001	-1.533900e+002
5245580.589	-1.772027e+001	1.245820e+002	-1.170848e+001	-1.126994e+002	-1.166677e+001	-1.122710e+002	-1.895299e+001	-1.540270e+002
5270017.331	-1.794560e+001	1.233825e+002	-1.174692e+001	-1.188046e+002	-1.170426e+001	-1.183824e+002	-1.877439e+001	-1.551301e+002
5294454.073	-1.820409e+001	1.222644e+002	-1.179300e+001	-1.248778e+002	-1.175002e+001	-1.244576e+002	-1.857949e+001	-1.566609e+002
5318890.815	-1.849813e+001	1.212228e+002	-1.184855e+001	-1.309172e+002	-1.180152e+001	-1.304810e+002	-1.839354e+001	-1.585768e+002
5343327.556	-1.882097e+001	1.203129e+002	-1.190779e+001	-1.369425e+002	-1.185672e+001	-1.364765e+002	-1.820718e+001	-1.608086e+002
5367764.298	-1.917437e+001	1.193953e+002	-1.197580e+001	-1.430005e+002	-1.191709e+001	-1.424858e+002	-1.801222e+001	-1.633271e+002
5392201.040	-1.956504e+001	1.186478e+002	-1.204652e+001	-1.490461e+002	-1.198380e+001	-1.485216e+002	-1.781735e+001	-1.661569e+002
5416637.782	-2.000697e+001	1.179693e+002	-1.212904e+001	-1.551180e+002	-1.206145e+001	-1.545564e+002	-1.762403e+001	-1.693468e+002
5441074.523	-2.052646e+001	1.174017e+002	-1.222643e+001	-1.612329e+002	-1.214995e+001	-1.606139e+002	-1.743483e+001	-1.728843e+002
