!Agilent Technologies,E5061B,MY49101568,A.02.00
!Date: Wed Mar 01 12:23:34 2023
!Data & Calibration Information:
!Freq	S11:SOLT2(OFF)	S21:SOLT2(OFF)	S12:SOLT2(OFF)	S22:SOLT2(OFF)
# Hz S dB R 50
1800000.000	-1.545543e+001	-1.357648e+000	-1.289997e+001	1.784212e+002	-1.288112e+001	1.786483e+002	-1.739829e+001	4.293169e+001
1824436.742	-1.557575e+001	-2.021789e+000	-1.280917e+001	1.725470e+002	-1.278346e+001	1.726013e+002	-1.735732e+001	4.344810e+001
1848873.484	-1.559816e+001	-2.797202e+000	-1.277782e+001	1.665898e+002	-1.271548e+001	1.664322e+002	-1.718516e+001	4.369796e+001
1873310.225	-1.560255e+001	-3.554204e+000	-1.269836e+001	1.606689e+002	-1.265413e+001	1.605345e+002	-1.702382e+001	4.320345e+001
1897746.967	-1.554515e+001	-4.447304e+000	-1.264369e+001	1.547345e+002	-1.263602e+001	1.548410e+002	-1.680492e+001	4.169688e+001
1922183.709	-1.545092e+001	-5.571647e+000	-1.258686e+001	1.487890e+002	-1.255496e+001	1.489036e+002	-1.658925e+001	4.059940e+001
1946620.451	-1.538085e+001	-7.365379e+000	-1.252479e+001	1.433385e+002	-1.251263e+001	1.436225e+002	-1.646132e+001	3.823848e+001
1971057.192	-1.521845e+001	-9.982897e+000	-1.255509e+001	1.378216e+002	-1.253609e+001	1.378135e+002	-1.617871e+001	3.541445e+001
1995493.934	-1.509975e+001	-1.258316e+001	-1.254171e+001	1.324249e+002	-1.250663e+001	1.324382e+002	-1.603200e+001	3.242064e+001
2019930.676	-1.495420e+001	-1.531977e+001	-1.252487e+001	1.269667e+002	-1.255826e+001	1.270766e+002	-1.582440e+001	2.862326e+001
2044367.418	-1.486089e+001	-1.856992e+001	-1.250105e+001	1.218085e+002	-1.246334e+001	1.220672e+002	-1.580486e+001	2.520350e+001
2068804.159	-1.480486e+001	-2.151087e+001	-1.242968e+001	1.167430e+002	-1.247781e+001	1.169253e+002	-1.570253e+001	2.106288e+001
2093240.901	-1.476451e+001	-2.512795e+001	-1.238394e+001	1.118139e+002	-1.237255e+001	1.121654e+002	-1.573373e+001	1.733764e+001
2117677.643	-1.469408e+001	-2.894052e+001	-1.235691e+001	1.067798e+002	-1.230725e+001	1.069511e+002	-1.567540e+001	1.332257e+001
2142114.385	-1.461507e+001	-3.284093e+001	-1.230656e+001	1.015922e+002	-1.225717e+001	1.020899e+002	-1.567976e+001	8.803710e+000
2166551.127	-1.468731e+001	-3.688315e+001	-1.222249e+001	9.704052e+001	-1.216675e+001	9.693444e+001	-1.565866e+001	4.401645e+000
2190987.868	-1.467788e+001	-4.093205e+001	-1.213167e+001	9.191352e+001	-1.213417e+001	9.215158e+001	-1.570293e+001	-9.228346e-001
2215424.610	-1.473018e+001	-4.515922e+001	-1.202622e+001	8.699819e+001	-1.206214e+001	8.712626e+001	-1.572807e+001	-5.933462e+000
2239861.352	-1.479766e+001	-5.000661e+001	-1.196479e+001	8.213820e+001	-1.197102e+001	8.227993e+001	-1.580178e+001	-1.150702e+001
2264298.094	-1.491646e+001	-5.500374e+001	-1.189487e+001	7.733369e+001	-1.188178e+001	7.754623e+001	-1.594645e+001	-1.722848e+001
2288734.835	-1.508347e+001	-5.972081e+001	-1.176337e+001	7.246526e+001	-1.178039e+001	7.257676e+001	-1.602689e+001	-2.308341e+001
2313171.577	-1.530573e+001	-6.456122e+001	-1.163850e+001	6.763488e+001	-1.164406e+001	6.792340e+001	-1.626674e+001	-2.917499e+001
2337608.319	-1.555842e+001	-6.941559e+001	-1.148365e+001	6.264073e+001	-1.149810e+001	6.290901e+001	-1.646015e+001	-3.533112e+001
2362045.061	-1.582601e+001	-7.418325e+001	-1.132343e+001	5.763886e+001	-1.130922e+001	5.774034e+001	-1.668576e+001	-4.130786e+001
2386481.802	-1.621524e+001	-7.930078e+001	-1.115939e+001	5.263011e+001	-1.116068e+001	5.260344e+001	-1.693462e+001	-4.816924e+001
2410918.544	-1.649401e+001	-8.436895e+001	-1.100394e+001	4.710498e+001	-1.102239e+001	4.741665e+001	-1.717957e+001	-5.532415e+001
2435355.286	-1.690881e+001	-8.989510e+001	-1.085746e+001	4.170753e+001	-1.085931e+001	4.193872e+001	-1.744852e+001	-6.239276e+001
2459792.028	-1.738838e+001	-9.518706e+001	-1.069938e+001	3.622579e+001	-1.071898e+001	3.629713e+001	-1.769028e+001	-7.003627e+001
2484228.769	-1.790840e+001	-1.007726e+002	-1.055995e+001	3.050324e+001	-1.060024e+001	3.062416e+001	-1.794289e+001	-7.801571e+001
2508665.511	-1.856691e+001	-1.068700e+002	-1.044053e+001	2.488958e+001	-1.046526e+001	2.507131e+001	-1.827595e+001	-8.642621e+001
2533102.253	-1.925837e+001	-1.130592e+002	-1.033667e+001	1.903677e+001	-1.033081e+001	1.933771e+001	-1.863075e+001	-9.525431e+001
2557538.995	-2.008801e+001	-1.196611e+002	-1.024415e+001	1.314068e+001	-1.024358e+001	1.337925e+001	-1.890288e+001	-1.042687e+002
2581975.737	-2.110197e+001	-1.263878e+002	-1.017170e+001	7.184621e+000	-1.016316e+001	7.525547e+000	-1.925059e+001	-1.138531e+002
2606412.478	-2.235338e+001	-1.341105e+002	-1.013156e+001	1.365215e+000	-1.014058e+001	1.616800e+000	-1.946313e+001	-1.240374e+002
2630849.220	-2.388655e+001	-1.422752e+002	-1.009663e+001	-4.533645e+000	-1.010156e+001	-4.323642e+000	-1.973332e+001	-1.342707e+002
2655285.962	-2.569433e+001	-1.521623e+002	-1.009803e+001	-1.046370e+001	-1.005906e+001	-1.024558e+001	-2.006876e+001	-1.446720e+002
2679722.704	-2.822762e+001	-1.621481e+002	-1.006329e+001	-1.625205e+001	-1.007922e+001	-1.604254e+001	-2.021279e+001	-1.558570e+002
2704159.445	-3.169273e+001	-1.772076e+002	-1.006990e+001	-2.192192e+001	-1.007078e+001	-2.190109e+001	-2.044036e+001	-1.669072e+002
2728596.187	-3.548034e+001	1.562148e+002	-1.010319e+001	-2.794701e+001	-1.008382e+001	-2.768595e+001	-2.064629e+001	-1.777220e+002
2753032.929	-3.829422e+001	1.020270e+002	-1.012084e+001	-3.368611e+001	-1.010595e+001	-3.346463e+001	-2.080289e+001	1.712068e+002
2777469.671	-3.472388e+001	5.528367e+001	-1.017971e+001	-3.939849e+001	-1.016393e+001	-3.926172e+001	-2.093837e+001	1.612989e+002
2801906.412	-3.132874e+001	3.460060e+001	-1.024442e+001	-4.527745e+001	-1.023745e+001	-4.500373e+001	-2.098480e+001	1.516189e+002
2826343.154	-2.826789e+001	2.259642e+001	-1.035193e+001	-5.069551e+001	-1.032410e+001	-5.062352e+001	-2.103240e+001	1.422794e+002
2850779.896	-2.624921e+001	1.331714e+001	-1.045144e+001	-5.625213e+001	-1.042600e+001	-5.596876e+001	-2.097247e+001	1.331451e+002
2875216.638	-2.455412e+001	5.552982e+000	-1.055909e+001	-6.146961e+001	-1.053382e+001	-6.145597e+001	-2.100604e+001	1.248369e+002
2899653.380	-2.330949e+001	-1.205681e+000	-1.066553e+001	-6.680011e+001	-1.065257e+001	-6.665539e+001	-2.095109e+001	1.165620e+002
2924090.121	-2.227696e+001	-7.756118e+000	-1.076211e+001	-7.192815e+001	-1.076406e+001	-7.180349e+001	-2.093351e+001	1.088114e+002
2948526.863	-2.136339e+001	-1.334116e+001	-1.088284e+001	-7.698663e+001	-1.087544e+001	-7.681490e+001	-2.093658e+001	1.012809e+002
2972963.605	-2.059411e+001	-1.874505e+001	-1.099738e+001	-8.186744e+001	-1.099131e+001	-8.181063e+001	-2.092775e+001	9.455870e+001
2997400.347	-1.994397e+001	-2.422325e+001	-1.108999e+001	-8.666519e+001	-1.109290e+001	-8.656288e+001	-2.092876e+001	8.756623e+001
3021837.088	-1.936960e+001	-2.932574e+001	-1.118534e+001	-9.139886e+001	-1.119727e+001	-9.139955e+001	-2.101434e+001	8.126935e+001
3046273.830	-1.885564e+001	-3.417403e+001	-1.128756e+001	-9.601382e+001	-1.129222e+001	-9.596442e+001	-2.099266e+001	7.483602e+001
3070710.572	-1.844836e+001	-3.871506e+001	-1.137701e+001	-1.006429e+002	-1.137088e+001	-1.005814e+002	-2.110871e+001	6.868242e+001
3095147.314	-1.810139e+001	-4.363799e+001	-1.142237e+001	-1.051494e+002	-1.145258e+001	-1.051043e+002	-2.119028e+001	6.283107e+001
3119584.055	-1.778626e+001	-4.798911e+001	-1.150663e+001	-1.096793e+002	-1.149929e+001	-1.096509e+002	-2.140710e+001	5.671770e+001
3144020.797	-1.756453e+001	-5.264967e+001	-1.151920e+001	-1.142617e+002	-1.155040e+001	-1.141990e+002	-2.164058e+001	5.136937e+001
3168457.539	-1.740973e+001	-5.690113e+001	-1.156356e+001	-1.189102e+002	-1.157701e+001	-1.187870e+002	-2.196807e+001	4.580632e+001
3192894.281	-1.726058e+001	-6.105946e+001	-1.159042e+001	-1.236002e+002	-1.161361e+001	-1.234268e+002	-2.230729e+001	4.124634e+001
3217331.023	-1.717533e+001	-6.496099e+001	-1.161927e+001	-1.282374e+002	-1.163858e+001	-1.280706e+002	-2.275521e+001	3.700965e+001
3241767.764	-1.711777e+001	-6.871168e+001	-1.166236e+001	-1.329465e+002	-1.167642e+001	-1.328254e+002	-2.328655e+001	3.322085e+001
3266204.506	-1.709692e+001	-7.223410e+001	-1.169904e+001	-1.376679e+002	-1.171586e+001	-1.374859e+002	-2.380791e+001	2.991751e+001
3290641.248	-1.705268e+001	-7.549995e+001	-1.173906e+001	-1.422833e+002	-1.176656e+001	-1.421465e+002	-2.429486e+001	2.756333e+001
3315077.990	-1.707251e+001	-7.887694e+001	-1.175042e+001	-1.469455e+002	-1.178612e+001	-1.467333e+002	-2.489473e+001	2.481471e+001
3339514.731	-1.714482e+001	-8.199089e+001	-1.176495e+001	-1.516417e+002	-1.178960e+001	-1.514328e+002	-2.564622e+001	2.290314e+001
3363951.473	-1.726532e+001	-8.485499e+001	-1.178051e+001	-1.565419e+002	-1.181049e+001	-1.562754e+002	-2.658509e+001	2.265269e+001
3388388.215	-1.739952e+001	-8.731862e+001	-1.181121e+001	-1.614507e+002	-1.183199e+001	-1.612619e+002	-2.748996e+001	2.482992e+001
3412824.957	-1.756055e+001	-8.947100e+001	-1.184493e+001	-1.664625e+002	-1.186700e+001	-1.662658e+002	-2.834130e+001	2.901986e+001
3437261.698	-1.773325e+001	-9.112344e+001	-1.189465e+001	-1.714838e+002	-1.192990e+001	-1.713182e+002	-2.876694e+001	3.659233e+001
3461698.440	-1.790451e+001	-9.213456e+001	-1.196179e+001	-1.765441e+002	-1.198802e+001	-1.763610e+002	-2.882000e+001	4.460826e+001
3486135.182	-1.803312e+001	-9.279470e+001	-1.205914e+001	1.784031e+002	-1.207620e+001	1.785513e+002	-2.823968e+001	5.275693e+001
3510571.924	-1.810610e+001	-9.309177e+001	-1.216118e+001	1.734541e+002	-1.217043e+001	1.735877e+002	-2.728624e+001	5.827174e+001
3535008.666	-1.812292e+001	-9.290877e+001	-1.227520e+001	1.685259e+002	-1.230102e+001	1.686327e+002	-2.616347e+001	6.141677e+001
3559445.407	-1.808645e+001	-9.268670e+001	-1.240417e+001	1.637231e+002	-1.243256e+001	1.638281e+002	-2.503705e+001	6.225310e+001
3583882.149	-1.796466e+001	-9.234124e+001	-1.254031e+001	1.589470e+002	-1.257111e+001	1.590988e+002	-2.395102e+001	6.154277e+001
3608318.891	-1.779863e+001	-9.215216e+001	-1.267097e+001	1.542525e+002	-1.269652e+001	1.544314e+002	-2.302189e+001	6.024931e+001
3632755.633	-1.757951e+001	-9.210053e+001	-1.280422e+001	1.496026e+002	-1.284590e+001	1.499148e+002	-2.218667e+001	5.797078e+001
3657192.374	-1.727204e+001	-9.206178e+001	-1.295756e+001	1.450458e+002	-1.298505e+001	1.452501e+002	-2.137560e+001	5.547039e+001
3681629.116	-1.695187e+001	-9.220403e+001	-1.310219e+001	1.404436e+002	-1.312577e+001	1.406830e+002	-2.062880e+001	5.263943e+001
3706065.858	-1.659183e+001	-9.265731e+001	-1.325522e+001	1.358688e+002	-1.329000e+001	1.361851e+002	-1.995349e+001	4.929634e+001
3730502.600	-1.617345e+001	-9.345787e+001	-1.343680e+001	1.313637e+002	-1.346558e+001	1.316141e+002	-1.928691e+001	4.577228e+001
3754939.341	-1.573662e+001	-9.454399e+001	-1.363319e+001	1.269389e+002	-1.367118e+001	1.272439e+002	-1.868809e+001	4.189088e+001
3779376.083	-1.528620e+001	-9.606360e+001	-1.384348e+001	1.226795e+002	-1.389764e+001	1.229980e+002	-1.812215e+001	3.762081e+001
3803812.825	-1.480753e+001	-9.810160e+001	-1.410907e+001	1.186655e+002	-1.412488e+001	1.189914e+002	-1.765760e+001	3.302950e+001
3828249.567	-1.438295e+001	-1.005748e+002	-1.435257e+001	1.149671e+002	-1.436894e+001	1.153500e+002	-1.725511e+001	2.835133e+001
3852686.308	-1.396706e+001	-1.033030e+002	-1.460193e+001	1.114589e+002	-1.459111e+001	1.117201e+002	-1.690383e+001	2.392580e+001
3877123.050	-1.362425e+001	-1.062665e+002	-1.482193e+001	1.082370e+002	-1.482583e+001	1.084068e+002	-1.658230e+001	1.919066e+001
3901559.792	-1.329813e+001	-1.096201e+002	-1.502395e+001	1.055367e+002	-1.508795e+001	1.054833e+002	-1.630110e+001	1.422397e+001
3925996.534	-1.302509e+001	-1.130405e+002	-1.521342e+001	1.030037e+002	-1.529370e+001	1.030465e+002	-1.611960e+001	9.215671e+000
3950433.276	-1.282718e+001	-1.167509e+002	-1.531919e+001	1.009806e+002	-1.547238e+001	1.010378e+002	-1.599137e+001	4.140101e+000
3974870.017	-1.266181e+001	-1.203076e+002	-1.537748e+001	9.889805e+001	-1.552881e+001	9.941399e+001	-1.597478e+001	-8.284501e-001
3999306.759	-1.256044e+001	-1.239119e+002	-1.535791e+001	9.699766e+001	-1.548158e+001	9.763384e+001	-1.602230e+001	-5.262681e+000
4023743.501	-1.252687e+001	-1.271958e+002	-1.523508e+001	9.477959e+001	-1.532526e+001	9.581680e+001	-1.617034e+001	-9.318890e+000
4048180.243	-1.254544e+001	-1.303026e+002	-1.505365e+001	9.233899e+001	-1.510261e+001	9.325466e+001	-1.634565e+001	-1.258271e+001
4072616.984	-1.259802e+001	-1.331124e+002	-1.481570e+001	8.948191e+001	-1.486390e+001	9.030661e+001	-1.651074e+001	-1.543471e+001
4097053.726	-1.265554e+001	-1.353286e+002	-1.457335e+001	8.605188e+001	-1.461068e+001	8.678818e+001	-1.662979e+001	-1.757707e+001
4121490.468	-1.268929e+001	-1.371218e+002	-1.433330e+001	8.208705e+001	-1.437076e+001	8.286449e+001	-1.673610e+001	-1.926178e+001
4145927.210	-1.269865e+001	-1.388185e+002	-1.413700e+001	7.806215e+001	-1.416697e+001	7.857263e+001	-1.673725e+001	-2.056722e+001
4170363.951	-1.266344e+001	-1.402123e+002	-1.395973e+001	7.365036e+001	-1.399917e+001	7.420191e+001	-1.671239e+001	-2.194123e+001
4194800.693	-1.259348e+001	-1.415704e+002	-1.381187e+001	6.915507e+001	-1.385997e+001	6.973109e+001	-1.661420e+001	-2.334651e+001
4219237.435	-1.246223e+001	-1.429299e+002	-1.370181e+001	6.458610e+001	-1.374017e+001	6.507475e+001	-1.646593e+001	-2.475485e+001
4243674.177	-1.231438e+001	-1.444450e+002	-1.361329e+001	5.994410e+001	-1.366867e+001	6.057828e+001	-1.627824e+001	-2.665028e+001
4268110.919	-1.213991e+001	-1.461071e+002	-1.355057e+001	5.538767e+001	-1.360226e+001	5.609227e+001	-1.607732e+001	-2.851166e+001
4292547.660	-1.195346e+001	-1.479983e+002	-1.351131e+001	5.091495e+001	-1.354159e+001	5.155270e+001	-1.587230e+001	-3.066889e+001
4316984.402	-1.176805e+001	-1.500072e+002	-1.346656e+001	4.641810e+001	-1.351521e+001	4.715837e+001	-1.566182e+001	-3.311435e+001
4341421.144	-1.157614e+001	-1.521985e+002	-1.343800e+001	4.203297e+001	-1.348233e+001	4.277307e+001	-1.545304e+001	-3.560997e+001
4365857.886	-1.139766e+001	-1.545302e+002	-1.340619e+001	3.767870e+001	-1.344297e+001	3.839109e+001	-1.526861e+001	-3.820202e+001
4390294.627	-1.121572e+001	-1.570268e+002	-1.339509e+001	3.332475e+001	-1.343025e+001	3.417179e+001	-1.507896e+001	-4.103845e+001
4414731.369	-1.105777e+001	-1.596054e+002	-1.337479e+001	2.909043e+001	-1.341110e+001	2.986903e+001	-1.489232e+001	-4.394689e+001
4439168.111	-1.091440e+001	-1.623364e+002	-1.335069e+001	2.489473e+001	-1.338454e+001	2.560981e+001	-1.473106e+001	-4.686866e+001
4463604.853	-1.078139e+001	-1.650447e+002	-1.333458e+001	2.067988e+001	-1.336192e+001	2.151489e+001	-1.459426e+001	-5.003414e+001
4488041.594	-1.067075e+001	-1.679389e+002	-1.330083e+001	1.659322e+001	-1.332997e+001	1.743402e+001	-1.447239e+001	-5.313657e+001
4512478.336	-1.057930e+001	-1.707864e+002	-1.326056e+001	1.251587e+001	-1.328695e+001	1.342914e+001	-1.436583e+001	-5.626136e+001
4536915.078	-1.049625e+001	-1.736840e+002	-1.322401e+001	8.414744e+000	-1.324036e+001	9.331705e+000	-1.427618e+001	-5.944312e+001
4561351.820	-1.043080e+001	-1.765711e+002	-1.318063e+001	4.281901e+000	-1.318959e+001	5.261656e+000	-1.419538e+001	-6.259196e+001
4585788.562	-1.038317e+001	-1.795876e+002	-1.313488e+001	1.561411e-001	-1.314929e+001	1.082105e+000	-1.411524e+001	-6.572778e+001
4610225.303	-1.035084e+001	1.774312e+002	-1.307964e+001	-3.908984e+000	-1.308594e+001	-2.968423e+000	-1.405075e+001	-6.900076e+001
4634662.045	-1.035060e+001	1.744556e+002	-1.300949e+001	-7.951432e+000	-1.302356e+001	-7.022903e+000	-1.402270e+001	-7.224939e+001
4659098.787	-1.036424e+001	1.715084e+002	-1.292646e+001	-1.201177e+001	-1.292090e+001	-1.107062e+001	-1.402680e+001	-7.535535e+001
4683535.529	-1.037622e+001	1.686567e+002	-1.283586e+001	-1.627895e+001	-1.282698e+001	-1.530114e+001	-1.401749e+001	-7.844919e+001
4707972.270	-1.040554e+001	1.657697e+002	-1.275073e+001	-2.046830e+001	-1.272604e+001	-1.956007e+001	-1.401797e+001	-8.136052e+001
4732409.012	-1.043826e+001	1.628522e+002	-1.266153e+001	-2.486223e+001	-1.262632e+001	-2.394246e+001	-1.402092e+001	-8.435234e+001
4756845.754	-1.048345e+001	1.599932e+002	-1.256156e+001	-2.936877e+001	-1.253965e+001	-2.842361e+001	-1.401868e+001	-8.727913e+001
4781282.496	-1.054218e+001	1.570697e+002	-1.247632e+001	-3.382849e+001	-1.245014e+001	-3.292659e+001	-1.403628e+001	-9.019994e+001
4805719.237	-1.062344e+001	1.541010e+002	-1.239989e+001	-3.835750e+001	-1.236767e+001	-3.754246e+001	-1.404562e+001	-9.317077e+001
4830155.979	-1.071400e+001	1.510989e+002	-1.233476e+001	-4.296274e+001	-1.228530e+001	-4.215560e+001	-1.405573e+001	-9.608348e+001
4854592.721	-1.082512e+001	1.481918e+002	-1.226053e+001	-4.758828e+001	-1.220881e+001	-4.672241e+001	-1.409177e+001	-9.910998e+001
4879029.463	-1.096201e+001	1.452056e+002	-1.219809e+001	-5.219512e+001	-1.214812e+001	-5.137269e+001	-1.411885e+001	-1.021565e+002
4903466.205	-1.111701e+001	1.422937e+002	-1.213897e+001	-5.685043e+001	-1.208362e+001	-5.608497e+001	-1.416022e+001	-1.051733e+002
4927902.946	-1.129838e+001	1.393984e+002	-1.208106e+001	-6.150731e+001	-1.202630e+001	-6.081366e+001	-1.421561e+001	-1.081216e+002
4952339.688	-1.149386e+001	1.364984e+002	-1.203013e+001	-6.623994e+001	-1.197374e+001	-6.552695e+001	-1.426893e+001	-1.111956e+002
4976776.430	-1.171907e+001	1.336502e+002	-1.199058e+001	-7.093591e+001	-1.192947e+001	-7.022665e+001	-1.434145e+001	-1.142150e+002
5001213.172	-1.196676e+001	1.309303e+002	-1.194095e+001	-7.567139e+001	-1.187886e+001	-7.501740e+001	-1.441555e+001	-1.171576e+002
5025649.913	-1.224473e+001	1.282776e+002	-1.190232e+001	-8.039762e+001	-1.184146e+001	-7.980315e+001	-1.450398e+001	-1.202188e+002
5050086.655	-1.254743e+001	1.257578e+002	-1.187037e+001	-8.517822e+001	-1.180121e+001	-8.456610e+001	-1.461362e+001	-1.231239e+002
5074523.397	-1.286855e+001	1.233081e+002	-1.183509e+001	-8.999390e+001	-1.177437e+001	-8.939574e+001	-1.471113e+001	-1.260954e+002
5098960.139	-1.322504e+001	1.210815e+002	-1.181373e+001	-9.469789e+001	-1.174021e+001	-9.419137e+001	-1.482828e+001	-1.289030e+002
5123396.880	-1.359142e+001	1.188638e+002	-1.178891e+001	-9.949938e+001	-1.171473e+001	-9.900618e+001	-1.494057e+001	-1.316964e+002
5147833.622	-1.398763e+001	1.168516e+002	-1.177196e+001	-1.043550e+002	-1.170044e+001	-1.038722e+002	-1.506408e+001	-1.346985e+002
5172270.364	-1.441039e+001	1.149882e+002	-1.176425e+001	-1.091728e+002	-1.169275e+001	-1.087022e+002	-1.519149e+001	-1.375421e+002
5196707.106	-1.486052e+001	1.134395e+002	-1.175904e+001	-1.139234e+002	-1.169225e+001	-1.135111e+002	-1.533085e+001	-1.405411e+002
5221143.847	-1.532697e+001	1.121248e+002	-1.176561e+001	-1.187050e+002	-1.169954e+001	-1.183353e+002	-1.548100e+001	-1.434395e+002
5245580.589	-1.582202e+001	1.111082e+002	-1.176704e+001	-1.234533e+002	-1.170156e+001	-1.231357e+002	-1.563727e+001	-1.462598e+002
5270017.331	-1.632130e+001	1.104432e+002	-1.176554e+001	-1.282407e+002	-1.170289e+001	-1.279243e+002	-1.581058e+001	-1.490970e+002
5294454.073	-1.681276e+001	1.100489e+002	-1.176889e+001	-1.330444e+002	-1.171168e+001	-1.327597e+002	-1.594878e+001	-1.519242e+002
5318890.815	-1.732623e+001	1.099695e+002	-1.177643e+001	-1.378211e+002	-1.172490e+001	-1.374979e+002	-1.613548e+001	-1.547989e+002
5343327.556	-1.781423e+001	1.102208e+002	-1.178785e+001	-1.426578e+002	-1.173222e+001	-1.423434e+002	-1.630050e+001	-1.576014e+002
5367764.298	-1.833456e+001	1.109878e+002	-1.180719e+001	-1.473962e+002	-1.175084e+001	-1.471697e+002	-1.646270e+001	-1.603710e+002
5392201.040	-1.877482e+001	1.119874e+002	-1.181245e+001	-1.522269e+002	-1.177624e+001	-1.519136e+002	-1.664966e+001	-1.632133e+002
5416637.782	-1.921613e+001	1.133061e+002	-1.183496e+001	-1.570301e+002	-1.179235e+001	-1.567745e+002	-1.680699e+001	-1.660203e+002
5441074.523	-1.961835e+001	1.150766e+002	-1.185039e+001	-1.618321e+002	-1.182587e+001	-1.615727e+002	-1.698388e+001	-1.690124e+002
